!PX1004-1 UNMATCHED
# HZ S RI R 50
79800000      0.9406433     -0.3342285     -0.0000043      0.0000393     -0.0000249      0.0000349      0.9422913     -0.3338928
79803000      0.9417725     -0.3339844     -0.0000137      0.0000366      0.0000290      0.0000131      0.9424438     -0.3341980
79806000      0.9414673     -0.3344421      0.0000172     -0.0000492      0.0000449     -0.0000034      0.9422913     -0.3337097
79809000      0.9412231     -0.3344116      0.0000073      0.0000696      0.0000173      0.0000191      0.9426880     -0.3335266
79812000      0.9403687     -0.3344727     -0.0000221      0.0000545      0.0000387      0.0000274      0.9419556     -0.3333130
79815000      0.9410095     -0.3341064      0.0000334     -0.0000108     -0.0000423      0.0000453      0.9425964     -0.3334045
79818000      0.9406433     -0.3346863     -0.0000307      0.0000251      0.0000152      0.0000391      0.9417114     -0.3334961
79821000      0.9408569     -0.3341370     -0.0000041     -0.0000214     -0.0000180      0.0000073      0.9417114     -0.3333435
79824000      0.9410706     -0.3341980      0.0000135      0.0000240      0.0000007      0.0000325      0.9421997     -0.3333740
79827000      0.9414673     -0.3343201     -0.0000273     -0.0000347      0.0000457     -0.0000003      0.9425354     -0.3330994
79830000      0.9413147     -0.3343201      0.0000019      0.0000410      0.0000062     -0.0000014      0.9424744     -0.3340454
79833000      0.9407043     -0.3346252     -0.0000299     -0.0000017      0.0000318      0.0000256      0.9417114     -0.3342285
79836000      0.9408875     -0.3342285      0.0000015      0.0000544      0.0000671      0.0000374      0.9421387     -0.3335876
79839000      0.9411011     -0.3337402      0.0000039     -0.0000259      0.0000041      0.0000481      0.9420471     -0.3333130
79842000      0.9409485     -0.3342285     -0.0000065      0.0000589      0.0000256      0.0000270      0.9421997     -0.3338928
79845000      0.9412537     -0.3345337      0.0000094      0.0000026     -0.0000145      0.0000228      0.9421997     -0.3336487
79848000      0.9416199     -0.3341675      0.0000588     -0.0000171     -0.0000630      0.0000107      0.9419861     -0.3342896
79851000      0.9410095     -0.3344116      0.0000008     -0.0000268     -0.0000235      0.0000117      0.9426270     -0.3340149
79854000      0.9412537     -0.3344727      0.0000033      0.0000482      0.0000173     -0.0000104      0.9421387     -0.3341064
79857000      0.9407959     -0.3348083      0.0000120     -0.0000304      0.0000013      0.0000650      0.9425354     -0.3339539
79860000      0.9407043     -0.3346252     -0.0000047      0.0000526     -0.0000319      0.0000332      0.9424438     -0.3341675
79863000      0.9415283     -0.3342896      0.0000250      0.0000070     -0.0000014      0.0000526      0.9419250     -0.3341370
79866000      0.9413147     -0.3337402      0.0000081      0.0000428     -0.0000367      0.0000408      0.9427490     -0.3334961
79869000      0.9409790     -0.3342590      0.0000474      0.0000471      0.0000498     -0.0000110      0.9418640     -0.3339233
79872000      0.9413757     -0.3344727     -0.0000034      0.0000598      0.0000201      0.0000021      0.9418945     -0.3341064
79875000      0.9414673     -0.3346863      0.0000067     -0.0000116      0.0000179      0.0000515      0.9425659     -0.3335571
79878000      0.9411621     -0.3348083     -0.0000133      0.0000233     -0.0000471      0.0000529      0.9419250     -0.3342590
79881000      0.9416504     -0.3346558     -0.0000086     -0.0000294      0.0000055      0.0000249      0.9417725     -0.3339233
79884000      0.9416199     -0.3354492     -0.0000118      0.0000776      0.0000346     -0.0000207      0.9425354     -0.3342590
79887000      0.9408264     -0.3350830      0.0000019      0.0000410     -0.0000104      0.0000709      0.9424744     -0.3341064
79890000      0.9405518     -0.3344421      0.0000508     -0.0000126     -0.0000083      0.0000214      0.9417114     -0.3341370
79893000      0.9411316     -0.3348694      0.0000304      0.0000356      0.0000256      0.0000270      0.9418335     -0.3340759
79896000      0.9411011     -0.3346863     -0.0000268     -0.0000008     -0.0000042      0.0000401      0.9423218     -0.3334656
79899000      0.9409180     -0.3347473     -0.0000291     -0.0000285     -0.0000166      0.0000135      0.9428406     -0.3343506
79902000      0.9415588     -0.3345947      0.0000099      0.0000365      0.0000021      0.0000093      0.9414673     -0.3339844
79905000      0.9409485     -0.3345642      0.0000193      0.0000392     -0.0000139      0.0000259      0.9420776     -0.3344116
79908000      0.9412537     -0.3351135      0.0000193      0.0000392      0.0000297      0.0000457      0.9419861     -0.3342285
79911000      0.9409485     -0.3346252     -0.0000004      0.0000134      0.0000270      0.0000038      0.9415588     -0.3343506
79914000      0.9407349     -0.3344116      0.0000203      0.0000597     -0.0000028      0.0000463      0.9425659     -0.3338623
79917000      0.9407043     -0.3345642      0.0000163      0.0000856     -0.0000063      0.0000308      0.9422607     -0.3341064
79920000      0.9415588     -0.3347168      0.0000255      0.0000410     -0.0000048      0.0000370      0.9420471     -0.3347778
79923000      0.9416199     -0.3349915     -0.0000197     -0.0000258     -0.0000132      0.0000290      0.9420776     -0.3346252
79926000      0.9414368     -0.3352661      0.0000192     -0.0000081     -0.0000194      0.0000010      0.9420166     -0.3343201
79929000      0.9413452     -0.3349915     -0.0000120      0.0000304     -0.0000062      0.0000308      0.9421387     -0.3339539
79932000      0.9408569     -0.3349915      0.0000387     -0.0000296     -0.0000042      0.0000107      0.9418030     -0.3343811
79935000      0.9411621     -0.3342285     -0.0000125     -0.0000035     -0.0000166     -0.0000159      0.9421082     -0.3341980
79938000      0.9411621     -0.3346252     -0.0000471      0.0000474      0.0000283      0.0000689      0.9416504     -0.3345032
79941000      0.9409180     -0.3347168      0.0000303     -0.0000117      0.0000353      0.0000118      0.9416504     -0.3344116
79944000      0.9410706     -0.3344421      0.0000001      0.0000472      0.0000020      0.0000388      0.9420776     -0.3345642
79947000      0.9410095     -0.3349609     -0.0000250     -0.0000071     -0.0000499      0.0000698      0.9418640     -0.3338623
79950000      0.9406738     -0.3355713      0.0000316     -0.0000046      0.0000297      0.0000163      0.9422913     -0.3338013
79953000      0.9406128     -0.3347778      0.0000516     -0.0000394      0.0000222     -0.0000180      0.9414673     -0.3340454
79956000      0.9411011     -0.3352356      0.0000113      0.0000437     -0.0000395      0.0000577      0.9413147     -0.3345337
79959000      0.9414978     -0.3349609     -0.0000139     -0.0000107     -0.0000727      0.0000552      0.9421082     -0.3352051
79962000      0.9406738     -0.3348999      0.0000069      0.0000829      0.0000117      0.0000235      0.9414978     -0.3347168
79965000      0.9407349     -0.3352661     -0.0000057      0.0000321     -0.0000519      0.0000310      0.9418335     -0.3347168
79968000      0.9403381     -0.3348389     -0.0000334      0.0000108     -0.0000319      0.0000332      0.9419861     -0.3344421
79971000      0.9405212     -0.3347778      0.0000250      0.0000071     -0.0000304      0.0000100      0.9418030     -0.3338623
79974000      0.9407959     -0.3352661     -0.0000084      0.0000179     -0.0000083     -0.0000080      0.9411011     -0.3344116
79977000      0.9411926     -0.3345947      0.0000500      0.0000142     -0.0000027     -0.0000125      0.9414673     -0.3344727
79980000      0.9405823     -0.3351440      0.0000062      0.0000018      0.0000159      0.0000422      0.9419861     -0.3348999
79983000      0.9405212     -0.3354797      0.0000443      0.0000463      0.0000138      0.0000329      0.9419250     -0.3346558
79986000      0.9407043     -0.3353577     -0.0000080      0.0000045     -0.0000062      0.0000014      0.9419556     -0.3347168
79989000      0.9404907     -0.3350220      0.0000127     -0.0000571     -0.0000208      0.0000536      0.9418030     -0.3344116
79992000      0.9411011     -0.3355713      0.0000023      0.0000276      0.0000270     -0.0000255      0.9414063     -0.3348999
79995000      0.9414978     -0.3349915     -0.0000311      0.0000857     -0.0000374      0.0000376      0.9420776     -0.3346252
79998000      0.9411621     -0.3349915      0.0000054      0.0000285     -0.0000271      0.0000256      0.9418640     -0.3346252
80001000      0.9406738     -0.3348389     -0.0000004      0.0000134      0.0000215     -0.0000210      0.9421997     -0.3337402
80004000      0.9408569     -0.3347473     -0.0000414      0.0000153      0.0000331      0.0000319      0.9420471     -0.3341370
80007000      0.9405823     -0.3347473     -0.0000228     -0.0000267     -0.0000374      0.0000376      0.9418945     -0.3353577
80010000      0.9404297     -0.3355103     -0.0000298      0.0000456      0.0000242      0.0000208      0.9422913     -0.3348083
80013000      0.9405518     -0.3352051      0.0000352     -0.0000171      0.0000090      0.0000111      0.9420471     -0.3349609
80016000      0.9407349     -0.3357849      0.0000201      0.0000124      0.0000221      0.0000115      0.9419556     -0.3340759
80019000      0.9407349     -0.3355713      0.0000039     -0.0000259     -0.0000671      0.0000213      0.9418335     -0.3339233
80022000      0.9409790     -0.3346863      0.0000052     -0.0000660      0.0000387      0.0000274      0.9415283     -0.3346252
80025000      0.9403381     -0.3351440      0.0000143     -0.0000027     -0.0000332     -0.0000025      0.9421387     -0.3349609
80028000      0.9404297     -0.3349915     -0.0000347      0.0000509      0.0000235      0.0000177      0.9420471     -0.3345032
80031000      0.9407043     -0.3352356      0.0000117      0.0000303      0.0000082      0.0000374      0.9414978     -0.3345032
80034000      0.9406128     -0.3349609     -0.0000347      0.0000509     -0.0000235      0.0000117      0.9420776     -0.3347168
80037000      0.9409790     -0.3354492      0.0000281      0.0000079      0.0000040      0.0000481      0.9418335     -0.3349609
80040000      0.9412842     -0.3356934     -0.0000018      0.0000062      0.0000201      0.0000021      0.9417419     -0.3349304
80043000      0.9415894     -0.3347473      0.0000054      0.0000285      0.0000048      0.0000218      0.9422302     -0.3344421
80046000      0.9410400     -0.3355408     -0.0000039      0.0000259     -0.0000168      0.0000722      0.9417114     -0.3348389
80049000      0.9412231     -0.3355713      0.0000406      0.0000115     -0.0000222      0.0000179      0.9420776     -0.3348694
80052000      0.9403381     -0.3348694     -0.0000089      0.0000312      0.0000255      0.0000270      0.9415283     -0.3343506
80055000      0.9403992     -0.3357239      0.0000054      0.0000285      0.0000181     -0.0000366      0.9418640     -0.3346252
80058000      0.9407043     -0.3351440      0.0000616      0.0000445     -0.0000029      0.0000463      0.9416809     -0.3348694
80061000      0.9410400     -0.3354492      0.0000094      0.0000027      0.0000193      0.0000284      0.9425049     -0.3353577
80064000      0.9400635     -0.3358765     -0.0000530      0.0000322      0.0000144      0.0000654      0.9418945     -0.3350830
80067000      0.9408264     -0.3360596     -0.0000485      0.0000402      0.0000096      0.0000142      0.9422302     -0.3349915
80070000      0.9407654     -0.3357544     -0.0000052      0.0000660      0.0000055      0.0000249      0.9421082     -0.3345337
80073000      0.9409790     -0.3354187      0.0000441     -0.0000010     -0.0000105      0.0000415      0.9416809     -0.3350830
80076000      0.9407349     -0.3359375      0.0000417      0.0000792     -0.0000167      0.0000428      0.9416199     -0.3350525
80079000      0.9403687     -0.3356628     -0.0000504     -0.0000008      0.0000089      0.0000405      0.9410706     -0.3341675
80082000      0.9407043     -0.3358765      0.0000383     -0.0000162     -0.0000071      0.0000864      0.9419250     -0.3353271
80085000      0.9404602     -0.3352661      0.0000807     -0.0000109      0.0000269      0.0000333      0.9410706     -0.3346863
80088000      0.9408264     -0.3360291      0.0000548      0.0000088     -0.0000091      0.0000477      0.9417114     -0.3347778
80091000      0.9408569     -0.3356628     -0.0000501      0.0000938      0.0000117      0.0000235      0.9411926     -0.3350220
80094000      0.9403381     -0.3355103     -0.0000098      0.0000107     -0.0000318      0.0000037      0.9416199     -0.3347473
80097000      0.9410095     -0.3356018     -0.0000321      0.0000179      0.0000165      0.0000160      0.9417419     -0.3344727
80100000      0.9398804     -0.3352051     -0.0000101      0.0000713     -0.0000222      0.0000473      0.9421387     -0.3345642
80103000      0.9405212     -0.3355713     -0.0000094     -0.0000027      0.0000151      0.0000391      0.9413147     -0.3351746
80106000      0.9405212     -0.3353577      0.0000390      0.0000650      0.0000386      0.0000569      0.9412537     -0.3352966
80109000      0.9406433     -0.3359680      0.0000117      0.0000303     -0.0000242     -0.0000208      0.9421997     -0.3352051
80112000      0.9407959     -0.3349915     -0.0000164      0.0000223     -0.0000167      0.0000428      0.9417419     -0.3348083
80115000      0.9407043     -0.3352661      0.0000510      0.0000819     -0.0000672      0.0000213      0.9424133     -0.3354797
80118000      0.9396362     -0.3357849     -0.0000160      0.0000090      0.0000014      0.0000062      0.9418640     -0.3356018
80121000      0.9404297     -0.3360291      0.0000130      0.0000374     -0.0000271      0.0000549      0.9416199     -0.3354187
80124000      0.9402161     -0.3356323      0.0000103      0.0000231      0.0000450     -0.0000033      0.9416199     -0.3358765
80127000      0.9403381     -0.3353882      0.0000236     -0.0000000      0.0000164      0.0000748      0.9413452     -0.3353577
80130000      0.9399109     -0.3356323     -0.0000000     -0.0000000     -0.0000125      0.0000027      0.9413757     -0.3353882
80133000      0.9402771     -0.3359680      0.0000057     -0.0000321     -0.0000214     -0.0000377      0.9416809     -0.3354187
80136000      0.9402771     -0.3365784     -0.0000280      0.0000393      0.0000090      0.0000111      0.9415283     -0.3350525
80139000      0.9404602     -0.3356018     -0.0000213      0.0000277     -0.0000195      0.0000304      0.9420471     -0.3351135
80142000      0.9402466     -0.3359070      0.0000187      0.0000053      0.0000587      0.0000296      0.9414368     -0.3347168
80145000      0.9407959     -0.3358459      0.0000050      0.0000419     -0.0000291      0.0000162      0.9420166     -0.3358154
80148000      0.9408875     -0.3356934      0.0000187      0.0000053      0.0000242      0.0000208      0.9420166     -0.3354797
80151000      0.9413452     -0.3356018      0.0000005      0.0000339     -0.0000035      0.0000432      0.9414368     -0.3351135
80154000      0.9404297     -0.3354797      0.0000759      0.0000417      0.0000137      0.0000623      0.9413757     -0.3355103
80157000      0.9405212     -0.3360901      0.0000242      0.0000338      0.0000187     -0.0000041      0.9418030     -0.3350525
80160000      0.9405212     -0.3359375      0.0000233      0.0000606     -0.0000139      0.0000259      0.9419861     -0.3354492
80163000      0.9400635     -0.3353882     -0.0000111      0.0000036     -0.0000062      0.0000014      0.9414368     -0.3354492
80166000      0.9407043     -0.3358765     -0.0000058     -0.0000151      0.0000159      0.0000128      0.9418030     -0.3352661
80169000      0.9404602     -0.3360291      0.0000119     -0.0000304      0.0000213      0.0000672      0.9418335     -0.3355103
80172000      0.9409485     -0.3359070      0.0000562      0.0000159      0.0000054      0.0000543      0.9417114     -0.3355103
80175000      0.9406128     -0.3353271      0.0000321     -0.0000179     -0.0000145     -0.0000066      0.9417114     -0.3352051
80178000      0.9410095     -0.3360901      0.0000383     -0.0000161      0.0000304      0.0000194      0.9410706     -0.3349304
80181000      0.9403381     -0.3356934      0.0000054      0.0000285     -0.0000339     -0.0000056      0.9418335     -0.3358459
80184000      0.9403992     -0.3368530     -0.0000345     -0.0000570      0.0000242     -0.0000086      0.9417725     -0.3363953
80187000      0.9402161     -0.3363342      0.0000278      0.0000686     -0.0000071      0.0000571      0.9418030     -0.3359375
80190000      0.9406738     -0.3356628      0.0000424      0.0000525      0.0000060      0.0000574      0.9417114     -0.3353577
80193000      0.9403992     -0.3359375      0.0000081      0.0000428     -0.0000305      0.0000394      0.9416504     -0.3353271
80196000      0.9402161     -0.3368530     -0.0000151      0.0000295     -0.0000104      0.0000121      0.9416199     -0.3358459
80199000      0.9402771     -0.3356323      0.0000366      0.0000373      0.0000621      0.0000451      0.9414368     -0.3350525
80202000      0.9399109     -0.3361511      0.0000273      0.0000347      0.0000795      0.0000055      0.9418640     -0.3356323
80205000      0.9404602     -0.3363037      0.0000013      0.0000071      0.0000116      0.0000530      0.9419861     -0.3352356
80208000      0.9396973     -0.3369141     -0.0000170     -0.0000116      0.0000172      0.0000191      0.9410095     -0.3349304
80211000      0.9403992     -0.3365173      0.0000163      0.0000856      0.0000346      0.0000087      0.9412842     -0.3353577
80214000      0.9405518     -0.3361206      0.0000068      0.0000829      0.0000171      0.0000778      0.9415283     -0.3356323
80217000      0.9405823     -0.3367004      0.0000303     -0.0000116     -0.0000361      0.0000732      0.9411011     -0.3354797
80220000      0.9399719     -0.3350830     -0.0000213      0.0000277      0.0000290      0.0000132      0.9419861     -0.3356628
80223000      0.9403076     -0.3365479     -0.0000057      0.0000321      0.0000386      0.0000274      0.9416199     -0.3352356
80226000      0.9400330     -0.3358459     -0.0000143      0.0000027     -0.0000035      0.0000138      0.9420776     -0.3357544
80229000      0.9407654     -0.3361511     -0.0000017      0.0000535      0.0000316      0.0000551      0.9421692     -0.3353882
80232000      0.9407043     -0.3356934     -0.0000223      0.0000072      0.0000116      0.0000529      0.9415588     -0.3356323
80235000      0.9403381     -0.3367920      0.0000342     -0.0000375      0.0000146     -0.0000228      0.9415588     -0.3359375
80238000      0.9400330     -0.3364868     -0.0000299     -0.0000017     -0.0000589      0.0000292      0.9416199     -0.3358154
80241000      0.9404602     -0.3359680     -0.0000288      0.0000661     -0.0000146      0.0000228      0.9413147     -0.3355713
80244000      0.9400330     -0.3361816      0.0000187      0.0000053     -0.0000318      0.0000037      0.9414368     -0.3359375
80247000      0.9400635     -0.3363342     -0.0000365      0.0000099     -0.0000264      0.0000286      0.9413147     -0.3353882
80250000      0.9407349     -0.3361511     -0.0000026      0.0000330      0.0000546      0.0000109      0.9414063     -0.3356323
80253000      0.9401550     -0.3361511      0.0000348     -0.0000037     -0.0000519      0.0000016      0.9412842     -0.3357849
80256000      0.9404907     -0.3356323      0.0000468     -0.0000340      0.0000014      0.0000062      0.9415894     -0.3356323
80259000      0.9408569     -0.3364258      0.0000183      0.0000187     -0.0000027     -0.0000125      0.9412537     -0.3359680
