!Keysight Technologies,E5080A,MY55200989,A.11.70.00
!Date: Monday, July 01, 2019 10:00:57
!Correction: S11(Full 2 Port(1,2)) 
!S21(Full 2 Port(1,2)) 
!S12(Full 2 Port(1,2)) 
!S22(Full 2 Port(1,2)) 
!S2P File: Measurements: S11, S21, S12, S22:
# Hz S  dB   R 50
85350000 -2.9626012 160.71674 -84.482628 23.359808 -92.789833 1.2551214 -3.0395086 139.3259
85351875 -2.9733591 160.64912 -86.490105 61.856094 -84.477966 24.064486 -3.0304883 139.31784
85353750 -2.9657609 160.63467 -90.115768 -3.8149459 -83.963867 -8.5937767 -3.0356562 139.263
85355625 -2.9742818 160.61621 -84.291679 3.4367936 -83.833 60.490963 -3.0332742 139.27191
85357500 -2.9757187 160.53352 -82.493202 11.696776 -81.555527 3.2070251 -3.0341604 139.14191
85359375 -2.9743273 160.52849 -80.600746 -27.187426 -81.151535 -7.8693881 -3.0337355 139.10292
85361250 -2.972512 160.5043 -82.525215 -10.057713 -77.807396 -1.1240007 -3.0357535 139.09767
85363125 -2.9681971 160.43433 -84.883316 5.5485229 -84.051987 1.1324931 -3.0366821 139.09923
85365000 -2.9740765 160.40376 -82.242714 -7.487103 -78.611771 3.0130718 -3.0256307 138.98659
85366875 -2.9637222 160.40698 -80.324326 -61.557751 -84.267227 1.555739 -3.0410748 138.94955
85368750 -2.9659119 160.35367 -90.537704 0.98546261 -79.198456 -33.012177 -3.0346761 138.94421
85370625 -2.9657753 160.30357 -80.980141 -10.325037 -79.939178 -21.051065 -3.0321722 138.8945
85372500 -2.9724669 160.2648 -79.605331 -4.3057952 -80.913696 -36.059772 -3.0319374 138.80765
85374375 -2.9758832 160.21814 -83.097679 -26.257338 -85.932671 0.77573311 -3.0397959 138.82707
85376250 -2.9682148 160.15425 -79.851036 13.799819 -89.882751 -50.265865 -3.0229666 138.76793
85378125 -2.976949 160.16476 -81.910103 6.2279472 -80.016281 -26.539049 -3.0251691 138.75024
85380000 -2.9816537 160.16113 -80.782097 -14.78627 -77.198166 -1.6988033 -3.0349927 138.72626
85381875 -2.9822948 160.03972 -82.450836 -18.691738 -80.481331 -1.4953029 -3.0345626 138.6647
85383750 -2.9811335 160.02325 -82.596657 -34.320435 -80.242905 -25.685486 -3.0395899 138.54156
85385625 -2.9746811 160.00056 -79.64463 -21.529999 -80.360794 -17.99382 -3.0317602 138.60675
85387500 -2.9715276 159.90808 -77.16259 0.54289913 -80.843086 -2.9155903 -3.0298111 138.5605
85389375 -2.9811099 159.95862 -78.011589 -14.923964 -82.127708 33.125259 -3.0290682 138.43021
85391250 -2.9731832 159.88078 -80.516975 9.7764235 -81.164818 -22.66576 -3.0373876 138.48451
85393125 -2.981118 159.82466 -79.057549 -23.414354 -78.733704 9.3871889 -3.0299406 138.39525
85395000 -2.9759369 159.82576 -78.759308 -22.323774 -78.789879 -9.7511272 -3.0321054 138.37144
85396875 -2.9813797 159.76765 -77.324516 -2.2602279 -80.043968 -2.7647605 -3.0315011 138.30498
85398750 -2.9750254 159.72205 -78.897491 -15.133454 -78.146164 -38.451725 -3.0338783 138.26941
85400625 -2.977963 159.71796 -78.870598 -24.334669 -79.651009 -35.287182 -3.0282648 138.2579
85402500 -2.9839551 159.69591 -77.946274 -2.9103906 -77.560318 -38.991676 -3.02861 138.2401
85404375 -2.9791846 159.63498 -79.915459 -20.368927 -77.861816 -25.062296 -3.0341506 138.13576
85406250 -2.9744933 159.61038 -78.268829 -29.22319 -79.305962 -18.462318 -3.0386052 138.15213
85408125 -2.9864111 159.54398 -78.086479 -20.80847 -80.644333 -33.525974 -3.0405967 138.08733
85410000 -2.9766986 159.58916 -79.915245 -25.0252 -78.259598 -14.206879 -3.0299387 138.09396
85411875 -2.9683487 159.47644 -77.285057 -19.431597 -83.463127 -34.404655 -3.0296292 137.98947
85413750 -2.9822879 159.48022 -76.316681 -9.8290243 -77.116089 -32.297375 -3.0427108 138.03058
85415625 -2.9762824 159.37262 -75.475723 -47.133888 -77.085594 -26.275074 -3.042542 137.91878
85417500 -2.9852149 159.39452 -79.183182 -31.861874 -81.612732 -42.969391 -3.0418396 137.87389
85419375 -2.9796331 159.35031 -80.596558 -49.814247 -77.766037 -30.22356 -3.0406802 137.87354
85421250 -2.9851227 159.28914 -83.317856 -45.192173 -77.72728 -36.723381 -3.0386221 137.80843
85423125 -2.9812138 159.2428 -75.763161 -33.964058 -80.268028 -39.062325 -3.0399048 137.76572
85425000 -2.9823377 159.24281 -80.699966 -65.523613 -79.729263 -29.091074 -3.0400767 137.73947
85426875 -2.9866946 159.20039 -77.855888 -18.937647 -76.241959 -49.190945 -3.04738 137.6804
85428750 -2.9821305 159.17317 -74.978561 -48.510693 -77.39341 -32.27969 -3.0432811 137.65686
85430625 -2.9900494 159.14801 -75.803291 -33.059513 -77.728546 -47.893806 -3.0348315 137.56805
85432500 -2.9854093 159.10515 -77.641388 -34.894131 -78.240372 -57.142124 -3.0418606 137.53578
85434375 -2.9779856 159.04051 -77.934265 -51.477242 -80.252563 -33.919579 -3.0454903 137.48065
85436250 -2.9952235 158.98845 -78.114197 -56.3423 -77.735779 -59.267349 -3.039994 137.49812
85438125 -2.9795859 158.92667 -80.89463 -39.786217 -76.628288 -43.602573 -3.0408087 137.39215
85440000 -2.9897594 158.95172 -81.976242 -44.470455 -78.248642 -65.395187 -3.0409837 137.43483
85441875 -2.9936099 158.91602 -80.550674 -56.128868 -75.976135 4.1912346 -3.0428145 137.33809
85443750 -2.9813716 158.83257 -77.568741 -14.069947 -78.099525 -66.80336 -3.0426352 137.33722
85445625 -2.9902258 158.78192 -81.161697 -33.022457 -76.840073 -45.324203 -3.0507617 137.31772
85447500 -2.9921501 158.73845 -81.650642 -57.200226 -80.098358 -49.171375 -3.0538375 137.23885
85449375 -2.9903913 158.69476 -78.014107 -29.068548 -80.153015 -80.605301 -3.047888 137.13771
85451250 -2.9925613 158.67928 -80.383896 -36.750748 -79.887405 -34.693409 -3.0527189 137.17917
85453125 -2.9924095 158.63237 -77.800095 -61.053238 -77.008217 -78.574554 -3.0570762 136.95255
85455000 -3.0020068 158.54999 -83.778152 -41.872917 -81.110458 -21.813444 -3.0458846 137.06244
85456875 -2.9918385 158.56863 -84.498909 -35.911682 -78.340767 -55.936081 -3.050175 137.0134
85458750 -2.9953876 158.4875 -83.485039 -68.209625 -81.412842 -54.726017 -3.0555091 137.00195
85460625 -2.9972293 158.50114 -83.176247 -66.646706 -81.535995 -71.916916 -3.0453575 136.94043
85462500 -2.9905949 158.45309 -82.469513 -63.384377 -86.830879 -15.111385 -3.0593271 136.85727
85464375 -2.9913676 158.32379 -80.079636 -77.121078 -78.467361 -101.11884 -3.0534956 136.80846
85466250 -3.0012691 158.32159 -87.716385 -105.65601 -89.880653 -56.860733 -3.0589409 136.75894
85468125 -3.0025482 158.27882 -82.345871 -34.265034 -82.268127 -65.680962 -3.0501194 136.75096
85470000 -2.9965179 158.30922 -80.610489 -17.334179 -83.222794 -48.501312 -3.0627308 136.68636
85471875 -2.9995642 158.27214 -85.097763 -9.5978975 -79.945389 -74.586685 -3.0506194 136.67354
85473750 -3.0047398 158.16457 -86.839928 -31.963783 -85.144417 -35.766106 -3.0504045 136.61635
85475625 -2.9934556 158.16788 -86.812584 -64.067169 -82.957245 -52.429424 -3.0585263 136.58006
85477500 -2.9913666 158.08032 -91.016357 -49.126049 -84.23336 -33.711315 -3.0518746 136.56709
85479375 -3.0064089 158.04852 -83.677643 -22.437977 -82.599716 -72.341415 -3.0492289 136.49727
85481250 -3.0027978 158.01775 -85.846268 -95.820961 -83.503738 -36.942825 -3.0581739 136.45978
85483125 -3.0050058 158.01302 -82.369965 -3.3145792 -85.868134 -53.985291 -3.057138 136.44785
85485000 -3.0009286 157.87015 -79.2006 -16.051044 -82.973106 -27.779387 -3.0578182 136.3764
85486875 -2.9992192 157.97987 -83.287582 -30.043489 -82.096207 13.342578 -3.0687184 136.36142
85488750 -3.0042686 157.85674 -81.355492 -2.2921963 -83.826508 -44.47979 -3.0659313 136.2953
85490625 -2.9954245 157.81366 -81.751602 15.457652 -77.671043 -5.8340631 -3.053143 136.2412
85492500 -2.9990091 157.7551 -83.254997 13.115085 -78.069679 -3.388078 -3.06286 136.25186
85494375 -2.9997356 157.67094 -80.376259 4.0200005 -79.851631 -10.318092 -3.061522 136.18677
85496250 -3.0045826 157.67122 -79.504471 10.989474 -77.291557 -17.44315 -3.0504713 136.14265
85498125 -3.0057778 157.65848 -77.182335 12.203659 -77.600685 -9.6170845 -3.0589013 136.12653
85500000 -3.0076804 157.57526 -78.005539 1.2630566 -78.636353 -7.8626409 -3.0548391 136.03915
85501875 -3.0093324 157.51115 -80.786774 -20.422338 -77.969116 -18.904114 -3.0570388 136.04233
85503750 -3.0105555 157.4846 -77.889191 -7.4374108 -77.625671 -2.4465499 -3.0606954 136.0135
85505625 -3.0113008 157.45923 -79.323311 -13.04112 -79.045883 -9.9808207 -3.05285 135.92943
85507500 -3.0214248 157.40573 -76.713341 -4.8024311 -76.627007 4.4380255 -3.0611386 135.88272
85509375 -3.0099676 157.36967 -78.51738 -1.7793614 -76.248993 -19.618874 -3.0638154 135.82303
85511250 -3.0172045 157.29694 -79.883698 -28.97673 -77.525963 -2.1965201 -3.0618911 135.80266
85513125 -3.0144093 157.27866 -76.636993 -11.050497 -74.942123 -39.536663 -3.0591059 135.82686
85515000 -3.0247364 157.21352 -75.574959 -13.699377 -78.886871 -14.052366 -3.0684156 135.69739
85516875 -3.0168009 157.22043 -74.845894 -16.69643 -76.633408 -31.809175 -3.0665817 135.6817
85518750 -3.0239198 157.10384 -74.911079 -30.951351 -75.590157 -24.310951 -3.0718682 135.63187
85520625 -3.0196469 157.05428 -76.36554 -34.39653 -73.579643 -18.50667 -3.0601826 135.54889
85522500 -3.0202076 157.04199 -75.802307 -16.621538 -74.528282 -12.770288 -3.0736382 135.55029
85524375 -3.0156069 157.03659 -75.863289 -55.955326 -78.655449 -19.203838 -3.0685339 135.5343
85526250 -3.0215342 156.97696 -74.195267 -30.59576 -77.364212 -17.957491 -3.0686672 135.45271
85528125 -3.0197566 156.87932 -76.865738 -25.005173 -74.949638 -43.529442 -3.0792091 135.42786
85530000 -3.0221314 156.86481 -78.403183 -25.748983 -77.911385 -32.764927 -3.0636601 135.42003
85531875 -3.0157039 156.81169 -76.654945 -20.714785 -75.566963 -25.695478 -3.0735142 135.34032
85533750 -3.0196311 156.76991 -77.536087 -15.608381 -73.849953 -22.392136 -3.0841095 135.26921
85535625 -3.0185516 156.72076 -73.551353 -29.523634 -75.363113 -27.325542 -3.0625689 135.30872
85537500 -3.0247023 156.68385 -77.915833 -28.268435 -74.431442 -26.696842 -3.0790985 135.19481
85539375 -3.0237927 156.70183 -75.260994 -37.600349 -75.804939 -51.610817 -3.0750782 135.21031
85541250 -3.0276091 156.56816 -74.184563 -18.933487 -73.673485 -29.870152 -3.0823951 135.13188
85543125 -3.0330431 156.55428 -74.503662 -36.852711 -74.588394 -18.043039 -3.0737467 135.0535
85545000 -3.0378299 156.53355 -75.982613 -31.256163 -77.648949 -24.590565 -3.0726936 135.02888
85546875 -3.0372999 156.48158 -78.72924 -29.130508 -76.0756 -35.204048 -3.0833914 135.00047
85548750 -3.0317869 156.45973 -74.784767 -37.383705 -75.451546 -33.458431 -3.0755107 134.98375
85550625 -3.0382607 156.38455 -73.958267 -53.907318 -74.49086 -24.256645 -3.085366 134.90663
85552500 -3.0338364 156.41292 -75.782669 -25.02689 -73.9981 -50.131107 -3.0863802 134.9433
85554375 -3.047179 156.36304 -75.63192 -34.349419 -74.480156 -33.125889 -3.084137 134.84201
85556250 -3.0504308 156.25017 -75.232079 -41.900669 -77.666054 -8.2243567 -3.0796909 134.83292
85558125 -3.0446403 156.20148 -74.060921 -36.965019 -73.965187 -35.153004 -3.0816326 134.7114
85560000 -3.0372896 156.16434 -74.244339 -33.105232 -75.442101 -24.906633 -3.0776024 134.68802
85561875 -3.0437064 156.09688 -74.351105 -37.332024 -75.447594 -33.495964 -3.0820739 134.63051
85563750 -3.0481536 156.0977 -76.291794 -31.825071 -75.721672 -24.017868 -3.08448 134.6842
85565625 -3.0405824 156.09088 -73.07531 -17.678333 -77.575439 -31.540377 -3.0917637 134.65242
85567500 -3.0487671 156.04916 -74.623444 -26.931278 -75.140503 -34.533066 -3.0905645 134.50735
85569375 -3.0454214 156.04224 -73.70314 -1.8057799 -74.733536 -23.471876 -3.0935378 134.4731
85571250 -3.0546412 155.89801 -74.708984 -25.958496 -77.14444 -31.443569 -3.0901096 134.48174
85573125 -3.0584216 155.97095 -74.972389 -44.056225 -73.942467 -37.62674 -3.0889585 134.41345
85575000 -3.0503855 155.91116 -73.762894 -27.781816 -75.764183 -27.63946 -3.0941274 134.38156
85576875 -3.0639586 155.88783 -73.857925 -29.508722 -76.220306 -31.271004 -3.0935431 134.34937
85578750 -3.0594773 155.83243 -74.229744 -22.540739 -74.63829 -21.775059 -3.1009898 134.28838
85580625 -3.0602419 155.78114 -75.201836 -37.923302 -72.377167 -24.334814 -3.0980301 134.25764
85582500 -3.0555844 155.71892 -73.249832 -35.123775 -72.398499 -34.952568 -3.0990911 134.2473
85584375 -3.0777872 155.72954 -73.621651 -31.397058 -73.334846 -35.667206 -3.1100755 134.15178
85586250 -3.0702627 155.67691 -72.496216 -31.729223 -73.255341 -32.263454 -3.1114168 134.09644
85588125 -3.0704625 155.71245 -74.956024 -29.94985 -73.585655 -17.813728 -3.1001668 134.08699
85590000 -3.0757029 155.61232 -71.078514 -38.885288 -72.759094 -37.009892 -3.1067574 134.05122
85591875 -3.0776715 155.56026 -72.707558 -36.871685 -71.962112 -35.206573 -3.108496 133.9268
85593750 -3.0782142 155.52992 -72.491768 -24.328749 -72.032463 -29.397615 -3.1049962 133.97517
85595625 -3.0810642 155.46324 -72.324356 -32.581738 -72.491577 -35.79047 -3.1115344 133.9644
85597500 -3.0854969 155.43562 -73.440262 -48.23476 -71.576866 -24.710688 -3.1087792 133.83867
85599375 -3.0820587 155.43802 -71.890053 -46.742092 -70.986145 -40.716293 -3.1209536 133.84454
85601250 -3.0814986 155.34247 -72.267181 -38.850346 -74.900177 -56.36697 -3.1219578 133.88408
85603125 -3.0835466 155.32426 -71.153618 -43.968227 -71.500153 -43.08448 -3.1266174 133.80583
85605000 -3.0902865 155.35023 -71.79715 -48.012558 -71.18203 -46.08823 -3.1244631 133.78928
85606875 -3.085737 155.29857 -73.013313 -49.012783 -73.459091 -50.670444 -3.1260765 133.69434
85608750 -3.0943241 155.20567 -71.554947 -49.87122 -70.544968 -56.320057 -3.1280673 133.71129
85610625 -3.0949192 155.20636 -71.74942 -49.961098 -70.86911 -45.682709 -3.1235619 133.71683
85612500 -3.0995104 155.21997 -71.423576 -46.114967 -73.133804 -47.322449 -3.1245403 133.62534
85614375 -3.0902934 155.15395 -72.844536 -61.738205 -70.965317 -56.402523 -3.1312571 133.6067
85616250 -3.1082091 155.13554 -70.648392 -57.353912 -71.368652 -62.228359 -3.1366894 133.56084
85618125 -3.0922747 155.10358 -71.275925 -55.944244 -71.949379 -69.417305 -3.1296625 133.50673
85620000 -3.0911114 155.05846 -73.483902 -62.274368 -71.351936 -75.913254 -3.1386483 133.57498
85621875 -3.0993531 154.99734 -71.215981 -59.237637 -73.253395 -67.021408 -3.1399574 133.47034
85623750 -3.1067657 155.00113 -72.78299 -54.645184 -70.915695 -55.852081 -3.1388896 133.48529
85625625 -3.1120257 154.91545 -71.338303 -62.972881 -71.637169 -72.850197 -3.1380372 133.44815
85627500 -3.1069531 154.93402 -73.059502 -75.348106 -71.739693 -80.449974 -3.1374528 133.34991
85629375 -3.1005645 154.89224 -73.241615 -71.69783 -70.767975 -82.332062 -3.1401675 133.30716
85631250 -3.1136088 154.88968 -72.593811 -75.294426 -73.062103 -67.07991 -3.1418333 133.35199
85633125 -3.1094534 154.83661 -72.837105 -74.210663 -70.744522 -69.214592 -3.1472216 133.29788
85635000 -3.104218 154.78831 -75.048172 -80.762039 -72.03727 -76.896706 -3.1423495 133.23807
85636875 -3.1045182 154.71718 -72.637947 -73.140999 -73.125496 -65.635529 -3.148639 133.26996
85638750 -3.1112728 154.71097 -72.120743 -70.761124 -71.947548 -80.530678 -3.1420896 133.18394
85640625 -3.1078296 154.70248 -72.780151 -74.536713 -75.316177 -64.737862 -3.1430168 133.2168
85642500 -3.1083076 154.63831 -73.334511 -58.499779 -74.576805 -83.410545 -3.1488667 133.09552
85644375 -3.1102765 154.63165 -72.509254 -79.660492 -73.588486 -83.840706 -3.1441326 133.19339
85646250 -3.1163518 154.60181 -73.055725 -88.294579 -73.622383 -70.910263 -3.1393542 133.09726
85648125 -3.1098559 154.54269 -73.907898 -85.245781 -73.431549 -101.05567 -3.1457849 132.97224
85650000 -3.1205261 154.50816 -75.116508 -87.019478 -73.572922 -79.216469 -3.1363287 133.05252
85651875 -3.1132987 154.496 -74.207085 -83.673424 -74.750427 -78.306915 -3.1485395 132.99825
85653750 -3.1217821 154.46445 -74.536087 -75.341034 -75.28598 -80.677971 -3.1544757 132.90984
85655625 -3.1228755 154.36043 -74.004173 -89.222435 -74.618103 -92.614326 -3.1538312 132.94446
85657500 -3.1254952 154.38464 -76.042168 -100.98204 -77.933617 -90.693604 -3.1533492 132.87593
85659375 -3.1181693 154.35376 -79.788902 -103.87368 -73.813507 -96.978813 -3.14552 132.81726
85661250 -3.1223698 154.33606 -75.418526 -84.225525 -77.750847 -66.811829 -3.1515112 132.84454
85663125 -3.1232917 154.29736 -77.024269 -98.796829 -75.509995 -93.834053 -3.1578271 132.83539
85665000 -3.1271479 154.23749 -79.047226 -86.375137 -79.814201 -89.120232 -3.1557593 132.79134
85666875 -3.1328912 154.21564 -79.450844 -90.128571 -79.343536 -85.506836 -3.1522841 132.78519
85668750 -3.1218007 154.23752 -81.983307 -95.366798 -78.707695 -89.733917 -3.1577604 132.71603
85670625 -3.1223931 154.13644 -89.923645 -75.139732 -74.95546 -85.387573 -3.1543651 132.71555
85672500 -3.127387 154.12495 -78.967972 -95.093597 -82.646187 -71.526939 -3.1533906 132.70003
85674375 -3.1285539 154.08781 -82.859306 -62.928261 -77.073952 -116.16956 -3.1582778 132.60516
85676250 -3.1275647 154.08276 -79.641663 -33.241974 -77.98764 -66.463394 -3.1585565 132.64044
85678125 -3.1320989 153.99414 -78.073181 -68.499794 -76.926445 -80.060921 -3.1541667 132.54257
85680000 -3.1419239 154.04753 -79.410469 -50.341911 -78.853371 -52.203472 -3.152132 132.58896
85681875 -3.1278307 154.02541 -82.067688 -49.539627 -76.89817 -58.917542 -3.1527519 132.49655
85683750 -3.1318622 153.89592 -78.117882 -22.589865 -74.016983 -44.77132 -3.15099 132.51448
85685625 -3.1363471 153.9068 -78.567528 -35.420803 -79.561897 -33.57196 -3.1503098 132.4352
85687500 -3.1280453 153.92877 -76.282051 -49.690472 -76.560905 -47.161064 -3.156152 132.4399
85689375 -3.1326673 153.84612 -75.445206 -45.310005 -78.495071 -55.03894 -3.1584196 132.40907
85691250 -3.1430354 153.8486 -74.435165 -30.808905 -77.446754 -52.681946 -3.1562977 132.34265
85693125 -3.1456068 153.8158 -74.673996 -19.618244 -77.737907 -37.554897 -3.1666007 132.32707
85695000 -3.1429975 153.76939 -75.625031 -46.938953 -72.870888 -47.113106 -3.1581001 132.25676
85696875 -3.1499746 153.77773 -72.411812 -40.285801 -75.954109 -66.356781 -3.1563008 132.26056
85698750 -3.1473467 153.75697 -74.943863 -37.765129 -75.430893 -43.196758 -3.1570971 132.26984
85700625 -3.1373303 153.74588 -75.628304 -55.703915 -73.661591 -48.898075 -3.1609178 132.24957
85702500 -3.1452394 153.76588 -73.9561 -41.050709 -72.253632 -55.231514 -3.1630988 132.19601
85704375 -3.1482906 153.62866 -74.991432 -57.63501 -74.519508 -52.45871 -3.1641624 132.12909
85706250 -3.1430764 153.65538 -73.203285 -48.765011 -76.139168 -54.749905 -3.1590858 132.13708
85708125 -3.1365829 153.63089 -74.623428 -58.358536 -72.489494 -62.686787 -3.1595371 132.08536
85710000 -3.1435463 153.60811 -72.551537 -62.558952 -74.14241 -44.578461 -3.1573646 132.06654
85711875 -3.1422908 153.61287 -71.800964 -53.822987 -72.998672 -51.064648 -3.1664636 132.04439
85713750 -3.1329989 153.59474 -70.063507 -64.491737 -73.577225 -53.668533 -3.1547825 132.00595
85715625 -3.1396627 153.54237 -72.541206 -59.450554 -72.975311 -60.585133 -3.1517475 132.00027
85717500 -3.1374927 153.528 -71.833961 -71.276474 -72.791946 -57.513397 -3.1573834 132.02586
85719375 -3.1369798 153.42606 -72.012932 -67.042633 -71.740234 -62.520008 -3.1542523 131.94743
85721250 -3.1434007 153.53638 -70.311096 -72.294434 -72.61731 -69.615639 -3.1485329 131.94997
85723125 -3.1329911 153.42108 -71.680481 -75.968651 -71.632813 -78.069763 -3.1629975 131.89217
85725000 -3.1321199 153.41461 -73.462296 -86.176636 -71.440094 -72.436676 -3.1474459 131.89587
85726875 -3.1288412 153.3909 -70.916115 -79.096268 -72.803818 -67.443451 -3.1398096 131.90744
85728750 -3.1268487 153.31995 -71.096336 -84.160896 -71.640289 -81.111778 -3.1417139 131.86522
85730625 -3.127672 153.31117 -71.6362 -78.800079 -72.333748 -91.939354 -3.1483276 131.83913
85732500 -3.1237729 153.27734 -72.645935 -92.174057 -72.42067 -68.621452 -3.1399953 131.7731
85734375 -3.1190112 153.26791 -74.767586 -78.543137 -72.9478 -80.72142 -3.137903 131.8148
85736250 -3.1265545 153.22089 -72.526123 -83.611656 -73.056511 -84.473228 -3.1325071 131.77327
85738125 -3.116807 153.18051 -73.573128 -80.907341 -73.002151 -83.166779 -3.1329515 131.75398
85740000 -3.1146603 153.16115 -73.077164 -85.873856 -73.216721 -84.455635 -3.1273057 131.62637
