!PX1004-1 MATCHED
# HZ S RI R 50
79800000     -0.3538818     -0.8096924      0.0002175     -0.0001040      0.0002143     -0.0000208     -0.4914551     -0.7215576
79803000     -0.3543701     -0.8101807      0.0002667     -0.0000766      0.0002696     -0.0000536     -0.4918213     -0.7211914
79806000     -0.3543701     -0.8092041      0.0002499     -0.0000909      0.0002159     -0.0000301     -0.4929199     -0.7205811
79809000     -0.3548584     -0.8093262      0.0002753     -0.0000694      0.0002597     -0.0000610     -0.4926758     -0.7199707
79812000     -0.3558350     -0.8092041      0.0002556     -0.0000250      0.0002595     -0.0000611     -0.4936523     -0.7197266
79815000     -0.3557129     -0.8094482      0.0001950     -0.0000941      0.0002201     -0.0001217     -0.4937744     -0.7197266
79818000     -0.3559570     -0.8085938      0.0001870     -0.0000975      0.0002817     -0.0000558     -0.4943848     -0.7193604
79821000     -0.3575439     -0.8082275      0.0002512     -0.0000796      0.0002455     -0.0001133     -0.4946289     -0.7185059
79824000     -0.3571777     -0.8084717      0.0002085     -0.0000251      0.0002795     -0.0001096     -0.4952393     -0.7178955
79827000     -0.3572998     -0.8079834      0.0001521     -0.0000477      0.0002375     -0.0000669     -0.4957275     -0.7181396
79830000     -0.3579102     -0.8078613      0.0002001     -0.0001261      0.0001940     -0.0000359     -0.4962158     -0.7170410
79833000     -0.3585205     -0.8071289      0.0001813     -0.0000736      0.0001899     -0.0001018     -0.4964600     -0.7167969
79836000     -0.3586426     -0.8076172      0.0002397     -0.0001215      0.0001886     -0.0000715     -0.4971924     -0.7165527
79839000     -0.3591309     -0.8072510      0.0002388     -0.0000393      0.0002518     -0.0000147     -0.4973145     -0.7156982
79842000     -0.3599854     -0.8068848      0.0002362     -0.0000702      0.0002761     -0.0001121     -0.4984131     -0.7155762
79845000     -0.3604736     -0.8067627      0.0001769     -0.0000343      0.0002609     -0.0001130     -0.4985352     -0.7150879
79848000     -0.3602295     -0.8065186      0.0002446     -0.0000635      0.0001986     -0.0000851     -0.4989014     -0.7142334
79851000     -0.3613281     -0.8061523      0.0002501     -0.0000949      0.0001907     -0.0000385     -0.4993896     -0.7149658
79854000     -0.3619385     -0.8056641      0.0002169     -0.0000221      0.0002450     -0.0000408     -0.5001221     -0.7142334
79857000     -0.3623047     -0.8046875      0.0002127     -0.0000723      0.0002446     -0.0000621     -0.5004883     -0.7138672
79860000     -0.3623047     -0.8048096      0.0001580     -0.0000717      0.0003054     -0.0001016     -0.5008545     -0.7130127
79863000     -0.3624268     -0.8048096      0.0001895     -0.0000705      0.0002834     -0.0000862     -0.5013428     -0.7130127
79866000     -0.3631592     -0.8054199      0.0001650     -0.0000841      0.0001702     -0.0000746     -0.5018311     -0.7130127
79869000     -0.3636475     -0.8045654      0.0002047     -0.0000757      0.0002634     -0.0000589     -0.5021973     -0.7121582
79872000     -0.3643799     -0.8045654      0.0002631     -0.0001239      0.0002307     -0.0001145     -0.5025635     -0.7119141
79875000     -0.3651123     -0.8041992      0.0002312     -0.0001327      0.0002392     -0.0000975     -0.5021973     -0.7109375
79878000     -0.3656006     -0.8037109      0.0002141     -0.0000570      0.0002110     -0.0000449     -0.5032959     -0.7111816
79881000     -0.3662109     -0.8035889      0.0001985     -0.0000558      0.0002376     -0.0001095     -0.5040283     -0.7100830
79884000     -0.3664551     -0.8034668      0.0002306     -0.0000469      0.0002368     -0.0000365     -0.5046387     -0.7102051
79887000     -0.3671875     -0.8027344      0.0001832     -0.0000546      0.0002603     -0.0000404     -0.5052490     -0.7097168
79890000     -0.3665771     -0.8029785      0.0001605     -0.0000446      0.0002907     -0.0000602     -0.5052490     -0.7088623
79893000     -0.3680420     -0.8023682      0.0002202     -0.0000774      0.0002387     -0.0001404     -0.5059814     -0.7095947
79896000     -0.3684082     -0.8027344      0.0002598     -0.0000727      0.0003040     -0.0000715     -0.5063477     -0.7086182
79899000     -0.3679199     -0.8021240      0.0001990     -0.0000520      0.0002620     -0.0000499     -0.5073242     -0.7077637
79902000     -0.3687744     -0.8017578      0.0001941     -0.0001101      0.0002128     -0.0000543     -0.5067139     -0.7072754
79905000     -0.3696289     -0.8010254      0.0002122     -0.0000804      0.0002169     -0.0000095     -0.5083008     -0.7070313
79908000     -0.3698730     -0.8007813      0.0002118     -0.0000843      0.0002341     -0.0001123     -0.5086670     -0.7066650
79911000     -0.3697510     -0.8009033      0.0003092     -0.0000454      0.0002504     -0.0000269     -0.5086670     -0.7055664
79914000     -0.3698730     -0.8006592      0.0002511     -0.0000837      0.0002082     -0.0000264     -0.5091553     -0.7058105
79917000     -0.3707275     -0.8001709      0.0002357     -0.0000824      0.0002235     -0.0000258     -0.5096436     -0.7054443
79920000     -0.3715820     -0.8005371      0.0002053     -0.0000721      0.0001949     -0.0001306     -0.5095215     -0.7044678
79923000     -0.3721924     -0.7996826      0.0001951     -0.0000987      0.0002252     -0.0000350     -0.5104980     -0.7042236
79926000     -0.3728027     -0.7990723      0.0002605     -0.0000650      0.0001924     -0.0000695     -0.5111084     -0.7041016
79929000     -0.3724365     -0.7993164      0.0002428     -0.0000909      0.0001926     -0.0000480     -0.5115967     -0.7038574
79932000     -0.3732910     -0.7989502      0.0002068     -0.0000528      0.0001993     -0.0000643     -0.5113525     -0.7030029
79935000     -0.3731689     -0.7983398      0.0001752     -0.0000579      0.0002480      0.0000131     -0.5124512     -0.7023926
79938000     -0.3745117     -0.7980957      0.0001979     -0.0000677      0.0001662     -0.0000048     -0.5126953     -0.7012939
79941000     -0.3748779     -0.7973633      0.0002604     -0.0000692      0.0002382     -0.0000888     -0.5129395     -0.7017822
79944000     -0.3743896     -0.7974854      0.0002282     -0.0000780      0.0002449     -0.0001048     -0.5134277     -0.7008057
79947000     -0.3752441     -0.7972412      0.0002284     -0.0000781      0.0002375      0.0000055     -0.5139160     -0.7004395
79950000     -0.3757324     -0.7966309      0.0002675     -0.0000735      0.0002076     -0.0000902     -0.5145264     -0.7000732
79953000     -0.3758545     -0.7967529      0.0002224     -0.0001480      0.0002412     -0.0001288     -0.5146484     -0.6992188
79956000     -0.3770752     -0.7961426      0.0002099     -0.0001117      0.0002119     -0.0000240     -0.5155029     -0.6987305
79959000     -0.3773193     -0.7963867      0.0002660     -0.0000969      0.0001997     -0.0000433     -0.5152588     -0.6979980
79962000     -0.3771973     -0.7960205      0.0001867     -0.0000159      0.0002206     -0.0000072     -0.5156250     -0.6979980
79965000     -0.3775635     -0.7956543      0.0002459     -0.0000560      0.0002171     -0.0001465     -0.5162354     -0.6973877
79968000     -0.3782959     -0.7950439      0.0002520     -0.0000764      0.0002603     -0.0000834     -0.5164795     -0.6964111
79971000     -0.3786621     -0.7950439      0.0001743     -0.0000696      0.0002174     -0.0001252     -0.5161133     -0.6961670
79974000     -0.3796387     -0.7947998      0.0002700     -0.0000465      0.0002813     -0.0000472     -0.5170898     -0.6948242
79977000     -0.3791504     -0.7944336      0.0002679     -0.0000739      0.0002452     -0.0000839     -0.5166016     -0.6951904
79980000     -0.3796387     -0.7943115      0.0002014     -0.0001189      0.0002930     -0.0000701     -0.5175781     -0.6942139
79983000     -0.3808594     -0.7932129      0.0002010     -0.0001230      0.0002775     -0.0000919     -0.5170898     -0.6939697
79986000     -0.3813477     -0.7932129      0.0002144     -0.0000577      0.0002065     -0.0000597     -0.5177002     -0.6938477
79989000     -0.3809814     -0.7933350      0.0003090     -0.0001440      0.0002333     -0.0000823     -0.5167236     -0.6936035
79992000     -0.3822021     -0.7935791      0.0002101     -0.0001082      0.0002394     -0.0001408     -0.5174561     -0.6936035
79995000     -0.3825684     -0.7932129      0.0002515     -0.0000842      0.0002638     -0.0001020     -0.5178223     -0.6932373
79998000     -0.3828125     -0.7932129      0.0002657     -0.0001010      0.0003100     -0.0000791     -0.5179443     -0.6936035
80001000     -0.3834229     -0.7926025      0.0002966     -0.0001074      0.0002304     -0.0000424     -0.5185547     -0.6934814
80004000     -0.3833008     -0.7927246      0.0002245     -0.0001249      0.0002234     -0.0000686     -0.5189209     -0.6936035
80007000     -0.3841553     -0.7924805      0.0001858     -0.0001177      0.0002069     -0.0000388     -0.5195313     -0.6931152
80010000     -0.3845215     -0.7918701      0.0001953     -0.0000989      0.0002592     -0.0000741     -0.5197754     -0.6934814
80013000     -0.3853760     -0.7916260      0.0001886     -0.0000867      0.0002546     -0.0001616     -0.5209961     -0.6921387
80016000     -0.3857422     -0.7911377      0.0002164     -0.0001280      0.0002410     -0.0001502     -0.5213623     -0.6925049
80019000     -0.3863525     -0.7910156      0.0003079     -0.0000653      0.0002349     -0.0001132     -0.5219727     -0.6925049
80022000     -0.3865967     -0.7906494      0.0002236     -0.0001368      0.0002419     -0.0000868     -0.5223389     -0.6918945
80025000     -0.3870850     -0.7906494      0.0002009     -0.0001267      0.0002786     -0.0001443     -0.5230713     -0.6918945
80028000     -0.3874512     -0.7905273      0.0001971     -0.0000796      0.0001998     -0.0000648     -0.5234375     -0.6907959
80031000     -0.3879395     -0.7897949      0.0001640     -0.0001003      0.0002452     -0.0001057     -0.5240479     -0.6909180
80034000     -0.3885498     -0.7899170      0.0002404     -0.0001266      0.0002196     -0.0001138     -0.5253906     -0.6900635
80037000     -0.3889160     -0.7893066      0.0002815     -0.0000988      0.0002829     -0.0000992     -0.5250244     -0.6903076
80040000     -0.3895264     -0.7886963      0.0002199     -0.0000895      0.0002196     -0.0001138     -0.5262451     -0.6887207
80043000     -0.3902588     -0.7886963      0.0002098     -0.0001160      0.0001938     -0.0001434     -0.5266113     -0.6884766
80046000     -0.3908691     -0.7888184      0.0001386     -0.0001218      0.0002701     -0.0001614     -0.5264893     -0.6882324
80049000     -0.3906250     -0.7878418      0.0002139     -0.0000694      0.0002503     -0.0001342     -0.5273438     -0.6876221
80052000     -0.3903809     -0.7878418      0.0001920     -0.0001420      0.0002058     -0.0001453     -0.5281982     -0.6870117
80055000     -0.3917236     -0.7863770      0.0002234     -0.0001408      0.0002821     -0.0001422     -0.5279541     -0.6862793
80058000     -0.3924561     -0.7864990      0.0001712     -0.0001089      0.0002137     -0.0001709     -0.5286865     -0.6848145
80061000     -0.3930664     -0.7862549      0.0002296     -0.0000669      0.0002502     -0.0001342     -0.5294189     -0.6846924
80064000     -0.3933105     -0.7856445      0.0001887     -0.0000868      0.0002395     -0.0001630     -0.5294189     -0.6842041
80067000     -0.3941650     -0.7861328      0.0001145     -0.0001276      0.0002383     -0.0001110     -0.5289307     -0.6835938
80070000     -0.3945313     -0.7854004      0.0001881     -0.0000947      0.0003030     -0.0001274     -0.5291748     -0.6832275
80073000     -0.3947754     -0.7851563      0.0001553     -0.0001114      0.0002646     -0.0000817     -0.5297852     -0.6823730
80076000     -0.3952637     -0.7847900      0.0002828     -0.0000872      0.0002045     -0.0000935     -0.5290527     -0.6817627
80079000     -0.3952637     -0.7846680      0.0001922     -0.0001382      0.0001692     -0.0000880     -0.5297852     -0.6816406
80082000     -0.3956299     -0.7838135      0.0001607     -0.0001395      0.0001964     -0.0000890     -0.5301514     -0.6813965
80085000     -0.3963623     -0.7834473      0.0002456     -0.0000644      0.0001899     -0.0000729     -0.5299072     -0.6813965
80088000     -0.3973389     -0.7824707      0.0002177     -0.0001168      0.0002118     -0.0000885     -0.5296631     -0.6809082
80091000     -0.3972168     -0.7829590      0.0001817     -0.0000785      0.0001703     -0.0001185     -0.5302734     -0.6815186
80094000     -0.3974609     -0.7821045      0.0002618     -0.0000619      0.0002041     -0.0001360     -0.5307617     -0.6810303
80097000     -0.3981934     -0.7816162      0.0002646     -0.0001172      0.0002627     -0.0001149     -0.5313721     -0.6813965
80100000     -0.3981934     -0.7813721      0.0002645     -0.0001209      0.0001771     -0.0000190     -0.5321045     -0.6809082
80103000     -0.3983154     -0.7803955      0.0001992     -0.0000564      0.0002352     -0.0001137     -0.5321045     -0.6809082
80106000     -0.3994141     -0.7802734      0.0001807     -0.0000903      0.0001693     -0.0000880     -0.5332031     -0.6805420
80109000     -0.3991699     -0.7794189      0.0002197     -0.0000935      0.0001989     -0.0000560     -0.5336914     -0.6805420
80112000     -0.3992920     -0.7791748      0.0001880     -0.0000986      0.0002574     -0.0001295     -0.5341797     -0.6802979
80115000     -0.3991699     -0.7784424      0.0002123     -0.0000891      0.0002544     -0.0000896     -0.5344238     -0.6795654
80118000     -0.3990479     -0.7781982      0.0002444     -0.0000799      0.0002107     -0.0000580     -0.5352783     -0.6790771
80121000     -0.3996582     -0.7780762      0.0002018     -0.0001195      0.0002329     -0.0001471     -0.5351563     -0.6789551
80124000     -0.3996582     -0.7770996      0.0001810     -0.0000864      0.0002200     -0.0001144     -0.5362549     -0.6784668
80127000     -0.3995361     -0.7775879      0.0002353     -0.0000951      0.0002234     -0.0001122     -0.5368652     -0.6779785
80130000     -0.3996582     -0.7773438      0.0001875     -0.0001027      0.0001746     -0.0000738     -0.5369873     -0.6778564
80133000     -0.3999023     -0.7772217      0.0002377     -0.0000678      0.0001789     -0.0001233     -0.5375977     -0.6770020
80136000     -0.3997803     -0.7773438      0.0002022     -0.0001156      0.0002866     -0.0001191     -0.5378418     -0.6766357
80139000     -0.4000244     -0.7780762      0.0002606     -0.0000775      0.0002479     -0.0000732     -0.5383301     -0.6762695
80142000     -0.4005127     -0.7777100      0.0002971     -0.0001085      0.0001885     -0.0000637     -0.5388184     -0.6754150
80145000     -0.4008789     -0.7777100      0.0002141     -0.0001600      0.0002422     -0.0001089     -0.5390625     -0.6750488
80148000     -0.4007568     -0.7775879      0.0002460     -0.0001550      0.0002868     -0.0000980     -0.5395508     -0.6752930
80151000     -0.4018555     -0.7788086      0.0002412     -0.0001194      0.0002569     -0.0000562     -0.5395508     -0.6748047
80154000     -0.4024658     -0.7779541      0.0002268     -0.0001061      0.0002593     -0.0001177     -0.5404053     -0.6743164
80157000     -0.4029541     -0.7774658      0.0002254     -0.0001218      0.0002529     -0.0001017     -0.5405273     -0.6746826
80160000     -0.4035645     -0.7780762      0.0002206     -0.0000860      0.0002721     -0.0000772     -0.5412598     -0.6737061
80163000     -0.4042969     -0.7774658      0.0002114     -0.0001009      0.0002980     -0.0000690     -0.5418701     -0.6743164
80166000     -0.4050293     -0.7773438      0.0002527     -0.0000810      0.0002567     -0.0000779     -0.5423584     -0.6734619
80169000     -0.4053955     -0.7775879      0.0002105     -0.0001128      0.0003587     -0.0001094     -0.5428467     -0.6735840
80172000     -0.4062500     -0.7768555      0.0001948     -0.0001115      0.0002515     -0.0000922     -0.5433350     -0.6726074
80175000     -0.4069824     -0.7769775      0.0002439     -0.0000920      0.0002618     -0.0000848     -0.5440674     -0.6727295
80178000     -0.4078369     -0.7763672      0.0002306     -0.0001537      0.0002519     -0.0001658     -0.5443115     -0.6724854
80181000     -0.4073486     -0.7751465      0.0002130     -0.0001761      0.0002535     -0.0001755     -0.5451660     -0.6717529
80184000     -0.4085693     -0.7742920      0.0001933     -0.0001309      0.0002396     -0.0001855     -0.5458984     -0.6712646
80187000     -0.4085693     -0.7739258      0.0002290     -0.0001735      0.0001929     -0.0001137     -0.5461426     -0.6707764
80190000     -0.4091797     -0.7747803      0.0002107     -0.0002035      0.0002888     -0.0001080     -0.5462646     -0.6707764
80193000     -0.4094238     -0.7739258      0.0002102     -0.0001167      0.0002091     -0.0001654     -0.5474854     -0.6691895
80196000     -0.4095459     -0.7725830      0.0001650     -0.0001837      0.0002064     -0.0001251     -0.5473633     -0.6694336
80199000     -0.4101563     -0.7731934      0.0002376     -0.0001626      0.0002947     -0.0000718     -0.5473633     -0.6691895
80202000     -0.4102783     -0.7724609      0.0001761     -0.0001456      0.0003011     -0.0001097     -0.5485840     -0.6684570
80205000     -0.4111328     -0.7717285      0.0001800     -0.0001931      0.0001441     -0.0001702     -0.5490723     -0.6679688
80208000     -0.4105225     -0.7711182      0.0002003     -0.0001397      0.0002419     -0.0001736     -0.5494385     -0.6674805
80211000     -0.4108887     -0.7705078      0.0001609     -0.0001403      0.0002268     -0.0001529     -0.5495605     -0.6668701
80214000     -0.4117432     -0.7709961      0.0001430     -0.0001661      0.0002483     -0.0001899     -0.5509033     -0.6665039
80217000     -0.4122314     -0.7711182      0.0001276     -0.0001609      0.0002284     -0.0001623     -0.5505371     -0.6665039
80220000     -0.4116211     -0.7712402      0.0001796     -0.0001971      0.0002152     -0.0002245     -0.5511475     -0.6650391
80223000     -0.4121094     -0.7706299      0.0001415     -0.0001816      0.0002177     -0.0001699     -0.5511475     -0.6651611
80226000     -0.4122314     -0.7712402      0.0001039     -0.0001628      0.0001118     -0.0001620     -0.5518799     -0.6643066
80229000     -0.4122314     -0.7712402      0.0001422     -0.0001741      0.0001821     -0.0001641     -0.5527344     -0.6641846
80232000     -0.4124756     -0.7713623      0.0001705     -0.0001214      0.0001551     -0.0001414     -0.5529785     -0.6634521
80235000     -0.4133301     -0.7709961      0.0001276     -0.0000704      0.0001400     -0.0001208     -0.5527344     -0.6629639
80238000     -0.4138184     -0.7709961      0.0001485     -0.0001038      0.0001690     -0.0001315     -0.5532227     -0.6628418
80241000     -0.4140625     -0.7709961      0.0001982     -0.0000766      0.0001584     -0.0001603     -0.5538330     -0.6616211
80244000     -0.4152832     -0.7705078      0.0001508     -0.0001670      0.0001903     -0.0000950     -0.5538330     -0.6618652
80247000     -0.4151611     -0.7703857      0.0001475     -0.0001154      0.0002111     -0.0000800     -0.5549316     -0.6617432
80250000     -0.4156494     -0.7709961      0.0000693     -0.0001086      0.0001733     -0.0000862     -0.5543213     -0.6616211
80253000     -0.4169922     -0.7703857      0.0001386     -0.0001264      0.0002185     -0.0001488     -0.5556641     -0.6607666
80256000     -0.4162598     -0.7705078      0.0001343     -0.0000867      0.0001598     -0.0000747     -0.5555420     -0.6602783
80259000     -0.4177246     -0.7706299      0.0000683     -0.0001203      0.0001521     -0.0001228     -0.5562744     -0.6599121
