!Keysight Technologies,E5080A,MY55200989,A.11.70.00
!Date: Monday, July 01, 2019 10:02:36
!Correction: S11(Full 2 Port(1,2)) 
!S21(Full 2 Port(1,2)) 
!S12(Full 2 Port(1,2)) 
!S22(Full 2 Port(1,2)) 
!S2P File: Measurements: S11, S21, S12, S22:
# Hz S  dB   R 50
81850000 -1.9127388 -143.70853 -93.156425 3.5551324 -95.848793 -74.475288 -2.2643435 -162.77766
81856250 -1.9143571 -143.76456 -91.66172 2.1651742 -97.224785 16.738264 -2.2659719 -162.86713
81862500 -1.9177324 -143.81822 -91.98848 78.958313 -88.381638 56.627407 -2.270349 -162.95255
81868750 -1.9187199 -143.87431 -84.406754 61.253918 -84.915276 49.909218 -2.272491 -163.03236
81875000 -1.9214461 -143.9296 -81.610977 51.82943 -81.797783 51.618404 -2.2752934 -163.12772
81881250 -1.919789 -143.99007 -77.431374 46.169788 -78.409294 37.361389 -2.2804611 -163.21426
81887500 -1.918842 -144.05475 -75.986069 28.036215 -75.777916 26.896946 -2.2815785 -163.29576
81893750 -1.9194247 -144.11598 -74.406693 18.93956 -75.078682 17.941319 -2.2850056 -163.36969
81900000 -1.922539 -144.18303 -73.898361 6.2967696 -73.713966 4.9841285 -2.2843013 -163.4478
81906250 -1.9219316 -144.26221 -72.542145 -9.5807467 -73.297783 -5.826983 -2.2907979 -163.54324
81912500 -1.9197372 -144.30576 -72.132164 -23.691788 -72.082474 -20.582932 -2.2978537 -163.63116
81918750 -1.9236673 -144.35161 -72.421547 -37.895687 -71.98703 -40.299263 -2.3001516 -163.70395
81925000 -1.9249475 -144.40973 -73.072266 -49.391281 -73.507584 -52.388817 -2.3006511 -163.77757
81931250 -1.9254746 -144.47388 -75.02285 -68.836823 -74.764175 -64.326126 -2.3007612 -163.84399
81937500 -1.926984 -144.53777 -77.079742 -68.250046 -76.516441 -70.546677 -2.2996778 -163.92361
81943750 -1.9266201 -144.60948 -78.963493 -55.994194 -79.442146 -61.52784 -2.301017 -164.01141
81950000 -1.929047 -144.68658 -80.639946 -64.360886 -78.795013 -55.239651 -2.2988999 -164.08983
81956250 -1.9298942 -144.76312 -81.015549 -47.540497 -79.417709 -44.873772 -2.3016798 -164.19772
81962500 -1.9332012 -144.84283 -80.661865 -42.703403 -80.842491 -42.95665 -2.3040445 -164.28593
81968750 -1.9343464 -144.92664 -79.660805 -41.973755 -78.222748 -41.565647 -2.3059888 -164.37398
81975000 -1.9365478 -145.01767 -80.243179 -38.152267 -79.695251 -41.059513 -2.3061528 -164.46507
81981250 -1.9379388 -145.09303 -79.663139 -47.24448 -78.378624 -38.528564 -2.3087597 -164.57658
81987500 -1.9366845 -145.16479 -78.743103 -41.644581 -78.908356 -40.085686 -2.3124838 -164.65833
81993750 -1.9375476 -145.25824 -78.321953 -48.761566 -78.572472 -47.304962 -2.3158102 -164.76192
82000000 -1.9396682 -145.33534 -78.286507 -50.594444 -77.609749 -51.391636 -2.3174341 -164.83841
82006250 -1.9399489 -145.42343 -77.457855 -52.770805 -77.058319 -54.678204 -2.3202434 -164.92673
82012500 -1.9434613 -145.50137 -78.163933 -67.057449 -78.318085 -62.526154 -2.3232133 -165.00694
82018750 -1.9466546 -145.56589 -78.230354 -66.720161 -79.445778 -70.128609 -2.3265393 -165.08858
82025000 -1.9465579 -145.66159 -81.416603 -78.94632 -80.568733 -68.973854 -2.3270972 -165.17569
82031250 -1.9499553 -145.73317 -81.464943 -71.466194 -83.511932 -73.004349 -2.3269022 -165.25542
82037500 -1.9445646 -145.79659 -82.2323 -63.087971 -83.546585 -66.795761 -2.328382 -165.31117
82043750 -1.9472499 -145.86057 -81.598404 -43.041668 -83.196266 -44.666626 -2.3309445 -165.40103
82050000 -1.9482113 -145.93872 -83.458237 -43.019821 -82.364464 -47.861317 -2.3316488 -165.50383
82056250 -1.9506457 -146.01396 -81.759216 -51.478642 -81.656128 -46.390411 -2.3330495 -165.58963
82062500 -1.9504741 -146.09613 -81.287918 -37.373585 -81.92955 -43.874138 -2.3334095 -165.69099
82068750 -1.9539163 -146.1785 -81.51268 -41.490826 -80.747673 -40.111725 -2.3359957 -165.77629
82075000 -1.9529496 -146.26161 -82.3452 -34.831253 -81.846947 -39.420914 -2.3357837 -165.88123
82081250 -1.9565988 -146.32845 -80.997475 -35.36441 -81.88102 -32.138599 -2.3364096 -165.98465
82087500 -1.9572623 -146.42271 -82.696159 -44.452873 -80.940475 -40.628189 -2.337765 -166.07365
82093750 -1.9593177 -146.50639 -81.616852 -46.62706 -79.966553 -36.018646 -2.3393235 -166.17366
82100000 -1.9664402 -146.59158 -80.714897 -37.502556 -81.230118 -43.628036 -2.3416355 -166.24432
82106250 -1.967368 -146.67262 -82.219833 -45.927898 -80.413536 -39.122757 -2.3428233 -166.35069
82112500 -1.970368 -146.75223 -83.136368 -30.887655 -81.194153 -41.042866 -2.3456614 -166.4397
82118750 -1.9738355 -146.82841 -81.581383 -29.958204 -82.176994 -33.788776 -2.3451135 -166.5475
82125000 -1.973297 -146.90323 -83.038918 -27.688768 -81.272453 -31.828983 -2.3483171 -166.63283
82131250 -1.9756588 -146.98291 -79.959267 -32.008423 -79.752464 -31.668077 -2.3506503 -166.72578
82137500 -1.9775845 -147.07307 -79.48951 -33.999355 -80.249947 -25.33473 -2.3525717 -166.8401
82143750 -1.979624 -147.13881 -79.093163 -27.278339 -78.392166 -32.536228 -2.3567321 -166.9313
82150000 -1.9814322 -147.22232 -77.312134 -23.336979 -78.485077 -29.631472 -2.3574617 -167.01918
82156250 -1.9823179 -147.29855 -76.121033 -36.082317 -75.359871 -32.003216 -2.3599274 -167.11781
82162500 -1.977898 -147.38992 -75.676323 -38.986908 -75.247375 -36.923134 -2.3651466 -167.21452
82168750 -1.9807837 -147.46837 -74.510475 -41.535179 -75.628761 -39.751621 -2.3658166 -167.28621
82175000 -1.9813981 -147.54851 -75.281082 -47.132553 -75.351311 -51.471416 -2.3685884 -167.38795
82181250 -1.9819902 -147.63214 -74.736794 -53.823204 -75.158028 -51.240772 -2.3699536 -167.47485
82187500 -1.9825319 -147.71568 -75.294975 -54.868992 -75.433601 -57.037827 -2.3699689 -167.57918
82193750 -1.9860483 -147.79672 -75.212471 -56.980553 -74.587433 -58.058727 -2.3708637 -167.68706
82200000 -1.9878181 -147.87999 -74.230118 -66.695053 -74.258156 -61.013519 -2.3727989 -167.76808
82206250 -1.9898753 -147.95033 -74.08609 -62.718964 -74.660217 -71.386116 -2.3743899 -167.86781
82212500 -1.9907275 -148.03569 -74.083771 -75.170731 -74.498779 -70.296364 -2.3748877 -167.96786
82218750 -1.9938614 -148.11581 -74.38105 -78.526398 -74.334618 -79.679733 -2.3777819 -168.06039
82225000 -1.9939564 -148.20361 -74.334328 -88.301262 -74.092575 -85.665932 -2.3772857 -168.15662
82231250 -1.9988875 -148.27814 -73.63002 -89.333633 -74.202629 -92.114304 -2.3821907 -168.27164
82237500 -2.0005045 -148.36882 -74.765846 -102.96391 -74.418388 -96.496277 -2.3859522 -168.36006
82243750 -2.0026124 -148.44139 -75.111443 -109.04423 -74.489906 -108.02568 -2.3865185 -168.44505
82250000 -2.007776 -148.51743 -74.723457 -116.27181 -74.71241 -118.00529 -2.3929124 -168.5428
82256250 -2.0092158 -148.60219 -76.3918 -125.58285 -75.490677 -130.55849 -2.3936911 -168.63002
82262500 -2.0110359 -148.6725 -77.767029 -135.47124 -77.777344 -140.35522 -2.3965983 -168.72801
82268750 -2.0152085 -148.74733 -79.913513 -148.09975 -79.379257 -150.00063 -2.3979068 -168.81073
82275000 -2.0177832 -148.83846 -81.700035 -149.42503 -81.572113 -153.14705 -2.4007027 -168.89073
82281250 -2.0190055 -148.89964 -83.553642 -148.58919 -84.499107 -158.61531 -2.4015303 -168.97986
82287500 -2.0218334 -148.98717 -86.832947 -170.60143 -85.188576 -152.15843 -2.4029727 -169.07039
82293750 -2.0241375 -149.06441 -87.839722 -154.12579 -89.767471 -143.67108 -2.4050577 -169.17754
82300000 -2.0261288 -149.15103 -87.984032 -138.7812 -89.397934 -134.44518 -2.4078832 -169.28413
82306250 -2.0261259 -149.23602 -91.247993 -137.36179 -94.212166 -115.75638 -2.4055831 -169.37343
82312500 -2.0294099 -149.31354 -97.630524 -118.2794 -94.429878 -146.60837 -2.4086814 -169.45499
82318750 -2.0312467 -149.40208 -95.486778 -134.34499 -89.960228 -91.5541 -2.4094632 -169.56215
82325000 -2.032295 -149.48456 -95.600868 -124.79581 -100.18949 -138.69919 -2.4124751 -169.66373
82331250 -2.0340691 -149.56953 -93.405342 -94.37384 -93.614037 -60.149872 -2.4139285 -169.75618
82337500 -2.0367413 -149.65042 -94.310539 -77.554848 -90.120399 -46.008747 -2.4171484 -169.84935
82343750 -2.0367575 -149.73123 -90.554787 -81.630302 -88.00074 -53.879726 -2.4179437 -169.9492
82350000 -2.0398295 -149.81531 -91.476715 -53.400585 -86.498535 -68.17868 -2.4200869 -170.03615
82356250 -2.041137 -149.89842 -86.963661 -82.312691 -88.033928 -57.909752 -2.4207923 -170.12834
82362500 -2.040915 -149.96605 -85.209946 -73.539238 -87.551712 -79.213722 -2.4211037 -170.21436
82368750 -2.0425999 -150.04555 -86.012177 -73.224617 -90.078629 -73.462296 -2.4251115 -170.30191
82375000 -2.0450959 -150.12932 -86.909775 -88.922615 -84.606873 -93.883247 -2.4231367 -170.38512
82381250 -2.0452127 -150.20691 -88.059044 -123.45372 -86.668159 -99.554642 -2.425493 -170.49156
82387500 -2.0496378 -150.28137 -86.653831 -105.86378 -86.249275 -121.05715 -2.4286373 -170.58072
82393750 -2.0513816 -150.35689 -87.424324 -138.81133 -89.194023 -142.90462 -2.4277575 -170.66798
82400000 -2.0526934 -150.43352 -86.908501 -170.46721 -87.653259 -166.76132 -2.4312484 -170.73674
82406250 -2.0553226 -150.50536 -88.256554 177.71902 -93.830612 178.52873 -2.4329708 -170.84544
82412500 -2.0569527 -150.59966 -89.319626 157.70522 -89.714622 134.64311 -2.4365215 -170.91466
82418750 -2.0610971 -150.66801 -85.82029 123.84748 -88.435089 146.86205 -2.4376681 -171.02206
82425000 -2.0623269 -150.75543 -88.650368 96.198685 -87.147263 114.61233 -2.441251 -171.123
82431250 -2.0670316 -150.8353 -86.867325 75.77903 -87.198372 81.709732 -2.4427743 -171.22543
82437500 -2.0694072 -150.91408 -84.168015 66.618965 -85.944054 52.885937 -2.4446094 -171.31259
82443750 -2.0715995 -150.99736 -85.705605 59.79089 -84.4431 45.989529 -2.4470642 -171.4178
82450000 -2.0740027 -151.1028 -84.193123 39.502827 -83.599861 41.53154 -2.4515412 -171.52568
82456250 -2.0770042 -151.17227 -85.31414 40.213093 -82.638504 36.295319 -2.454788 -171.62267
82462500 -2.0792143 -151.25522 -81.172798 39.9259 -83.907524 28.989286 -2.4563246 -171.71455
82468750 -2.0827999 -151.34813 -81.735855 28.820072 -81.891617 21.561592 -2.4582016 -171.8206
82475000 -2.0850883 -151.42357 -82.20121 22.108114 -82.015839 26.873199 -2.4637532 -171.9328
82481250 -2.0869551 -151.50491 -81.185707 16.05772 -82.81665 22.096275 -2.464535 -172.02373
82487500 -2.0896039 -151.59186 -80.994904 11.536016 -81.800735 14.808774 -2.466855 -172.12494
82493750 -2.0916386 -151.67116 -82.168205 11.113183 -81.89389 10.012915 -2.4679053 -172.22859
82500000 -2.0923133 -151.74567 -80.316101 13.400445 -81.052162 6.5355482 -2.4696481 -172.31966
82506250 -2.096323 -151.81757 -81.190285 8.9544554 -80.806305 7.1496921 -2.4741304 -172.43088
82512500 -2.0981493 -151.90245 -80.8815 7.0653162 -80.178459 -3.1848176 -2.4766417 -172.52219
82518750 -2.0995581 -151.97374 -79.39077 4.4410934 -79.536224 0.14164218 -2.4770119 -172.62325
82525000 -2.1025279 -152.05605 -79.019524 -3.2962942 -80.598335 -3.0759649 -2.4802289 -172.72646
82531250 -2.1022708 -152.14224 -80.114304 -2.8155146 -79.900108 -7.9886475 -2.4826438 -172.82651
82537500 -2.1056406 -152.21655 -79.865364 -21.543493 -79.28849 -17.493088 -2.4861739 -172.93753
82543750 -2.1075451 -152.28363 -79.344856 -8.7940254 -78.883095 -13.360397 -2.4852917 -173.03011
82550000 -2.1115782 -152.35945 -79.918861 -28.94449 -79.557739 -32.718113 -2.4899623 -173.12111
82556250 -2.1133232 -152.43225 -79.782845 -28.054352 -80.771591 -30.942926 -2.4926579 -173.20813
82562500 -2.1155319 -152.50804 -81.304848 -38.855526 -80.296707 -36.779327 -2.4914601 -173.29686
82568750 -2.1183288 -152.59068 -84.014122 -56.427185 -82.93853 -41.383305 -2.4954967 -173.39525
82575000 -2.1206131 -152.66679 -83.663429 -49.278679 -83.9384 -47.455757 -2.497452 -173.50063
82581250 -2.1211264 -152.74355 -86.711563 -41.253773 -86.313805 -36.348175 -2.5023677 -173.59094
82587500 -2.1240954 -152.81328 -96.537193 -35.079208 -95.364784 -26.159721 -2.5026314 -173.67827
82593750 -2.1271777 -152.89517 -93.946335 13.275901 -90.04747 14.603583 -2.5045092 -173.75552
82600000 -2.1266286 -152.97264 -84.930984 44.046265 -86.97715 33.024567 -2.5055065 -173.84549
82606250 -2.1278431 -153.05467 -83.077682 39.082462 -80.27755 37.40683 -2.5092103 -173.9406
82612500 -2.1294649 -153.13969 -79.570168 34.094109 -81.255432 33.919422 -2.5111406 -174.02394
82618750 -2.1315169 -153.22971 -79.099777 23.168489 -78.212807 24.295692 -2.5114846 -174.12384
82625000 -2.132122 -153.29839 -76.839211 19.079647 -77.596947 25.908426 -2.5148489 -174.20824
82631250 -2.1333842 -153.37604 -75.990517 16.708572 -76.54818 15.690928 -2.5182624 -174.29332
82637500 -2.1365886 -153.46437 -74.964661 5.7934461 -75.820023 3.7405603 -2.5189302 -174.3947
82643750 -2.1383898 -153.55209 -75.438438 -0.14504153 -75.426125 -2.0144737 -2.5209856 -174.46989
82650000 -2.1396811 -153.61942 -75.085655 -8.7106924 -74.822853 -8.1398592 -2.5209565 -174.55612
82656250 -2.1420999 -153.7135 -75.340454 -17.972523 -75.449966 -10.389281 -2.526752 -174.64485
82662500 -2.1415989 -153.81161 -75.30851 -17.671574 -75.298241 -17.931194 -2.523243 -174.77441
82668750 -2.1424408 -153.91743 -75.521584 -23.056675 -75.636414 -24.672035 -2.5230124 -174.88344
82675000 -2.1441956 -154.00682 -75.599731 -29.650763 -76.052963 -29.589729 -2.5276787 -174.96159
82681250 -2.1489203 -154.09286 -76.069649 -37.484196 -76.5756 -37.899727 -2.5303814 -175.07004
82687500 -2.1493769 -154.17377 -76.129219 -38.673058 -76.541672 -36.915943 -2.5295548 -175.17233
82693750 -2.1529057 -154.26517 -76.569115 -44.001099 -76.752022 -44.657722 -2.5324478 -175.27603
82700000 -2.156354 -154.35097 -77.744919 -47.657166 -77.368095 -50.069138 -2.5375082 -175.37354
82706250 -2.1586013 -154.43364 -78.335907 -50.162338 -78.29261 -43.449501 -2.5383315 -175.47586
82712500 -2.160316 -154.52353 -78.126144 -42.437771 -77.947815 -46.08247 -2.5363982 -175.5714
82718750 -2.1649644 -154.61243 -79.389244 -46.721489 -78.527573 -47.960033 -2.5410037 -175.67514
82725000 -2.1649101 -154.7021 -79.002457 -46.891285 -78.752213 -46.63987 -2.5458355 -175.76923
82731250 -2.1674976 -154.77994 -78.424522 -50.450405 -79.38797 -52.901005 -2.5455065 -175.86845
82737500 -2.1705108 -154.86456 -80.815102 -58.976574 -79.663002 -48.23391 -2.5460079 -175.96793
82743750 -2.1717899 -154.95386 -80.752907 -52.268486 -80.505081 -43.575916 -2.5485756 -176.05475
82750000 -2.1717186 -155.0415 -81.068581 -50.918079 -82.862015 -54.875526 -2.548378 -176.16884
82756250 -2.1737657 -155.12044 -80.41404 -46.712029 -82.419212 -48.989906 -2.5491936 -176.27379
82762500 -2.1770456 -155.205 -82.216042 -28.128088 -83.345085 -41.775623 -2.5506444 -176.35608
82768750 -2.1749604 -155.28123 -82.337585 -31.699537 -84.245811 -30.661453 -2.5530784 -176.44946
82775000 -2.1779385 -155.37688 -83.438667 -31.31889 -83.813278 -38.233547 -2.5549598 -176.54434
82781250 -2.1788459 -155.46544 -83.547058 -34.724316 -82.077103 -34.163216 -2.5571878 -176.6454
82787500 -2.1794927 -155.56082 -81.421188 -26.061903 -81.825089 -29.164902 -2.5560911 -176.73418
82793750 -2.1817148 -155.64322 -79.308502 -27.947664 -80.362534 -39.859428 -2.5575433 -176.83833
82800000 -2.1832585 -155.72214 -80.252792 -33.984463 -79.948677 -34.551788 -2.5597825 -176.93599
82806250 -2.1866176 -155.80478 -80.276672 -39.264797 -80.007019 -38.029476 -2.561579 -177.03786
82812500 -2.1897888 -155.88811 -79.618202 -35.096909 -79.471397 -43.508686 -2.5652039 -177.13254
82818750 -2.1898713 -155.96242 -80.448029 -41.213146 -81.176834 -34.621517 -2.5661271 -177.23734
82825000 -2.1935487 -156.04413 -80.713547 -47.35791 -81.803062 -43.441887 -2.5668676 -177.34117
82831250 -2.1940072 -156.12334 -80.98391 -52.642582 -81.318985 -47.32362 -2.5685692 -177.44533
82837500 -2.1974711 -156.2106 -82.482452 -52.62302 -84.046524 -36.584538 -2.5699244 -177.5444
82843750 -2.1994507 -156.29797 -81.842857 -41.709309 -82.234238 -45.919788 -2.5697312 -177.64099
82850000 -2.2010081 -156.37166 -82.559814 -35.993835 -84.918877 -29.802544 -2.5709653 -177.74988
82856250 -2.2029858 -156.452 -82.494408 -36.649757 -82.718811 -25.644762 -2.57306 -177.86523
82862500 -2.2034695 -156.53876 -82.133957 -31.725983 -82.888336 -27.058325 -2.5720277 -177.9704
82868750 -2.2046642 -156.62793 -82.972107 -22.308092 -82.931259 -30.004728 -2.5741692 -178.06598
82875000 -2.2058823 -156.70276 -82.434174 -29.050789 -83.094864 -35.105404 -2.5738208 -178.17351
82881250 -2.2062573 -156.7995 -80.483383 -21.450172 -82.622047 -39.202866 -2.5747745 -178.29948
82887500 -2.2114151 -156.88113 -81.600975 -34.917587 -81.689392 -37.340183 -2.5773077 -178.40752
82893750 -2.211097 -156.96347 -80.896965 -35.215611 -80.602806 -23.736469 -2.5757418 -178.49498
82900000 -2.2130167 -157.04361 -81.890442 -37.413559 -81.30584 -25.006214 -2.5793593 -178.61275
82906250 -2.2155144 -157.12697 -82.215942 -27.720116 -82.629288 -23.366838 -2.5805116 -178.71121
82912500 -2.2169476 -157.21306 -83.647057 -34.815193 -80.309631 -17.793545 -2.5814042 -178.81392
82918750 -2.2197533 -157.3111 -82.496292 -27.862047 -83.42337 -22.631924 -2.5873775 -178.91777
82925000 -2.2209814 -157.396 -83.281601 -36.705185 -83.970528 -30.512951 -2.5888071 -179.01285
82931250 -2.2241552 -157.49767 -83.531624 -6.3792171 -83.276596 -6.9848037 -2.5933211 -179.09924
82937500 -2.2263362 -157.5818 -81.342079 -11.92404 -82.481613 -17.996578 -2.5995328 -179.20314
82943750 -2.2271268 -157.67503 -81.842682 -14.887733 -80.82399 -5.2240143 -2.6007376 -179.30417
82950000 -2.2312145 -157.76254 -81.558601 -17.136623 -81.628433 -9.7412186 -2.6022577 -179.39691
82956250 -2.2312052 -157.85811 -79.611237 -7.9575863 -80.286377 -10.22727 -2.6046927 -179.50194
82962500 -2.2342691 -157.94255 -79.511772 -6.6360822 -79.082977 -7.9534206 -2.6069388 -179.61035
82968750 -2.2372177 -158.04439 -78.434235 -10.89688 -79.369774 -14.608974 -2.6111887 -179.71413
82975000 -2.2412481 -158.13025 -80.10656 -13.639182 -78.685013 -12.580323 -2.6115625 -179.79942
82981250 -2.2410777 -158.20389 -78.41832 -15.422088 -78.506592 -20.145857 -2.6144018 -179.90346
82987500 -2.2433183 -158.29874 -78.339897 -18.660419 -77.791794 -20.24427 -2.6148546 -179.99045
82993750 -2.2454314 -158.37044 -78.331963 -20.72583 -77.684402 -13.751314 -2.6181529 179.91896
83000000 -2.2452765 -158.4724 -77.784973 -16.785387 -77.737907 -18.12715 -2.6189845 179.81006
83006250 -2.2448757 -158.53816 -78.051292 -23.707247 -78.382141 -19.798317 -2.6198657 179.71231
83012500 -2.248306 -158.63829 -77.661583 -26.927595 -78.01757 -18.820089 -2.6189699 179.63344
83018750 -2.2481439 -158.71831 -77.355415 -31.256975 -77.551445 -27.045774 -2.6239583 179.52129
83025000 -2.2509172 -158.79677 -76.382332 -30.774931 -76.459175 -34.89436 -2.623929 179.42952
83031250 -2.2532027 -158.89655 -76.826469 -34.217686 -76.716797 -30.750319 -2.6255429 179.33167
83037500 -2.2551157 -158.98824 -76.75631 -35.301472 -76.961296 -42.311569 -2.625562 179.23428
83043750 -2.256273 -159.08777 -77.516365 -35.277161 -77.3899 -46.807404 -2.6293051 179.12378
83050000 -2.2604322 -159.18044 -78.723282 -49.284786 -77.930077 -40.81015 -2.6298678 179.02473
83056250 -2.2616415 -159.26797 -78.947739 -49.599289 -79.448151 -48.437798 -2.6322889 178.91418
83062500 -2.2644429 -159.35844 -80.570694 -43.671543 -80.332565 -42.515598 -2.6294158 178.81281
83068750 -2.2678394 -159.44859 -80.724136 -43.018562 -81.231735 -41.887714 -2.6310041 178.71321
83075000 -2.2684438 -159.53883 -82.291786 -31.236624 -83.414314 -26.4405 -2.6333258 178.58612
83081250 -2.2734215 -159.6404 -85.449234 -31.069029 -81.747116 -34.621971 -2.6331446 178.49121
83087500 -2.2745914 -159.72183 -82.223587 -30.282799 -81.800552 -27.528683 -2.6355717 178.37834
83093750 -2.2779958 -159.80971 -81.993607 -26.100582 -81.870049 -12.990294 -2.6357472 178.27673
83100000 -2.2808173 -159.87946 -81.342796 -3.630121 -82.527946 -19.963394 -2.6376872 178.13275
83106250 -2.2829852 -159.976 -81.115364 2.5406291 -81.462166 -0.057579584 -2.6377919 178.02136
83112500 -2.2836926 -160.05779 -79.527313 1.3601799 -79.415627 -0.037810668 -2.6423328 177.92299
83118750 -2.2853296 -160.16135 -78.22641 7.9296079 -78.280861 9.442337 -2.6447821 177.79669
83125000 -2.2890332 -160.24158 -77.377296 6.7513452 -76.189308 4.7423921 -2.6450782 177.69926
83131250 -2.2913878 -160.32628 -74.69294 7.5634537 -74.999649 3.8921175 -2.6509562 177.60211
