!RF1171,  DEMO1,narrow,BN,8/25/06
# HZ S RI R 50
417200000     -0.3881226      0.6682434      0.0557098     -0.0456085      0.0623341     -0.0481205     -0.0951538     -0.9004822
417200992     -0.3880005      0.6685181      0.0557690     -0.0457764      0.0624866     -0.0482788     -0.0952454     -0.9007263
417201984     -0.3875122      0.6686707      0.0558395     -0.0459442      0.0626297     -0.0484505     -0.0957947     -0.9006042
417203008     -0.3869019      0.6687927      0.0559597     -0.0461826      0.0626869     -0.0486069     -0.0960999     -0.9007263
417204000     -0.3865051      0.6689148      0.0560684     -0.0462017      0.0628586     -0.0487823     -0.0963440     -0.9007263
417204992     -0.3858337      0.6689453      0.0561543     -0.0463848      0.0629692     -0.0489883     -0.0967407     -0.9007263
417206016     -0.3851929      0.6691895      0.0562649     -0.0465145      0.0631294     -0.0490990     -0.0970764     -0.9006958
417207008     -0.3848267      0.6691895      0.0563736     -0.0467072      0.0632324     -0.0492706     -0.0971680     -0.9007874
417208000     -0.3843079      0.6693115      0.0565453     -0.0469608      0.0633850     -0.0494080     -0.0975647     -0.9007263
417208992     -0.3836670      0.6695862      0.0566521     -0.0470581      0.0634460     -0.0495491     -0.0978699     -0.9006042
417209984     -0.3830261      0.6697998      0.0567665     -0.0472069      0.0636597     -0.0497475     -0.0982056     -0.9008179
417211008     -0.3827209      0.6695862      0.0568676     -0.0473423      0.0637436     -0.0499954     -0.0987244     -0.9008789
417212000     -0.3823242      0.6698914      0.0569649     -0.0474968      0.0638466     -0.0501366     -0.0987549     -0.9010010
417212992     -0.3817139      0.6699219      0.0570583     -0.0476246      0.0639687     -0.0503082     -0.0991211     -0.9011841
417214016     -0.3811340      0.6699524      0.0571842     -0.0477638      0.0641479     -0.0504951     -0.0997009     -0.9011536
417215008     -0.3807678      0.6703491      0.0573597     -0.0479755      0.0642929     -0.0506172     -0.0999756     -0.9009094
417216000     -0.3802490      0.6703186      0.0574322     -0.0481834      0.0642891     -0.0508461     -0.1004028     -0.9007874
417216992     -0.3794861      0.6706543      0.0574474     -0.0483456      0.0645370     -0.0509758     -0.1007080     -0.9009705
417217984     -0.3789368      0.6707764      0.0576477     -0.0485134      0.0646400     -0.0511665     -0.1008301     -0.9012756
417219008     -0.3785706      0.6708374      0.0577297     -0.0486412      0.0647430     -0.0513306     -0.1011963     -0.9009094
417220000     -0.3781128      0.6710510      0.0579224     -0.0488472      0.0649147     -0.0514946     -0.1015320     -0.9006653
417220992     -0.3776550      0.6710510      0.0580444     -0.0489426      0.0650444     -0.0516510     -0.1020813     -0.9010315
417222016     -0.3771973      0.6711731      0.0581150     -0.0490818      0.0650749     -0.0518646     -0.1023254     -0.9012451
417223008     -0.3761292      0.6716614      0.0581913     -0.0492916      0.0652618     -0.0520096     -0.1027832     -0.9013367
417224000     -0.3759766      0.6715698      0.0582924     -0.0494251      0.0654716     -0.0521545     -0.1030579     -0.9011536
417224992     -0.3753357      0.6715698      0.0585690     -0.0495739      0.0655212     -0.0523720     -0.1032104     -0.9009705
417225984     -0.3748474      0.6718140      0.0585480     -0.0497379      0.0656395     -0.0525513     -0.1038208     -0.9012756
417227008     -0.3741760      0.6720276      0.0587196     -0.0499592      0.0658264     -0.0527649     -0.1041260     -0.9010620
417228000     -0.3738403      0.6720276      0.0588646     -0.0501480      0.0658989     -0.0528603     -0.1046143     -0.9012756
417228992     -0.3731079      0.6723328      0.0590172     -0.0502682      0.0660591     -0.0530739     -0.1047668     -0.9011536
417230016     -0.3725281      0.6727295      0.0591145     -0.0505123      0.0662613     -0.0533066     -0.1051636     -0.9013367
417231008     -0.3722229      0.6725464      0.0592251     -0.0506439      0.0663872     -0.0534401     -0.1055908     -0.9012451
417232000     -0.3715210      0.6727600      0.0594387     -0.0508747      0.0664749     -0.0536957     -0.1060181     -0.9011841
417232992     -0.3709717      0.6729736      0.0594845     -0.0509262      0.0667114     -0.0538559     -0.1061401     -0.9011230
417233984     -0.3706970      0.6728210      0.0596199     -0.0510807      0.0668373     -0.0540352     -0.1063843     -0.9013672
417235008     -0.3699341      0.6730347      0.0597572     -0.0513840      0.0669746     -0.0541725     -0.1068115     -0.9012451
417236000     -0.3692017      0.6732178      0.0598278     -0.0514431      0.0671005     -0.0544739     -0.1074219     -0.9011841
417236992     -0.3687744      0.6735229      0.0599232     -0.0516605      0.0671997     -0.0545731     -0.1076660     -0.9013672
417238016     -0.3684082      0.6735535      0.0601730     -0.0518055      0.0673294     -0.0548325     -0.1080933     -0.9013062
417239008     -0.3677673      0.6738281      0.0602665     -0.0520992      0.0675659     -0.0550156     -0.1084595     -0.9014282
417240000     -0.3671570      0.6741638      0.0603466     -0.0522366      0.0676804     -0.0552368     -0.1089478     -0.9013672
417240992     -0.3666992      0.6742859      0.0604477     -0.0523796      0.0678444     -0.0553932     -0.1090698     -0.9012451
417241984     -0.3659058      0.6743469      0.0606861     -0.0525932      0.0679321     -0.0556221     -0.1096191     -0.9015503
417243008     -0.3654785      0.6745911      0.0608120     -0.0527534      0.0680695     -0.0557289     -0.1100464     -0.9013062
417244000     -0.3646851      0.6747131      0.0608845     -0.0529518      0.0682182     -0.0560188     -0.1104126     -0.9015503
417244992     -0.3643188      0.6748352      0.0610504     -0.0530643      0.0683746     -0.0561562     -0.1105347     -0.9014282
417246016     -0.3636169      0.6749878      0.0611687     -0.0533333      0.0685425     -0.0564346     -0.1111450     -0.9014282
417247008     -0.3630371      0.6751099      0.0613613     -0.0535221      0.0686760     -0.0566368     -0.1115112     -0.9012451
417248000     -0.3625488      0.6751709      0.0614300     -0.0536652      0.0688782     -0.0567818     -0.1118164     -0.9016113
417248992     -0.3617554      0.6754456      0.0615406     -0.0538578      0.0689774     -0.0569725     -0.1122437     -0.9013672
417249984     -0.3612671      0.6755371      0.0616970     -0.0540562      0.0691528     -0.0571976     -0.1126099     -0.9014893
417251008     -0.3605042      0.6757202      0.0618553     -0.0542278      0.0692558     -0.0574379     -0.1128540     -0.9014282
417252000     -0.3599854      0.6757507      0.0619144     -0.0543938      0.0694923     -0.0576019     -0.1132202     -0.9014893
417252992     -0.3595581      0.6759644      0.0620708     -0.0545921      0.0694847     -0.0578346     -0.1135864     -0.9014893
417254016     -0.3589172      0.6762390      0.0622177     -0.0548038      0.0697670     -0.0580482     -0.1139526     -0.9014893
417255008     -0.3585205      0.6763306      0.0623264     -0.0549927      0.0698471     -0.0583572     -0.1141968     -0.9015503
417256000     -0.3578796      0.6765137      0.0624638     -0.0551643      0.0701027     -0.0584946     -0.1149292     -0.9015503
417256992     -0.3571777      0.6766357      0.0627327     -0.0553741      0.0701790     -0.0587845     -0.1152954     -0.9013672
417257984     -0.3564758      0.6768799      0.0627670     -0.0555763      0.0702705     -0.0589256     -0.1154175     -0.9014282
417259008     -0.3558655      0.6769409      0.0628738     -0.0557709      0.0704308     -0.0591316     -0.1160278     -0.9015503
417260000     -0.3550415      0.6772461      0.0629349     -0.0559387      0.0706406     -0.0594177     -0.1162109     -0.9014282
417260992     -0.3545532      0.6770325      0.0631905     -0.0561523      0.0708084     -0.0595856     -0.1168213     -0.9014282
417262016     -0.3538208      0.6773376      0.0632782     -0.0563393      0.0710068     -0.0598030     -0.1172485     -0.9012451
417263008     -0.3534851      0.6775208      0.0634193     -0.0566406      0.0711174     -0.0600929     -0.1174316     -0.9011841
417264000     -0.3527832      0.6775208      0.0636139     -0.0567551      0.0712509     -0.0602837     -0.1178589     -0.9013672
417264992     -0.3521729      0.6777649      0.0637360     -0.0569191      0.0713959     -0.0604553     -0.1182251     -0.9016724
417265984     -0.3513794      0.6781616      0.0637894     -0.0571594      0.0715103     -0.0607109     -0.1188965     -0.9015503
417267008     -0.3508301      0.6781616      0.0639725     -0.0573921      0.0717392     -0.0609207     -0.1192627     -0.9015503
417268000     -0.3502197      0.6782227      0.0640945     -0.0575867      0.0718994     -0.0611954     -0.1195679     -0.9015503
417268992     -0.3493958      0.6784363      0.0642929     -0.0578384      0.0720139     -0.0614319     -0.1197510     -0.9017334
417270016     -0.3489075      0.6785889      0.0644226     -0.0580215      0.0722389     -0.0615654     -0.1200562     -0.9011841
417271008     -0.3481140      0.6788025      0.0645294     -0.0582275      0.0723457     -0.0618553     -0.1207275     -0.9013062
417272000     -0.3475952      0.6789856      0.0647240     -0.0584526      0.0724602     -0.0620537     -0.1212769     -0.9015503
417272992     -0.3467712      0.6790771      0.0648384     -0.0586090      0.0727081     -0.0624008     -0.1216431     -0.9015503
417273984     -0.3460999      0.6792603      0.0649605     -0.0588570      0.0728149     -0.0625343     -0.1220703     -0.9013062
417275008     -0.3455200      0.6795654      0.0650520     -0.0590591      0.0729713     -0.0627899     -0.1223755     -0.9013672
417276000     -0.3448181      0.6794128      0.0652351     -0.0592575      0.0732117     -0.0630760     -0.1229858     -0.9013672
417276992     -0.3442993      0.6795959      0.0654678     -0.0595169      0.0733604     -0.0632782     -0.1232300     -0.9013672
417278016     -0.3435364      0.6797791      0.0655251     -0.0597115      0.0735245     -0.0635948     -0.1234741     -0.9014893
417279008     -0.3429871      0.6798096      0.0656471     -0.0599632      0.0736618     -0.0638237     -0.1241455     -0.9011841
417280000     -0.3419495      0.6800842      0.0657425     -0.0601692      0.0738449     -0.0639992     -0.1244507     -0.9014282
417280992     -0.3416748      0.6801758      0.0659370     -0.0603790      0.0739822     -0.0642624     -0.1250000     -0.9014893
417281984     -0.3408813      0.6803894      0.0661354     -0.0606422      0.0741043     -0.0645103     -0.1253662     -0.9014282
417283008     -0.3402405      0.6803894      0.0662537     -0.0608444      0.0743217     -0.0647583     -0.1256104     -0.9013062
417284000     -0.3395386      0.6805420      0.0664558     -0.0610085      0.0744591     -0.0650482     -0.1259155     -0.9013672
417284992     -0.3390503      0.6806946      0.0665054     -0.0612946      0.0746040     -0.0652924     -0.1265259     -0.9014282
417286016     -0.3381653      0.6808167      0.0666885     -0.0614586      0.0748558     -0.0654755     -0.1269531     -0.9015503
417287008     -0.3375549      0.6811523      0.0668945     -0.0617638      0.0749855     -0.0657234     -0.1271973     -0.9013672
417288000     -0.3367004      0.6812439      0.0669975     -0.0619621      0.0751495     -0.0660591     -0.1277466     -0.9015503
417288992     -0.3360901      0.6814270      0.0671768     -0.0622520      0.0753632     -0.0662537     -0.1282959     -0.9011841
417289984     -0.3352966      0.6813660      0.0673180     -0.0625000      0.0754547     -0.0665321     -0.1284790     -0.9011841
417291008     -0.3346863      0.6816406      0.0674744     -0.0627060      0.0756874     -0.0667076     -0.1291504     -0.9016113
417292000     -0.3340454      0.6817017      0.0676689     -0.0629234      0.0757523     -0.0670128     -0.1293945     -0.9012451
417292992     -0.3332825      0.6818542      0.0677910     -0.0631485      0.0759964     -0.0672722     -0.1300049     -0.9014893
417294016     -0.3325195      0.6820984      0.0679588     -0.0634270      0.0761337     -0.0675278     -0.1304321     -0.9014893
417295008     -0.3319702      0.6819153      0.0680847     -0.0636482      0.0762939     -0.0678253     -0.1308594     -0.9012451
417296000     -0.3311157      0.6820374      0.0681458     -0.0639076      0.0765839     -0.0680351     -0.1311035     -0.9011841
417296992     -0.3303833      0.6824951      0.0684471     -0.0641251      0.0766602     -0.0684204     -0.1314697     -0.9011230
417297984     -0.3297119      0.6825256      0.0686378     -0.0643578      0.0768890     -0.0686646     -0.1322021     -0.9012451
417299008     -0.3289490      0.6826172      0.0687485     -0.0645638      0.0770340     -0.0688705     -0.1325684     -0.9010010
417300000     -0.3282471      0.6829224      0.0689774     -0.0648575      0.0771370     -0.0691414     -0.1328735     -0.9010010
417300992     -0.3278503      0.6828308      0.0690689     -0.0651550      0.0774078     -0.0694237     -0.1333618     -0.9011841
417302016     -0.3269348      0.6832886      0.0692024     -0.0653343      0.0775604     -0.0697060     -0.1338501     -0.9010010
417303008     -0.3262634      0.6829834      0.0694008     -0.0656013      0.0777130     -0.0700607     -0.1342163     -0.9009399
417304000     -0.3255005      0.6833801      0.0695076     -0.0657959      0.0779114     -0.0702667     -0.1348877     -0.9008789
417304992     -0.3247375      0.6834106      0.0697021     -0.0661049      0.0780411     -0.0705032     -0.1351929     -0.9009399
417305984     -0.3239136      0.6834106      0.0698814     -0.0663681      0.0782814     -0.0708122     -0.1358032     -0.9010010
417307008     -0.3230591      0.6836853      0.0699921     -0.0667038      0.0784264     -0.0711441     -0.1361084     -0.9007568
417308000     -0.3224792      0.6838684      0.0701981     -0.0668640      0.0786095     -0.0713615     -0.1365356     -0.9008789
417308992     -0.3219910      0.6838989      0.0703316     -0.0671120      0.0788078     -0.0717125     -0.1369629     -0.9010620
417310016     -0.3208923      0.6842346      0.0704613     -0.0673828      0.0789642     -0.0719376     -0.1375122     -0.9009399
417311008     -0.3200989      0.6840515      0.0706367     -0.0676651      0.0791626     -0.0722694     -0.1378784     -0.9009399
417312000     -0.3194580      0.6843567      0.0707741     -0.0678596      0.0793228     -0.0725861     -0.1382446     -0.9008789
417312992     -0.3188782      0.6843872      0.0709953     -0.0682335      0.0795517     -0.0729218     -0.1387329     -0.9006958
417313984     -0.3178406      0.6845093      0.0711670     -0.0684471      0.0797005     -0.0731697     -0.1392212     -0.9005737
417315008     -0.3171387      0.6848450      0.0712700     -0.0687332      0.0799065     -0.0734596     -0.1397095     -0.9004517
417316000     -0.3164368      0.6849060      0.0714493     -0.0689964      0.0800552     -0.0738182     -0.1401367     -0.9005127
417316992     -0.3156433      0.6847839      0.0716171     -0.0692749      0.0802269     -0.0740662     -0.1406860     -0.9006348
417318016     -0.3147278      0.6850586      0.0717926     -0.0695457      0.0803223     -0.0743599     -0.1408691     -0.9004517
417319008     -0.3142090      0.6852112      0.0719147     -0.0698547      0.0806084     -0.0746384     -0.1413574     -0.9006348
417320000     -0.3134766      0.6853638      0.0721207     -0.0700760      0.0808105     -0.0749321     -0.1417847     -0.9003906
417320992     -0.3123779      0.6854248      0.0723000     -0.0704117      0.0809708     -0.0753098     -0.1422119     -0.9003296
417321984     -0.3118286      0.6854858      0.0724449     -0.0706825      0.0811653     -0.0755920     -0.1431885     -0.9006348
417323008     -0.3110046      0.6855469      0.0726547     -0.0709343      0.0813828     -0.0759430     -0.1434326     -0.9002075
417324000     -0.3101196      0.6855774      0.0728607     -0.0713005      0.0815353     -0.0761833     -0.1437988     -0.9003906
417324992     -0.3092651      0.6858215      0.0729218     -0.0715370      0.0816574     -0.0766106     -0.1445313     -0.9005127
417326016     -0.3082886      0.6860046      0.0731125     -0.0718269      0.0819168     -0.0768356     -0.1451416     -0.9000244
417327008     -0.3074951      0.6859741      0.0732918     -0.0721626      0.0821571     -0.0772171     -0.1451416     -0.9002075
417328000     -0.3068542      0.6860657      0.0733910     -0.0724182      0.0822334     -0.0775490     -0.1457520     -0.9000854
417328992     -0.3060303      0.6862183      0.0736275     -0.0726471      0.0824928     -0.0778809     -0.1462402     -0.9002075
417329984     -0.3051453      0.6863098      0.0737534     -0.0730209      0.0827255     -0.0782013     -0.1466675     -0.9002686
417331008     -0.3045959      0.6865540      0.0739746     -0.0732880      0.0828819     -0.0785828     -0.1469727     -0.8999634
417332000     -0.3034973      0.6865540      0.0741615     -0.0735779      0.0830498     -0.0789261     -0.1478271     -0.9000244
417332992     -0.3028259      0.6866150      0.0743103     -0.0739708      0.0832748     -0.0792809     -0.1484985     -0.9001465
417334016     -0.3020630      0.6868896      0.0745087     -0.0742188      0.0833778     -0.0795479     -0.1486206     -0.9002686
417335008     -0.3011169      0.6867676      0.0745735     -0.0745506      0.0836639     -0.0799446     -0.1493530     -0.8997192
417336000     -0.3003540      0.6868896      0.0748177     -0.0748825      0.0838585     -0.0802727     -0.1498413     -0.8998413
417336992     -0.2996826      0.6873474      0.0750084     -0.0751343      0.0839195     -0.0805588     -0.1503906     -0.8997192
417337984     -0.2989197      0.6871948      0.0752678     -0.0755272      0.0841599     -0.0809097     -0.1507568     -0.8997192
417339008     -0.2977600      0.6873169      0.0754089     -0.0758171      0.0843964     -0.0812645     -0.1511230     -0.8995361
417340000     -0.2969055      0.6875305      0.0754852     -0.0761032      0.0846024     -0.0816040     -0.1517334     -0.8996582
417340992     -0.2962646      0.6875305      0.0757294     -0.0764389      0.0848045     -0.0820580     -0.1520996     -0.8995972
417342016     -0.2951660      0.6877136      0.0758629     -0.0767021      0.0849571     -0.0823097     -0.1531372     -0.8993530
417343008     -0.2944336      0.6877136      0.0760155     -0.0770836      0.0851479     -0.0826683     -0.1532593     -0.8991089
417344000     -0.2934875      0.6878662      0.0761986     -0.0774193      0.0852852     -0.0831032     -0.1536865     -0.8994141
417344992     -0.2926941      0.6881104      0.0764847     -0.0778122      0.0855560     -0.0833664     -0.1539917     -0.8995361
417345984     -0.2919312      0.6880493      0.0765686     -0.0780525      0.0857277     -0.0837746     -0.1544189     -0.8990479
417347008     -0.2907715      0.6884460      0.0767860     -0.0784683      0.0859413     -0.0841599     -0.1552734     -0.8992310
417348000     -0.2901001      0.6881714      0.0770340     -0.0786591      0.0860825     -0.0845642     -0.1555786     -0.8992920
417348992     -0.2890625      0.6882935      0.0770912     -0.0790596      0.0863304     -0.0848656     -0.1563110     -0.8991699
417350016     -0.2883606      0.6886292      0.0772896     -0.0793800      0.0865707     -0.0853462     -0.1569214     -0.8989868
417351008     -0.2874756      0.6885681      0.0774803     -0.0796700      0.0868301     -0.0856857     -0.1574097     -0.8988647
417352000     -0.2864075      0.6885071      0.0776672     -0.0800247      0.0869522     -0.0860443     -0.1578369     -0.8988647
