!HP8753
# HZ S RI R 50
393000000      0.9132690     -0.3959961      0.0001353      0.0001720      0.0001308      0.0001492      0.9102783     -0.4168701
393031264      0.9133911     -0.3957520      0.0001350      0.0001700      0.0001488      0.0001606      0.9108276     -0.4171753
393062496      0.9130249     -0.3956909      0.0001432      0.0001799      0.0001174      0.0001456      0.9104614     -0.4172974
393093760      0.9136353     -0.3960571      0.0001239      0.0001751      0.0001317      0.0001691      0.9104614     -0.4171753
393124992      0.9132690     -0.3964233      0.0001221      0.0001550      0.0001335      0.0001565      0.9102173     -0.4173584
393156256      0.9135742     -0.3958130      0.0001253      0.0001577      0.0001163      0.0001599      0.9105225     -0.4171753
393187488      0.9133301     -0.3959961      0.0001077      0.0001610      0.0001208      0.0001603      0.9102783     -0.4172363
393218752      0.9134521     -0.3960571      0.0001114      0.0001778      0.0001057      0.0001349      0.9102783     -0.4174194
393249984      0.9134521     -0.3961182      0.0001156      0.0001533      0.0001050      0.0001593      0.9103394     -0.4172974
393281248      0.9131470     -0.3962402      0.0001090      0.0001752      0.0001000      0.0001465      0.9104004     -0.4174194
393312512      0.9130859     -0.3961792      0.0001026      0.0001696      0.0000927      0.0001494      0.9103394     -0.4173584
393343744      0.9133911     -0.3962402      0.0001036      0.0001502      0.0001071      0.0001647      0.9104004     -0.4173584
393375008      0.9131470     -0.3959961      0.0001026      0.0001539      0.0000911      0.0001693      0.9105835     -0.4171753
393406240      0.9131470     -0.3959961      0.0000891      0.0001682      0.0000787      0.0001700      0.9104004     -0.4172363
393437504      0.9129639     -0.3961792      0.0000919      0.0001649      0.0000954      0.0001567      0.9102783     -0.4174805
393468736      0.9132690     -0.3962402      0.0000919      0.0001611      0.0000914      0.0001743      0.9099121     -0.4177246
393500000      0.9130859     -0.3961182      0.0001039      0.0001602      0.0000736      0.0001678      0.9102783     -0.4176025
393531264      0.9132690     -0.3961792      0.0000858      0.0001812      0.0000873      0.0001789      0.9099121     -0.4175415
393562496      0.9133301     -0.3961792      0.0000886      0.0001819      0.0000813      0.0001723      0.9099121     -0.4175415
393593760      0.9132690     -0.3963013      0.0000882      0.0001719      0.0000750      0.0001715      0.9102173     -0.4176636
393624992      0.9128418     -0.3966675      0.0000854      0.0001948      0.0000904      0.0001806      0.9103394     -0.4176636
393656256      0.9129028     -0.3966064      0.0000895      0.0001781      0.0000894      0.0001738      0.9101563     -0.4174805
393687488      0.9130249     -0.3966675      0.0000844      0.0001907      0.0000647      0.0001776      0.9100952     -0.4174805
393718752      0.9129639     -0.3967285      0.0000975      0.0001664      0.0000615      0.0001759      0.9099121     -0.4178467
393750016      0.9129639     -0.3964844      0.0000821      0.0001801      0.0000786      0.0001830      0.9099121     -0.4177856
393781248      0.9133911     -0.3967896      0.0000779      0.0001889      0.0000806      0.0001730      0.9100952     -0.4178467
393812512      0.9133301     -0.3964233      0.0000765      0.0001984      0.0000690      0.0001885      0.9101563     -0.4178467
393843744      0.9129639     -0.3964233      0.0000752      0.0001764      0.0000864      0.0001901      0.9100952     -0.4178467
393875008      0.9126587     -0.3966675      0.0000825      0.0001940      0.0000890      0.0001794      0.9097900     -0.4179077
393906240      0.9129639     -0.3969116      0.0000885      0.0001975      0.0000762      0.0001857      0.9099731     -0.4179077
393937504      0.9128418     -0.3967285      0.0000715      0.0001912      0.0000925      0.0001861      0.9100342     -0.4180298
393968736      0.9129028     -0.3968506      0.0000830      0.0001881      0.0000694      0.0001959      0.9100952     -0.4181519
394000000      0.9129028     -0.3967896      0.0000811      0.0001995      0.0000762      0.0001961      0.9100952     -0.4182129
394031264      0.9125977     -0.3966675      0.0000863      0.0001831      0.0000745      0.0002007      0.9100342     -0.4182129
394062496      0.9129028     -0.3969727      0.0000881      0.0001758      0.0000875      0.0001994      0.9098511     -0.4179688
394093760      0.9130249     -0.3967285      0.0000787      0.0002009      0.0000787      0.0001986      0.9100952     -0.4179688
394124992      0.9128418     -0.3971558      0.0000823      0.0002137      0.0000820      0.0001897      0.9101563     -0.4180298
394156256      0.9127808     -0.3971558      0.0000649      0.0001896      0.0000700      0.0001978      0.9100342     -0.4182129
394187488      0.9131470     -0.3969727      0.0000856      0.0002047      0.0000831      0.0002121      0.9099121     -0.4183350
394218752      0.9129639     -0.3972168      0.0000855      0.0002165      0.0000697      0.0002059      0.9099121     -0.4183350
394249984      0.9127197     -0.3972778      0.0000750      0.0001961      0.0000915      0.0001948      0.9100952     -0.4185181
394281248      0.9124756     -0.3970337      0.0000847      0.0002123      0.0000515      0.0002025      0.9097290     -0.4185791
394312512      0.9127197     -0.3971558      0.0000773      0.0002064      0.0000865      0.0002081      0.9098511     -0.4179688
394343744      0.9125977     -0.3969727      0.0000750      0.0001921      0.0000703      0.0002052      0.9097290     -0.4180908
394375008      0.9127197     -0.3968506      0.0000722      0.0002071      0.0000896      0.0002074      0.9096680     -0.4184570
394406240      0.9126587     -0.3971558      0.0000712      0.0002147      0.0000766      0.0002087      0.9099121     -0.4187012
394437504      0.9130859     -0.3973389      0.0000763      0.0002179      0.0000754      0.0002206      0.9099731     -0.4183960
394468736      0.9130859     -0.3972168      0.0000702      0.0002263      0.0000890      0.0002081      0.9101563     -0.4183960
394500000      0.9130249     -0.3972168      0.0000804      0.0002131      0.0000682      0.0002153      0.9100952     -0.4187012
394531264      0.9128418     -0.3972778      0.0000956      0.0002191      0.0000817      0.0002240      0.9099731     -0.4187622
394562496      0.9127808     -0.3972168      0.0000877      0.0002269      0.0000750      0.0002156      0.9100952     -0.4187622
394593760      0.9125366     -0.3973389      0.0000897      0.0002233      0.0000817      0.0002239      0.9098511     -0.4188843
394624992      0.9123535     -0.3975220      0.0000851      0.0002299      0.0000778      0.0002203      0.9097290     -0.4185791
394656256      0.9124756     -0.3973999      0.0000832      0.0002177      0.0000682      0.0002308      0.9098511     -0.4185791
394687488      0.9127808     -0.3973389      0.0000961      0.0002289      0.0000819      0.0002183      0.9098511     -0.4185791
394718752      0.9127197     -0.3973999      0.0000850      0.0002143      0.0000868      0.0002287      0.9100952     -0.4187012
394750016      0.9127197     -0.3973999      0.0000914      0.0002277      0.0000888      0.0002081      0.9098511     -0.4187622
394781248      0.9124146     -0.3973999      0.0000965      0.0002191      0.0000864      0.0002213      0.9097900     -0.4190063
394812512      0.9126587     -0.3975830      0.0000767      0.0002238      0.0000850      0.0002307      0.9097290     -0.4188232
394843744      0.9126587     -0.3976440      0.0000915      0.0002316      0.0000923      0.0002172      0.9097290     -0.4191284
394875008      0.9125366     -0.3978271      0.0000887      0.0002270      0.0000906      0.0002190      0.9097290     -0.4191284
394906240      0.9124756     -0.3977661      0.0000804      0.0002289      0.0000940      0.0002258      0.9097900     -0.4189453
394937504      0.9121704     -0.3976440      0.0000960      0.0002328      0.0000994      0.0002225      0.9100952     -0.4191284
394968736      0.9124146     -0.3977051      0.0001099      0.0002245      0.0000868      0.0002181      0.9097290     -0.4190063
395000000      0.9122314     -0.3977661      0.0001015      0.0002263      0.0000950      0.0002351      0.9098511     -0.4190674
395031264      0.9127197     -0.3978271      0.0001016      0.0002223      0.0000904      0.0002166      0.9095459     -0.4188232
395062496      0.9125366     -0.3980713      0.0000988      0.0002296      0.0000949      0.0002220      0.9097290     -0.4191895
395093760      0.9126587     -0.3978271      0.0000946      0.0002265      0.0000979      0.0002187      0.9097290     -0.4191895
395124992      0.9127808     -0.3978271      0.0000983      0.0002196      0.0000914      0.0002258      0.9097900     -0.4192505
395156256      0.9125366     -0.3977661      0.0000978      0.0002333      0.0001005      0.0002236      0.9096680     -0.4192505
395187488      0.9125366     -0.3978271      0.0000991      0.0002317      0.0000915      0.0002048      0.9096069     -0.4191284
395218752      0.9126587     -0.3981934      0.0001089      0.0002165      0.0000820      0.0002128      0.9096069     -0.4191895
395249984      0.9124146     -0.3978882      0.0000886      0.0002152      0.0000858      0.0002138      0.9095459     -0.4191284
395281248      0.9122925     -0.3980713      0.0000945      0.0002304      0.0000907      0.0002266      0.9097290     -0.4192505
395312512      0.9122314     -0.3981323      0.0001098      0.0002324      0.0000898      0.0002199      0.9096680     -0.4193726
395343744      0.9122925     -0.3983765      0.0000876      0.0002267      0.0000831      0.0002244      0.9096069     -0.4191895
395375008      0.9124756     -0.3984375      0.0001140      0.0002236      0.0000998      0.0002218      0.9096069     -0.4193115
395406240      0.9124756     -0.3982544      0.0000979      0.0002136      0.0000930      0.0002215      0.9096069     -0.4193726
395437504      0.9124756     -0.3981934      0.0000982      0.0002314      0.0001064      0.0002171      0.9093628     -0.4195557
395468736      0.9120483     -0.3983154      0.0000982      0.0002353      0.0000921      0.0002171      0.9094849     -0.4193726
395500000      0.9121094     -0.3979492      0.0001024      0.0002264      0.0000935      0.0002078      0.9094849     -0.4195557
395531264      0.9121094     -0.3984985      0.0001085      0.0001986      0.0001006      0.0002155      0.9095459     -0.4196777
395562496      0.9125366     -0.3985596      0.0001052      0.0002233      0.0000916      0.0002227      0.9096069     -0.4196777
395593760      0.9124146     -0.3984985      0.0000973      0.0002114      0.0000927      0.0002320      0.9095459     -0.4193726
395624992      0.9121704     -0.3985596      0.0001148      0.0002159      0.0001102      0.0002231      0.9093628     -0.4196167
395656256      0.9124756     -0.3985596      0.0001118      0.0002467      0.0001126      0.0002204      0.9095459     -0.4194336
395687488      0.9122925     -0.3985596      0.0001037      0.0002250      0.0001066      0.0002374      0.9089966     -0.4196167
395718752      0.9124146     -0.3986816      0.0001144      0.0002295      0.0000675      0.0002257      0.9095459     -0.4197998
395750016      0.9124756     -0.3986206      0.0001102      0.0002383      0.0001083      0.0002225      0.9094238     -0.4197998
395781248      0.9121704     -0.3988037      0.0001050      0.0002311      0.0000938      0.0002307      0.9093018     -0.4199219
395812512      0.9121704     -0.3986206      0.0001156      0.0002240      0.0001011      0.0002278      0.9090576     -0.4197388
395843744      0.9119873     -0.3988647      0.0000972      0.0002469      0.0001023      0.0002266      0.9094849     -0.4197998
395875008      0.9119873     -0.3990479      0.0001097      0.0002401      0.0000973      0.0002269      0.9093628     -0.4201660
395906240      0.9119263     -0.3988647      0.0001028      0.0002286      0.0000916      0.0002383      0.9094849     -0.4199219
395937504      0.9122314     -0.3988647      0.0000927      0.0002260      0.0001039      0.0002246      0.9093018     -0.4199829
395968736      0.9120483     -0.3989868      0.0001139      0.0002313      0.0000891      0.0002384      0.9092407     -0.4201050
396000000      0.9121094     -0.3990479      0.0001056      0.0002253      0.0001090      0.0002269      0.9093018     -0.4201660
396031264      0.9119263     -0.3988037      0.0001091      0.0002419      0.0000892      0.0002304      0.9089966     -0.4199219
396062496      0.9119873     -0.3988037      0.0001016      0.0002401      0.0001092      0.0002188      0.9093628     -0.4201660
396093760      0.9122925     -0.3990479      0.0001146      0.0002355      0.0000971      0.0002269      0.9094849     -0.4201660
396124992      0.9121704     -0.3989258      0.0001105      0.0002247      0.0001115      0.0002293      0.9093628     -0.4201050
396156256      0.9121704     -0.3989258      0.0001159      0.0002458      0.0000975      0.0002342      0.9091797     -0.4200439
396187488      0.9119873     -0.3989868      0.0001136      0.0002393      0.0000954      0.0002312      0.9088135     -0.4201050
396218752      0.9119263     -0.3989868      0.0001307      0.0002377      0.0001114      0.0002397      0.9089966     -0.4199829
396249984      0.9120483     -0.3991089      0.0001196      0.0002427      0.0001195      0.0002543      0.9089966     -0.4201660
396281248      0.9121094     -0.3989258      0.0001246      0.0002460      0.0001334      0.0002338      0.9090576     -0.4201660
396312512      0.9121094     -0.3991699      0.0001191      0.0002407      0.0001125      0.0002361      0.9089966     -0.4202881
396343744      0.9116821     -0.3992920      0.0001312      0.0002398      0.0001319      0.0002278      0.9089966     -0.4203491
396375008      0.9118042     -0.3991699      0.0001252      0.0002323      0.0001184      0.0002476      0.9089355     -0.4202881
396406240      0.9118042     -0.3992920      0.0001287      0.0002528      0.0001134      0.0002322      0.9090576     -0.4205322
396437504      0.9118042     -0.3991699      0.0001351      0.0002584      0.0001358      0.0002362      0.9091187     -0.4203491
396468736      0.9116211     -0.3991699      0.0001542      0.0002378      0.0001434      0.0002383      0.9091797     -0.4205933
396500000      0.9118652     -0.3993530      0.0001366      0.0002412      0.0001353      0.0002474      0.9088135     -0.4204102
396531264      0.9119263     -0.3992920      0.0001348      0.0002368      0.0001149      0.0002385      0.9088745     -0.4204712
396562496      0.9121704     -0.3994751      0.0001391      0.0002281      0.0001297      0.0002378      0.9089355     -0.4205322
396593760      0.9119263     -0.3994141      0.0001297      0.0002415      0.0001318      0.0002326      0.9092407     -0.4204712
396624992      0.9116211     -0.3994751      0.0001579      0.0002230      0.0001507      0.0002380      0.9091187     -0.4205322
396656256      0.9118042     -0.3994141      0.0001558      0.0002500      0.0001548      0.0002335      0.9088745     -0.4204102
396687488      0.9118042     -0.3998413      0.0001401      0.0002500      0.0001416      0.0002298      0.9089355     -0.4207764
396718752      0.9116821     -0.3995972      0.0001555      0.0002323      0.0001394      0.0002348      0.9088135     -0.4203491
396750016      0.9116211     -0.3996582      0.0001518      0.0002314      0.0001594      0.0002258      0.9089966     -0.4205933
396781248      0.9113770     -0.3997803      0.0001541      0.0002299      0.0001552      0.0002149      0.9088745     -0.4209595
396812512      0.9118042     -0.3994751      0.0001578      0.0002387      0.0001517      0.0002212      0.9089355     -0.4211426
396843744      0.9114990     -0.3997192      0.0001551      0.0002262      0.0001686      0.0002130      0.9088745     -0.4209595
396875008      0.9116821     -0.3997803      0.0001702      0.0002244      0.0001536      0.0002113      0.9087524     -0.4209595
396906240      0.9115601     -0.3998413      0.0001601      0.0002335      0.0001591      0.0002258      0.9083862     -0.4207153
396937504      0.9114380     -0.3996582      0.0001689      0.0002025      0.0001648      0.0002143      0.9085083     -0.4208984
396968736      0.9114380     -0.3999023      0.0001772      0.0002202      0.0001724      0.0002164      0.9087524     -0.4208374
397000000      0.9114990     -0.3999023      0.0001580      0.0002113      0.0001676      0.0002062      0.9086914     -0.4208374
397031264      0.9113159     -0.3999634      0.0001742      0.0001978      0.0001611      0.0002133      0.9086914     -0.4209595
397062496      0.9114990     -0.3997803      0.0001639      0.0002148      0.0001668      0.0002044      0.9085083     -0.4209595
397093760      0.9114380     -0.3997803      0.0001606      0.0002081      0.0001603      0.0001830      0.9087524     -0.4210815
397124992      0.9115601     -0.3997803      0.0001644      0.0001972      0.0001542      0.0001975      0.9088135     -0.4210815
397156256      0.9113770     -0.3999634      0.0001782      0.0002009      0.0001638      0.0001922      0.9086304     -0.4213257
397187488      0.9116211     -0.3999634      0.0001779      0.0001988      0.0001697      0.0001882      0.9085083     -0.4213867
397218752      0.9114380     -0.4001465      0.0001741      0.0001979      0.0001638      0.0001816      0.9087524     -0.4213257
397249984      0.9113770     -0.4002686      0.0001732      0.0001858      0.0001548      0.0001863      0.9085083     -0.4210815
397281248      0.9114380     -0.3999634      0.0001714      0.0001658      0.0001712      0.0001813      0.9087524     -0.4208374
397312512      0.9111938     -0.3999634      0.0001551      0.0001872      0.0001748      0.0001775      0.9085693     -0.4208374
397343744      0.9113159     -0.4000244      0.0001717      0.0001835      0.0001682      0.0001846      0.9082642     -0.4208984
397375008      0.9112549     -0.4003906      0.0001640      0.0001716      0.0001490      0.0001823      0.9082642     -0.4210205
397406240      0.9113770     -0.4000854      0.0001746      0.0001803      0.0001395      0.0001642      0.9086914     -0.4210815
397437504      0.9114380     -0.4002686      0.0001705      0.0001655      0.0001579      0.0001752      0.9085083     -0.4211426
397468736      0.9114990     -0.4003296      0.0001663      0.0001742      0.0001552      0.0001703      0.9083862     -0.4212646
397500000      0.9113770     -0.4001465      0.0001654      0.0001543      0.0001504      0.0001575      0.9082031     -0.4216919
397531264      0.9112549     -0.4003906      0.0001591      0.0001488      0.0001594      0.0001553      0.9084473     -0.4214478
397562496      0.9112549     -0.4004517      0.0001669      0.0001606      0.0001490      0.0001458      0.9084473     -0.4216309
397593760      0.9114380     -0.4003906      0.0001663      0.0001586      0.0001432      0.0001523      0.9084473     -0.4215088
397624992      0.9113159     -0.4002686      0.0001425      0.0001446      0.0001511      0.0001358      0.9084473     -0.4214478
397656256      0.9112549     -0.4003906      0.0001530      0.0001532      0.0001602      0.0001466      0.9081421     -0.4212036
397687488      0.9112549     -0.4005127      0.0001645      0.0001542      0.0001484      0.0001465      0.9084473     -0.4215698
397718752      0.9110107     -0.4004517      0.0001526      0.0001433      0.0001449      0.0001243      0.9082642     -0.4213867
397750016      0.9107666     -0.4005127      0.0001628      0.0001302      0.0001315      0.0001286      0.9083862     -0.4217529
