!HP8753
# HZ S RI R 50
415500000      0.8952026     -0.4306641      0.0009450      0.0006674      0.0009230      0.0006767      0.8897095     -0.4517822
415503136      0.8950195     -0.4302979      0.0009474      0.0006467      0.0009328      0.0006667      0.8898315     -0.4517212
415506240      0.8952026     -0.4307251      0.0009577      0.0006600      0.0009264      0.0006632      0.8897095     -0.4517822
415509376      0.8952026     -0.4305420      0.0009731      0.0006571      0.0009534      0.0006514      0.8897705     -0.4518433
415512512      0.8949585     -0.4307861      0.0009762      0.0006438      0.0009581      0.0006560      0.8896484     -0.4519653
415515616      0.8952026     -0.4304810      0.0010017      0.0006522      0.0009748      0.0006376      0.8897095     -0.4518433
415518752      0.8950195     -0.4309082      0.0009974      0.0006367      0.0009869      0.0006425      0.8897705     -0.4520264
415521888      0.8951416     -0.4308472      0.0010212      0.0006298      0.0010027      0.0006329      0.8898315     -0.4520874
415524992      0.8950806     -0.4307861      0.0010283      0.0006151      0.0010092      0.0006474      0.8895874     -0.4519043
415528128      0.8949585     -0.4308472      0.0010341      0.0006152      0.0010090      0.0006328      0.8897705     -0.4522705
415531264      0.8952637     -0.4309692      0.0010529      0.0006155      0.0010354      0.0006133      0.8895874     -0.4522095
415534368      0.8949585     -0.4306641      0.0010568      0.0005893      0.0010286      0.0006206      0.8898926     -0.4523315
415537504      0.8952637     -0.4312134      0.0010741      0.0005843      0.0010557      0.0006028      0.8897095     -0.4522095
415540640      0.8948975     -0.4310303      0.0010890      0.0005884      0.0010651      0.0005985      0.8895874     -0.4521484
415543744      0.8951416     -0.4310303      0.0010930      0.0005828      0.0010707      0.0005820      0.8896484     -0.4522095
415546880      0.8950806     -0.4310913      0.0011080      0.0005814      0.0010754      0.0005925      0.8895264     -0.4522095
415550016      0.8949585     -0.4310913      0.0011122      0.0005742      0.0010948      0.0005763      0.8896484     -0.4523926
415553120      0.8950806     -0.4310913      0.0011418      0.0005635      0.0011127      0.0005814      0.8895874     -0.4522095
415556256      0.8949585     -0.4311523      0.0011337      0.0005517      0.0011327      0.0005635      0.8894653     -0.4522705
415559360      0.8949585     -0.4310913      0.0011516      0.0005543      0.0011262      0.0005618      0.8895874     -0.4521484
415562496      0.8949585     -0.4309692      0.0011667      0.0005547      0.0011457      0.0005311      0.8894653     -0.4522705
415565632      0.8948975     -0.4310913      0.0011775      0.0005380      0.0011548      0.0005537      0.8894043     -0.4523315
415568736      0.8947754     -0.4312134      0.0011804      0.0005270      0.0011595      0.0005463      0.8895264     -0.4525757
415571872      0.8948975     -0.4311523      0.0012112      0.0005186      0.0011756      0.0005288      0.8894653     -0.4523315
415575008      0.8948364     -0.4311523      0.0012174      0.0005035      0.0011883      0.0005201      0.8897095     -0.4523315
415578112      0.8948975     -0.4311523      0.0012239      0.0005114      0.0012120      0.0005105      0.8894043     -0.4523926
415581248      0.8947754     -0.4310913      0.0012300      0.0004983      0.0012280      0.0005114      0.8894043     -0.4523926
415584384      0.8949585     -0.4309692      0.0012424      0.0004946      0.0012314      0.0005071      0.8894043     -0.4523926
415587488      0.8948975     -0.4310913      0.0012612      0.0004975      0.0012273      0.0004950      0.8892822     -0.4523926
415590624      0.8949585     -0.4312744      0.0012764      0.0004674      0.0012536      0.0004933      0.8893433     -0.4523315
415593760      0.8947754     -0.4310303      0.0012915      0.0004646      0.0012637      0.0004925      0.8894043     -0.4524536
415596864      0.8946533     -0.4312744      0.0012882      0.0004489      0.0012734      0.0004718      0.8892822     -0.4525146
415600000      0.8946533     -0.4313965      0.0013094      0.0004421      0.0012964      0.0004587      0.8893433     -0.4525757
415603136      0.8946533     -0.4312744      0.0013093      0.0004385      0.0013024      0.0004475      0.8892212     -0.4525146
415606240      0.8945923     -0.4313965      0.0013236      0.0004312      0.0013022      0.0004332      0.8891602     -0.4525757
415609376      0.8944702     -0.4313354      0.0013484      0.0004072      0.0013276      0.0004481      0.8890991     -0.4525757
415612512      0.8944092     -0.4312134      0.0013580      0.0004190      0.0013232      0.0004392      0.8894043     -0.4526367
415615616      0.8943481     -0.4312744      0.0013610      0.0004097      0.0013516      0.0004073      0.8891602     -0.4528198
415618752      0.8944092     -0.4312134      0.0013733      0.0003893      0.0013592      0.0004117      0.8891602     -0.4527588
415621888      0.8942871     -0.4313965      0.0013901      0.0004029      0.0013660      0.0003994      0.8889160     -0.4527588
415624992      0.8942261     -0.4313965      0.0013881      0.0003688      0.0013824      0.0003929      0.8890991     -0.4526367
415628128      0.8942871     -0.4312744      0.0013999      0.0003620      0.0013934      0.0003908      0.8889160     -0.4527588
415631264      0.8941040     -0.4314575      0.0014212      0.0003699      0.0013928      0.0003616      0.8888550     -0.4528198
415634368      0.8942261     -0.4312744      0.0014445      0.0003518      0.0014030      0.0003713      0.8889771     -0.4528809
415637504      0.8937988     -0.4315186      0.0014423      0.0003288      0.0014247      0.0003526      0.8889771     -0.4528809
415640640      0.8938599     -0.4317627      0.0014611      0.0003370      0.0014567      0.0003546      0.8890381     -0.4528809
415643744      0.8942261     -0.4315796      0.0014689      0.0003184      0.0014491      0.0003343      0.8888550     -0.4528809
415646880      0.8937988     -0.4317627      0.0014803      0.0003114      0.0014622      0.0003327      0.8887329     -0.4530029
415649984      0.8937378     -0.4318237      0.0014933      0.0003003      0.0014846      0.0003155      0.8886108     -0.4531860
415653120      0.8937988     -0.4317627      0.0015012      0.0002949      0.0014791      0.0003123      0.8886719     -0.4531250
415656256      0.8936768     -0.4318848      0.0015327      0.0002826      0.0015014      0.0003172      0.8888550     -0.4533081
415659360      0.8936768     -0.4319458      0.0015373      0.0002713      0.0015049      0.0002840      0.8887329     -0.4532471
415662496      0.8935547     -0.4317627      0.0015552      0.0002607      0.0015256      0.0002770      0.8886108     -0.4531860
415665632      0.8936157     -0.4318848      0.0015634      0.0002631      0.0015388      0.0002733      0.8886108     -0.4531250
415668736      0.8937378     -0.4320068      0.0015610      0.0002476      0.0015613      0.0002657      0.8887329     -0.4532471
415671872      0.8934326     -0.4320068      0.0015939      0.0002260      0.0015814      0.0002587      0.8886719     -0.4533081
415675008      0.8934326     -0.4319458      0.0016043      0.0002168      0.0015818      0.0002321      0.8883057     -0.4534302
415678112      0.8932495     -0.4320679      0.0016173      0.0002040      0.0015876      0.0002407      0.8883057     -0.4533081
415681248      0.8933716     -0.4320679      0.0016315      0.0002102      0.0016098      0.0002240      0.8884277     -0.4533081
415684384      0.8931885     -0.4320679      0.0016336      0.0001930      0.0016166      0.0002222      0.8883667     -0.4534302
415687488      0.8932495     -0.4321899      0.0016491      0.0001841      0.0016397      0.0002075      0.8882446     -0.4536133
415690624      0.8934326     -0.4321899      0.0016760      0.0001755      0.0016471      0.0002114      0.8879395     -0.4534912
415693760      0.8933105     -0.4321899      0.0016857      0.0001665      0.0016702      0.0001944      0.8881226     -0.4531250
415696864      0.8933105     -0.4321899      0.0017095      0.0001557      0.0016714      0.0001839      0.8881836     -0.4534302
415700000      0.8931274     -0.4321289      0.0016997      0.0001305      0.0016994      0.0001670      0.8880615     -0.4534302
415703136      0.8933105     -0.4322510      0.0017198      0.0001314      0.0017114      0.0001537      0.8881836     -0.4533691
415706240      0.8931885     -0.4324341      0.0017619      0.0001118      0.0017343      0.0001459      0.8880615     -0.4532471
415709376      0.8931274     -0.4323120      0.0017534      0.0001076      0.0017484      0.0001357      0.8880005     -0.4534302
415712512      0.8931885     -0.4324341      0.0017767      0.0000950      0.0017564      0.0001234      0.8878784     -0.4534302
415715616      0.8931885     -0.4324341      0.0017952      0.0000805      0.0017852      0.0001116      0.8878784     -0.4534302
415718752      0.8931274     -0.4324951      0.0018015      0.0000775      0.0018007      0.0001022      0.8878784     -0.4534912
415721888      0.8929443     -0.4322510      0.0018283      0.0000782      0.0018299      0.0000904      0.8880005     -0.4534912
415724992      0.8930664     -0.4325562      0.0018511      0.0000485      0.0018291      0.0000739      0.8878784     -0.4534302
415728128      0.8928833     -0.4325562      0.0018580      0.0000411      0.0018561      0.0000907      0.8879395     -0.4534912
415731264      0.8930054     -0.4327393      0.0018715      0.0000284      0.0018729      0.0000558      0.8879395     -0.4533691
415734368      0.8930054     -0.4325562      0.0018950      0.0000292      0.0018847      0.0000485      0.8879395     -0.4535522
415737504      0.8926392     -0.4326782      0.0019259     -0.0000017      0.0019165      0.0000252      0.8875732     -0.4537354
415740640      0.8926392     -0.4326782      0.0019386     -0.0000087      0.0019212      0.0000267      0.8876953     -0.4534302
415743744      0.8925171     -0.4327393      0.0019610     -0.0000327      0.0019420      0.0000091      0.8876953     -0.4534302
415746880      0.8925781     -0.4328613      0.0019708     -0.0000365      0.0019562      0.0000134      0.8875732     -0.4533691
415750016      0.8924561     -0.4324951      0.0019944     -0.0000448      0.0019797      0.0000032      0.8876343     -0.4534302
415753120      0.8925171     -0.4327393      0.0020175     -0.0000690      0.0020008     -0.0000170      0.8875732     -0.4535522
415756256      0.8924561     -0.4326782      0.0020484     -0.0000603      0.0020320     -0.0000371      0.8875732     -0.4537354
415759360      0.8924561     -0.4330444      0.0020661     -0.0000802      0.0020361     -0.0000453      0.8873901     -0.4535522
415762496      0.8922729     -0.4330444      0.0020722     -0.0001121      0.0020714     -0.0000641      0.8874512     -0.4537964
415765632      0.8922729     -0.4329224      0.0021039     -0.0001040      0.0020826     -0.0000734      0.8876953     -0.4534912
415768736      0.8922729     -0.4329834      0.0021322     -0.0001253      0.0020843     -0.0000948      0.8873901     -0.4537964
415771872      0.8920898     -0.4329834      0.0021666     -0.0001376      0.0021384     -0.0001153      0.8874512     -0.4537354
415775008      0.8921509     -0.4330444      0.0021867     -0.0001426      0.0021552     -0.0001291      0.8874512     -0.4539185
415778112      0.8920898     -0.4328613      0.0022078     -0.0001816      0.0021826     -0.0001351      0.8872070     -0.4539185
415781248      0.8919678     -0.4330444      0.0022210     -0.0002021      0.0022185     -0.0001613      0.8872681     -0.4539795
415784384      0.8919067     -0.4331055      0.0022628     -0.0002140      0.0022393     -0.0001708      0.8870239     -0.4540405
415787488      0.8919067     -0.4331055      0.0022733     -0.0002207      0.0022719     -0.0001947      0.8872070     -0.4539795
415790624      0.8919067     -0.4331055      0.0023046     -0.0002463      0.0022974     -0.0002092      0.8871460     -0.4539795
415793760      0.8918457     -0.4329834      0.0023341     -0.0002813      0.0023168     -0.0002322      0.8869629     -0.4540405
415796864      0.8917847     -0.4329834      0.0023558     -0.0002956      0.0023513     -0.0002457      0.8869019     -0.4540405
415800000      0.8918457     -0.4329834      0.0023792     -0.0003196      0.0023770     -0.0002819      0.8867798     -0.4542236
415803136      0.8918457     -0.4330444      0.0024123     -0.0003375      0.0023969     -0.0002887      0.8869629     -0.4541626
415806240      0.8914185     -0.4332886      0.0024426     -0.0003288      0.0024310     -0.0003098      0.8868408     -0.4544067
415809376      0.8917847     -0.4331665      0.0024703     -0.0003688      0.0024499     -0.0003386      0.8869019     -0.4542236
415812512      0.8916626     -0.4330444      0.0024976     -0.0004098      0.0024899     -0.0003489      0.8865356     -0.4542847
415815616      0.8916016     -0.4332275      0.0025305     -0.0004277      0.0025309     -0.0003721      0.8865356     -0.4542847
415818752      0.8915405     -0.4331055      0.0025693     -0.0004741      0.0025673     -0.0004156      0.8865967     -0.4541626
415821888      0.8917236     -0.4334106      0.0026010     -0.0004801      0.0025699     -0.0004346      0.8865967     -0.4545898
415824992      0.8914795     -0.4331665      0.0026368     -0.0005172      0.0026195     -0.0004613      0.8865967     -0.4544067
415828128      0.8914795     -0.4333496      0.0026613     -0.0005316      0.0026436     -0.0004946      0.8863525     -0.4544678
415831264      0.8912964     -0.4332275      0.0026933     -0.0005642      0.0026611     -0.0005277      0.8864136     -0.4544678
415834368      0.8912964     -0.4331665      0.0027267     -0.0006127      0.0027176     -0.0005490      0.8863525     -0.4544067
415837504      0.8912354     -0.4332886      0.0027535     -0.0006307      0.0027519     -0.0005860      0.8862305     -0.4542847
415840640      0.8911743     -0.4331665      0.0027866     -0.0006651      0.0027741     -0.0006229      0.8862915     -0.4542847
415843744      0.8909912     -0.4332275      0.0028179     -0.0007002      0.0028081     -0.0006528      0.8862305     -0.4542847
415846880      0.8909302     -0.4331055      0.0028560     -0.0007479      0.0028483     -0.0006890      0.8858643     -0.4544678
415849984      0.8908691     -0.4334106      0.0028855     -0.0007833      0.0028783     -0.0007284      0.8861084     -0.4545288
415853120      0.8909302     -0.4330444      0.0029143     -0.0008166      0.0029116     -0.0007687      0.8859253     -0.4545898
415856256      0.8906860     -0.4332886      0.0029606     -0.0008659      0.0029496     -0.0008110      0.8860474     -0.4543457
415859360      0.8906250     -0.4332886      0.0029869     -0.0009115      0.0029789     -0.0008521      0.8859253     -0.4542847
415862496      0.8905640     -0.4332886      0.0030351     -0.0009465      0.0030175     -0.0008965      0.8859253     -0.4542847
415865632      0.8906250     -0.4331665      0.0030520     -0.0010006      0.0030445     -0.0009304      0.8858643     -0.4544678
415868736      0.8905640     -0.4331055      0.0030915     -0.0010412      0.0030910     -0.0009967      0.8857422     -0.4543457
415871872      0.8905029     -0.4333496      0.0031290     -0.0011085      0.0031135     -0.0010283      0.8856201     -0.4542847
415875008      0.8903198     -0.4331055      0.0031530     -0.0011526      0.0031477     -0.0010949      0.8857422     -0.4542236
415878112      0.8905640     -0.4332886      0.0031884     -0.0012028      0.0031860     -0.0011386      0.8856812     -0.4544678
415881248      0.8903198     -0.4331055      0.0032191     -0.0012590      0.0032079     -0.0011849      0.8856201     -0.4544067
415884384      0.8901978     -0.4331665      0.0032533     -0.0013189      0.0032314     -0.0012444      0.8856812     -0.4544067
415887488      0.8901978     -0.4331665      0.0032637     -0.0013561      0.0032730     -0.0013124      0.8856812     -0.4542847
415890624      0.8900757     -0.4329834      0.0033189     -0.0014070      0.0033041     -0.0013474      0.8854980     -0.4542236
415893760      0.8898926     -0.4330444      0.0033202     -0.0014923      0.0033250     -0.0014250      0.8851929     -0.4544678
415896864      0.8900146     -0.4331665      0.0033655     -0.0015535      0.0033605     -0.0014834      0.8854370     -0.4544678
415900000      0.8898315     -0.4331055      0.0033939     -0.0016134      0.0033963     -0.0015416      0.8854370     -0.4542847
415903136      0.8897095     -0.4329224      0.0034287     -0.0016930      0.0034153     -0.0016093      0.8853149     -0.4542847
415906240      0.8894653     -0.4332886      0.0034437     -0.0017574      0.0034473     -0.0016944      0.8851929     -0.4544067
415909376      0.8895264     -0.4329834      0.0034552     -0.0018237      0.0034647     -0.0017514      0.8853149     -0.4542236
415912512      0.8895874     -0.4331665      0.0034852     -0.0019047      0.0034893     -0.0018234      0.8851318     -0.4541626
415915616      0.8894653     -0.4330444      0.0035017     -0.0019853      0.0035052     -0.0018923      0.8849487     -0.4541016
415918752      0.8895264     -0.4331055      0.0035291     -0.0020454      0.0035391     -0.0019724      0.8850098     -0.4541626
415921888      0.8894043     -0.4330444      0.0035436     -0.0021412      0.0035558     -0.0020461      0.8850708     -0.4539185
415924992      0.8892822     -0.4328003      0.0035591     -0.0021954      0.0035601     -0.0021207      0.8849487     -0.4541016
415928128      0.8893433     -0.4329834      0.0035715     -0.0023017      0.0035739     -0.0021963      0.8851318     -0.4539185
415931264      0.8894043     -0.4329224      0.0035861     -0.0023868      0.0035999     -0.0022953      0.8851929     -0.4539795
415934368      0.8893433     -0.4331055      0.0035996     -0.0024567      0.0036123     -0.0023766      0.8851318     -0.4540405
415937504      0.8893433     -0.4327393      0.0036097     -0.0025454      0.0036075     -0.0024567      0.8850098     -0.4537964
415940640      0.8892822     -0.4324951      0.0035949     -0.0026362      0.0036244     -0.0025492      0.8850098     -0.4535522
415943744      0.8892212     -0.4329224      0.0036101     -0.0027170      0.0036185     -0.0026281      0.8849487     -0.4536133
415946880      0.8889160     -0.4328003      0.0036020     -0.0027940      0.0036211     -0.0027051      0.8850708     -0.4537964
415950016      0.8891602     -0.4327393      0.0036085     -0.0028985      0.0036125     -0.0028131      0.8850098     -0.4539185
415953120      0.8891602     -0.4327393      0.0036066     -0.0029819      0.0036285     -0.0028970      0.8848877     -0.4536743
415956256      0.8890991     -0.4325562      0.0035942     -0.0030837      0.0036118     -0.0029972      0.8849487     -0.4539185
415959360      0.8889771     -0.4324341      0.0035853     -0.0031645      0.0036094     -0.0030847      0.8848877     -0.4536743
415962496      0.8890381     -0.4326172      0.0035622     -0.0032654      0.0035899     -0.0031760      0.8846436     -0.4534912
415965632      0.8890991     -0.4321899      0.0035527     -0.0033543      0.0035944     -0.0032732      0.8848267     -0.4535522
415968736      0.8889771     -0.4323120      0.0035391     -0.0034485      0.0035615     -0.0033672      0.8845215     -0.4537354
415971872      0.8887329     -0.4322510      0.0035262     -0.0035410      0.0035501     -0.0034590      0.8847656     -0.4537964
415975008      0.8888550     -0.4321899      0.0034833     -0.0036428      0.0035336     -0.0035532      0.8850708     -0.4533691
