!RF1171,  DEMO1,wide,BN,8/25/06
# HZ S RI R 50
382500000     -0.9340820     -0.0268555      0.0003045      0.0009547      0.0002949      0.0008982     -0.4188843      0.6018066
382531264     -0.9339600     -0.0268555      0.0002964      0.0008684      0.0002857      0.0008332     -0.4174194      0.6025391
382562496     -0.9340210     -0.0259399      0.0002774      0.0008117      0.0002848      0.0007731     -0.4161682      0.6031189
382593760     -0.9340820     -0.0255737      0.0002719      0.0007584      0.0002639      0.0007055     -0.4145203      0.6038208
382624992     -0.9340210     -0.0250854      0.0002232      0.0007046      0.0002255      0.0006658     -0.4129028      0.6045837
382656256     -0.9338989     -0.0244751      0.0001773      0.0006744      0.0001791      0.0006464     -0.4113770      0.6049194
382687488     -0.9338379     -0.0241699      0.0001304      0.0006461      0.0001301      0.0006112     -0.4095459      0.6059875
382718752     -0.9337158     -0.0235596      0.0000965      0.0006583      0.0000843      0.0006125     -0.4079590      0.6064453
382750016     -0.9336548     -0.0229492      0.0000438      0.0006539      0.0000568      0.0006091     -0.4061279      0.6072083
382781248     -0.9337158     -0.0223999      0.0000179      0.0006424      0.0000133      0.0006216     -0.4044189      0.6078491
382812512     -0.9334717     -0.0220947     -0.0000282      0.0006513     -0.0000269      0.0006213     -0.4025574      0.6081238
382843744     -0.9331665     -0.0213013     -0.0000729      0.0006458     -0.0000609      0.0006175     -0.4008179      0.6088257
382875008     -0.9331665     -0.0209351     -0.0001218      0.0006633     -0.0001111      0.0006291     -0.3992004      0.6091614
382906240     -0.9331665     -0.0205078     -0.0001990      0.0006755     -0.0001843      0.0006391     -0.3972168      0.6099243
382937504     -0.9332275     -0.0199585     -0.0003016      0.0006954     -0.0002663      0.0006943     -0.3955688      0.6100464
382968736     -0.9331055     -0.0195313     -0.0004127      0.0007882     -0.0003814      0.0007522     -0.3935852      0.6101990
383000000     -0.9330444     -0.0192261     -0.0004833      0.0009375     -0.0004687      0.0008952     -0.3921509      0.6106262
383031264     -0.9329224     -0.0187988     -0.0005032      0.0011081     -0.0004719      0.0010853     -0.3903809      0.6106873
383062496     -0.9328613     -0.0182495     -0.0004550      0.0013036     -0.0004390      0.0012593     -0.3892822      0.6110840
383093760     -0.9326172     -0.0178223     -0.0003439      0.0014396     -0.0003341      0.0013776     -0.3878479      0.6115723
383124992     -0.9330444     -0.0172119     -0.0002384      0.0015240     -0.0002225      0.0014604     -0.3863525      0.6122742
383156256     -0.9327393     -0.0166626     -0.0001123      0.0015702     -0.0000973      0.0014928     -0.3849182      0.6128235
383187488     -0.9328003     -0.0158081     -0.0000303      0.0016054     -0.0000104      0.0015309     -0.3831787      0.6133118
383218752     -0.9328003     -0.0158081      0.0000756      0.0016463      0.0000781      0.0015515     -0.3813477      0.6141663
383249984     -0.9327393     -0.0150757      0.0001634      0.0016629      0.0001655      0.0015949     -0.3796082      0.6148071
383281248     -0.9326782     -0.0145264      0.0002548      0.0016856      0.0002557      0.0016283     -0.3778992      0.6151428
383312512     -0.9326172     -0.0137939      0.0003483      0.0017184      0.0003453      0.0016396     -0.3759460      0.6158142
383343744     -0.9326172     -0.0136719      0.0004447      0.0017215      0.0004461      0.0016353     -0.3740540      0.6162109
383375008     -0.9324951     -0.0131226      0.0005537      0.0017149      0.0005413      0.0016273     -0.3722229      0.6164246
383406240     -0.9324341     -0.0123291      0.0006602      0.0017148      0.0006437      0.0016271     -0.3702393      0.6167603
383437504     -0.9323730     -0.0118408      0.0007740      0.0016912      0.0007461      0.0016274     -0.3682556      0.6171570
383468736     -0.9323120     -0.0113525      0.0009171      0.0016583      0.0008750      0.0015796     -0.3662109      0.6170349
383500000     -0.9322510     -0.0108032      0.0010579      0.0015917      0.0010208      0.0015043     -0.3646240      0.6169739
383531264     -0.9321289     -0.0103149      0.0012177      0.0014462      0.0011649      0.0013701     -0.3631287      0.6166382
383562496     -0.9320068     -0.0097046      0.0013186      0.0012403      0.0012451      0.0011724     -0.3620605      0.6165771
383593760     -0.9318848     -0.0094604      0.0012852      0.0010239      0.0012239      0.0009668     -0.3610840      0.6168213
383624992     -0.9317017     -0.0089722      0.0012075      0.0008639      0.0011457      0.0008101     -0.3604126      0.6172791
383656256     -0.9316406     -0.0085449      0.0010635      0.0007535      0.0010255      0.0007151     -0.3592529      0.6180420
383687488     -0.9318848     -0.0076904      0.0009615      0.0007199      0.0009078      0.0006817     -0.3578491      0.6188354
383718752     -0.9316406     -0.0073853      0.0008679      0.0007132      0.0008487      0.0007002     -0.3562012      0.6200256
383750016     -0.9315186     -0.0070190      0.0008416      0.0007349      0.0007886      0.0007119     -0.3546143      0.6208191
383781248     -0.9314575     -0.0063477      0.0007812      0.0007358      0.0007414      0.0007063     -0.3526917      0.6216431
383812512     -0.9316406     -0.0058594      0.0007581      0.0007555      0.0007156      0.0007213     -0.3507996      0.6223145
383843744     -0.9315796     -0.0051880      0.0007280      0.0007788      0.0007160      0.0007353     -0.3488770      0.6228333
383875008     -0.9313965     -0.0048828      0.0007187      0.0007935      0.0006935      0.0007565     -0.3470764      0.6235046
383906240     -0.9313354     -0.0042725      0.0007212      0.0008257      0.0006989      0.0007794     -0.3450317      0.6239014
383937504     -0.9314575     -0.0037231      0.0006989      0.0008294      0.0006751      0.0007843     -0.3429565      0.6244507
383968736     -0.9314575     -0.0032349      0.0007132      0.0008522      0.0006815      0.0008093     -0.3410339      0.6250000
384000000     -0.9309692     -0.0027466      0.0007206      0.0008509      0.0007100      0.0007982     -0.3390808      0.6252441
384031264     -0.9310913     -0.0021362      0.0007408      0.0008559      0.0007178      0.0008082     -0.3372803      0.6255188
384062496     -0.9309692     -0.0014648      0.0007470      0.0008503      0.0007258      0.0008022     -0.3355103      0.6257629
384093760     -0.9310913     -0.0010376      0.0007476      0.0008534      0.0007319      0.0007958     -0.3337708      0.6260071
384124992     -0.9309082     -0.0006714      0.0007676      0.0008473      0.0007181      0.0007841     -0.3321838      0.6264038
384156256     -0.9307861      0.0000000      0.0007514      0.0008482      0.0007227      0.0008109     -0.3305359      0.6267395
384187488     -0.9309082      0.0004272      0.0007601      0.0008584      0.0007262      0.0008118     -0.3288574      0.6272888
384218752     -0.9308472      0.0012817      0.0007475      0.0008832      0.0007150      0.0008356     -0.3270874      0.6276245
384249984     -0.9306030      0.0015869      0.0007642      0.0009010      0.0007305      0.0008729     -0.3253784      0.6282043
384281248     -0.9305420      0.0020142      0.0007837      0.0009142      0.0007534      0.0008857     -0.3236389      0.6290283
384312512     -0.9305420      0.0024414      0.0008110      0.0009648      0.0007840      0.0009182     -0.3215027      0.6293945
384343744     -0.9306641      0.0031738      0.0008437      0.0009931      0.0008128      0.0009346     -0.3194885      0.6297913
384375008     -0.9303589      0.0039673      0.0009052      0.0009904      0.0008441      0.0009437     -0.3175049      0.6300049
384406240     -0.9304810      0.0043335      0.0009525      0.0010170      0.0008975      0.0009630     -0.3154907      0.6303406
384437504     -0.9302979      0.0046387      0.0010016      0.0010327      0.0009704      0.0009887     -0.3133545      0.6309509
384468736     -0.9298706      0.0054321      0.0010850      0.0010487      0.0010417      0.0010005     -0.3111572      0.6310425
384500000     -0.9299927      0.0057983      0.0011975      0.0010608      0.0011337      0.0010132     -0.3091431      0.6309814
384531264     -0.9298096      0.0064087      0.0013230      0.0010388      0.0012708      0.0009708     -0.3072815      0.6311646
384562496     -0.9297485      0.0068970      0.0014716      0.0009588      0.0014195      0.0009018     -0.3052063      0.6310730
384593760     -0.9295654      0.0075684      0.0015920      0.0008310      0.0015341      0.0007854     -0.3037109      0.6308899
384624992     -0.9291382      0.0079346      0.0016890      0.0006430      0.0016212      0.0005999     -0.3023376      0.6308289
384656256     -0.9293213      0.0081177      0.0017322      0.0004241      0.0016510      0.0003865     -0.3007507      0.6308289
384687488     -0.9290161      0.0086670      0.0016409      0.0002192      0.0015802      0.0001974     -0.2991943      0.6311340
384718752     -0.9290771      0.0092163      0.0015354      0.0000301      0.0014546      0.0000131     -0.2979126      0.6313477
384750016     -0.9293823      0.0097046      0.0013685     -0.0000720      0.0012996     -0.0000709     -0.2964478      0.6318970
384781248     -0.9289551      0.0102539      0.0012150     -0.0001393      0.0011548     -0.0001335     -0.2949219      0.6325073
384812512     -0.9288940      0.0108032      0.0010856     -0.0001149      0.0010284     -0.0001044     -0.2930298      0.6333313
384843744     -0.9289551      0.0108643      0.0009786     -0.0000645      0.0009222     -0.0000827     -0.2914734      0.6340637
384875008     -0.9289551      0.0118408      0.0009116     -0.0000468      0.0008670     -0.0000168     -0.2889709      0.6344604
384906240     -0.9290771      0.0123291      0.0008629     -0.0000054      0.0008299     -0.0000131     -0.2870483      0.6348572
384937504     -0.9291992      0.0128174      0.0008395      0.0000127      0.0007842      0.0000116     -0.2848206      0.6353149
384968736     -0.9290771      0.0132446      0.0007851      0.0000593      0.0007649      0.0000485     -0.2826843      0.6353760
385000000     -0.9290771      0.0136108      0.0007527      0.0000983      0.0007314      0.0000772     -0.2807312      0.6357727
385031264     -0.9287720      0.0144653      0.0007603      0.0001328      0.0007353      0.0001218     -0.2782593      0.6357422
385062496     -0.9287720      0.0149536      0.0007743      0.0001645      0.0007282      0.0001515     -0.2763062      0.6357117
385093760     -0.9287720      0.0155640      0.0008034      0.0001886      0.0007643      0.0001613     -0.2744751      0.6357727
385124992     -0.9285889      0.0163574      0.0008300      0.0001725      0.0007802      0.0001536     -0.2724915      0.6352539
385156256     -0.9284058      0.0164795      0.0008433      0.0001478      0.0007965      0.0001190     -0.2707214      0.6350098
385187488     -0.9284668      0.0174561      0.0008401      0.0001066      0.0008130      0.0000907     -0.2694092      0.6347656
385218752     -0.9281006      0.0177002      0.0008298      0.0000685      0.0007828      0.0000558     -0.2680054      0.6347961
385249984     -0.9284058      0.0182495      0.0008003      0.0000229      0.0007871      0.0000407     -0.2667847      0.6352844
385281248     -0.9281616      0.0192871      0.0007888      0.0000234      0.0007465      0.0000114     -0.2647095      0.6358032
385312512     -0.9279175      0.0195313      0.0007576      0.0000129      0.0007361      0.0000021     -0.2640686      0.6362610
385343744     -0.9279785      0.0198364      0.0007330     -0.0000020      0.0007073     -0.0000114     -0.2621765      0.6369019
385375008     -0.9277344      0.0204468      0.0006973      0.0000050      0.0006683      0.0000026     -0.2602234      0.6376038
385406240     -0.9276733      0.0211182      0.0006731     -0.0000055      0.0006462      0.0000063     -0.2582092      0.6382446
385437504     -0.9277344      0.0213013      0.0006530      0.0000302      0.0006087      0.0000201     -0.2563477      0.6387024
385468736     -0.9276733      0.0222473      0.0006512      0.0000459      0.0006263      0.0000264     -0.2543030      0.6391602
385500000     -0.9275818      0.0225830      0.0006662      0.0000413      0.0006333      0.0000446     -0.2522278      0.6392517
385531264     -0.9275818      0.0233154      0.0006540      0.0000455      0.0006405      0.0000276     -0.2501221      0.6395874
385562496     -0.9271851      0.0240173      0.0006852      0.0000250      0.0006632      0.0000305     -0.2476501      0.6402283
385593760     -0.9269104      0.0245667      0.0006969      0.0000190      0.0006683      0.0000259     -0.2455444      0.6400452
385624992     -0.9270325      0.0247192      0.0007162     -0.0000205      0.0006864     -0.0000204     -0.2436218      0.6402588
385656256     -0.9269714      0.0255127      0.0007229     -0.0000646      0.0006798     -0.0000757     -0.2416382      0.6405334
385687488     -0.9264832      0.0259399      0.0007217     -0.0001284      0.0006773     -0.0001252     -0.2397766      0.6405029
385718752     -0.9266357      0.0263367      0.0006931     -0.0001850      0.0006483     -0.0001866     -0.2378845      0.6408081
385750016     -0.9264832      0.0266418      0.0006429     -0.0002469      0.0006130     -0.0002283     -0.2358704      0.6409607
385781248     -0.9262695      0.0270996      0.0005592     -0.0002852      0.0005559     -0.0002745     -0.2337646      0.6411743
385812512     -0.9262085      0.0278015      0.0004867     -0.0003053      0.0004697     -0.0002879     -0.2318726      0.6413879
385843744     -0.9263000      0.0283203      0.0004176     -0.0002951      0.0003994     -0.0002656     -0.2297668      0.6415710
385875008     -0.9264221      0.0289917      0.0003535     -0.0002705      0.0003454     -0.0002681     -0.2278748      0.6419678
385906240     -0.9261780      0.0293579      0.0003199     -0.0002638      0.0003096     -0.0002497     -0.2255554      0.6421204
385937504     -0.9262085      0.0299072      0.0002745     -0.0002399      0.0002669     -0.0002382     -0.2235413      0.6423645
385968736     -0.9263306      0.0307007      0.0002582     -0.0002221      0.0002549     -0.0002206     -0.2213440      0.6425171
386000000     -0.9263000      0.0311890      0.0002559     -0.0002122      0.0002349     -0.0002088     -0.2189636      0.6425476
386031264     -0.9259338      0.0317688      0.0002273     -0.0002171      0.0002264     -0.0002084     -0.2165833      0.6425171
386062496     -0.9259033      0.0321350      0.0002086     -0.0002394      0.0001823     -0.0002392     -0.2143555      0.6421204
386093760     -0.9260254      0.0325928      0.0001626     -0.0002475      0.0001540     -0.0002518     -0.2122192      0.6421814
386124992     -0.9256592      0.0332336      0.0001106     -0.0002680      0.0001107     -0.0002559     -0.2099915      0.6417236
386156256     -0.9255676      0.0337830      0.0000218     -0.0002784      0.0000422     -0.0002783     -0.2081299      0.6414185
386187488     -0.9253845      0.0343018     -0.0000587     -0.0002711     -0.0000542     -0.0002409     -0.2059021      0.6406250
386218752     -0.9254456      0.0349426     -0.0001457     -0.0002125     -0.0001393     -0.0002133     -0.2043152      0.6401062
386249984     -0.9252319      0.0354004     -0.0002194     -0.0001561     -0.0001964     -0.0001373     -0.2028809      0.6396484
386281248     -0.9253235      0.0359192     -0.0002748     -0.0000536     -0.0002577     -0.0000570     -0.2016907      0.6393433
386312512     -0.9249878      0.0364380     -0.0002913      0.0000407     -0.0002749      0.0000429     -0.2005005      0.6392517
386343744     -0.9249573      0.0370789     -0.0002777      0.0001482     -0.0002473      0.0001395     -0.1991272      0.6396179
386375008     -0.9250793      0.0375366     -0.0002180      0.0002123     -0.0002071      0.0002127     -0.1979065      0.6403809
386406240     -0.9247742      0.0382080     -0.0001291      0.0002586     -0.0001284      0.0002366     -0.1960754      0.6410217
386437504     -0.9250488      0.0387268     -0.0000561      0.0002579     -0.0000689      0.0002418     -0.1940613      0.6415405
386468736     -0.9244995      0.0390625     -0.0000249      0.0002153     -0.0000194      0.0002089     -0.1920776      0.6422119
386500000     -0.9245605      0.0398560      0.0000205      0.0001479      0.0000203      0.0001576     -0.1896973      0.6425171
386531264     -0.9245911      0.0403442     -0.0000161      0.0000865      0.0000013      0.0000822     -0.1872253      0.6427307
386562496     -0.9245300      0.0409851     -0.0000410      0.0000329     -0.0000557      0.0000267     -0.1852722      0.6430054
386593760     -0.9243774      0.0414124     -0.0000991     -0.0000004     -0.0000921     -0.0000136     -0.1828613      0.6430054
386624992     -0.9238892      0.0419922     -0.0001662     -0.0000222     -0.0001429     -0.0000411     -0.1807861      0.6429749
386656256     -0.9239502      0.0427246     -0.0002371     -0.0000943     -0.0002301     -0.0000879     -0.1784058      0.6430359
386687488     -0.9239197      0.0431213     -0.0003568     -0.0001192     -0.0003289     -0.0001003     -0.1763611      0.6430969
386718752     -0.9238586      0.0437927     -0.0005107     -0.0001078     -0.0005058     -0.0001024     -0.1740723      0.6428528
386750016     -0.9236755      0.0443420     -0.0006989     -0.0000421     -0.0006614     -0.0000325     -0.1719055      0.6426697
386781248     -0.9233398      0.0447388     -0.0008503      0.0001013     -0.0007959      0.0000870     -0.1699829      0.6423035
386812512     -0.9233093      0.0454407     -0.0009704      0.0003026     -0.0008971      0.0002916     -0.1681213      0.6419983
386843744     -0.9230652      0.0456848     -0.0009671      0.0005273     -0.0009335      0.0005028     -0.1659851      0.6420288
386875008     -0.9234314      0.0461731     -0.0009019      0.0007397     -0.0008510      0.0007060     -0.1645813      0.6419678
386906240     -0.9230042      0.0468445     -0.0007798      0.0009021     -0.0007485      0.0008464     -0.1629333      0.6419983
386937504     -0.9233093      0.0473938     -0.0006546      0.0009916     -0.0006211      0.0009209     -0.1609497      0.6423950
386968736     -0.9231873      0.0478821     -0.0005283      0.0009930     -0.0004970      0.0009694     -0.1588440      0.6425476
387000000     -0.9230042      0.0484619     -0.0004268      0.0009896     -0.0003888      0.0009380     -0.1566467      0.6427307
387031264     -0.9227905      0.0490417     -0.0003729      0.0009629     -0.0003484      0.0009102     -0.1546326      0.6427307
387062496     -0.9227295      0.0496826     -0.0003411      0.0009335     -0.0003369      0.0009044     -0.1524353      0.6428528
387093760     -0.9228210      0.0503235     -0.0003412      0.0009223     -0.0003258      0.0008701     -0.1502686      0.6430359
387124992     -0.9224548      0.0506897     -0.0003462      0.0009290     -0.0003219      0.0008797     -0.1479492      0.6427002
387156256     -0.9223633      0.0512390     -0.0003574      0.0009311     -0.0003534      0.0008877     -0.1457520      0.6428528
387187488     -0.9222717      0.0519409     -0.0003757      0.0009503     -0.0003789      0.0008945     -0.1436768      0.6427612
387218752     -0.9222412      0.0523682     -0.0004089      0.0009985     -0.0004012      0.0009667     -0.1416931      0.6424561
387249984     -0.9219971      0.0529785     -0.0004209      0.0010573     -0.0003963      0.0010077     -0.1394958      0.6424866
