!rf1319e,demo1,narrow,bn,01/18/07
# HZ S RI R 50
860309952     -0.8198242      0.3594971      0.0051506     -0.0013845      0.0048776     -0.0022194     -0.9187622      0.0746460
860320832     -0.8197937      0.3594666      0.0051055     -0.0014448      0.0048141     -0.0022457     -0.9189453      0.0750122
860331648     -0.8196106      0.3598938      0.0050704     -0.0014935      0.0047615     -0.0022733     -0.9185181      0.0748901
860342528     -0.8192139      0.3595886      0.0050347     -0.0015194      0.0047143     -0.0023127     -0.9185791      0.0752563
860353408     -0.8194275      0.3598328      0.0049856     -0.0015702      0.0046649     -0.0023503     -0.9189453      0.0751953
860364288     -0.8192139      0.3600464      0.0049286     -0.0016139      0.0046213     -0.0023787     -0.9189453      0.0755615
860375104     -0.8191528      0.3603821      0.0048900     -0.0016437      0.0045483     -0.0024109     -0.9190063      0.0759277
860385984     -0.8192749      0.3602600      0.0048375     -0.0016825      0.0044982     -0.0024357     -0.9188843      0.0763550
860396864     -0.8191223      0.3605042      0.0047894     -0.0017321      0.0044529     -0.0024831     -0.9190674      0.0764160
860407744     -0.8188782      0.3605957      0.0047424     -0.0017717      0.0044041     -0.0025001     -0.9187622      0.0767212
860418560     -0.8191833      0.3605652      0.0046895     -0.0018089      0.0043368     -0.0025196     -0.9190063      0.0767822
860429440     -0.8185425      0.3606873      0.0046337     -0.0018430      0.0042820     -0.0025480     -0.9190063      0.0767212
860440320     -0.8189697      0.3609009      0.0045722     -0.0018668      0.0042212     -0.0025637     -0.9189453      0.0770874
860451136     -0.8185425      0.3610840      0.0045388     -0.0018871      0.0041599     -0.0025790     -0.9185791      0.0777588
860462016     -0.8186951      0.3611145      0.0044782     -0.0019212      0.0041051     -0.0026124     -0.9190063      0.0776978
860472896     -0.8184509      0.3610229      0.0044479     -0.0019493      0.0040498     -0.0026131     -0.9190063      0.0776978
860483776     -0.8183594      0.3614807      0.0043874     -0.0019681      0.0039833     -0.0026488     -0.9191284      0.0778198
860494592     -0.8185425      0.3614502      0.0043211     -0.0019960      0.0039268     -0.0026548     -0.9190063      0.0785522
860505472     -0.8183289      0.3613586      0.0042677     -0.0020192      0.0038769     -0.0026543     -0.9188843      0.0786133
860516352     -0.8182068      0.3616028      0.0042052     -0.0020466      0.0038199     -0.0026808     -0.9188843      0.0789795
860527232     -0.8180237      0.3616333      0.0041571     -0.0020611      0.0037661     -0.0026863     -0.9189453      0.0790405
860538048     -0.8178406      0.3619690      0.0041060     -0.0020869      0.0037043     -0.0027089     -0.9191284      0.0792236
860548928     -0.8179321      0.3619385      0.0040407     -0.0020902      0.0036364     -0.0027120     -0.9191895      0.0797729
860559808     -0.8179626      0.3622131      0.0039990     -0.0020974      0.0035784     -0.0026941     -0.9185181      0.0798340
860570624     -0.8178101      0.3622742      0.0039525     -0.0021241      0.0035312     -0.0027106     -0.9188232      0.0801392
860581504     -0.8176880      0.3626709      0.0038707     -0.0021203      0.0034847     -0.0027061     -0.9191284      0.0803223
860592384     -0.8175964      0.3627014      0.0038264     -0.0021331      0.0034189     -0.0027184     -0.9188232      0.0801392
860603264     -0.8175049      0.3626099      0.0037789     -0.0021338      0.0033681     -0.0027122     -0.9190674      0.0805054
860614080     -0.8176575      0.3631592      0.0037155     -0.0021524      0.0033121     -0.0026953     -0.9187012      0.0808105
860624960     -0.8177185      0.3631897      0.0036635     -0.0021520      0.0032672     -0.0026896     -0.9190063      0.0812378
860635840     -0.8173523      0.3631897      0.0036147     -0.0021491      0.0032066     -0.0027076     -0.9189453      0.0814209
860646720     -0.8171997      0.3631592      0.0035682     -0.0021696      0.0031527     -0.0026891     -0.9188843      0.0814209
860657536     -0.8174438      0.3636780      0.0035062     -0.0021584      0.0031016     -0.0026914     -0.9188843      0.0817261
860668416     -0.8172607      0.3637085      0.0034609     -0.0021546      0.0030712     -0.0026782     -0.9190063      0.0819702
860679296     -0.8172302      0.3639221      0.0034037     -0.0021536      0.0030104     -0.0026683     -0.9189453      0.0817261
860690112     -0.8171387      0.3641663      0.0033402     -0.0021404      0.0029608     -0.0026489     -0.9189453      0.0820923
860700992     -0.8170166      0.3640747      0.0032991     -0.0021605      0.0029089     -0.0026351     -0.9190063      0.0824585
860711872     -0.8169250      0.3640747      0.0032489     -0.0021576      0.0028789     -0.0026366     -0.9190674      0.0827637
860722752     -0.8169556      0.3648071      0.0031910     -0.0021470      0.0028210     -0.0026125     -0.9190674      0.0828247
860733568     -0.8168030      0.3646545      0.0031651     -0.0021394      0.0027817     -0.0025895     -0.9188843      0.0831909
860744448     -0.8164368      0.3648682      0.0031103     -0.0021397      0.0027241     -0.0025921     -0.9185181      0.0834351
860755328     -0.8165283      0.3647461      0.0030770     -0.0021241      0.0026891     -0.0025713     -0.9190063      0.0836182
860766208     -0.8164368      0.3653259      0.0030161     -0.0021251      0.0026408     -0.0025598     -0.9189453      0.0837402
860777024     -0.8164673      0.3653259      0.0029867     -0.0021141      0.0025932     -0.0025314     -0.9187622      0.0838013
860787904     -0.8158875      0.3652954      0.0029289     -0.0020907      0.0025623     -0.0025202     -0.9189453      0.0842896
860798784     -0.8161316      0.3654480      0.0028967     -0.0020914      0.0025220     -0.0025079     -0.9187012      0.0845947
860809600     -0.8158875      0.3655701      0.0028520     -0.0020741      0.0024756     -0.0024898     -0.9192505      0.0848999
860820480     -0.8159180      0.3658752      0.0028068     -0.0020727      0.0024288     -0.0024650     -0.9187012      0.0848389
860831360     -0.8158264      0.3660583      0.0027783     -0.0020514      0.0024033     -0.0024403     -0.9187622      0.0853271
860842240     -0.8156738      0.3661194      0.0027318     -0.0020384      0.0023607     -0.0024230     -0.9187622      0.0852661
860853056     -0.8157043      0.3662720      0.0026877     -0.0020107      0.0023242     -0.0024152     -0.9189453      0.0858154
860863936     -0.8156738      0.3666687      0.0026617     -0.0020088      0.0022956     -0.0023932     -0.9188843      0.0856323
860874816     -0.8155518      0.3664551      0.0026125     -0.0019960      0.0022506     -0.0023674     -0.9187622      0.0861206
860885696     -0.8152771      0.3668213      0.0025663     -0.0019801      0.0022213     -0.0023327     -0.9187012      0.0863037
860896512     -0.8150024      0.3669739      0.0025457     -0.0019410      0.0021890     -0.0023243     -0.9185791      0.0864258
860907392     -0.8150330      0.3670349      0.0025198     -0.0019455      0.0021592     -0.0022875     -0.9189453      0.0868530
860918272     -0.8149109      0.3670654      0.0024817     -0.0019262      0.0021327     -0.0022666     -0.9188232      0.0868530
860929088     -0.8146057      0.3673401      0.0024304     -0.0019072      0.0021061     -0.0022416     -0.9188843      0.0874023
860939968     -0.8144531      0.3674011      0.0024134     -0.0018940      0.0020719     -0.0022281     -0.9185791      0.0874023
860950848     -0.8146973      0.3677368      0.0023736     -0.0018791      0.0020349     -0.0022008     -0.9187622      0.0875244
860961728     -0.8144226      0.3677979      0.0023421     -0.0018544      0.0020050     -0.0021764     -0.9188232      0.0878296
860972544     -0.8141785      0.3679504      0.0023168     -0.0018322      0.0019838     -0.0021664     -0.9185791      0.0881958
860983424     -0.8140259      0.3681030      0.0022776     -0.0018289      0.0019584     -0.0021312     -0.9184570      0.0880737
860994304     -0.8140564      0.3681030      0.0022501     -0.0017810      0.0019310     -0.0021131     -0.9187622      0.0883789
861005184     -0.8136292      0.3684082      0.0022322     -0.0017704      0.0018977     -0.0020940     -0.9185181      0.0885010
861016000     -0.8137207      0.3684998      0.0022025     -0.0017594      0.0018947     -0.0020614     -0.9183960      0.0889893
861026880     -0.8133850      0.3683777      0.0021681     -0.0017389      0.0018550     -0.0020289     -0.9188232      0.0892944
861037760     -0.8133240      0.3685303      0.0021390     -0.0017148      0.0018318     -0.0020075     -0.9185791      0.0894165
861048576     -0.8134460      0.3684998      0.0021253     -0.0016954      0.0018266     -0.0019878     -0.9187012      0.0894165
861059456     -0.8132019      0.3688049      0.0020962     -0.0016776      0.0017974     -0.0019602     -0.9187622      0.0899658
861070336     -0.8129272      0.3688660      0.0020630     -0.0016516      0.0017816     -0.0019431     -0.9185791      0.0899048
861081216     -0.8128052      0.3688660      0.0020356     -0.0016351      0.0017645     -0.0019157     -0.9185181      0.0902100
861092032     -0.8128967      0.3689880      0.0020211     -0.0016150      0.0017399     -0.0018948     -0.9185181      0.0904541
861102912     -0.8126221      0.3692322      0.0019943     -0.0015744      0.0017166     -0.0018662     -0.9182739      0.0908203
861113792     -0.8126221      0.3693542      0.0019737     -0.0015738      0.0016854     -0.0018477     -0.9185791      0.0910645
861124608     -0.8126831      0.3694153      0.0019387     -0.0015594      0.0016785     -0.0018055     -0.9186401      0.0913086
861135488     -0.8121948      0.3693848      0.0019410     -0.0015409      0.0016558     -0.0017985     -0.9185791      0.0914307
861146368     -0.8123169      0.3698730      0.0018953     -0.0015109      0.0016340     -0.0017582     -0.9184570      0.0918579
861157248     -0.8119507      0.3696289      0.0018848     -0.0014898      0.0016336     -0.0017309     -0.9185181      0.0921021
861168064     -0.8121033      0.3695984      0.0018589     -0.0014691      0.0015970     -0.0017189     -0.9186401      0.0920410
861178944     -0.8118591      0.3696594      0.0018383     -0.0014369      0.0015814     -0.0016836     -0.9183350      0.0924683
861189824     -0.8118286      0.3697510      0.0018176     -0.0014127      0.0015722     -0.0016659     -0.9183350      0.0927124
861200704     -0.8114929      0.3700256      0.0017978     -0.0013942      0.0015486     -0.0016444     -0.9187622      0.0930786
861211520     -0.8116760      0.3699341      0.0017848     -0.0013636      0.0015470     -0.0016195     -0.9184570      0.0932617
861222400     -0.8114624      0.3700256      0.0017524     -0.0013534      0.0015279     -0.0015886     -0.9183960      0.0933228
861233280     -0.8117065      0.3702087      0.0017332     -0.0013291      0.0015205     -0.0015564     -0.9185791      0.0936890
861244096     -0.8111877      0.3700867      0.0017303     -0.0012976      0.0015130     -0.0015340     -0.9183350      0.0936890
861254976     -0.8114929      0.3709106      0.0017163     -0.0012842      0.0014870     -0.0015019     -0.9185791      0.0939941
861265856     -0.8111267      0.3706055      0.0016896     -0.0012676      0.0014684     -0.0014828     -0.9182129      0.0942993
861276736     -0.8112183      0.3706360      0.0016742     -0.0012362      0.0014580     -0.0014595     -0.9179688      0.0942993
861287552     -0.8112183      0.3706970      0.0016556     -0.0012016      0.0014492     -0.0014380     -0.9181519      0.0949707
861298432     -0.8110962      0.3711243      0.0016292     -0.0011947      0.0014227     -0.0014048     -0.9182129      0.0950317
861309312     -0.8108826      0.3707275      0.0016306     -0.0011725      0.0014250     -0.0013649     -0.9184570      0.0952759
861320192     -0.8111877      0.3707581      0.0016112     -0.0011396      0.0014142     -0.0013611     -0.9180298      0.0955200
861331008     -0.8108826      0.3711243      0.0015967     -0.0011351      0.0014101     -0.0013362     -0.9182129      0.0955200
861341888     -0.8107910      0.3710632      0.0015842     -0.0010923      0.0014085     -0.0012916     -0.9183960      0.0961914
861352768     -0.8107300      0.3710632      0.0015694     -0.0010621      0.0013996     -0.0012680     -0.9182129      0.0963135
861363584     -0.8109741      0.3710938      0.0015533     -0.0010282      0.0013668     -0.0012397     -0.9179077      0.0965576
861374464     -0.8109436      0.3715515      0.0015416     -0.0010185      0.0013776     -0.0012057     -0.9182739      0.0966797
861385344     -0.8107300      0.3714905      0.0015402     -0.0009877      0.0013770     -0.0011996     -0.9180298      0.0966797
861396224     -0.8105164      0.3714905      0.0015205     -0.0009516      0.0013615     -0.0011724     -0.9181519      0.0974731
861407040     -0.8108215      0.3715210      0.0015094     -0.0009311      0.0013567     -0.0011490     -0.9180298      0.0975952
861417920     -0.8104553      0.3718262      0.0015043     -0.0009139      0.0013561     -0.0011157     -0.9182129      0.0976563
861428800     -0.8103638      0.3719177      0.0015044     -0.0008889      0.0013531     -0.0011040     -0.9179077      0.0980225
861439680     -0.8103943      0.3720093      0.0014994     -0.0008618      0.0013455     -0.0010681     -0.9179688      0.0983887
861450496     -0.8109436      0.3717957      0.0014796     -0.0008261      0.0013496     -0.0010470     -0.9178467      0.0986938
861461376     -0.8105774      0.3719177      0.0014814     -0.0008141      0.0013428     -0.0010058     -0.9180908      0.0988770
861472256     -0.8105774      0.3721924      0.0014670     -0.0007834      0.0013379     -0.0009871     -0.9182739      0.0989990
861483072     -0.8103943      0.3720093      0.0014706     -0.0007538      0.0013484     -0.0009582     -0.9179688      0.0993042
861493952     -0.8106689      0.3723450      0.0014754     -0.0007286      0.0013382     -0.0009442     -0.9181519      0.0994873
861504832     -0.8106995      0.3729553      0.0014613     -0.0007068      0.0013393     -0.0009043     -0.9177856      0.0998535
861515712     -0.8108521      0.3728333      0.0014560     -0.0006793      0.0013412     -0.0008938     -0.9179077      0.1002197
861526528     -0.8104858      0.3730774      0.0014487     -0.0006377      0.0013534     -0.0008474     -0.9177856      0.1002197
861537408     -0.8108826      0.3733826      0.0014544     -0.0006284      0.0013710     -0.0008239     -0.9180908      0.1006470
861548288     -0.8106995      0.3730774      0.0014670     -0.0006064      0.0013638     -0.0008057     -0.9179077      0.1008911
861559168     -0.8107910      0.3734741      0.0014645     -0.0005728      0.0013652     -0.0007804     -0.9178467      0.1011353
861569984     -0.8105774      0.3738708      0.0014541     -0.0005528      0.0013682     -0.0007628     -0.9179688      0.1013794
861580864     -0.8107300      0.3738403      0.0014690     -0.0005144      0.0013744     -0.0007435     -0.9176636      0.1014404
861591744     -0.8106995      0.3742981      0.0014731     -0.0004906      0.0013893     -0.0007200     -0.9178467      0.1021118
861602560     -0.8105469      0.3742065      0.0014848     -0.0004727      0.0013806     -0.0006938     -0.9176636      0.1021729
861613440     -0.8105469      0.3745117      0.0014760     -0.0004613      0.0014040     -0.0006685     -0.9174805      0.1024780
861624320     -0.8106384      0.3751221      0.0014880     -0.0004309      0.0014089     -0.0006443     -0.9176636      0.1024780
861635200     -0.8103943      0.3745728      0.0014855     -0.0004040      0.0014083     -0.0006226     -0.9176636      0.1032104
861646016     -0.8106995      0.3749390      0.0014867     -0.0003780      0.0014266     -0.0006035     -0.9175415      0.1032715
861656896     -0.8104553      0.3750305      0.0015043     -0.0003775      0.0014381     -0.0005867     -0.9176636      0.1035767
861667776     -0.8105469      0.3755493      0.0015143     -0.0003375      0.0014347     -0.0005862     -0.9174805      0.1038818
861678656     -0.8110046      0.3760071      0.0015244     -0.0003237      0.0014482     -0.0005598     -0.9176636      0.1042480
861689472     -0.8106384      0.3762207      0.0015436     -0.0003064      0.0014690     -0.0005245     -0.9175415      0.1043091
861700352     -0.8106384      0.3763123      0.0015308     -0.0002921      0.0014704     -0.0005272     -0.9176636      0.1044922
861711232     -0.8105469      0.3764954      0.0015503     -0.0002858      0.0014881     -0.0005146     -0.9174805      0.1053467
861722048     -0.8105469      0.3769226      0.0015537     -0.0002546      0.0014807     -0.0005008     -0.9172363      0.1054688
861732928     -0.8105774      0.3768311      0.0015493     -0.0002431      0.0015097     -0.0004867     -0.9173584      0.1055298
861743808     -0.8106995      0.3771973      0.0015601     -0.0002270      0.0015008     -0.0004812     -0.9174805      0.1057739
861754688     -0.8103333      0.3776550      0.0015864     -0.0002256      0.0015310     -0.0004560     -0.9174194      0.1061401
861765504     -0.8105774      0.3776550      0.0015897     -0.0002118      0.0015522     -0.0004403     -0.9175415      0.1065674
861776384     -0.8103638      0.3777771      0.0016047     -0.0001920      0.0015481     -0.0004314     -0.9172974      0.1069946
861787264     -0.8106079      0.3782959      0.0016028     -0.0001810      0.0015593     -0.0004280     -0.9174805      0.1072998
861798144     -0.8104248      0.3786621      0.0016266     -0.0001560      0.0015851     -0.0004151     -0.9172974      0.1071777
861808960     -0.8104248      0.3786926      0.0016368     -0.0001566      0.0015942     -0.0004009     -0.9172363      0.1076660
861819840     -0.8103333      0.3788452      0.0016427     -0.0001435      0.0016240     -0.0003908     -0.9171753      0.1077881
861830720     -0.8103638      0.3793030      0.0016384     -0.0001300      0.0016090     -0.0003777     -0.9171753      0.1082153
861841536     -0.8102112      0.3796387      0.0016699     -0.0001160      0.0016268     -0.0003781     -0.9169922      0.1080322
861852416     -0.8102112      0.3798523      0.0016696     -0.0001023      0.0016424     -0.0003924     -0.9165039      0.1087646
861863296     -0.8098450      0.3800354      0.0016723     -0.0000956      0.0016338     -0.0003811     -0.9168091      0.1092529
861874176     -0.8097534      0.3801880      0.0016826     -0.0000978      0.0016532     -0.0003530     -0.9169922      0.1094971
861884992     -0.8099976      0.3808899      0.0017029     -0.0000982      0.0016673     -0.0003539     -0.9169312      0.1096802
861895872     -0.8099365      0.3808899      0.0017235     -0.0000746      0.0016689     -0.0003446     -0.9167480      0.1099854
861906752     -0.8101501      0.3812866      0.0017339     -0.0000849      0.0016906     -0.0003511     -0.9167480      0.1098633
861917632     -0.8096924      0.3813782      0.0017326     -0.0000647      0.0016857     -0.0003427     -0.9169312      0.1106567
861928448     -0.8098450      0.3817749      0.0017365     -0.0000684      0.0017138     -0.0003303     -0.9165649      0.1112061
861939328     -0.8096924      0.3821716      0.0017374     -0.0000710      0.0017173     -0.0003353     -0.9163818      0.1110840
861950208     -0.8094788      0.3826904      0.0017489     -0.0000614      0.0017291     -0.0003242     -0.9165039      0.1115723
861961024     -0.8095093      0.3827209      0.0017713     -0.0000484      0.0017318     -0.0003387     -0.9163208      0.1115112
