!RF1319D,#2,wide,bn,8/22/05
# HZ S RI R 50
803779968      0.6342773      0.6118774      0.0021784      0.0009130      0.0022366      0.0008795      0.5024414      0.7395630
803861440      0.6350098      0.6112061      0.0021372      0.0009398      0.0022037      0.0008745      0.5025024      0.7379761
803942912      0.6352539      0.6112061      0.0021279      0.0009131      0.0022142      0.0008821      0.5037231      0.7382813
804024384      0.6356201      0.6104126      0.0021094      0.0009363      0.0022233      0.0008831      0.5040283      0.7372437
804105792      0.6363525      0.6102905      0.0021366      0.0009435      0.0021870      0.0008811      0.5048828      0.7383423
804187264      0.6368408      0.6096802      0.0021225      0.0009751      0.0022147      0.0008740      0.5054932      0.7374878
804268736      0.6367188      0.6092529      0.0021292      0.0009648      0.0022173      0.0008960      0.5060425      0.7369995
804350208      0.6378784      0.6092529      0.0021515      0.0009637      0.0022097      0.0009422      0.5068970      0.7359009
804431680      0.6387939      0.6083984      0.0021574      0.0009797      0.0022113      0.0009308      0.5072632      0.7361450
804513152      0.6385498      0.6073608      0.0021775      0.0009949      0.0022423      0.0008957      0.5070190      0.7359009
804594624      0.6392212      0.6072998      0.0021634      0.0009511      0.0022452      0.0009451      0.5078735      0.7361450
804676032      0.6397095      0.6069946      0.0021658      0.0009646      0.0022545      0.0008974      0.5078735      0.7351685
804757504      0.6394043      0.6062622      0.0021892      0.0009789      0.0022783      0.0008988      0.5081787      0.7348633
804838976      0.6409912      0.6057739      0.0021858      0.0009682      0.0022738      0.0008571      0.5092163      0.7346802
804920448      0.6401978      0.6057739      0.0021596      0.0009902      0.0022559      0.0009310      0.5092773      0.7344971
805001920      0.6408081      0.6052856      0.0021274      0.0009700      0.0022724      0.0008993      0.5101929      0.7342529
805083392      0.6409912      0.6049194      0.0021770      0.0009637      0.0022719      0.0008998      0.5101318      0.7334595
805164800      0.6417847      0.6043091      0.0021377      0.0009499      0.0022309      0.0009084      0.5114136      0.7332764
805246272      0.6419678      0.6040039      0.0021963      0.0009797      0.0022471      0.0009093      0.5112305      0.7332153
805327744      0.6425171      0.6041870      0.0022123      0.0010335      0.0022442      0.0009358      0.5121460      0.7336426
805409216      0.6431885      0.6028442      0.0021834      0.0009997      0.0022397      0.0009365      0.5123291      0.7328491
805490688      0.6434326      0.6027222      0.0022087      0.0009444      0.0022864      0.0009165      0.5134888      0.7318115
805572160      0.6443481      0.6021118      0.0022063      0.0009873      0.0022326      0.0009112      0.5125732      0.7321777
805653632      0.6443481      0.6016235      0.0021794      0.0010259      0.0022707      0.0008941      0.5138550      0.7319336
805735040      0.6447144      0.6008301      0.0021720      0.0010211      0.0022953      0.0009613      0.5142822      0.7316284
805816512      0.6450806      0.6005249      0.0021939      0.0010130      0.0022962      0.0009649      0.5147705      0.7303467
805897984      0.6461182      0.6004028      0.0021975      0.0009890      0.0022886      0.0009565      0.5148315      0.7306519
805979456      0.6456909      0.6002197      0.0021958      0.0010321      0.0022984      0.0009005      0.5155029      0.7304077
806060928      0.6460571      0.5989990      0.0022006      0.0010138      0.0022855      0.0009336      0.5164185      0.7299194
806142400      0.6473999      0.5985107      0.0022411      0.0010006      0.0023332      0.0009842      0.5168457      0.7300415
806223872      0.6475830      0.5975952      0.0022242      0.0010245      0.0022957      0.0009336      0.5171509      0.7299194
806305280      0.6477661      0.5977783      0.0022011      0.0010478      0.0022857      0.0009313      0.5175781      0.7291260
806386752      0.6486206      0.5971069      0.0022509      0.0009809      0.0023260      0.0009835      0.5184326      0.7284546
806468224      0.6487427      0.5974731      0.0022678      0.0010293      0.0023527      0.0009584      0.5183716      0.7281494
806549696      0.6484985      0.5963745      0.0022280      0.0010233      0.0023570      0.0009909      0.5187378      0.7276611
806631168      0.6494141      0.5953369      0.0022774      0.0010104      0.0023835      0.0009282      0.5192871      0.7280884
806712640      0.6498413      0.5950317      0.0022798      0.0010016      0.0023632      0.0009308      0.5202026      0.7275391
806794112      0.6501465      0.5949097      0.0022454      0.0010221      0.0024090      0.0009301      0.5195313      0.7269287
806875520      0.6508179      0.5949097      0.0022748      0.0009840      0.0023885      0.0009274      0.5205078      0.7264404
806956992      0.6508789      0.5938110      0.0022435      0.0009820      0.0023472      0.0009384      0.5211182      0.7268677
807038464      0.6517944      0.5930786      0.0022869      0.0009923      0.0023751      0.0009155      0.5215454      0.7266235
807119936      0.6517944      0.5925293      0.0022933      0.0009835      0.0023694      0.0009067      0.5222778      0.7257080
807201408      0.6524048      0.5926514      0.0023355      0.0009735      0.0024207      0.0009303      0.5227051      0.7255249
807282880      0.6530151      0.5924072      0.0023232      0.0010035      0.0024252      0.0008943      0.5235596      0.7252197
807364288      0.6534424      0.5913696      0.0023222      0.0009782      0.0024157      0.0009007      0.5236816      0.7247314
807445760      0.6540527      0.5910034      0.0023279      0.0009618      0.0023863      0.0009005      0.5235596      0.7247314
807527232      0.6544189      0.5906372      0.0022933      0.0009587      0.0024061      0.0009162      0.5249634      0.7238770
807608704      0.6544800      0.5905151      0.0023415      0.0009601      0.0024118      0.0009215      0.5250854      0.7231445
807690176      0.6549683      0.5895386      0.0023546      0.0009451      0.0024917      0.0008674      0.5250244      0.7238159
807771648      0.6550903      0.5897217      0.0023601      0.0009754      0.0023909      0.0008686      0.5261841      0.7230225
807853120      0.6558228      0.5884399      0.0023601      0.0009930      0.0024610      0.0008786      0.5267944      0.7221069
807934528      0.6552124      0.5878906      0.0023081      0.0009904      0.0024345      0.0008712      0.5266113      0.7223511
808016000      0.6563110      0.5880127      0.0023570      0.0009325      0.0024240      0.0008712      0.5271606      0.7216797
808097472      0.6564331      0.5876465      0.0023494      0.0009558      0.0024438      0.0008783      0.5275269      0.7216187
808178944      0.6574707      0.5868530      0.0023966      0.0009277      0.0024116      0.0009003      0.5279541      0.7213135
808260416      0.6576538      0.5867310      0.0023518      0.0009446      0.0024326      0.0008523      0.5286865      0.7209473
808341888      0.6585693      0.5862427      0.0023811      0.0009882      0.0024519      0.0008752      0.5291748      0.7200317
808423360      0.6583252      0.5858765      0.0023503      0.0009058      0.0024612      0.0008504      0.5293579      0.7200928
808504768      0.6593628      0.5845947      0.0023708      0.0009162      0.0024936      0.0007896      0.5299683      0.7199097
808586240      0.6591187      0.5845337      0.0024006      0.0008767      0.0024502      0.0008020      0.5300293      0.7196655
808667712      0.6600952      0.5838623      0.0023255      0.0008867      0.0024199      0.0008390      0.5315552      0.7189941
808749184      0.6603394      0.5837402      0.0023201      0.0008669      0.0024204      0.0007865      0.5315552      0.7188110
808830656      0.6608276      0.5833740      0.0023513      0.0008688      0.0024679      0.0007763      0.5320435      0.7182007
808912128      0.6610718      0.5830688      0.0023513      0.0008786      0.0024109      0.0008028      0.5322266      0.7186279
808993536      0.6613159      0.5819702      0.0023131      0.0008793      0.0024018      0.0007818      0.5330200      0.7182007
809075008      0.6625366      0.5821533      0.0023413      0.0008602      0.0024171      0.0007925      0.5327759      0.7171021
809156480      0.6622925      0.5811768      0.0023625      0.0008492      0.0024641      0.0007875      0.5328979      0.7174072
809237952      0.6629028      0.5816650      0.0023401      0.0008407      0.0024161      0.0007842      0.5341797      0.7164307
809319424      0.6631470      0.5807495      0.0023208      0.0009017      0.0024009      0.0007854      0.5342407      0.7169800
809400896      0.6636963      0.5802002      0.0023367      0.0008574      0.0024109      0.0007849      0.5351563      0.7162476
809482368      0.6641846      0.5795898      0.0023403      0.0008862      0.0023944      0.0007875      0.5361938      0.7158813
809563776      0.6647339      0.5798340      0.0023246      0.0008807      0.0024133      0.0007710      0.5356445      0.7155151
809645248      0.6647949      0.5788574      0.0023189      0.0008852      0.0023742      0.0008221      0.5360107      0.7147217
809726720      0.6649780      0.5781860      0.0023203      0.0009000      0.0024221      0.0007854      0.5369263      0.7147827
809808192      0.6658936      0.5775146      0.0023060      0.0008838      0.0024087      0.0007522      0.5369873      0.7146606
809889664      0.6656494      0.5779419      0.0023170      0.0008748      0.0023804      0.0008225      0.5375366      0.7140503
809971136      0.6665039      0.5773926      0.0022919      0.0008838      0.0024397      0.0008225      0.5382080      0.7134399
810052608      0.6672974      0.5762329      0.0023322      0.0008764      0.0023956      0.0008042      0.5394287      0.7130737
810134016      0.6671143      0.5759888      0.0023382      0.0008595      0.0024028      0.0008137      0.5390015      0.7129517
810215488      0.6676636      0.5753174      0.0022781      0.0008636      0.0023742      0.0007772      0.5399170      0.7126465
810296960      0.6684570      0.5754395      0.0023139      0.0008371      0.0023956      0.0008099      0.5401611      0.7124634
810378432      0.6686401      0.5744019      0.0022912      0.0009000      0.0023901      0.0007656      0.5402222      0.7118530
810459904      0.6689453      0.5736694      0.0023363      0.0008633      0.0024107      0.0007846      0.5407104      0.7115479
810541376      0.6701660      0.5736694      0.0022943      0.0008631      0.0023329      0.0008039      0.5414429      0.7109375
810622848      0.6697388      0.5731201      0.0022662      0.0008588      0.0024116      0.0008106      0.5419922      0.7110596
810704256      0.6705933      0.5726929      0.0022933      0.0008895      0.0024033      0.0007651      0.5420532      0.7102661
810785728      0.6709595      0.5725708      0.0022919      0.0008767      0.0023694      0.0007665      0.5429688      0.7098389
810867200      0.6710815      0.5717163      0.0023305      0.0008845      0.0023685      0.0008059      0.5422974      0.7091064
810948672      0.6713257      0.5711670      0.0022597      0.0008926      0.0023682      0.0008240      0.5435791      0.7093506
811030144      0.6719360      0.5698853      0.0023022      0.0009015      0.0023408      0.0008292      0.5439453      0.7089233
811111616      0.6719971      0.5701904      0.0023081      0.0008833      0.0023611      0.0008154      0.5443726      0.7086792
811193024      0.6729126      0.5693970      0.0022917      0.0008843      0.0023351      0.0008028      0.5454712      0.7089844
811274496      0.6729736      0.5690308      0.0022924      0.0009489      0.0023613      0.0008476      0.5455933      0.7077637
811355968      0.6734009      0.5686646      0.0022840      0.0009079      0.0023558      0.0008547      0.5457764      0.7080078
811437440      0.6738281      0.5683594      0.0022552      0.0009036      0.0023592      0.0008388      0.5466309      0.7073364
811518912      0.6742554      0.5682373      0.0022621      0.0009472      0.0023811      0.0008624      0.5471191      0.7067261
811600384      0.6745605      0.5678711      0.0022762      0.0009172      0.0023515      0.0008650      0.5472412      0.7072144
811681856      0.6751709      0.5669556      0.0023019      0.0009508      0.0023367      0.0008616      0.5477905      0.7066650
811763264      0.6753540      0.5667114      0.0022678      0.0009737      0.0023823      0.0008669      0.5488281      0.7065430
811844736      0.6754150      0.5658569      0.0023050      0.0009937      0.0024261      0.0008788      0.5492554      0.7050171
811926208      0.6765747      0.5653687      0.0022969      0.0009766      0.0023727      0.0008681      0.5491943      0.7055054
812007680      0.6765137      0.5650024      0.0023286      0.0009618      0.0023978      0.0009058      0.5493164      0.7046509
812089152      0.6768799      0.5648193      0.0023348      0.0010087      0.0024030      0.0008688      0.5498047      0.7045288
812170624      0.6773682      0.5637817      0.0023797      0.0009592      0.0024250      0.0008922      0.5506592      0.7042236
812252096      0.6779785      0.5635376      0.0023470      0.0009983      0.0024300      0.0009036      0.5507202      0.7039795
812333504      0.6786499      0.5626831      0.0023899      0.0010214      0.0024309      0.0009084      0.5510864      0.7034302
812414976      0.6781006      0.5632324      0.0023420      0.0009518      0.0024576      0.0009012      0.5521240      0.7036133
812496448      0.6790161      0.5628052      0.0023832      0.0009878      0.0024140      0.0008826      0.5526733      0.7023315
812577920      0.6790771      0.5618896      0.0023270      0.0009882      0.0024490      0.0009177      0.5529175      0.7032471
812659392      0.6799316      0.5612793      0.0023417      0.0009990      0.0024652      0.0009112      0.5534058      0.7020874
812740864      0.6800537      0.5609741      0.0023985      0.0009942      0.0024819      0.0009296      0.5530396      0.7020264
812822336      0.6801758      0.5605469      0.0024068      0.0010028      0.0024724      0.0009260      0.5537109      0.7017212
812903744      0.6806030      0.5601196      0.0023956      0.0010121      0.0024874      0.0008874      0.5546875      0.7009888
812985216      0.6814575      0.5590210      0.0024192      0.0010252      0.0025129      0.0009000      0.5549927      0.7005005
813066688      0.6814575      0.5585327      0.0023837      0.0009935      0.0025074      0.0008812      0.5548706      0.7002563
813148160      0.6820679      0.5582886      0.0024457      0.0010047      0.0025039      0.0009310      0.5560303      0.7000122
813229632      0.6829834      0.5580444      0.0024693      0.0009899      0.0025182      0.0009000      0.5556030      0.6998901
813311104      0.6825562      0.5576172      0.0024636      0.0010059      0.0025187      0.0009322      0.5566406      0.6999512
813392512      0.6835938      0.5570679      0.0024455      0.0010176      0.0025287      0.0009606      0.5574951      0.6987305
813473984      0.6839600      0.5563965      0.0024929      0.0009756      0.0025661      0.0009215      0.5570679      0.6987305
813555456      0.6837769      0.5552368      0.0024850      0.0009959      0.0025699      0.0009143      0.5581665      0.6984863
813636928      0.6847534      0.5560303      0.0024977      0.0009782      0.0026050      0.0009270      0.5582275      0.6978760
813718400      0.6844482      0.5551147      0.0025039      0.0009935      0.0025887      0.0008752      0.5583496      0.6965942
813799872      0.6848145      0.5545654      0.0025132      0.0010002      0.0026140      0.0008700      0.5592041      0.6970825
813881344      0.6851196      0.5538940      0.0025575      0.0010033      0.0026016      0.0008862      0.5600586      0.6962280
813962752      0.6860352      0.5538330      0.0025301      0.0009496      0.0026286      0.0008557      0.5601196      0.6960449
814044224      0.6862793      0.5529785      0.0025520      0.0009689      0.0025878      0.0008473      0.5603638      0.6956787
814125696      0.6868896      0.5524292      0.0025499      0.0009408      0.0026479      0.0008521      0.5617065      0.6953125
814207168      0.6875000      0.5521240      0.0025795      0.0009100      0.0026474      0.0008395      0.5621338      0.6948242
814288640      0.6873779      0.5518799      0.0025399      0.0008893      0.0026419      0.0008276      0.5618896      0.6947632
814370112      0.6883545      0.5506592      0.0025711      0.0009170      0.0026109      0.0008402      0.5629883      0.6945801
814451584      0.6884766      0.5505981      0.0025721      0.0009177      0.0026772      0.0007606      0.5628052      0.6943359
814532992      0.6886597      0.5500488      0.0025668      0.0009186      0.0026791      0.0007911      0.5629883      0.6944580
814614464      0.6889038      0.5503540      0.0025780      0.0008562      0.0026193      0.0007496      0.5635376      0.6936035
814695936      0.6895142      0.5490112      0.0025625      0.0008447      0.0026445      0.0007787      0.5646362      0.6931763
814777408      0.6895752      0.5486450      0.0025675      0.0008640      0.0026722      0.0007763      0.5647583      0.6932373
814858880      0.6906128      0.5485229      0.0025692      0.0008521      0.0026226      0.0007620      0.5651245      0.6928711
814940352      0.6904907      0.5479736      0.0025423      0.0008841      0.0025856      0.0007224      0.5654297      0.6919556
815021824      0.6914063      0.5474854      0.0025549      0.0008671      0.0026169      0.0007758      0.5657959      0.6924438
815103232      0.6912231      0.5472412      0.0025606      0.0008435      0.0026360      0.0007334      0.5669556      0.6912842
815184704      0.6914673      0.5464478      0.0025668      0.0008359      0.0026362      0.0007207      0.5668945      0.6909180
815266176      0.6922607      0.5457764      0.0025837      0.0008445      0.0026560      0.0007281      0.5673828      0.6905518
815347648      0.6923828      0.5457764      0.0025804      0.0007951      0.0026531      0.0007136      0.5681763      0.6905518
815429120      0.6934814      0.5457764      0.0025930      0.0008221      0.0026190      0.0007021      0.5682373      0.6901855
815510592      0.6934814      0.5447388      0.0025432      0.0008023      0.0026309      0.0006597      0.5688477      0.6896362
815592000      0.6942139      0.5441895      0.0025368      0.0008240      0.0026534      0.0006630      0.5690308      0.6896973
815673472      0.6944580      0.5435791      0.0025661      0.0007896      0.0026507      0.0006623      0.5695801      0.6889038
815754944      0.6947021      0.5432129      0.0025890      0.0007761      0.0026283      0.0006671      0.5701294      0.6889038
815836416      0.6947632      0.5424194      0.0025425      0.0007670      0.0026252      0.0006449      0.5704346      0.6884155
815917888      0.6956177      0.5416260      0.0025494      0.0007598      0.0025749      0.0006795      0.5711670      0.6876221
815999360      0.6961670      0.5413818      0.0025115      0.0007367      0.0026317      0.0006671      0.5718384      0.6867676
816080832      0.6956177      0.5408936      0.0025370      0.0007393      0.0026319      0.0006573      0.5718384      0.6869507
816162240      0.6962891      0.5400391      0.0024936      0.0007045      0.0025787      0.0006614      0.5725708      0.6864624
