!RF1396C Device 1 ENG1 fixture Wide span
# HZ S RI R 50
407720000     -0.5342102      0.6370239      0.0005851     -0.0023627      0.0006219     -0.0023657     -0.5138855      0.6629639
407740000     -0.5338135      0.6372070      0.0006235     -0.0023735      0.0006474     -0.0023966     -0.5136414      0.6635132
407760000     -0.5334167      0.6375427      0.0006293     -0.0024012      0.0006665     -0.0024183     -0.5130005      0.6636353
407780000     -0.5328369      0.6378174      0.0006465     -0.0024173      0.0006853     -0.0024488     -0.5124817      0.6636047
407800000     -0.5328369      0.6381531      0.0006781     -0.0024736      0.0007131     -0.0024751     -0.5119629      0.6637878
407820000     -0.5319519      0.6381836      0.0007038     -0.0024835      0.0007343     -0.0025085     -0.5116577      0.6644592
407840000     -0.5319824      0.6384277      0.0006994     -0.0025313      0.0007377     -0.0025504     -0.5109863      0.6646118
407860000     -0.5312195      0.6388550      0.0007141     -0.0025659      0.0007668     -0.0025846     -0.5107422      0.6644592
407880000     -0.5309143      0.6389160      0.0007356     -0.0026011      0.0007524     -0.0026159     -0.5102539      0.6650696
407900000     -0.5304565      0.6397400      0.0007285     -0.0026324      0.0007448     -0.0026577     -0.5097351      0.6651306
407920000     -0.5300598      0.6393433      0.0007101     -0.0026845      0.0007386     -0.0026851     -0.5093079      0.6652527
407940000     -0.5295105      0.6398315      0.0006899     -0.0027368      0.0007182     -0.0027349     -0.5087280      0.6658020
407960000     -0.5294189      0.6401367      0.0006869     -0.0027826      0.0007002     -0.0027640     -0.5084229      0.6658020
407980000     -0.5290527      0.6402588      0.0006633     -0.0027976      0.0006983     -0.0027950     -0.5081177      0.6662292
408000000     -0.5287170      0.6408081      0.0006427     -0.0028179      0.0006775     -0.0028316     -0.5075378      0.6666565
408020000     -0.5282898      0.6407471      0.0006232     -0.0028214      0.0006447     -0.0028450     -0.5073547      0.6666565
408040000     -0.5278931      0.6411743      0.0005789     -0.0028496      0.0006152     -0.0028412     -0.5066833      0.6668091
408060000     -0.5274353      0.6413269      0.0005597     -0.0028660      0.0005920     -0.0028788     -0.5063782      0.6672363
408080000     -0.5270386      0.6416931      0.0005560     -0.0028578      0.0005872     -0.0028841     -0.5060120      0.6676025
408100000     -0.5265808      0.6419678      0.0005438     -0.0028726      0.0005608     -0.0028782     -0.5057068      0.6677856
408120000     -0.5262451      0.6421814      0.0005425     -0.0028696      0.0005424     -0.0028929     -0.5049133      0.6679382
408140000     -0.5256348      0.6426086      0.0004760     -0.0028878      0.0005389     -0.0028871     -0.5044861      0.6682434
408160000     -0.5253906      0.6427612      0.0005119     -0.0028785      0.0005342     -0.0029064     -0.5039673      0.6687317
408180000     -0.5248718      0.6431274      0.0004901     -0.0028932      0.0005268     -0.0028950     -0.5037842      0.6685181
408200000     -0.5243835      0.6431885      0.0004820     -0.0028814      0.0005035     -0.0029113     -0.5035095      0.6690979
408220000     -0.5238953      0.6434631      0.0004913     -0.0028929      0.0005126     -0.0028979     -0.5027161      0.6694031
408240000     -0.5236206      0.6437988      0.0004859     -0.0028850      0.0005022     -0.0029109     -0.5022888      0.6695251
408260000     -0.5230713      0.6440735      0.0004615     -0.0028951      0.0005184     -0.0029138     -0.5018005      0.6697998
408280000     -0.5228882      0.6441956      0.0004895     -0.0029111      0.0005078     -0.0029166     -0.5012207      0.6701050
408300000     -0.5221252      0.6445313      0.0004904     -0.0029205      0.0005190     -0.0029331     -0.5009766      0.6704712
408320000     -0.5218811      0.6446533      0.0005046     -0.0029207      0.0005360     -0.0029471     -0.5004883      0.6707458
408340000     -0.5212708      0.6450195      0.0005122     -0.0029526      0.0005342     -0.0029658     -0.4998474      0.6710205
408360000     -0.5210571      0.6452026      0.0004926     -0.0029694      0.0005614     -0.0029649     -0.4996033      0.6714783
408380000     -0.5203552      0.6454773      0.0005119     -0.0029773      0.0005424     -0.0029991     -0.4992981      0.6716919
408400000     -0.5201111      0.6454163      0.0005232     -0.0030186      0.0005454     -0.0030404     -0.4988708      0.6716614
408420000     -0.5198059      0.6455078      0.0005312     -0.0030237      0.0005349     -0.0030628     -0.4983826      0.6720276
408440000     -0.5192261      0.6459961      0.0005258     -0.0030781      0.0005543     -0.0030861     -0.4977722      0.6723328
408460000     -0.5187378      0.6462402      0.0005167     -0.0031036      0.0005515     -0.0031228     -0.4969482      0.6725769
408480000     -0.5183716      0.6464539      0.0005109     -0.0031562      0.0005354     -0.0031661     -0.4967041      0.6725464
408500000     -0.5179443      0.6466675      0.0004842     -0.0031815      0.0005428     -0.0031976     -0.4963379      0.6730957
408520000     -0.5177612      0.6467590      0.0004667     -0.0032235      0.0005155     -0.0032525     -0.4957581      0.6731262
408540000     -0.5173035      0.6469421      0.0004526     -0.0032686      0.0005037     -0.0032977     -0.4953003      0.6737976
408560000     -0.5169373      0.6473389      0.0004042     -0.0033059      0.0004526     -0.0033470     -0.4946899      0.6736755
408580000     -0.5165405      0.6474915      0.0003803     -0.0033591      0.0004257     -0.0033712     -0.4945984      0.6738892
408600000     -0.5164490      0.6475830      0.0003339     -0.0033884      0.0003732     -0.0034014     -0.4940491      0.6746216
408620000     -0.5158386      0.6475830      0.0003061     -0.0034140      0.0003295     -0.0034394     -0.4935913      0.6746521
408640000     -0.5155334      0.6480408      0.0002456     -0.0034411      0.0002763     -0.0034775     -0.4930725      0.6748352
408660000     -0.5151672      0.6481934      0.0002030     -0.0034469      0.0002187     -0.0034693     -0.4926758      0.6752319
408680000     -0.5150757      0.6488647      0.0001261     -0.0034533      0.0001712     -0.0034842     -0.4921570      0.6754150
408700000     -0.5144958      0.6490173      0.0000929     -0.0034525      0.0001249     -0.0034953     -0.4918213      0.6757202
408720000     -0.5143738      0.6491699      0.0000370     -0.0034720      0.0000834     -0.0034877     -0.4913025      0.6760864
408740000     -0.5139465      0.6493530     -0.0000128     -0.0034552      0.0000273     -0.0034953     -0.4908752      0.6763306
408760000     -0.5134888      0.6497498     -0.0000439     -0.0034549     -0.0000130     -0.0034823     -0.4901123      0.6769714
408780000     -0.5130920      0.6499329     -0.0001020     -0.0034344     -0.0000545     -0.0034562     -0.4895935      0.6769714
408800000     -0.5130005      0.6505737     -0.0001421     -0.0034313     -0.0001072     -0.0034432     -0.4894104      0.6773071
408820000     -0.5123291      0.6506653     -0.0001670     -0.0033921     -0.0001353     -0.0034325     -0.4891052      0.6773987
408840000     -0.5119629      0.6510010     -0.0002017     -0.0033964     -0.0001757     -0.0034031     -0.4884338      0.6777344
408860000     -0.5117188      0.6514587     -0.0002146     -0.0033759     -0.0002055     -0.0033984     -0.4879150      0.6777954
408880000     -0.5112610      0.6517334     -0.0002589     -0.0033413     -0.0002276     -0.0033751     -0.4873962      0.6780396
408900000     -0.5108643      0.6518250     -0.0002924     -0.0033234     -0.0002519     -0.0033557     -0.4869080      0.6786194
408920000     -0.5104675      0.6523743     -0.0003128     -0.0033025     -0.0002846     -0.0033430     -0.4862976      0.6787109
408940000     -0.5101013      0.6526489     -0.0003432     -0.0032784     -0.0003046     -0.0033218     -0.4858398      0.6785889
408960000     -0.5095215      0.6528625     -0.0003756     -0.0032809     -0.0003381     -0.0033067     -0.4855042      0.6790466
408980000     -0.5090637      0.6528931     -0.0003896     -0.0032593     -0.0003616     -0.0032883     -0.4848938      0.6792908
409000000     -0.5087585      0.6532898     -0.0004199     -0.0032530     -0.0003805     -0.0032581     -0.4843445      0.6796570
409020000     -0.5081482      0.6535950     -0.0004276     -0.0032074     -0.0003858     -0.0032574     -0.4837341      0.6799622
409040000     -0.5079651      0.6538391     -0.0004530     -0.0032079     -0.0004226     -0.0032237     -0.4833374      0.6801758
409060000     -0.5074768      0.6543579     -0.0004796     -0.0031811     -0.0004425     -0.0032158     -0.4830933      0.6801453
409080000     -0.5070496      0.6544189     -0.0004760     -0.0031832     -0.0004743     -0.0031927     -0.4823608      0.6806335
409100000     -0.5065918      0.6546326     -0.0005069     -0.0031366     -0.0004747     -0.0031835     -0.4817810      0.6804810
409120000     -0.5061951      0.6551514     -0.0005378     -0.0031424     -0.0004944     -0.0031613     -0.4812622      0.6808167
409140000     -0.5056763      0.6552734     -0.0005524     -0.0031263     -0.0005169     -0.0031388     -0.4809570      0.6809692
409160000     -0.5052185      0.6553345     -0.0005707     -0.0030729     -0.0005357     -0.0031124     -0.4804993      0.6814575
409180000     -0.5046692      0.6557617     -0.0006115     -0.0030872     -0.0005641     -0.0030848     -0.4796143      0.6813049
409200000     -0.5044250      0.6558228     -0.0005882     -0.0030408     -0.0005631     -0.0030568     -0.4797668      0.6818848
409220000     -0.5039063      0.6564026     -0.0006126     -0.0029927     -0.0005785     -0.0030489     -0.4790344      0.6817322
409240000     -0.5036621      0.6567688     -0.0005903     -0.0029644     -0.0006104     -0.0030048     -0.4787598      0.6817932
409260000     -0.5029907      0.6566467     -0.0006214     -0.0029417     -0.0006069     -0.0029930     -0.4785461      0.6821289
409280000     -0.5025635      0.6570435     -0.0006500     -0.0029467     -0.0006073     -0.0029572     -0.4776306      0.6823120
409300000     -0.5021667      0.6571960     -0.0006503     -0.0028958     -0.0006140     -0.0029247     -0.4778442      0.6823730
409320000     -0.5019531      0.6576233     -0.0006371     -0.0028614     -0.0006310     -0.0029041     -0.4771423      0.6827698
409340000     -0.5013428      0.6579590     -0.0006381     -0.0028296     -0.0006210     -0.0028785     -0.4768677      0.6827698
409360000     -0.5009460      0.6581421     -0.0006337     -0.0028000     -0.0006182     -0.0028375     -0.4764099      0.6832581
409380000     -0.5002747      0.6583557     -0.0006309     -0.0027879     -0.0006129     -0.0028151     -0.4761047      0.6835938
409400000     -0.5000305      0.6587524     -0.0006129     -0.0027765     -0.0006038     -0.0027884     -0.4757080      0.6840210
409420000     -0.4995117      0.6587830     -0.0006119     -0.0027260     -0.0005867     -0.0027683     -0.4751892      0.6842346
409440000     -0.4988708      0.6594849     -0.0006047     -0.0027366     -0.0005791     -0.0027498     -0.4748535      0.6844788
409460000     -0.4986877      0.6596375     -0.0005970     -0.0027114     -0.0005659     -0.0027200     -0.4744873      0.6844177
409480000     -0.4983826      0.6598206     -0.0005765     -0.0026842     -0.0005649     -0.0027282     -0.4740906      0.6850281
409500000     -0.4976501      0.6599426     -0.0005680     -0.0026884     -0.0005326     -0.0026902     -0.4735107      0.6852722
409520000     -0.4975281      0.6602783     -0.0005542     -0.0026844     -0.0005413     -0.0027000     -0.4731140      0.6858521
409540000     -0.4971008      0.6603699     -0.0005623     -0.0026860     -0.0005124     -0.0026894     -0.4727173      0.6862488
409560000     -0.4966125      0.6604004     -0.0005249     -0.0026487     -0.0005199     -0.0026808     -0.4721375      0.6865845
409580000     -0.4962769      0.6609192     -0.0005344     -0.0026642     -0.0005009     -0.0026695     -0.4717407      0.6865540
409600000     -0.4956665      0.6611938     -0.0005234     -0.0026518     -0.0005150     -0.0026662     -0.4710693      0.6871033
409620000     -0.4953308      0.6615906     -0.0005317     -0.0026474     -0.0004934     -0.0026779     -0.4704590      0.6871643
409640000     -0.4949036      0.6613770     -0.0005163     -0.0026499     -0.0004902     -0.0026647     -0.4700928      0.6875610
409660000     -0.4944458      0.6621094     -0.0005167     -0.0026374     -0.0004838     -0.0026743     -0.4695435      0.6876831
409680000     -0.4938965      0.6621399     -0.0005175     -0.0026648     -0.0004901     -0.0026524     -0.4688110      0.6881714
409700000     -0.4936829      0.6621704     -0.0005080     -0.0026592     -0.0004827     -0.0026580     -0.4687805      0.6885681
409720000     -0.4931946      0.6628418     -0.0005184     -0.0026259     -0.0005053     -0.0026482     -0.4681702      0.6889954
409740000     -0.4924622      0.6630554     -0.0004939     -0.0026199     -0.0004950     -0.0026596     -0.4675598      0.6888123
409760000     -0.4923096      0.6629944     -0.0005257     -0.0026095     -0.0005014     -0.0026529     -0.4668274      0.6893005
409780000     -0.4918823      0.6633911     -0.0005471     -0.0026249     -0.0005044     -0.0026354     -0.4664001      0.6895447
409800000     -0.4914246      0.6636353     -0.0005136     -0.0026145     -0.0005063     -0.0026274     -0.4661255      0.6896973
409820000     -0.4909668      0.6638489     -0.0005367     -0.0025899     -0.0005105     -0.0026162     -0.4656067      0.6899109
409840000     -0.4905701      0.6640625     -0.0005325     -0.0025824     -0.0005152     -0.0026197     -0.4649963      0.6901855
409860000     -0.4900513      0.6644592     -0.0005606     -0.0025834     -0.0005159     -0.0025969     -0.4645386      0.6907043
409880000     -0.4898682      0.6644897     -0.0005637     -0.0025682     -0.0005171     -0.0025876     -0.4641113      0.6911011
409900000     -0.4894714      0.6647339     -0.0005376     -0.0025630     -0.0005218     -0.0025586     -0.4637146      0.6912537
409920000     -0.4888916      0.6651611     -0.0005206     -0.0025364     -0.0005550     -0.0025463     -0.4628906      0.6917419
409940000     -0.4885559      0.6653442     -0.0005696     -0.0025299     -0.0005370     -0.0025500     -0.4627380      0.6915894
409960000     -0.4879150      0.6654968     -0.0005319     -0.0025069     -0.0005187     -0.0025182     -0.4620056      0.6918030
409980000     -0.4875183      0.6659241     -0.0005527     -0.0024869     -0.0005281     -0.0024915     -0.4616394      0.6923523
410000000     -0.4872437      0.6661987     -0.0005405     -0.0024704     -0.0005208     -0.0024821     -0.4610901      0.6923828
410020000     -0.4868164      0.6663513     -0.0005355     -0.0024534     -0.0005070     -0.0024641     -0.4606323      0.6927185
410040000     -0.4862671      0.6666565     -0.0004940     -0.0024350     -0.0004897     -0.0024382     -0.4600830      0.6931152
410060000     -0.4860229      0.6669312     -0.0004708     -0.0024316     -0.0004747     -0.0024284     -0.4598083      0.6932373
410080000     -0.4855347      0.6669617     -0.0004952     -0.0024141     -0.0004507     -0.0024240     -0.4589539      0.6933899
410100000     -0.4853516      0.6671753     -0.0004566     -0.0023897     -0.0004401     -0.0024356     -0.4586487      0.6936951
410120000     -0.4848633      0.6676025     -0.0004458     -0.0024101     -0.0004253     -0.0024225     -0.4579468      0.6941833
410140000     -0.4841919      0.6678162     -0.0004404     -0.0023940     -0.0004202     -0.0023986     -0.4575195      0.6941223
410160000     -0.4840088      0.6679993     -0.0004307     -0.0023844     -0.0004129     -0.0023996     -0.4571533      0.6943359
410180000     -0.4834290      0.6683350     -0.0004232     -0.0023681     -0.0003943     -0.0024033     -0.4565125      0.6950073
410200000     -0.4831238      0.6689758     -0.0004056     -0.0023785     -0.0003765     -0.0024174     -0.4564819      0.6951294
410220000     -0.4823303      0.6691895     -0.0003864     -0.0023824     -0.0003860     -0.0024056     -0.4558716      0.6949463
410240000     -0.4820557      0.6694336     -0.0004015     -0.0024017     -0.0003648     -0.0024178     -0.4550171      0.6955566
410260000     -0.4815674      0.6694946     -0.0003886     -0.0023800     -0.0003527     -0.0024053     -0.4547729      0.6956787
410280000     -0.4810181      0.6700134     -0.0003541     -0.0024025     -0.0003597     -0.0024269     -0.4540100      0.6961060
410300000     -0.4807434      0.6700134     -0.0003597     -0.0024056     -0.0003452     -0.0024272     -0.4535522      0.6961975
410320000     -0.4802551      0.6702271     -0.0003662     -0.0024056     -0.0003309     -0.0024272     -0.4528809      0.6967468
410340000     -0.4796753      0.6706238     -0.0003759     -0.0023998     -0.0003346     -0.0024464     -0.4528198      0.6970825
410360000     -0.4793396      0.6707153     -0.0003643     -0.0024095     -0.0003303     -0.0024348     -0.4519958      0.6968994
410380000     -0.4791870      0.6708374     -0.0003459     -0.0023861     -0.0003273     -0.0024376     -0.4515076      0.6972351
410400000     -0.4787292      0.6711426     -0.0003476     -0.0024034     -0.0003332     -0.0024277     -0.4511108      0.6976318
410420000     -0.4780579      0.6716003     -0.0003320     -0.0023923     -0.0003289     -0.0024320     -0.4506836      0.6976318
410440000     -0.4775391      0.6719055     -0.0003438     -0.0023980     -0.0003207     -0.0024067     -0.4502563      0.6979980
410460000     -0.4772339      0.6718750     -0.0003489     -0.0023850     -0.0003251     -0.0024015     -0.4494629      0.6983643
410480000     -0.4764709      0.6722107     -0.0003513     -0.0024015     -0.0003048     -0.0024216     -0.4490662      0.6984863
410500000     -0.4763489      0.6725464     -0.0003196     -0.0023766     -0.0002977     -0.0024060     -0.4483948      0.6987915
410520000     -0.4758911      0.6726990     -0.0003339     -0.0023768     -0.0003088     -0.0023909     -0.4480286      0.6990051
410540000     -0.4751282      0.6729736     -0.0003320     -0.0023841     -0.0002974     -0.0023973     -0.4475098      0.6994934
410560000     -0.4750061      0.6733093     -0.0003166     -0.0023745     -0.0002859     -0.0023872     -0.4470215      0.6994019
410580000     -0.4743042      0.6735535     -0.0003033     -0.0023798     -0.0002888     -0.0023836     -0.4465332      0.6997986
410600000     -0.4741516      0.6736450     -0.0002999     -0.0023804     -0.0002857     -0.0023828     -0.4458008      0.7000732
410620000     -0.4735718      0.6740112     -0.0003027     -0.0023637     -0.0002805     -0.0023966     -0.4454346      0.7003479
410640000     -0.4732056      0.6741638     -0.0002840     -0.0023539     -0.0002582     -0.0023718     -0.4449463      0.7004089
410660000     -0.4726868      0.6746216     -0.0003099     -0.0023614     -0.0002618     -0.0023700     -0.4446411      0.7006836
410680000     -0.4724426      0.6749878     -0.0002712     -0.0023354     -0.0002446     -0.0023670     -0.4440308      0.7008057
410700000     -0.4720154      0.6750488     -0.0002499     -0.0023458     -0.0002365     -0.0023631     -0.4435425      0.7013245
410720000     -0.4717712      0.6751404     -0.0002205     -0.0023575     -0.0002171     -0.0023775     -0.4429016      0.7013245
410740000     -0.4708252      0.6753540     -0.0002282     -0.0023398     -0.0002223     -0.0023872     -0.4421997      0.7015686
410760000     -0.4706726      0.6758118     -0.0002136     -0.0023677     -0.0002099     -0.0023735     -0.4417725      0.7019958
