!rf1391c,  9338,  untuned demo, narrow,bn,7/10/07
# HZ S RI R 50
432620000     -0.3430786     -0.8057861      0.0249538      0.0038033      0.0254669      0.0036240     -0.3510742     -0.8045654
432620992     -0.3430786     -0.8051147      0.0250511      0.0037956      0.0254593      0.0035934     -0.3510132     -0.8043213
432622016     -0.3433228     -0.8052979      0.0251102      0.0038376      0.0255966      0.0036259     -0.3512573     -0.8045044
432623008     -0.3435669     -0.8052368      0.0253181      0.0038109      0.0256729      0.0036793     -0.3513184     -0.8040771
432624000     -0.3435669     -0.8047485      0.0253811      0.0038013      0.0258331      0.0036240     -0.3518677     -0.8040161
432624992     -0.3438721     -0.8049316      0.0254402      0.0038891      0.0258980      0.0036011     -0.3519287     -0.8038940
432625984     -0.3438721     -0.8045654      0.0255547      0.0038166      0.0260258      0.0036545     -0.3518677     -0.8039551
432627008     -0.3437500     -0.8045044      0.0256672      0.0038509      0.0260849      0.0036392     -0.3521118     -0.8035278
432628000     -0.3443604     -0.8043213      0.0257835      0.0038109      0.0262203      0.0035610     -0.3523560     -0.8033447
432628992     -0.3444214     -0.8040161      0.0259209      0.0038166      0.0264015      0.0037136     -0.3523560     -0.8032227
432630016     -0.3444824     -0.8038330      0.0259418      0.0038376      0.0264091      0.0035763     -0.3525391     -0.8032227
432631008     -0.3448486     -0.8037109      0.0261040      0.0038605      0.0265656      0.0036449     -0.3530273     -0.8028564
432632000     -0.3449097     -0.8035889      0.0261841      0.0038280      0.0266361      0.0035877     -0.3531494     -0.8027954
432632992     -0.3450317     -0.8036499      0.0262794      0.0038567      0.0267792      0.0035877     -0.3532715     -0.8029785
432633984     -0.3452148     -0.8032227      0.0264282      0.0038128      0.0268764      0.0036278     -0.3533936     -0.8026733
432635008     -0.3454590     -0.8032227      0.0264740      0.0038261      0.0270462      0.0036316     -0.3535156     -0.8023682
432636000     -0.3460083     -0.8030396      0.0266399      0.0038128      0.0270920      0.0035839     -0.3538208     -0.8024292
432636992     -0.3460693     -0.8027344      0.0266838      0.0038834      0.0271549      0.0035553     -0.3536987     -0.8018188
432638016     -0.3457642     -0.8024292      0.0267963      0.0038452      0.0272675      0.0035801     -0.3540649     -0.8018188
432639008     -0.3460693     -0.8024292      0.0268917      0.0038109      0.0273762      0.0035973     -0.3541870     -0.8016968
432640000     -0.3462524     -0.8021240      0.0270042      0.0038090      0.0275459      0.0035610     -0.3544312     -0.8013916
432640992     -0.3466187     -0.8020630      0.0271721      0.0038490      0.0276260      0.0035381     -0.3546143     -0.8012085
432641984     -0.3467407     -0.8015137      0.0271835      0.0038395      0.0277290      0.0035954     -0.3545532     -0.8013306
432643008     -0.3472290     -0.8015747      0.0273304      0.0037422      0.0278244      0.0035419     -0.3550415     -0.8008423
432644000     -0.3470459     -0.8015747      0.0274010      0.0038300      0.0279388      0.0035744     -0.3553467     -0.8009644
432644992     -0.3473511     -0.8012695      0.0276585      0.0037861      0.0280476      0.0035458     -0.3551636     -0.8005981
432646016     -0.3474121     -0.8011475      0.0277557      0.0038357      0.0281696      0.0035801     -0.3554688     -0.8003540
432647008     -0.3479614     -0.8010254      0.0277233      0.0037498      0.0282822      0.0035763     -0.3555908     -0.8004761
432648000     -0.3479614     -0.8006592      0.0278950      0.0037193      0.0284309      0.0036240     -0.3558960     -0.8002930
432648992     -0.3481445     -0.8005371      0.0280285      0.0038033      0.0284958      0.0035439     -0.3560791     -0.8002319
432649984     -0.3483276     -0.8002319      0.0280876      0.0037804      0.0286655      0.0035095     -0.3562012     -0.7998047
432651008     -0.3484497     -0.8001709      0.0282650      0.0038185      0.0287571      0.0035191     -0.3563232     -0.7994385
432652000     -0.3485107     -0.7999268      0.0283718      0.0037956      0.0288982      0.0035400     -0.3566895     -0.7995605
432652992     -0.3490601     -0.7996826      0.0284424      0.0037422      0.0289707      0.0034962     -0.3567505     -0.7992554
432654016     -0.3491821     -0.7996216      0.0285931      0.0037594      0.0291233      0.0035496     -0.3568115     -0.7990723
432655008     -0.3493652     -0.7991943      0.0287533      0.0037785      0.0291901      0.0034847     -0.3569946     -0.7988892
432656000     -0.3495483     -0.7988892      0.0288353      0.0037785      0.0293598      0.0034904     -0.3572388     -0.7985229
432656992     -0.3497314     -0.7989502      0.0289860      0.0037460      0.0294609      0.0034752     -0.3575439     -0.7986450
432657984     -0.3497314     -0.7990723      0.0290413      0.0037651      0.0296555      0.0035019     -0.3577271     -0.7985840
432659008     -0.3500977     -0.7985229      0.0292053      0.0037670      0.0297241      0.0034618     -0.3580322     -0.7983398
432660000     -0.3503418     -0.7981567      0.0292988      0.0037460      0.0298634      0.0034981     -0.3580322     -0.7979736
432660992     -0.3504028     -0.7981567      0.0294266      0.0037384      0.0299454      0.0034523     -0.3583374     -0.7978516
432662016     -0.3507080     -0.7980347      0.0295696      0.0037174      0.0301361      0.0035095     -0.3584595     -0.7976685
432663008     -0.3510132     -0.7979126      0.0297394      0.0036964      0.0301991      0.0034370     -0.3588257     -0.7975464
432664000     -0.3509521     -0.7974243      0.0297985      0.0038033      0.0302525      0.0034370     -0.3590088     -0.7972412
432664992     -0.3512573     -0.7973022      0.0298576      0.0036678      0.0304337      0.0034523     -0.3591919     -0.7968750
432665984     -0.3511963     -0.7972412      0.0300789      0.0037594      0.0305729      0.0034294     -0.3594360     -0.7966309
432667008     -0.3516235     -0.7971802      0.0302200      0.0037079      0.0307388      0.0034561     -0.3598022     -0.7968750
432668000     -0.3518066     -0.7966919      0.0303326      0.0036755      0.0308609      0.0034332     -0.3594360     -0.7963867
432668992     -0.3517456     -0.7965698      0.0304012      0.0036659      0.0309486      0.0033970     -0.3596191     -0.7961426
432670016     -0.3522949     -0.7964478      0.0305901      0.0037003      0.0310974      0.0033970     -0.3600464     -0.7960205
432671008     -0.3524170     -0.7958984      0.0307121      0.0037346      0.0312595      0.0033722     -0.3602295     -0.7957764
432672000     -0.3527222     -0.7956543      0.0307941      0.0037098      0.0313663      0.0034256     -0.3604126     -0.7957153
432672992     -0.3531494     -0.7957764      0.0309582      0.0036869      0.0314808      0.0033875     -0.3608398     -0.7952881
432673984     -0.3529663     -0.7956543      0.0310688      0.0037003      0.0316486      0.0033169     -0.3611450     -0.7953491
432675008     -0.3534546     -0.7953491      0.0312214      0.0036602      0.0317726      0.0033875     -0.3613281     -0.7951660
432676000     -0.3535156     -0.7951050      0.0313492      0.0036182      0.0318890      0.0033951     -0.3613281     -0.7947998
432676992     -0.3533936     -0.7949829      0.0315018      0.0036697      0.0320892      0.0033493     -0.3615112     -0.7945557
432678016     -0.3538208     -0.7946167      0.0315857      0.0037003      0.0321350      0.0033550     -0.3616943     -0.7943115
432679008     -0.3540039     -0.7945557      0.0317707      0.0036755      0.0323200      0.0033741     -0.3619995     -0.7941284
432680000     -0.3545532     -0.7941284      0.0318775      0.0036678      0.0325031      0.0033131     -0.3621826     -0.7941895
432680992     -0.3542480     -0.7941284      0.0319557      0.0036697      0.0325871      0.0032806     -0.3624878     -0.7938232
432681984     -0.3549194     -0.7937622      0.0321369      0.0036926      0.0327702      0.0033321     -0.3626709     -0.7933960
432683008     -0.3551025     -0.7935181      0.0322590      0.0035820      0.0328617      0.0033321     -0.3626709     -0.7933350
432684000     -0.3551025     -0.7932129      0.0324249      0.0036449      0.0330677      0.0032787     -0.3630981     -0.7931519
432684992     -0.3556519     -0.7930298      0.0326080      0.0036297      0.0331516      0.0032539     -0.3630981     -0.7930908
432686016     -0.3555298     -0.7928467      0.0327682      0.0035954      0.0333042      0.0032997     -0.3632202     -0.7927856
432687008     -0.3559570     -0.7927856      0.0328674      0.0035534      0.0334549      0.0032406     -0.3636475     -0.7925415
432688000     -0.3558350     -0.7926025      0.0330067      0.0035896      0.0335960      0.0032291     -0.3635864     -0.7923584
432688992     -0.3560791     -0.7922974      0.0331535      0.0035591      0.0337620      0.0032711     -0.3640747     -0.7920532
432689984     -0.3565063     -0.7919922      0.0332603      0.0035400      0.0338993      0.0032253     -0.3642578     -0.7919922
432691008     -0.3565674     -0.7917480      0.0335064      0.0035801      0.0339794      0.0032330     -0.3643188     -0.7913818
432692000     -0.3569336     -0.7915649      0.0335674      0.0035591      0.0341911      0.0032520     -0.3646240     -0.7915649
432692992     -0.3571167     -0.7912598      0.0337029      0.0034809      0.0343628      0.0031300     -0.3646240     -0.7912598
432694016     -0.3572388     -0.7913208      0.0339622      0.0035095      0.0344658      0.0032444     -0.3649902     -0.7909546
432695008     -0.3573608     -0.7907715      0.0340710      0.0035877      0.0346069      0.0031834     -0.3651733     -0.7908325
432696000     -0.3576050     -0.7907715      0.0341949      0.0035095      0.0347691      0.0031490     -0.3654175     -0.7907104
432696992     -0.3579102     -0.7901611      0.0343628      0.0034885      0.0348873      0.0031414     -0.3658447     -0.7904053
432697984     -0.3585205     -0.7901001      0.0345383      0.0034103      0.0350552      0.0030937     -0.3658447     -0.7903442
432699008     -0.3583984     -0.7899170      0.0346794      0.0034180      0.0352631      0.0031643     -0.3659668     -0.7899780
432700000     -0.3584595     -0.7896729      0.0347843      0.0034351      0.0354328      0.0031204     -0.3661499     -0.7893066
432700992     -0.3588257     -0.7894897      0.0349865      0.0034714      0.0355434      0.0031033     -0.3664551     -0.7893066
432702016     -0.3589478     -0.7892456      0.0351887      0.0034523      0.0357800      0.0031319     -0.3668213     -0.7894287
432703008     -0.3592529     -0.7890015      0.0353470      0.0034657      0.0359001      0.0030804     -0.3671265     -0.7890015
432704000     -0.3595581     -0.7890015      0.0354614      0.0034370      0.0360527      0.0030632     -0.3670654     -0.7888794
432704992     -0.3597412     -0.7886963      0.0356464      0.0033760      0.0361919      0.0030365     -0.3674316     -0.7888794
432705984     -0.3598633     -0.7882080      0.0357399      0.0034142      0.0363808      0.0030327     -0.3677979     -0.7886353
432707008     -0.3601074     -0.7880859      0.0359516      0.0033989      0.0365314      0.0030098     -0.3676147     -0.7880859
432708000     -0.3605347     -0.7878418      0.0360222      0.0033493      0.0367031      0.0030155     -0.3679199     -0.7877808
432708992     -0.3604126     -0.7874756      0.0362549      0.0033131      0.0368042      0.0029583     -0.3679810     -0.7876587
432710016     -0.3605347     -0.7872925      0.0364170      0.0033283      0.0370388      0.0029545     -0.3685913     -0.7875366
432711008     -0.3609009     -0.7870483      0.0365162      0.0033302      0.0371971      0.0029678     -0.3685913     -0.7871094
432712000     -0.3610840     -0.7868042      0.0367241      0.0033665      0.0374050      0.0029335     -0.3687744     -0.7869873
432712992     -0.3616943     -0.7864990      0.0368824      0.0032902      0.0375633      0.0029221     -0.3693848     -0.7865601
432713984     -0.3616943     -0.7861938      0.0370541      0.0032864      0.0376930      0.0029602     -0.3693848     -0.7861328
432715008     -0.3618774     -0.7859497      0.0372467      0.0031853      0.0378952      0.0028725     -0.3692627     -0.7859497
432716000     -0.3622437     -0.7858276      0.0375137      0.0033016      0.0380592      0.0028267     -0.3700562     -0.7860107
432716992     -0.3624878     -0.7853394      0.0375977      0.0032749      0.0382519      0.0028782     -0.3699951     -0.7857056
432718016     -0.3627319     -0.7851563      0.0377579      0.0032005      0.0384140      0.0028114     -0.3703003     -0.7852783
432719008     -0.3626099     -0.7849731      0.0380020      0.0032387      0.0385761      0.0028019     -0.3704834     -0.7850342
432720000     -0.3630981     -0.7847900      0.0381393      0.0031738      0.0387802      0.0028286     -0.3704224     -0.7850342
432720992     -0.3636475     -0.7844849      0.0383091      0.0032291      0.0389900      0.0027599     -0.3709717     -0.7841797
432721984     -0.3635864     -0.7841797      0.0384617      0.0031586      0.0391598      0.0028248     -0.3709717     -0.7843628
432723008     -0.3637085     -0.7835693      0.0386696      0.0031223      0.0392666      0.0027580     -0.3713989     -0.7840576
432724000     -0.3639526     -0.7833862      0.0388832      0.0031376      0.0395412      0.0026836     -0.3717041     -0.7836914
432724992     -0.3644409     -0.7831421      0.0389729      0.0030994      0.0396843      0.0027046     -0.3718262     -0.7838745
432726016     -0.3646851     -0.7830811      0.0391674      0.0030289      0.0398808      0.0027122     -0.3720703     -0.7833862
432727008     -0.3651733     -0.7825317      0.0393772      0.0031319      0.0401020      0.0027027     -0.3723145     -0.7831421
432728000     -0.3649292     -0.7823486      0.0395679      0.0031300      0.0402451      0.0026417     -0.3723755     -0.7827148
432728992     -0.3652344     -0.7821655      0.0396996      0.0030422      0.0404224      0.0026245     -0.3729248     -0.7823486
432729984     -0.3654175     -0.7817993      0.0399837      0.0030384      0.0405731      0.0025673     -0.3729858     -0.7822266
432731008     -0.3659058     -0.7818604      0.0401287      0.0029602      0.0408001      0.0025425     -0.3731689     -0.7820435
432732000     -0.3660278     -0.7813110      0.0402908      0.0029373      0.0409908      0.0025253     -0.3735352     -0.7817993
432732992     -0.3662720     -0.7809448      0.0405254      0.0029240      0.0411930      0.0025501     -0.3736572     -0.7816772
432734016     -0.3665161     -0.7807007      0.0407219      0.0028858      0.0413780      0.0024681     -0.3739014     -0.7809448
432735008     -0.3668823     -0.7804565      0.0409374      0.0028934      0.0416012      0.0024738     -0.3743286     -0.7808838
432736000     -0.3668213     -0.7802734      0.0411377      0.0028973      0.0417652      0.0024300     -0.3745117     -0.7807007
432736992     -0.3673096     -0.7797852      0.0412865      0.0028591      0.0419579      0.0023994     -0.3748779     -0.7804565
432737984     -0.3673706     -0.7797241      0.0415211      0.0027695      0.0421906      0.0024109     -0.3749390     -0.7799072
432739008     -0.3676147     -0.7792969      0.0417500      0.0027466      0.0424519      0.0023766     -0.3753662     -0.7797852
432740000     -0.3676758     -0.7788696      0.0418892      0.0028076      0.0426159      0.0023880     -0.3753662     -0.7795410
432740992     -0.3681641     -0.7785034      0.0421181      0.0027943      0.0428257      0.0023308     -0.3756714     -0.7791748
432742016     -0.3685913     -0.7785034      0.0423183      0.0027561      0.0430527      0.0023308     -0.3759155     -0.7790527
432743008     -0.3688354     -0.7783203      0.0425453      0.0026855      0.0432568      0.0023212     -0.3762817     -0.7784424
432744000     -0.3689575     -0.7778931      0.0427990      0.0027199      0.0434704      0.0022640     -0.3764038     -0.7783813
432744992     -0.3691406     -0.7774658      0.0429802      0.0026398      0.0436459      0.0021629     -0.3766479     -0.7780762
432745984     -0.3693848     -0.7773438      0.0431747      0.0026035      0.0439262      0.0022068     -0.3768311     -0.7780151
432747008     -0.3696289     -0.7770386      0.0433559      0.0026360      0.0440845      0.0021324     -0.3771973     -0.7774658
432748000     -0.3700562     -0.7764893      0.0436058      0.0025291      0.0443039      0.0021439     -0.3774414     -0.7772827
432748992     -0.3702393     -0.7763672      0.0437660      0.0025444      0.0445194      0.0021057     -0.3776245     -0.7766724
432750016     -0.3706055     -0.7760620      0.0440273      0.0025063      0.0447598      0.0020485     -0.3782349     -0.7764893
432751008     -0.3708496     -0.7756958      0.0441647      0.0024910      0.0449848      0.0019779     -0.3780518     -0.7762451
432752000     -0.3711548     -0.7753296      0.0444374      0.0024757      0.0452251      0.0020218     -0.3784180     -0.7758789
432752992     -0.3710327     -0.7750244      0.0446835      0.0024681      0.0454159      0.0019798     -0.3789673     -0.7755127
432753984     -0.3715820     -0.7747192      0.0448780      0.0023632      0.0456123      0.0019302     -0.3789063     -0.7753906
432755008     -0.3715210     -0.7743530      0.0451603      0.0023708      0.0458717      0.0019379     -0.3792114     -0.7750244
432756000     -0.3721924     -0.7737427      0.0453358      0.0023518      0.0460739      0.0017929     -0.3795776     -0.7748413
432756992     -0.3723145     -0.7736206      0.0455132      0.0023422      0.0463123      0.0018482     -0.3796387     -0.7747803
432758016     -0.3726196     -0.7734375      0.0457706      0.0023308      0.0465450      0.0018215     -0.3800049     -0.7738647
432759008     -0.3729858     -0.7728271      0.0459862      0.0022449      0.0467987      0.0017624     -0.3803101     -0.7737427
432760000     -0.3731689     -0.7727661      0.0462017      0.0022106      0.0470142      0.0016651     -0.3807983     -0.7734375
432760992     -0.3735962     -0.7722778      0.0464382      0.0021515      0.0472145      0.0016975     -0.3808594     -0.7728271
432761984     -0.3735352     -0.7718506      0.0467339      0.0021744      0.0474491      0.0016956     -0.3809204     -0.7725830
432763008     -0.3738403     -0.7714844      0.0469284      0.0021267      0.0477104      0.0015621     -0.3814697     -0.7722168
432764000     -0.3740234     -0.7714844      0.0471878      0.0021076      0.0479050      0.0015755     -0.3815918     -0.7719727
432764992     -0.3746948     -0.7710571      0.0474377      0.0020905      0.0481949      0.0015278     -0.3816528     -0.7714233
432766016     -0.3750000     -0.7705078      0.0476742      0.0020046      0.0484276      0.0015316     -0.3823242     -0.7714233
432767008     -0.3748779     -0.7700806      0.0478516      0.0020161      0.0487347      0.0014153     -0.3823242     -0.7709351
432768000     -0.3753662     -0.7698364      0.0481358      0.0019779      0.0489712      0.0013275     -0.3828125     -0.7705688
432768992     -0.3756714     -0.7695313      0.0483837      0.0018215      0.0491695      0.0013790     -0.3828735     -0.7704468
432769984     -0.3757324     -0.7692871      0.0486450      0.0018234      0.0494137      0.0013618     -0.3834229     -0.7698975
432771008     -0.3758545     -0.7689819      0.0488663      0.0018368      0.0496998      0.0012131     -0.3836060     -0.7697144
432772000     -0.3764038     -0.7684326      0.0491810      0.0017872      0.0499401      0.0011864     -0.3837280     -0.7693481
