!RF1319D,#2,narrow,bn,8/22/05
# HZ S RI R 50
855915968      0.8494873      0.2463989      0.0040090     -0.0045962      0.0037134     -0.0046041      0.7688599      0.4667969
855932288      0.8488770      0.2470093      0.0040147     -0.0045695      0.0036819     -0.0046334      0.7681885      0.4667358
855948544      0.8494873      0.2463989      0.0039995     -0.0046179      0.0036347     -0.0046561      0.7688599      0.4663086
855964864      0.8493042      0.2462769      0.0039701     -0.0046580      0.0036075     -0.0047033      0.7690430      0.4658203
855981120      0.8496094      0.2455444      0.0039051     -0.0046647      0.0035970     -0.0047011      0.7693481      0.4656982
855997440      0.8488159      0.2457886      0.0038793     -0.0046978      0.0035226     -0.0046816      0.7692261      0.4655151
856013696      0.8497314      0.2454834      0.0038159     -0.0047226      0.0035231     -0.0047150      0.7697754      0.4652710
856030016      0.8494873      0.2449341      0.0037527     -0.0047622      0.0034404     -0.0047462      0.7700195      0.4658813
856046336      0.8494873      0.2448120      0.0037684     -0.0047872      0.0034070     -0.0048037      0.7697754      0.4648438
856062592      0.8496094      0.2446899      0.0037713     -0.0047865      0.0033677     -0.0048127      0.7699585      0.4650269
856078912      0.8496704      0.2448120      0.0037293     -0.0048614      0.0033436     -0.0048428      0.7701416      0.4645386
856095168      0.8498535      0.2445679      0.0036771     -0.0048447      0.0032971     -0.0048714      0.7706909      0.4645386
856111488      0.8495483      0.2437134      0.0036314     -0.0049040      0.0032980     -0.0048754      0.7699585      0.4643555
856127744      0.8495483      0.2441406      0.0035939     -0.0049369      0.0032783     -0.0048904      0.7700806      0.4640503
856144064      0.8499146      0.2434082      0.0035620     -0.0049953      0.0032341     -0.0049448      0.7704468      0.4642334
856160384      0.8496094      0.2434082      0.0035393     -0.0049829      0.0032001     -0.0049753      0.7706299      0.4642334
856176640      0.8493652      0.2429199      0.0035131     -0.0050271      0.0031519     -0.0050170      0.7703247      0.4640503
856192960      0.8495483      0.2430420      0.0034499     -0.0051222      0.0031106     -0.0050595      0.7706909      0.4646606
856209216      0.8493652      0.2429810      0.0034266     -0.0051241      0.0031228     -0.0050795      0.7707520      0.4641724
856225536      0.8494873      0.2428589      0.0033522     -0.0051532      0.0030353     -0.0050712      0.7700806      0.4641113
856241792      0.8491821      0.2426758      0.0033436     -0.0051546      0.0029807     -0.0051951      0.7701416      0.4637451
856258112      0.8494873      0.2421265      0.0032883     -0.0052209      0.0029435     -0.0051789      0.7705688      0.4635620
856274432      0.8495483      0.2424927      0.0032759     -0.0052657      0.0028973     -0.0052495      0.7706909      0.4633179
856290688      0.8498535      0.2421875      0.0031753     -0.0053496      0.0028605     -0.0052505      0.7713623      0.4637451
856307008      0.8498535      0.2419434      0.0031061     -0.0053673      0.0027633     -0.0053144      0.7716675      0.4625244
856323264      0.8495483      0.2413940      0.0030923     -0.0054235      0.0027432     -0.0053639      0.7707520      0.4623413
856339584      0.8496094      0.2411499      0.0030413     -0.0054350      0.0027199     -0.0053945      0.7714233      0.4623413
856355840      0.8497314      0.2411499      0.0030322     -0.0055075      0.0026722     -0.0054922      0.7705078      0.4623413
856372160      0.8495483      0.2411499      0.0029545     -0.0055723      0.0025864     -0.0055013      0.7703857      0.4619751
856388480      0.8489990      0.2410889      0.0029130     -0.0056324      0.0025096     -0.0055742      0.7705078      0.4618530
856404736      0.8487549      0.2403564      0.0028090     -0.0056138      0.0024877     -0.0055838      0.7708130      0.4616699
856421056      0.8500977      0.2398071      0.0027847     -0.0057344      0.0024562     -0.0056257      0.7714233      0.4613037
856437312      0.8499146      0.2399292      0.0027728     -0.0058370      0.0023742     -0.0057278      0.7709961      0.4609985
856453632      0.8495483      0.2400513      0.0026693     -0.0058403      0.0023165     -0.0057893      0.7706909      0.4611206
856469888      0.8500366      0.2399292      0.0025358     -0.0059190      0.0022125     -0.0058312      0.7709351      0.4606323
856486208      0.8493042      0.2398682      0.0025043     -0.0059538      0.0021834     -0.0058737      0.7705688      0.4610596
856502528      0.8494873      0.2396851      0.0024199     -0.0059748      0.0020466     -0.0059137      0.7709351      0.4605103
856518784      0.8488770      0.2394409      0.0023980     -0.0061173      0.0019970     -0.0059729      0.7711792      0.4598999
856535104      0.8491211      0.2390137      0.0022535     -0.0061512      0.0019460     -0.0060391      0.7710571      0.4599609
856551360      0.8493042      0.2385254      0.0021710     -0.0061979      0.0018253     -0.0061035      0.7717285      0.4598389
856567680      0.8493042      0.2391968      0.0020738     -0.0062652      0.0017562     -0.0061893      0.7716064      0.4596558
856583936      0.8492432      0.2388306      0.0019679     -0.0063434      0.0016475     -0.0061870      0.7714844      0.4597778
856600256      0.8492432      0.2383423      0.0018973     -0.0064058      0.0015488     -0.0063024      0.7713623      0.4596558
856616576      0.8485718      0.2386475      0.0017805     -0.0064588      0.0014610     -0.0063343      0.7715454      0.4589844
856632832      0.8486938      0.2379150      0.0016479     -0.0064840      0.0013638     -0.0063877      0.7714844      0.4585571
856649152      0.8485718      0.2384644      0.0015774     -0.0065637      0.0012369     -0.0063968      0.7717285      0.4583740
856665408      0.8493042      0.2380981      0.0014811     -0.0066547      0.0011516     -0.0064335      0.7711792      0.4583130
856681728      0.8485107      0.2375488      0.0013309     -0.0066733      0.0009918     -0.0064940      0.7714844      0.4579468
856697984      0.8491821      0.2380371      0.0012112     -0.0067182      0.0008965     -0.0065975      0.7719116      0.4582520
856714304      0.8485718      0.2373657      0.0011258     -0.0067658      0.0007610     -0.0066037      0.7720337      0.4574585
856730624      0.8489380      0.2372437      0.0009427     -0.0068588      0.0005932     -0.0066476      0.7714844      0.4569092
856746880      0.8488770      0.2369385      0.0008087     -0.0068564      0.0004501     -0.0066566      0.7719116      0.4573364
856763200      0.8484497      0.2373047      0.0006514     -0.0069265      0.0003414     -0.0067229      0.7720337      0.4565430
856779456      0.8488770      0.2368164      0.0005093     -0.0069213      0.0002208     -0.0067286      0.7722778      0.4562378
856795776      0.8488770      0.2367554      0.0003757     -0.0069947      0.0000052     -0.0068030      0.7723389      0.4569702
856812032      0.8488159      0.2363281      0.0002017     -0.0070381     -0.0001407     -0.0067997      0.7723389      0.4564819
856828352      0.8487549      0.2366943      0.0000367     -0.0070119     -0.0002518     -0.0068069      0.7729492      0.4560547
856844672      0.8485718      0.2359619     -0.0001369     -0.0070410     -0.0004287     -0.0068035      0.7728271      0.4565430
856860928      0.8484497      0.2362671     -0.0002708     -0.0070758     -0.0005813     -0.0068383      0.7723999      0.4556885
856877248      0.8484497      0.2365723     -0.0004449     -0.0070910     -0.0007362     -0.0068226      0.7725830      0.4560547
856893504      0.8488159      0.2364502     -0.0006785     -0.0071135     -0.0009327     -0.0068331      0.7730713      0.4553223
856909824      0.8480835      0.2362061     -0.0008087     -0.0070767     -0.0011077     -0.0067916      0.7719116      0.4552002
856926080      0.8482666      0.2363281     -0.0010352     -0.0071073     -0.0012894     -0.0068173      0.7723999      0.4555054
856942400      0.8485718      0.2359009     -0.0012045     -0.0070791     -0.0014296     -0.0067644      0.7721558      0.4552002
856958720      0.8480835      0.2358398     -0.0013871     -0.0070624     -0.0016184     -0.0067301      0.7736206      0.4548950
856974976      0.8486328      0.2357178     -0.0015974     -0.0070791     -0.0018301     -0.0066957      0.7729492      0.4547119
856991296      0.8486938      0.2357788     -0.0017171     -0.0070004     -0.0020075     -0.0066304      0.7725830      0.4545288
857007552      0.8485107      0.2359009     -0.0019164     -0.0069418     -0.0021901     -0.0066023      0.7729492      0.4540405
857023872      0.8488770      0.2350464     -0.0021338     -0.0068984     -0.0023274     -0.0065675      0.7728271      0.4545898
857040128      0.8491211      0.2358398     -0.0023046     -0.0068440     -0.0025196     -0.0064850      0.7728882      0.4541626
857056448      0.8488159      0.2354126     -0.0024800     -0.0067220     -0.0026894     -0.0064363      0.7731934      0.4541626
857072704      0.8486328      0.2352295     -0.0026846     -0.0067568     -0.0028863     -0.0063491      0.7732544      0.4543457
857089024      0.8491821      0.2349243     -0.0028796     -0.0065923     -0.0030403     -0.0063114      0.7725830      0.4540405
857105344      0.8494263      0.2349854     -0.0030470     -0.0065670     -0.0032568     -0.0062265      0.7727051      0.4539185
857121600      0.8494873      0.2346191     -0.0032401     -0.0064616     -0.0034156     -0.0060606      0.7729492      0.4531860
857137920      0.8497314      0.2349243     -0.0034056     -0.0063572     -0.0035934     -0.0059743      0.7726440      0.4530029
857154176      0.8491821      0.2345581     -0.0035524     -0.0062504     -0.0037751     -0.0058870      0.7737427      0.4541016
857170496      0.8494263      0.2344360     -0.0037704     -0.0061374     -0.0039196     -0.0057530      0.7725830      0.4535522
857186752      0.8491821      0.2339478     -0.0038981     -0.0060186     -0.0040650     -0.0056329      0.7730713      0.4532471
857203072      0.8494263      0.2342529     -0.0041351     -0.0059118     -0.0042315     -0.0055542      0.7732544      0.4530640
857219392      0.8498535      0.2341309     -0.0043092     -0.0057812     -0.0043755     -0.0054131      0.7734375      0.4523315
857235648      0.8489380      0.2338257     -0.0044565     -0.0056534     -0.0045228     -0.0052714      0.7736816      0.4528198
857251968      0.8503418      0.2338257     -0.0046248     -0.0055733     -0.0046878     -0.0051413      0.7728882      0.4525757
857268224      0.8499146      0.2338867     -0.0047660     -0.0054150     -0.0048428     -0.0050359      0.7734985      0.4528809
857284544      0.8501587      0.2330322     -0.0049610     -0.0052395     -0.0049939     -0.0048504      0.7730103      0.4523315
857300800      0.8500977      0.2333374     -0.0050726     -0.0050879     -0.0051012     -0.0046916      0.7732544      0.4519043
857317120      0.8502808      0.2330322     -0.0052266     -0.0049262     -0.0052724     -0.0045180      0.7737427      0.4518433
857333440      0.8499146      0.2329102     -0.0053530     -0.0047770     -0.0054331     -0.0043325      0.7735596      0.4516602
857349696      0.8503418      0.2326050     -0.0055203     -0.0045686     -0.0055532     -0.0041633      0.7737427      0.4509277
857366016      0.8500366      0.2327881     -0.0056448     -0.0044179     -0.0056963     -0.0039525      0.7742310      0.4507446
857382272      0.8511353      0.2325439     -0.0057597     -0.0042377     -0.0057874     -0.0038285      0.7744141      0.4505615
857398592      0.8505859      0.2322998     -0.0059638     -0.0040689     -0.0058513     -0.0036654      0.7739868      0.4500732
857414848      0.8501587      0.2316284     -0.0060081     -0.0038872     -0.0059710     -0.0034623      0.7744751      0.4501953
857431168      0.8507080      0.2318726     -0.0061650     -0.0036955     -0.0060778     -0.0033016      0.7739868      0.4500732
857447488      0.8507690      0.2315674     -0.0062628     -0.0034590     -0.0062122     -0.0030375      0.7747192      0.4492798
857463744      0.8506470      0.2312012     -0.0063615     -0.0032420     -0.0063081     -0.0029001      0.7746582      0.4494019
857480064      0.8505859      0.2306519     -0.0064464     -0.0030437     -0.0063806     -0.0026898      0.7741699      0.4489136
857496320      0.8506470      0.2308960     -0.0065498     -0.0028691     -0.0064497     -0.0024734      0.7744751      0.4488525
857512640      0.8507690      0.2310181     -0.0066128     -0.0026560     -0.0065989     -0.0022483      0.7744141      0.4488525
857528896      0.8505249      0.2308350     -0.0067177     -0.0024142     -0.0066657     -0.0020614      0.7742310      0.4485474
857545216      0.8509521      0.2301636     -0.0068660     -0.0022192     -0.0066500     -0.0018563      0.7746582      0.4484253
857561536      0.8513794      0.2303467     -0.0069022     -0.0019994     -0.0067363     -0.0016150      0.7742920      0.4478760
857577792      0.8510742      0.2297974     -0.0069933     -0.0017853     -0.0068231     -0.0014324      0.7745972      0.4484863
857594112      0.8511353      0.2297974     -0.0070252     -0.0015616     -0.0068674     -0.0011692      0.7743530      0.4476929
857610368      0.8506470      0.2293701     -0.0070863     -0.0012941     -0.0068636     -0.0009689      0.7747192      0.4472046
857626688      0.8510132      0.2291870     -0.0071735     -0.0010734     -0.0068979     -0.0007510      0.7747803      0.4475708
857642944      0.8510742      0.2290649     -0.0071278     -0.0008545     -0.0069427     -0.0005231      0.7743530      0.4472046
857659264      0.8512573      0.2289429     -0.0071998     -0.0006051     -0.0069928     -0.0002470      0.7742920      0.4472656
857675584      0.8512573      0.2284546     -0.0071993     -0.0003209     -0.0070276     -0.0000005      0.7749634      0.4464111
857691840      0.8513184      0.2276001     -0.0072160     -0.0000768     -0.0070009      0.0002251      0.7751465      0.4462280
857708160      0.8509521      0.2275391     -0.0072465      0.0001497     -0.0069613      0.0004330      0.7745972      0.4468994
857724416      0.8508911      0.2281494     -0.0072217      0.0003920     -0.0069752      0.0006928      0.7745361      0.4459839
857740736      0.8508911      0.2277222     -0.0072289      0.0006390     -0.0069947      0.0009170      0.7748413      0.4454346
857756992      0.8510742      0.2272339     -0.0072765      0.0009136     -0.0069571      0.0011587      0.7743530      0.4459839
857773312      0.8510742      0.2270508     -0.0071979      0.0011425     -0.0069127      0.0014095      0.7744141      0.4449463
857789632      0.8509521      0.2271118     -0.0071678      0.0013776     -0.0068359      0.0016899      0.7744141      0.4451904
857805888      0.8506470      0.2271118     -0.0070558      0.0016232     -0.0067992      0.0019059      0.7748413      0.4453125
857822208      0.8510132      0.2267456     -0.0070577      0.0019121     -0.0067277      0.0021434      0.7747803      0.4454956
857838464      0.8507080      0.2262573     -0.0069928      0.0021291     -0.0066099      0.0023570      0.7743530      0.4445801
857854784      0.8503418      0.2262573     -0.0069361      0.0024071     -0.0066071      0.0025949      0.7744141      0.4450073
857871040      0.8507690      0.2262573     -0.0068140      0.0026026     -0.0064793      0.0028276      0.7749634      0.4450073
857887360      0.8509521      0.2262573     -0.0067101      0.0028787     -0.0063632      0.0030396      0.7745361      0.4443970
857903680      0.8506470      0.2264404     -0.0065975      0.0030985     -0.0062277      0.0032380      0.7742310      0.4446411
857919936      0.8508911      0.2255859     -0.0064855      0.0032926     -0.0060759      0.0034711      0.7745361      0.4442749
857936256      0.8503418      0.2252808     -0.0063586      0.0035386     -0.0059907      0.0036740      0.7746582      0.4448242
857952512      0.8504028      0.2257080     -0.0062375      0.0037394     -0.0058532      0.0038769      0.7748413      0.4446411
857968832      0.8503418      0.2257690     -0.0060508      0.0039415     -0.0057073      0.0040953      0.7744751      0.4437866
857985088      0.8505859      0.2257080     -0.0059237      0.0041130     -0.0055063      0.0043068      0.7748413      0.4445190
858001408      0.8499756      0.2254639     -0.0058093      0.0043139     -0.0053661      0.0044405      0.7742920      0.4443359
858017728      0.8504028      0.2249146     -0.0056260      0.0044756     -0.0052140      0.0046008      0.7741089      0.4436035
858033984      0.8504028      0.2249756     -0.0054934      0.0046391     -0.0050280      0.0047503      0.7748413      0.4438477
858050304      0.8499756      0.2249146     -0.0052557      0.0048580     -0.0048718      0.0048952      0.7747192      0.4437256
858066560      0.8505249      0.2248535     -0.0050912      0.0050182     -0.0046830      0.0050058      0.7745972      0.4437866
858082880      0.8499756      0.2247314     -0.0049129      0.0051169     -0.0045691      0.0051031      0.7737427      0.4434204
858099136      0.8506470      0.2241821     -0.0047693      0.0052505     -0.0043392      0.0052743      0.7741089      0.4437866
858115456      0.8497925      0.2246094     -0.0045495      0.0054064     -0.0041780      0.0053892      0.7745361      0.4430542
858131776      0.8505859      0.2246704     -0.0043726      0.0054798     -0.0039873      0.0054564      0.7746582      0.4434814
858148032      0.8504639      0.2240601     -0.0041709      0.0056105     -0.0038075      0.0055642      0.7743530      0.4439087
858164352      0.8505859      0.2246094     -0.0039835      0.0056562     -0.0036306      0.0055852      0.7741089      0.4430542
858180608      0.8505249      0.2242432     -0.0038404      0.0057511     -0.0034027      0.0057526      0.7749634      0.4428711
858196928      0.8503418      0.2246704     -0.0035920      0.0058055     -0.0032434      0.0057588      0.7746582      0.4434204
858213184      0.8504028      0.2238770     -0.0033937      0.0058904     -0.0030532      0.0058599      0.7746582      0.4431763
858229504      0.8505249      0.2237549     -0.0032554      0.0059094     -0.0028701      0.0058784      0.7752075      0.4427490
858245824      0.8504639      0.2246704     -0.0030680      0.0059738     -0.0027251      0.0059032      0.7752075      0.4430542
858262080      0.8507080      0.2238159     -0.0028620      0.0059781     -0.0025554      0.0059199      0.7752075      0.4432983
858278400      0.8511353      0.2238159     -0.0027242      0.0060630     -0.0023599      0.0059743      0.7753906      0.4429932
858294656      0.8510132      0.2235718     -0.0025830      0.0060420     -0.0022168      0.0059614      0.7752686      0.4428711
858310976      0.8505859      0.2230225     -0.0023932      0.0061173     -0.0020494      0.0059514      0.7752686      0.4428101
858327232      0.8512573      0.2235718     -0.0022297      0.0060902     -0.0018959      0.0059166      0.7751465      0.4422607
858343552      0.8509521      0.2236938     -0.0021062      0.0060744     -0.0017838      0.0060000      0.7751465      0.4425659
858359872      0.8518066      0.2230225     -0.0019102      0.0060754     -0.0016432      0.0059848      0.7757568      0.4428711
858376128      0.8516235      0.2225952     -0.0018072      0.0061169     -0.0015135      0.0059505      0.7753296      0.4426880
858392448      0.8514404      0.2233887     -0.0016751      0.0060930     -0.0013289      0.0059414      0.7756348      0.4417725
