!rf1391c,  9338,  untuned demo, wide,bn,7/10/07
# HZ S RI R 50
408420000     -0.1379089     -0.9087830      0.0005356      0.0007699      0.0005483      0.0007977     -0.1350708     -0.9219971
408451264     -0.1378479     -0.9086914      0.0005374      0.0007693      0.0005367      0.0007882     -0.1353455     -0.9221191
408482496     -0.1380920     -0.9086609      0.0005251      0.0007737      0.0005431      0.0007772     -0.1351929     -0.9223633
408513760     -0.1382751     -0.9087219      0.0005293      0.0007540      0.0005456      0.0007784     -0.1352234     -0.9222107
408544992     -0.1385498     -0.9084167      0.0005409      0.0007589      0.0005634      0.0007690     -0.1354980     -0.9220581
408576256     -0.1385803     -0.9081116      0.0005384      0.0007476      0.0005496      0.0007569     -0.1352539     -0.9222717
408607488     -0.1385498     -0.9082336      0.0005372      0.0007402      0.0005509      0.0007567     -0.1356506     -0.9220886
408638752     -0.1389160     -0.9085083      0.0005397      0.0007314      0.0005518      0.0007454     -0.1356812     -0.9222717
408670016     -0.1388855     -0.9084473      0.0005345      0.0007319      0.0005600      0.0007413     -0.1360168     -0.9220276
408701248     -0.1389465     -0.9086304      0.0005596      0.0007170      0.0005622      0.0007477     -0.1357117     -0.9221191
408732512     -0.1394653     -0.9085693      0.0005323      0.0007045      0.0005584      0.0007349     -0.1359558     -0.9217834
408763744     -0.1394348     -0.9082947      0.0005478      0.0007094      0.0005530      0.0007277     -0.1359253     -0.9219666
408795008     -0.1394043     -0.9084473      0.0005429      0.0007099      0.0005652      0.0007275     -0.1360168     -0.9217529
408826240     -0.1394958     -0.9082642      0.0005525      0.0006952      0.0005437      0.0007239     -0.1363525     -0.9218140
408857504     -0.1397400     -0.9082642      0.0005495      0.0006954      0.0005635      0.0007154     -0.1362915     -0.9220276
408888736     -0.1399841     -0.9080505      0.0005553      0.0006721      0.0005585      0.0007070     -0.1367493     -0.9219055
408920000     -0.1396790     -0.9080200      0.0005514      0.0006724      0.0005517      0.0006785     -0.1363220     -0.9219971
408951264     -0.1401367     -0.9081726      0.0005540      0.0006678      0.0005604      0.0006774     -0.1368408     -0.9216919
408982496     -0.1403503     -0.9084167      0.0005457      0.0006528      0.0005546      0.0006788     -0.1369934     -0.9220581
409013760     -0.1401978     -0.9082031      0.0005330      0.0006503      0.0005530      0.0006734     -0.1366577     -0.9219971
409044992     -0.1403198     -0.9081726      0.0005441      0.0006472      0.0005646      0.0006587     -0.1370850     -0.9215393
409076256     -0.1405334     -0.9081726      0.0005287      0.0006279      0.0005569      0.0006393     -0.1371765     -0.9218140
409107488     -0.1408691     -0.9080200      0.0005237      0.0006421      0.0005454      0.0006570     -0.1372070     -0.9215393
409138752     -0.1408997     -0.9080200      0.0005322      0.0006314      0.0005295      0.0006430     -0.1374207     -0.9218140
409169984     -0.1408997     -0.9082336      0.0005098      0.0006152      0.0005229      0.0006309     -0.1376648     -0.9215393
409201248     -0.1410828     -0.9077148      0.0004991      0.0006128      0.0005206      0.0006257     -0.1376648     -0.9219971
409232512     -0.1413574     -0.9080200      0.0005097      0.0005992      0.0005299      0.0006287     -0.1377869     -0.9217224
409263744     -0.1414490     -0.9078369      0.0004845      0.0005981      0.0005172      0.0006180     -0.1379700     -0.9216309
409295008     -0.1415710     -0.9078674      0.0004914      0.0005845      0.0005086      0.0006132     -0.1381531     -0.9215698
409326240     -0.1414185     -0.9079590      0.0004845      0.0005909      0.0004938      0.0006037     -0.1381531     -0.9214478
409357504     -0.1414795     -0.9079895      0.0004678      0.0005879      0.0005094      0.0005973     -0.1382141     -0.9214783
409388736     -0.1418762     -0.9077454      0.0004699      0.0005884      0.0004879      0.0005919     -0.1384583     -0.9211426
409420000     -0.1422119     -0.9081116      0.0004748      0.0005685      0.0004706      0.0005938     -0.1385803     -0.9214783
409451264     -0.1424561     -0.9080811      0.0004584      0.0005819      0.0004733      0.0005761     -0.1389160     -0.9215698
409482496     -0.1420288     -0.9074402      0.0004468      0.0005848      0.0004488      0.0005823     -0.1389465     -0.9211426
409513760     -0.1421509     -0.9079895      0.0004467      0.0005692      0.0004410      0.0005872     -0.1390686     -0.9208984
409544992     -0.1426697     -0.9075623      0.0004314      0.0005863      0.0004568      0.0005968     -0.1390381     -0.9211426
409576256     -0.1425781     -0.9075317      0.0004154      0.0005836      0.0004318      0.0006000     -0.1392212     -0.9213562
409607488     -0.1427002     -0.9075928      0.0004125      0.0005617      0.0004283      0.0005852     -0.1391602     -0.9213562
409638752     -0.1429443     -0.9077454      0.0004143      0.0005676      0.0004030      0.0005910     -0.1393127     -0.9216309
409670016     -0.1430664     -0.9075317      0.0003915      0.0005835      0.0004025      0.0005940     -0.1393738     -0.9212341
409701248     -0.1432495     -0.9076843      0.0003902      0.0005800      0.0004017      0.0006164     -0.1394348     -0.9214478
409732512     -0.1431580     -0.9075012      0.0003778      0.0005783      0.0003887      0.0006013     -0.1397400     -0.9213562
409763744     -0.1433716     -0.9075012      0.0003815      0.0005815      0.0003901      0.0006129     -0.1400146     -0.9213867
409795008     -0.1437683     -0.9074097      0.0003707      0.0006137      0.0003912      0.0006183     -0.1399536     -0.9212646
409826240     -0.1436768     -0.9074707      0.0003777      0.0006062      0.0003921      0.0006279     -0.1398315     -0.9210815
409857504     -0.1435242     -0.9074097      0.0003629      0.0006102      0.0003672      0.0006208     -0.1400757     -0.9211121
409888736     -0.1440735     -0.9071960      0.0003571      0.0006043      0.0003711      0.0006222     -0.1404419     -0.9207764
409920000     -0.1439209     -0.9077148      0.0003606      0.0006088      0.0003687      0.0006390     -0.1405640     -0.9212036
409951264     -0.1442566     -0.9073486      0.0003578      0.0006172      0.0003677      0.0006487     -0.1407471     -0.9212341
409982496     -0.1441345     -0.9070435      0.0003472      0.0006433      0.0003749      0.0006530     -0.1409302     -0.9209900
410013760     -0.1445007     -0.9074097      0.0003635      0.0006223      0.0003708      0.0006564     -0.1409302     -0.9209290
410044992     -0.1445618     -0.9074097      0.0003718      0.0006417      0.0003604      0.0006591     -0.1410522     -0.9209900
410076256     -0.1449585     -0.9071045      0.0003568      0.0006396      0.0003646      0.0006629     -0.1408997     -0.9210815
410107488     -0.1448059     -0.9074097      0.0003566      0.0006348      0.0003723      0.0006725     -0.1412354     -0.9208069
410138752     -0.1450500     -0.9070435      0.0003552      0.0006479      0.0003709      0.0006654     -0.1412048     -0.9207458
410169984     -0.1451721     -0.9070129      0.0003684      0.0006520      0.0003757      0.0006677     -0.1415100     -0.9206543
410201248     -0.1455078     -0.9070129      0.0003727      0.0006490      0.0003746      0.0006772     -0.1414795     -0.9208374
410232512     -0.1452026     -0.9069214      0.0003662      0.0006430      0.0003760      0.0006900     -0.1422119     -0.9207764
410263744     -0.1455688     -0.9071045      0.0003534      0.0006505      0.0003777      0.0006729     -0.1416931     -0.9210510
410295008     -0.1458130     -0.9068298      0.0003570      0.0006691      0.0003626      0.0006819     -0.1420898     -0.9208069
410326240     -0.1456604     -0.9070435      0.0003612      0.0006675      0.0003629      0.0006870     -0.1421204     -0.9209900
410357504     -0.1458130     -0.9070129      0.0003636      0.0006570      0.0003862      0.0006827     -0.1423645     -0.9209900
410388736     -0.1459351     -0.9069519      0.0003572      0.0006529      0.0003708      0.0006701     -0.1423035     -0.9205627
410420000     -0.1460571     -0.9070740      0.0003507      0.0006708      0.0003725      0.0006886     -0.1426086     -0.9204712
410451264     -0.1464233     -0.9069519      0.0003735      0.0006603      0.0003624      0.0006807     -0.1426697     -0.9208984
410482496     -0.1463623     -0.9067383      0.0003665      0.0006643      0.0003644      0.0006980     -0.1427612     -0.9205627
410513760     -0.1466370     -0.9066467      0.0003561      0.0006581      0.0003684      0.0006890     -0.1430664     -0.9206543
410544992     -0.1466980     -0.9067688      0.0003542      0.0006512      0.0003653      0.0006794     -0.1430969     -0.9204102
410576256     -0.1466675     -0.9070129      0.0003451      0.0006537      0.0003573      0.0006805     -0.1433105     -0.9205017
410607488     -0.1468201     -0.9065552      0.0003592      0.0006708      0.0003555      0.0006711     -0.1432495     -0.9201965
410638752     -0.1470032     -0.9067078      0.0003495      0.0006590      0.0003617      0.0006801     -0.1436768     -0.9202881
410670016     -0.1474609     -0.9064636      0.0003486      0.0006642      0.0003678      0.0006800     -0.1433411     -0.9204102
410701248     -0.1474915     -0.9065247      0.0003585      0.0006642      0.0003671      0.0006837     -0.1436462     -0.9200134
410732512     -0.1473999     -0.9062805      0.0003508      0.0006793      0.0003508      0.0007061     -0.1439209     -0.9201965
410763744     -0.1479797     -0.9065552      0.0003437      0.0006772      0.0003520      0.0007036     -0.1440735     -0.9203186
410795008     -0.1477051     -0.9062195      0.0003514      0.0006619      0.0003577      0.0006871     -0.1439209     -0.9199829
410826240     -0.1477966     -0.9066162      0.0003481      0.0006674      0.0003430      0.0006939     -0.1441956     -0.9201965
410857504     -0.1478882     -0.9061584      0.0003438      0.0006722      0.0003458      0.0006957     -0.1444092     -0.9199524
410888736     -0.1482239     -0.9061279      0.0003262      0.0006722      0.0003380      0.0006867     -0.1443787     -0.9200745
410920000     -0.1483459     -0.9061279      0.0003378      0.0006820      0.0003317      0.0006870     -0.1447754     -0.9197998
410951264     -0.1483154     -0.9060974      0.0003320      0.0006820      0.0003304      0.0007058     -0.1448975     -0.9200134
410982496     -0.1484985     -0.9063110      0.0003085      0.0006821      0.0003297      0.0007036     -0.1449890     -0.9198914
411013760     -0.1484985     -0.9061279      0.0003247      0.0006874      0.0003414      0.0007099     -0.1450806     -0.9199524
411044992     -0.1486816     -0.9058533      0.0003112      0.0006903      0.0003228      0.0007187     -0.1451721     -0.9196777
411076256     -0.1490784     -0.9058838      0.0003178      0.0006903      0.0003187      0.0007085     -0.1449890     -0.9200439
411107488     -0.1490784     -0.9059753      0.0003195      0.0007043      0.0003237      0.0007167     -0.1452942     -0.9202271
411138752     -0.1492920     -0.9061279      0.0002987      0.0006918      0.0003141      0.0007276     -0.1453247     -0.9196777
411169984     -0.1492615     -0.9060059      0.0003007      0.0007142      0.0003286      0.0007343     -0.1455688     -0.9195862
411201248     -0.1494751     -0.9059753      0.0003129      0.0007182      0.0003152      0.0007263     -0.1455994     -0.9196777
411232512     -0.1492920     -0.9059448      0.0003043      0.0007342      0.0003143      0.0007497     -0.1457825     -0.9194641
411263744     -0.1496887     -0.9060364      0.0002939      0.0007352      0.0003106      0.0007480     -0.1460876     -0.9197998
411295008     -0.1498108     -0.9056396      0.0003127      0.0007463      0.0003130      0.0007516     -0.1462708     -0.9194031
411326240     -0.1500244     -0.9057312      0.0002964      0.0007472      0.0003043      0.0007731     -0.1463013     -0.9193115
411357504     -0.1498108     -0.9053955      0.0002863      0.0007442      0.0002927      0.0007928     -0.1460571     -0.9196167
411388736     -0.1503601     -0.9056091      0.0003049      0.0007710      0.0002976      0.0007947     -0.1465454     -0.9195251
411420000     -0.1503906     -0.9055481      0.0002999      0.0007768      0.0003002      0.0008110     -0.1466675     -0.9193115
411451264     -0.1503906     -0.9052734      0.0003122      0.0007828      0.0003160      0.0008184     -0.1469116     -0.9189758
411482496     -0.1504517     -0.9055786      0.0002962      0.0007942      0.0003038      0.0008125     -0.1467590     -0.9191589
411513760     -0.1505432     -0.9056091      0.0003105      0.0008146      0.0003203      0.0008224     -0.1468201     -0.9192810
411544992     -0.1504517     -0.9054565      0.0003077      0.0008117      0.0003108      0.0008502     -0.1471863     -0.9190369
411576256     -0.1511536     -0.9057312      0.0003321      0.0008340      0.0003409      0.0008446     -0.1471252     -0.9190979
411607488     -0.1509705     -0.9052124      0.0003207      0.0008305      0.0003366      0.0008626     -0.1472778     -0.9192505
411638752     -0.1510620     -0.9053040      0.0003401      0.0008475      0.0003468      0.0008613     -0.1474915     -0.9189148
411670016     -0.1512756     -0.9053955      0.0003511      0.0008474      0.0003465      0.0008618     -0.1477966     -0.9189453
411701248     -0.1512146     -0.9052734      0.0003719      0.0008850      0.0003633      0.0008684     -0.1474915     -0.9189453
411732512     -0.1513672     -0.9053955      0.0003747      0.0008645      0.0003811      0.0008920     -0.1478882     -0.9187317
411763744     -0.1517029     -0.9052124      0.0003802      0.0008660      0.0003786      0.0008990     -0.1479187     -0.9186707
411795008     -0.1516418     -0.9051208      0.0003943      0.0008883      0.0003861      0.0009025     -0.1478882     -0.9189148
411826240     -0.1516724     -0.9049683      0.0004148      0.0008648      0.0004128      0.0009030     -0.1479492     -0.9188843
411857504     -0.1518860     -0.9049377      0.0004129      0.0008816      0.0004159      0.0009006     -0.1481628     -0.9186401
411888736     -0.1516418     -0.9049988      0.0004401      0.0008813      0.0004401      0.0009078     -0.1481018     -0.9187927
411920000     -0.1520996     -0.9050903      0.0004475      0.0008906      0.0004476      0.0008983     -0.1482239     -0.9188538
411951264     -0.1526489     -0.9048767      0.0004474      0.0008848      0.0004604      0.0009060     -0.1484985     -0.9186401
411982496     -0.1525879     -0.9049072      0.0004736      0.0008929      0.0004792      0.0008954     -0.1489258     -0.9186707
412013760     -0.1526184     -0.9046326      0.0004726      0.0008854      0.0004932      0.0009140     -0.1488342     -0.9185486
412044992     -0.1527100     -0.9049683      0.0004953      0.0008771      0.0005025      0.0009066     -0.1491394     -0.9187317
412076256     -0.1528015     -0.9048767      0.0005041      0.0008730      0.0005187      0.0008923     -0.1491089     -0.9185486
412107488     -0.1529846     -0.9047546      0.0005015      0.0008563      0.0005116      0.0009000     -0.1492615     -0.9186401
412138752     -0.1529541     -0.9045715      0.0005031      0.0008695      0.0005234      0.0008910     -0.1494141     -0.9184570
412169984     -0.1531982     -0.9044189      0.0005458      0.0008550      0.0005412      0.0008844     -0.1493530     -0.9185181
412201248     -0.1533813     -0.9045715      0.0005452      0.0008526      0.0005434      0.0008813     -0.1494751     -0.9183044
412232512     -0.1531372     -0.9043884      0.0005453      0.0008476      0.0005543      0.0008737     -0.1497192     -0.9187012
412263744     -0.1532288     -0.9046326      0.0005646      0.0008220      0.0005689      0.0008717     -0.1498718     -0.9182739
412295008     -0.1534729     -0.9046631      0.0005648      0.0008467      0.0005863      0.0008450     -0.1499023     -0.9184265
412326240     -0.1537781     -0.9044189      0.0005782      0.0008344      0.0005871      0.0008515     -0.1500549     -0.9182129
412357504     -0.1538391     -0.9044189      0.0005801      0.0008114      0.0006005      0.0008368     -0.1501160     -0.9181213
412388736     -0.1539917     -0.9043884      0.0005890      0.0008067      0.0006117      0.0008304     -0.1502991     -0.9180603
412420000     -0.1539917     -0.9042664      0.0005925      0.0007994      0.0005963      0.0008219     -0.1502991     -0.9182434
412451264     -0.1543579     -0.9043579      0.0006007      0.0007942      0.0006080      0.0008137     -0.1503296     -0.9176941
412482496     -0.1543274     -0.9043884      0.0005932      0.0007835      0.0006239      0.0008000     -0.1509094     -0.9179077
412513760     -0.1544800     -0.9041443      0.0006166      0.0007718      0.0006097      0.0007939     -0.1508179     -0.9182434
412544992     -0.1545715     -0.9043579      0.0005978      0.0007643      0.0006282      0.0007710     -0.1507874     -0.9178772
412576256     -0.1543884     -0.9040527      0.0006200      0.0007435      0.0006306      0.0007831     -0.1508484     -0.9180298
412607488     -0.1547852     -0.9042358      0.0006230      0.0007403      0.0006379      0.0007647     -0.1511230     -0.9179688
412638752     -0.1537476     -0.9034729      0.0006188      0.0007203      0.0006443      0.0007546     -0.1514282     -0.9171143
412670016     -0.1548157     -0.9037781      0.0006152      0.0007200      0.0006382      0.0007280     -0.1517944     -0.9181213
412701248     -0.1549377     -0.9042969      0.0006308      0.0007078      0.0006505      0.0007183     -0.1514893     -0.9177246
412732512     -0.1550903     -0.9039917      0.0006293      0.0006999      0.0006446      0.0007122     -0.1517334     -0.9182434
412763744     -0.1552124     -0.9040833      0.0006404      0.0006992      0.0006471      0.0007035     -0.1517334     -0.9177856
412795008     -0.1555786     -0.9039001      0.0006222      0.0006788      0.0006554      0.0006948     -0.1518250     -0.9179077
412826240     -0.1556396     -0.9042664      0.0006407      0.0006695      0.0006624      0.0006791     -0.1519165     -0.9176941
412857504     -0.1558533     -0.9038391      0.0006287      0.0006582      0.0006484      0.0006624     -0.1522217     -0.9178162
412888736     -0.1557007     -0.9037476      0.0006412      0.0006623      0.0006385      0.0006764     -0.1520996     -0.9177246
412920000     -0.1561890     -0.9038391      0.0006251      0.0006323      0.0006472      0.0006692     -0.1521606     -0.9175720
412951264     -0.1560059     -0.9034729      0.0006226      0.0006251      0.0006461      0.0006468     -0.1524963     -0.9174500
412982496     -0.1560669     -0.9039001      0.0006247      0.0006041      0.0006222      0.0006322     -0.1526794     -0.9175720
413013760     -0.1564026     -0.9038086      0.0006113      0.0005946      0.0006212      0.0006098     -0.1528320     -0.9175720
413044992     -0.1564636     -0.9039001      0.0006102      0.0005810      0.0006194      0.0006054     -0.1528931     -0.9176636
413076256     -0.1565247     -0.9039307      0.0006161      0.0005891      0.0006228      0.0005984     -0.1528320     -0.9174500
413107488     -0.1567688     -0.9038086      0.0005949      0.0005695      0.0006094      0.0005767     -0.1530762     -0.9175415
413138752     -0.1579285     -0.9033813      0.0005808      0.0005503      0.0005920      0.0005729     -0.1533508     -0.9183960
413169984     -0.1567688     -0.9034729      0.0005798      0.0005323      0.0005934      0.0005556     -0.1534119     -0.9174805
