!rf1319e,demo1wide,bn,01/18/07
# HZ S RI R 50
803825024     -0.9273682     -0.1069336      0.0012564     -0.0000098      0.0013440     -0.0001256     -0.8698730     -0.3834229
803906496     -0.9269409     -0.1059265      0.0012491     -0.0000346      0.0013565     -0.0001341     -0.8699341     -0.3825073
803987968     -0.9281921     -0.1048279      0.0012529     -0.0000315      0.0013667     -0.0001262     -0.8705444     -0.3826904
804069440     -0.9271545     -0.1046753      0.0012462     -0.0000166      0.0013422     -0.0001399     -0.8704224     -0.3815308
804150912     -0.9273987     -0.1041870      0.0012510     -0.0000315      0.0013444     -0.0001588     -0.8708496     -0.3812256
804232384     -0.9274597     -0.1034851      0.0012431     -0.0000360      0.0013537     -0.0001569     -0.8710938     -0.3804932
804313856     -0.9274597     -0.1028442      0.0012382     -0.0000442      0.0013300     -0.0001620     -0.8709717     -0.3799438
804395328     -0.9272461     -0.1024780      0.0012317     -0.0000486      0.0013216     -0.0001683     -0.8713379     -0.3792725
804476800     -0.9275208     -0.1015930      0.0012421     -0.0000496      0.0013252     -0.0001501     -0.8709717     -0.3789063
804558272     -0.9274292     -0.1009521      0.0012379     -0.0000358      0.0013427     -0.0001458     -0.8716431     -0.3782959
804639680     -0.9275513     -0.1002502      0.0012140     -0.0000347      0.0013248     -0.0001691     -0.8717651     -0.3776855
804721152     -0.9276123     -0.0999146      0.0012373     -0.0000452      0.0013438     -0.0001571     -0.8720703     -0.3771362
804802624     -0.9276123     -0.0994263      0.0012172     -0.0000575      0.0013272     -0.0001557     -0.8722534     -0.3765259
804884096     -0.9278870     -0.0985107      0.0012179     -0.0000391      0.0013188     -0.0001571     -0.8724976     -0.3760986
804965568     -0.9278870     -0.0976563      0.0012117     -0.0000514      0.0013084     -0.0001706     -0.8725586     -0.3753662
805047040     -0.9278564     -0.0973816      0.0012088     -0.0000581      0.0013055     -0.0001673     -0.8730469     -0.3749390
805128512     -0.9279785     -0.0967407      0.0012143     -0.0000584      0.0013142     -0.0001447     -0.8732910     -0.3745117
805209984     -0.9280701     -0.0958557      0.0012114     -0.0000556      0.0012992     -0.0001494     -0.8735962     -0.3742065
805291456     -0.9279175     -0.0953979      0.0012102     -0.0000572      0.0012805     -0.0001554     -0.8734131     -0.3734741
805372928     -0.9281921     -0.0946655      0.0011908     -0.0000476      0.0013007     -0.0001695     -0.8739014     -0.3731689
805454400     -0.9281921     -0.0942688      0.0012069     -0.0000361      0.0012839     -0.0001673     -0.8742065     -0.3724976
805535872     -0.9281006     -0.0935974      0.0011829     -0.0000297      0.0012864     -0.0001611     -0.8743286     -0.3717651
805617344     -0.9281921     -0.0929871      0.0011922     -0.0000378      0.0013000     -0.0001408     -0.8746338     -0.3712158
805698816     -0.9283142     -0.0922546      0.0011896     -0.0000257      0.0012909     -0.0001484     -0.8748169     -0.3707275
805780288     -0.9283447     -0.0916138      0.0011915     -0.0000349      0.0012811     -0.0001528     -0.8749390     -0.3701782
805861760     -0.9282227     -0.0909119      0.0011906     -0.0000340      0.0012739     -0.0001363     -0.8752441     -0.3695679
805943232     -0.9283142     -0.0900574      0.0011922     -0.0000381      0.0012707     -0.0001374     -0.8753662     -0.3692627
806024704     -0.9283447     -0.0896912      0.0011965     -0.0000273      0.0012908     -0.0001310     -0.8758545     -0.3683472
806106176     -0.9283752     -0.0889587      0.0011872     -0.0000179      0.0012806     -0.0001429     -0.8759766     -0.3680420
806187648     -0.9281616     -0.0886230      0.0011876     -0.0000152      0.0012715     -0.0001439     -0.8759766     -0.3675537
806269056     -0.9282532     -0.0876465      0.0011702     -0.0000148      0.0012782     -0.0001342     -0.8764648     -0.3669434
806350528     -0.9283752     -0.0874939      0.0011926     -0.0000192      0.0012996     -0.0001310     -0.8765259     -0.3661499
806432000     -0.9287109     -0.0864868      0.0011964     -0.0000029      0.0012971     -0.0001281     -0.8768921     -0.3656006
806513472     -0.9285278     -0.0859375      0.0012032     -0.0000082      0.0012783     -0.0001366     -0.8771973     -0.3653564
806594944     -0.9285583     -0.0854187      0.0012030     -0.0000069      0.0012980     -0.0001204     -0.8771973     -0.3648071
806676416     -0.9286499     -0.0843506      0.0012188      0.0000045      0.0012829     -0.0001262     -0.8776855     -0.3639526
806757888     -0.9285278     -0.0841064      0.0012035      0.0000015      0.0013030     -0.0001118     -0.8776855     -0.3634033
806839360     -0.9284668     -0.0833740      0.0012150     -0.0000126      0.0013139     -0.0001115     -0.8778687     -0.3627930
806920832     -0.9285889     -0.0827026      0.0012139     -0.0000079      0.0013071     -0.0001146     -0.8780518     -0.3623657
807002304     -0.9286804     -0.0823669      0.0012267      0.0000080      0.0013039     -0.0001232     -0.8781738     -0.3618774
807083776     -0.9287415     -0.0814209      0.0012250     -0.0000036      0.0013121     -0.0001456     -0.8784180     -0.3609619
807165248     -0.9287720     -0.0808411      0.0012248     -0.0000114      0.0013175     -0.0001289     -0.8786011     -0.3606567
807246720     -0.9285583     -0.0802307      0.0012177     -0.0000051      0.0013134     -0.0001214     -0.8790283     -0.3601685
807328192     -0.9287720     -0.0794373      0.0012317     -0.0000236      0.0013233     -0.0001311     -0.8789063     -0.3593140
807409664     -0.9288940     -0.0788574      0.0012410     -0.0000108      0.0013312     -0.0001322     -0.8792725     -0.3587646
807491136     -0.9288635     -0.0783997      0.0012225     -0.0000188      0.0013258     -0.0001417     -0.8792725     -0.3583374
807572608     -0.9287109     -0.0775757      0.0012165     -0.0000197      0.0013202     -0.0001380     -0.8802490     -0.3576050
807654080     -0.9289856     -0.0769958      0.0012326     -0.0000210      0.0013226     -0.0001346     -0.8798218     -0.3575439
807735552     -0.9290161     -0.0763550      0.0012249     -0.0000232      0.0013324     -0.0001383     -0.8800659     -0.3563843
807817024     -0.9288940     -0.0756836      0.0012423     -0.0000353      0.0013205     -0.0001565     -0.8807983     -0.3558960
807898432     -0.9288330     -0.0749817      0.0012387     -0.0000411      0.0013225     -0.0001571     -0.8806763     -0.3557129
807979904     -0.9287415     -0.0741882      0.0012447     -0.0000331      0.0013236     -0.0001518     -0.8811035     -0.3548584
808061376     -0.9289246     -0.0736694      0.0012313     -0.0000336      0.0013254     -0.0001509     -0.8812866     -0.3541260
808142848     -0.9290466     -0.0729980      0.0012240     -0.0000399      0.0013374     -0.0001831     -0.8810425     -0.3538818
808224320     -0.9286804     -0.0724487      0.0012258     -0.0000450      0.0013204     -0.0001601     -0.8816528     -0.3530884
808305792     -0.9290161     -0.0719299      0.0012130     -0.0000488      0.0013157     -0.0001713     -0.8817139     -0.3525391
808387264     -0.9290466     -0.0711670      0.0012286     -0.0000604      0.0013223     -0.0001609     -0.8817749     -0.3518066
808468736     -0.9289856     -0.0706787      0.0012113     -0.0000495      0.0013160     -0.0001735     -0.8821411     -0.3512573
808550208     -0.9292297     -0.0698242      0.0012153     -0.0000625      0.0012988     -0.0001875     -0.8825073     -0.3510132
808631680     -0.9291687     -0.0697327      0.0012191     -0.0000504      0.0013136     -0.0001845     -0.8821411     -0.3499756
808713152     -0.9291992     -0.0689392      0.0012140     -0.0000452      0.0012964     -0.0001755     -0.8823853     -0.3497925
808794624     -0.9292603     -0.0682373      0.0012026     -0.0000485      0.0012943     -0.0001914     -0.8828125     -0.3493652
808876096     -0.9290466     -0.0673523      0.0012113     -0.0000589      0.0012918     -0.0001755     -0.8829956     -0.3485107
808957568     -0.9292297     -0.0670471      0.0011997     -0.0000628      0.0012919     -0.0001680     -0.8833618     -0.3480835
809039040     -0.9291687     -0.0659790      0.0011959     -0.0000546      0.0012832     -0.0001757     -0.8834229     -0.3476563
809120512     -0.9291992     -0.0654907      0.0012032     -0.0000470      0.0012791     -0.0001523     -0.8833008     -0.3466797
809201984     -0.9292297     -0.0646362      0.0011852     -0.0000429      0.0012707     -0.0001544     -0.8837280     -0.3463135
809283456     -0.9292603     -0.0643921      0.0011884     -0.0000245      0.0012869     -0.0001564     -0.8837891     -0.3457031
809364928     -0.9292908     -0.0635376      0.0011981     -0.0000272      0.0012795     -0.0001493     -0.8842163     -0.3449707
809446336     -0.9289856     -0.0628662      0.0012011     -0.0000263      0.0012867     -0.0001368     -0.8840942     -0.3449097
809527808     -0.9291077     -0.0621643      0.0011852     -0.0000289      0.0012767     -0.0001537     -0.8844604     -0.3438721
809609280     -0.9293213     -0.0615845      0.0011960     -0.0000201      0.0012780     -0.0001386     -0.8846436     -0.3432007
809690752     -0.9294434     -0.0611572      0.0011947     -0.0000303      0.0012766     -0.0001323     -0.8848877     -0.3428955
809772224     -0.9292297     -0.0603638      0.0012086     -0.0000104      0.0013009     -0.0001281     -0.8852539     -0.3422241
809853696     -0.9294434     -0.0599060      0.0012007     -0.0000140      0.0012907     -0.0001267     -0.8853149     -0.3417969
809935168     -0.9291687     -0.0592346      0.0012088     -0.0000210      0.0013050     -0.0001322     -0.8856201     -0.3413086
810016640     -0.9289856     -0.0583496      0.0012112     -0.0000101      0.0012993     -0.0001376     -0.8856201     -0.3405762
810098112     -0.9293518     -0.0577087      0.0012212     -0.0000148      0.0013088     -0.0001268     -0.8858643     -0.3400269
810179584     -0.9294739     -0.0570068      0.0012194     -0.0000105      0.0013085     -0.0001310     -0.8858032     -0.3391113
810261056     -0.9295654     -0.0569153      0.0012288     -0.0000237      0.0013202     -0.0001295     -0.8860474     -0.3386230
810342528     -0.9298706     -0.0559387      0.0012261     -0.0000085      0.0013073     -0.0001326     -0.8862305     -0.3385620
810424000     -0.9294128     -0.0553589      0.0012285     -0.0000088      0.0013268     -0.0001281     -0.8865967     -0.3375244
810505472     -0.9294434     -0.0546265      0.0012259     -0.0000124      0.0013182     -0.0001110     -0.8865967     -0.3370361
810586944     -0.9294128     -0.0539551      0.0012365     -0.0000110      0.0013350     -0.0001190     -0.8867798     -0.3363647
810668416     -0.9297485     -0.0535278      0.0012203     -0.0000108      0.0013208     -0.0001214     -0.8869629     -0.3361206
810749888     -0.9295044     -0.0527344      0.0012411     -0.0000209      0.0013318     -0.0001285     -0.8873291     -0.3352051
810831360     -0.9292908     -0.0522156      0.0012422     -0.0000002      0.0013413     -0.0001361     -0.8870850     -0.3348389
810912832     -0.9295044     -0.0517578      0.0012566      0.0000055      0.0013499     -0.0001201     -0.8875732     -0.3340454
810994304     -0.9295044     -0.0509338      0.0012594     -0.0000057      0.0013587     -0.0001325     -0.8877563     -0.3333130
811075712     -0.9291992     -0.0501404      0.0012751     -0.0000102      0.0013706     -0.0001324     -0.8880005     -0.3329468
811157184     -0.9297485     -0.0496521      0.0012764     -0.0000144      0.0013649     -0.0001332     -0.8880615     -0.3325195
811238656     -0.9293518     -0.0489807      0.0012740     -0.0000135      0.0013769     -0.0001246     -0.8884888     -0.3318481
811320128     -0.9294739     -0.0480652      0.0012830     -0.0000111      0.0013916     -0.0001425     -0.8883057     -0.3310547
811401600     -0.9292908     -0.0476379      0.0012946     -0.0000277      0.0013937     -0.0001525     -0.8886108     -0.3304443
811483072     -0.9294128     -0.0473938      0.0013025     -0.0000288      0.0013971     -0.0001554     -0.8884888     -0.3301392
811564544     -0.9294128     -0.0461731      0.0013084     -0.0000428      0.0014023     -0.0001473     -0.8887329     -0.3295898
811646016     -0.9292603     -0.0454102      0.0013168     -0.0000406      0.0014014     -0.0001576     -0.8887329     -0.3288574
811727488     -0.9293518     -0.0447693      0.0013355     -0.0000457      0.0014065     -0.0001748     -0.8890991     -0.3283691
811808960     -0.9294434     -0.0443420      0.0013070     -0.0000451      0.0014150     -0.0002018     -0.8893433     -0.3276367
811890432     -0.9295959     -0.0436096      0.0013218     -0.0000508      0.0014173     -0.0002034     -0.8894653     -0.3272095
811971904     -0.9292603     -0.0429077      0.0013128     -0.0000818      0.0014045     -0.0002248     -0.8897095     -0.3265381
812053376     -0.9291382     -0.0426331      0.0013348     -0.0000909      0.0014076     -0.0002390     -0.8897095     -0.3259888
812134848     -0.9293213     -0.0419617      0.0013159     -0.0001109      0.0014171     -0.0002630     -0.8897705     -0.3256226
812216320     -0.9293823     -0.0409851      0.0013160     -0.0001155      0.0013941     -0.0002657     -0.8900757     -0.3249512
812297792     -0.9294739     -0.0404358      0.0013193     -0.0001349      0.0013870     -0.0002818     -0.8900757     -0.3247681
812379264     -0.9296875     -0.0399475      0.0012996     -0.0001425      0.0013607     -0.0002828     -0.8906250     -0.3237915
812460736     -0.9295654     -0.0392151      0.0012884     -0.0001521      0.0013594     -0.0002844     -0.8904419     -0.3234863
812542208     -0.9295349     -0.0384216      0.0012807     -0.0001481      0.0013606     -0.0002892     -0.8908081     -0.3228149
812623680     -0.9293823     -0.0378113      0.0012637     -0.0001516      0.0013404     -0.0002976     -0.8908081     -0.3222046
812705088     -0.9295349     -0.0372314      0.0012587     -0.0001613      0.0013288     -0.0002953     -0.8909912     -0.3218384
812786560     -0.9295044     -0.0364075      0.0012488     -0.0001538      0.0013189     -0.0002872     -0.8913574     -0.3211060
812868032     -0.9298401     -0.0359497      0.0012425     -0.0001550      0.0013098     -0.0002843     -0.8916016     -0.3208618
812949504     -0.9296265     -0.0351257      0.0012304     -0.0001514      0.0013048     -0.0002875     -0.8915405     -0.3200073
813030976     -0.9293823     -0.0345154      0.0012170     -0.0001620      0.0013036     -0.0002890     -0.8919067     -0.3196411
813112448     -0.9293518     -0.0339355      0.0012217     -0.0001503      0.0013005     -0.0002834     -0.8918457     -0.3187256
813193920     -0.9295044     -0.0332947      0.0012050     -0.0001568      0.0012943     -0.0002792     -0.8919067     -0.3186646
813275392     -0.9296570     -0.0326233      0.0012068     -0.0001339      0.0012906     -0.0002782     -0.8923340     -0.3176270
813356864     -0.9295654     -0.0320435      0.0012035     -0.0001314      0.0012738     -0.0002612     -0.8923340     -0.3173218
813438336     -0.9295349     -0.0312500      0.0012124     -0.0001325      0.0012698     -0.0002534     -0.8927002     -0.3167114
813519808     -0.9293213     -0.0307617      0.0011999     -0.0001333      0.0012767     -0.0002587     -0.8927002     -0.3161011
813601280     -0.9298096     -0.0301819      0.0012069     -0.0001381      0.0012802     -0.0002488     -0.8932495     -0.3156128
813682752     -0.9294434     -0.0293579      0.0012003     -0.0001243      0.0012562     -0.0002466     -0.8930664     -0.3150024
813764224     -0.9296570     -0.0288391      0.0012013     -0.0001075      0.0012618     -0.0002322     -0.8932495     -0.3145142
813845696     -0.9294128     -0.0281982      0.0011973     -0.0001248      0.0012615     -0.0002626     -0.8931885     -0.3139038
813927168     -0.9293823     -0.0276794      0.0011955     -0.0001124      0.0012438     -0.0002536     -0.8935547     -0.3132935
814008640     -0.9292603     -0.0268555      0.0011940     -0.0001069      0.0012723     -0.0002358     -0.8936768     -0.3127441
814090112     -0.9293213     -0.0261230      0.0012079     -0.0001090      0.0012679     -0.0002295     -0.8941040     -0.3123169
814171584     -0.9294128     -0.0259705      0.0011984     -0.0001088      0.0012582     -0.0002443     -0.8941040     -0.3115234
814253056     -0.9294128     -0.0252991      0.0011877     -0.0001124      0.0012515     -0.0002282     -0.8942261     -0.3107910
814334464     -0.9292603     -0.0242615      0.0011889     -0.0000920      0.0012596     -0.0002265     -0.8945313     -0.3099365
814415936     -0.9284058     -0.0240173      0.0011837     -0.0001019      0.0012485     -0.0002185     -0.8944092     -0.3093262
814497408     -0.9294434     -0.0228577      0.0011943     -0.0001011      0.0012762     -0.0002283     -0.8949585     -0.3090210
814578880     -0.9292603     -0.0220642      0.0012023     -0.0000858      0.0012598     -0.0002310     -0.8947754     -0.3088989
814660352     -0.9294434     -0.0215759      0.0012053     -0.0000764      0.0012541     -0.0002099     -0.8952026     -0.3080444
814741824     -0.9292297     -0.0209351      0.0011939     -0.0000839      0.0012653     -0.0001997     -0.8950806     -0.3073730
814823296     -0.9293213     -0.0204468      0.0011907     -0.0000720      0.0012782     -0.0001987     -0.8955078     -0.3068848
814904768     -0.9291992     -0.0196228      0.0012028     -0.0000700      0.0012714     -0.0001941     -0.8955688     -0.3066406
814986240     -0.9289246     -0.0190430      0.0012164     -0.0000628      0.0012811     -0.0001995     -0.8956909     -0.3056030
815067712     -0.9290771     -0.0186157      0.0012136     -0.0000609      0.0012951     -0.0001768     -0.8957520     -0.3049927
815149184     -0.9291687     -0.0176392      0.0012048     -0.0000686      0.0012803     -0.0002007     -0.8961182     -0.3047485
815230656     -0.9291992     -0.0170593      0.0012248     -0.0000727      0.0012893     -0.0001929     -0.8959351     -0.3041992
815312128     -0.9291077     -0.0162354      0.0012347     -0.0000616      0.0013002     -0.0002010     -0.8963013     -0.3032837
815393600     -0.9303284     -0.0151062      0.0012301     -0.0000871      0.0013272     -0.0001972     -0.8969116     -0.3034058
815475072     -0.9290771     -0.0150146      0.0012389     -0.0000616      0.0013318     -0.0002054     -0.8966675     -0.3025513
815556544     -0.9291382     -0.0147400      0.0012485     -0.0000737      0.0013247     -0.0002044     -0.8968506     -0.3018188
815638016     -0.9290771     -0.0138245      0.0012536     -0.0000813      0.0013385     -0.0002089     -0.8972778     -0.3012695
815719488     -0.9289856     -0.0133362      0.0012504     -0.0000818      0.0013214     -0.0002173     -0.8969116     -0.3009033
815800960     -0.9291687     -0.0127869      0.0012609     -0.0000842      0.0013382     -0.0002169     -0.8973389     -0.2999268
815882368     -0.9292603     -0.0119019      0.0012653     -0.0000874      0.0013342     -0.0002344     -0.8975220     -0.2998047
815963840     -0.9291382     -0.0112000      0.0012643     -0.0001084      0.0013354     -0.0002366     -0.8980713     -0.2991333
816045312     -0.9290161     -0.0107117      0.0012659     -0.0001018      0.0013484     -0.0002317     -0.8980103     -0.2984009
816126784     -0.9290771     -0.0098572      0.0012693     -0.0001031      0.0013448     -0.0002535     -0.8982544     -0.2977295
816208256     -0.9289551     -0.0093994      0.0012650     -0.0001097      0.0013365     -0.0002576     -0.8986816     -0.2974243
