!RF1396C Device 1 ENG1 fixture Narrow span
# HZ S RI R 50
433420000      0.4829712      0.5390015     -0.0839081      0.0213394     -0.0831413      0.0205498      0.5592346      0.4470520
433421248      0.4835815      0.5383606     -0.0841064      0.0215721     -0.0833511      0.0207901      0.5598145      0.4465942
433422496      0.4838257      0.5380554     -0.0843506      0.0216675     -0.0835686      0.0208435      0.5599976      0.4459229
433423744      0.4844360      0.5373840     -0.0845451      0.0217819     -0.0837822      0.0209885      0.5605774      0.4454346
433424992      0.4849548      0.5369568     -0.0847473      0.0220032     -0.0839424      0.0211220      0.5607605      0.4444580
433426240      0.4854736      0.5364380     -0.0849342      0.0220490     -0.0841599      0.0211983      0.5612183      0.4439087
433427488      0.4857788      0.5357971     -0.0851784      0.0222206     -0.0844116      0.0214233      0.5616455      0.4434509
433428736      0.4862976      0.5353699     -0.0853882      0.0223808     -0.0846481      0.0216637      0.5621948      0.4427185
433430016      0.4866638      0.5346680     -0.0856476      0.0225220     -0.0848656      0.0217438      0.5626831      0.4422302
433431264      0.4873352      0.5343628     -0.0857391      0.0227470     -0.0850182      0.0218544      0.5628357      0.4414063
433432512      0.4878235      0.5336914     -0.0859871      0.0228271     -0.0852432      0.0220070      0.5633545      0.4409180
433433760      0.4883728      0.5332642     -0.0861549      0.0230064     -0.0854301      0.0221672      0.5637207      0.4402771
433435008      0.4888000      0.5327148     -0.0864449      0.0231705     -0.0855827      0.0223465      0.5639954      0.4395142
433436256      0.4891968      0.5321960     -0.0866089      0.0232811     -0.0859833      0.0225601      0.5644531      0.4390259
433437504      0.4897766      0.5317688     -0.0869408      0.0234451     -0.0860863      0.0226898      0.5650024      0.4385071
433438752      0.4899292      0.5309753     -0.0870628      0.0236397     -0.0863228      0.0227470      0.5654297      0.4377747
433440000      0.4906921      0.5304260     -0.0873489      0.0237694     -0.0865669      0.0229836      0.5656433      0.4371948
433441248      0.4910583      0.5300293     -0.0875320      0.0239067     -0.0868034      0.0230408      0.5659180      0.4364014
433442496      0.4912720      0.5294189     -0.0878258      0.0241051     -0.0869713      0.0232658      0.5663757      0.4357300
433443744      0.4920044      0.5292053     -0.0879211      0.0242081     -0.0872345      0.0234413      0.5668640      0.4352417
433444992      0.4926147      0.5284729     -0.0881844      0.0244293     -0.0874367      0.0236053      0.5672607      0.4343872
433446240      0.4929504      0.5277710     -0.0884666      0.0245628     -0.0876846      0.0237122      0.5676880      0.4338379
433447488      0.4935608      0.5270996     -0.0886421      0.0247650     -0.0878983      0.0238762      0.5679626      0.4332581
433448736      0.4939575      0.5264587     -0.0889549      0.0249443     -0.0881577      0.0240936      0.5684814      0.4325867
433449984      0.4944458      0.5259399     -0.0891380      0.0250664     -0.0883331      0.0242348      0.5689697      0.4319458
433451264      0.4949951      0.5256653     -0.0893860      0.0253296     -0.0885468      0.0243797      0.5692749      0.4309998
433452512      0.4954224      0.5252075     -0.0896149      0.0253754     -0.0888176      0.0244942      0.5695496      0.4306030
433453760      0.4957886      0.5240784     -0.0898247      0.0255814     -0.0890579      0.0247078      0.5702515      0.4298706
433455008      0.4963379      0.5238037     -0.0901451      0.0257797     -0.0893440      0.0248642      0.5701904      0.4290466
433456256      0.4969482      0.5233459     -0.0903473      0.0259705     -0.0895767      0.0250359      0.5708618      0.4284668
433457504      0.4972839      0.5227051     -0.0905266      0.0261841     -0.0897293      0.0252495      0.5712891      0.4278259
433458752      0.4977112      0.5220032     -0.0907516      0.0262833     -0.0900040      0.0253754      0.5715332      0.4270325
433460000      0.4983521      0.5215149     -0.0910797      0.0265274     -0.0902328      0.0255470      0.5721130      0.4262390
433461248      0.4987793      0.5207214     -0.0913010      0.0266647     -0.0904846      0.0258446      0.5726318      0.4254150
433462496      0.4992371      0.5202332     -0.0914993      0.0269012     -0.0907059      0.0258904      0.5729980      0.4249878
433463744      0.4996643      0.5196533     -0.0917473      0.0270767     -0.0909996      0.0261459      0.5733337      0.4244080
433464992      0.5000610      0.5190735     -0.0920410      0.0271683     -0.0912552      0.0263214      0.5738220      0.4235229
433466240      0.5005493      0.5185547     -0.0922737      0.0273552     -0.0914688      0.0264778      0.5738220      0.4228821
433467488      0.5012207      0.5179443     -0.0924873      0.0275612     -0.0917740      0.0266380      0.5745544      0.4221802
433468736      0.5015869      0.5174561     -0.0927048      0.0277023     -0.0919266      0.0268517      0.5748596      0.4214172
433470016      0.5021057      0.5168457     -0.0929184      0.0279388     -0.0921783      0.0270157      0.5753479      0.4208984
433471264      0.5023804      0.5160217     -0.0931969      0.0281334     -0.0924606      0.0271111      0.5755005      0.4200439
433472512      0.5030823      0.5155334     -0.0934753      0.0282784     -0.0926933      0.0274200      0.5758362      0.4193726
433473760      0.5034485      0.5148926     -0.0936737      0.0285530     -0.0928955      0.0274277      0.5763550      0.4186401
433475008      0.5040588      0.5143433     -0.0939827      0.0287018     -0.0932274      0.0277977      0.5771484      0.4180603
433476256      0.5045776      0.5137329     -0.0942039      0.0288544     -0.0934525      0.0279427      0.5771484      0.4172058
433477504      0.5050964      0.5131531     -0.0944862      0.0290947     -0.0937080      0.0280876      0.5777588      0.4165649
433478752      0.5057678      0.5125732     -0.0947876      0.0293198     -0.0939331      0.0283012      0.5777893      0.4159241
433480000      0.5060425      0.5117493     -0.0949936      0.0296059     -0.0941544      0.0285263      0.5785217      0.4150391
433481248      0.5066223      0.5112915     -0.0953102      0.0297661     -0.0944405      0.0287247      0.5788574      0.4143066
433482496      0.5072937      0.5106506     -0.0954552      0.0298538     -0.0947456      0.0288620      0.5791321      0.4134827
433483744      0.5075989      0.5098877     -0.0957718      0.0301361     -0.0949326      0.0291176      0.5795898      0.4128418
433484992      0.5079041      0.5095825     -0.0959892      0.0302925     -0.0952148      0.0292282      0.5800476      0.4119263
433486240      0.5084534      0.5087280     -0.0962944      0.0305519     -0.0955048      0.0295219      0.5804749      0.4111328
433487488      0.5088501      0.5079041     -0.0966530      0.0307808     -0.0956383      0.0296707      0.5808411      0.4104614
433488736      0.5096436      0.5075684     -0.0968323      0.0309830     -0.0960197      0.0299187      0.5811157      0.4099121
433489984      0.5098267      0.5068665     -0.0971451      0.0311279     -0.0962982      0.0301132      0.5818176      0.4090576
433491264      0.5104370      0.5063171     -0.0973358      0.0313835     -0.0964890      0.0303535      0.5820618      0.4083252
433492512      0.5110168      0.5056458     -0.0977669      0.0315361     -0.0967369      0.0305595      0.5825195      0.4074097
433493760      0.5113831      0.5050354     -0.0978775      0.0317955     -0.0970535      0.0306587      0.5829773      0.4068909
433495008      0.5117188      0.5040894     -0.0982170      0.0320702     -0.0972786      0.0308876      0.5834656      0.4060059
433496256      0.5124817      0.5035706     -0.0984421      0.0322075     -0.0975456      0.0310707      0.5834961      0.4050598
433497504      0.5130615      0.5028381     -0.0986977      0.0324860     -0.0979042      0.0313110      0.5838318      0.4044189
433498752      0.5135498      0.5023499     -0.0990067      0.0327339     -0.0982018      0.0314636      0.5843506      0.4037170
433500000      0.5142212      0.5014343     -0.0993080      0.0329437     -0.0983849      0.0318146      0.5849609      0.4031067
433501248      0.5144348      0.5009155     -0.0995331      0.0331955     -0.0987167      0.0320053      0.5853271      0.4022827
433502496      0.5149841      0.4999390     -0.0998383      0.0333824     -0.0988998      0.0322990      0.5856323      0.4014282
433503744      0.5154114      0.4996033     -0.1000519      0.0336380     -0.0991325      0.0324364      0.5859985      0.4006958
433504992      0.5160217      0.4989319     -0.1004295      0.0338249     -0.0995293      0.0326195      0.5865479      0.3998718
433506240      0.5164490      0.4983215     -0.1006851      0.0340271     -0.0997581      0.0328560      0.5867615      0.3990784
433507488      0.5168152      0.4974060     -0.1009445      0.0342636     -0.1000938      0.0330849      0.5874023      0.3982544
433508736      0.5175781      0.4969788     -0.1012001      0.0345688     -0.1002464      0.0334015      0.5878601      0.3977356
433510016      0.5178223      0.4963074     -0.1014938      0.0347824     -0.1006966      0.0335197      0.5880432      0.3967285
433511264      0.5187073      0.4954529     -0.1018562      0.0350533     -0.1008911      0.0337677      0.5885010      0.3959045
433512512      0.5190125      0.4948425     -0.1020775      0.0352135     -0.1011658      0.0340233      0.5888672      0.3955078
433513760      0.5193176      0.4940491     -0.1023407      0.0355110     -0.1014748      0.0342598      0.5892334      0.3943176
433515008      0.5200806      0.4934387     -0.1027031      0.0356102     -0.1018181      0.0345154      0.5897522      0.3934021
433516256      0.5203857      0.4928589     -0.1030197      0.0359192     -0.1021461      0.0346794      0.5902710      0.3927002
433517504      0.5209045      0.4919739     -0.1032867      0.0361328     -0.1024323      0.0348854      0.5905762      0.3919373
433518752      0.5213928      0.4913635     -0.1035423      0.0364151     -0.1027298      0.0350800      0.5910034      0.3910828
433520000      0.5219116      0.4909363     -0.1038666      0.0365334     -0.1029587      0.0354080      0.5913696      0.3902588
433521248      0.5222168      0.4898071     -0.1041756      0.0369110     -0.1032753      0.0357590      0.5915222      0.3894958
433522496      0.5229187      0.4891663     -0.1044502      0.0371704     -0.1034622      0.0359650      0.5919189      0.3886414
433523744      0.5235596      0.4885559     -0.1047554      0.0374107     -0.1039352      0.0359993      0.5926208      0.3880310
433524992      0.5240784      0.4876099     -0.1051140      0.0376244     -0.1041565      0.0363884      0.5928650      0.3869934
433526240      0.5243530      0.4870605     -0.1053543      0.0379524     -0.1044273      0.0366402      0.5934143      0.3860474
433527488      0.5248718      0.4864197     -0.1056519      0.0381546     -0.1047630      0.0367928      0.5937195      0.3854675
433528736      0.5255737      0.4855652     -0.1059380      0.0383453     -0.1051521      0.0371170      0.5941772      0.3843689
433529984      0.5260315      0.4847412     -0.1062202      0.0387611     -0.1052933      0.0374260      0.5946350      0.3836975
433531264      0.5267334      0.4841309     -0.1065636      0.0390129     -0.1056938      0.0376549      0.5948792      0.3828430
433532512      0.5270996      0.4832458     -0.1069489      0.0392952     -0.1060333      0.0378723      0.5955200      0.3819580
433533760      0.5275879      0.4826050     -0.1071625      0.0394173     -0.1062241      0.0380554      0.5956726      0.3810730
433535008      0.5280151      0.4819946     -0.1074486      0.0397339     -0.1065369      0.0384636      0.5962524      0.3802185
433536256      0.5287476      0.4813232     -0.1078453      0.0400429     -0.1068726      0.0386848      0.5965576      0.3793945
433537504      0.5293274      0.4803772     -0.1080208      0.0402641     -0.1072388      0.0390511      0.5971680      0.3787231
433538752      0.5294800      0.4798279     -0.1083984      0.0407066     -0.1074524      0.0392876      0.5974426      0.3774414
433540000      0.5303955      0.4790039     -0.1087494      0.0409279     -0.1077957      0.0395508      0.5979309      0.3766785
433541248      0.5308533      0.4782715     -0.1090164      0.0412025     -0.1081886      0.0397606      0.5981750      0.3758850
433542496      0.5313721      0.4774475     -0.1093712      0.0414658     -0.1084633      0.0401382      0.5986328      0.3748779
433543744      0.5317383      0.4768372     -0.1097183      0.0417213     -0.1088219      0.0403519      0.5990295      0.3740845
433544992      0.5321960      0.4758911     -0.1099930      0.0418549     -0.1091385      0.0405998      0.5994263      0.3732300
433546240      0.5328979      0.4751282     -0.1103516      0.0423584     -0.1094437      0.0407791      0.5998840      0.3722839
433547488      0.5333252      0.4743958     -0.1106071      0.0425568     -0.1097832      0.0411987      0.6002808      0.3714600
433548736      0.5337219      0.4735413     -0.1109657      0.0429764     -0.1100769      0.0415268      0.6005554      0.3705444
433550016      0.5342712      0.4726257     -0.1112556      0.0432014     -0.1103439      0.0416718      0.6011047      0.3696289
433551264      0.5347900      0.4718323     -0.1116753      0.0435410     -0.1106834      0.0420380      0.6012878      0.3686829
433552512      0.5352173      0.4711304     -0.1119385      0.0436668     -0.1110001      0.0423012      0.6017456      0.3676147
433553760      0.5357056      0.4703064     -0.1123199      0.0440712     -0.1113892      0.0426102      0.6021423      0.3669739
433555008      0.5364685      0.4694824     -0.1125679      0.0444946     -0.1116219      0.0429420      0.6027832      0.3661804
433556256      0.5372314      0.4686584     -0.1129456      0.0447807     -0.1119881      0.0432472      0.6029663      0.3652039
433557504      0.5375977      0.4678040     -0.1133118      0.0450211     -0.1123276      0.0434952      0.6034241      0.3642578
433558752      0.5379028      0.4671326     -0.1135445      0.0452766     -0.1126823      0.0438461      0.6038818      0.3633423
433560000      0.5385742      0.4662170     -0.1139107      0.0456123     -0.1130447      0.0441017      0.6042480      0.3624573
433561248      0.5390320      0.4654541     -0.1142693      0.0460052     -0.1133804      0.0444450      0.6047058      0.3614197
433562496      0.5395203      0.4646606     -0.1145515      0.0462914     -0.1135941      0.0448036      0.6050415      0.3604736
433563744      0.5400391      0.4638367     -0.1148911      0.0465660     -0.1139717      0.0450516      0.6054382      0.3595886
433564992      0.5408020      0.4630432     -0.1152878      0.0469284     -0.1143036      0.0453148      0.6057129      0.3585205
433566240      0.5412598      0.4622192     -0.1156082      0.0472183     -0.1147423      0.0457268      0.6064148      0.3575439
433567488      0.5416260      0.4613037     -0.1159935      0.0475540     -0.1151543      0.0460892      0.6067505      0.3566589
433568736      0.5421753      0.4604797     -0.1162300      0.0478706     -0.1153641      0.0463982      0.6071777      0.3556824
433569984      0.5426636      0.4598999     -0.1165161      0.0482903     -0.1157341      0.0467606      0.6072998      0.3547363
433571264      0.5433960      0.4590454     -0.1168976      0.0486107     -0.1160965      0.0469589      0.6078186      0.3537292
433572512      0.5438843      0.4580383     -0.1173172      0.0489006     -0.1164703      0.0473061      0.6083984      0.3526917
433573760      0.5442505      0.4571228     -0.1177101      0.0492935     -0.1167755      0.0477295      0.6087341      0.3518677
433575008      0.5450439      0.4562378     -0.1180496      0.0495911     -0.1171570      0.0479507      0.6091003      0.3508911
433576256      0.5452881      0.4554138     -0.1183395      0.0499191     -0.1174202      0.0483170      0.6095581      0.3497620
433577504      0.5458679      0.4546204     -0.1186943      0.0503807     -0.1178513      0.0486488      0.6099854      0.3489075
433578752      0.5464478      0.4535522     -0.1191254      0.0506287     -0.1182251      0.0489159      0.6101379      0.3480225
433580000      0.5470886      0.4528198     -0.1193886      0.0509644     -0.1185112      0.0493927      0.6105347      0.3470764
433581248      0.5471497      0.4518127     -0.1197739      0.0513687     -0.1189194      0.0497360      0.6111145      0.3459167
433582496      0.5480347      0.4509583     -0.1201477      0.0516891     -0.1192780      0.0501099      0.6112671      0.3450623
433583744      0.5484619      0.4501343     -0.1204720      0.0521317     -0.1196327      0.0504303      0.6119080      0.3439941
433584992      0.5489502      0.4490662     -0.1208344      0.0524330     -0.1199226      0.0508232      0.6123047      0.3428345
433586240      0.5494385      0.4482727     -0.1211929      0.0527954     -0.1202888      0.0511971      0.6126709      0.3420105
433587488      0.5502319      0.4473877     -0.1215973      0.0531425     -0.1206627      0.0514450      0.6130371      0.3408508
433588736      0.5506897      0.4466248     -0.1219940      0.0535507     -0.1210709      0.0518456      0.6134033      0.3399658
433590016      0.5512695      0.4455872     -0.1223373      0.0539665     -0.1214447      0.0522537      0.6138916      0.3388367
433591264      0.5516968      0.4447937     -0.1226006      0.0542984     -0.1217194      0.0527000      0.6141052      0.3377991
433592512      0.5522461      0.4436951     -0.1230736      0.0545807     -0.1221542      0.0530014      0.6146545      0.3367004
433593760      0.5528564      0.4429016     -0.1233940      0.0549927     -0.1225090      0.0532951      0.6151123      0.3357849
433595008      0.5533447      0.4421082     -0.1237907      0.0554466     -0.1228485      0.0537376      0.6152039      0.3346863
433596256      0.5538025      0.4410706     -0.1240921      0.0558434     -0.1232376      0.0540390      0.6156616      0.3334961
433597504      0.5542603      0.4400635     -0.1244583      0.0561447     -0.1235886      0.0544968      0.6162109      0.3325806
433598752      0.5548096      0.4392090     -0.1248283      0.0566673     -0.1240234      0.0548515      0.6163635      0.3315125
433600000      0.5553284      0.4382324     -0.1252823      0.0570908     -0.1243286      0.0554085      0.6169128      0.3303528
433601248      0.5558472      0.4373169     -0.1256332      0.0574951     -0.1246414      0.0556488      0.6172180      0.3294983
433602496      0.5566101      0.4365234     -0.1260605      0.0578842     -0.1250916      0.0560760      0.6175232      0.3282471
433603744      0.5570068      0.4350891     -0.1263733      0.0582962     -0.1254272      0.0565109      0.6178284      0.3273621
433604992      0.5575867      0.4345398     -0.1267700      0.0586624     -0.1259232      0.0569000      0.6184082      0.3261414
433606240      0.5579224      0.4336548     -0.1271362      0.0590363     -0.1262589      0.0572815      0.6187744      0.3251343
433607488      0.5583801      0.4324341     -0.1275940      0.0595474     -0.1266098      0.0576935      0.6191101      0.3239746
433608736      0.5592041      0.4316101     -0.1279068      0.0599213     -0.1269836      0.0581741      0.6196289      0.3229980
433609984      0.5594177      0.4306030     -0.1283188      0.0603485     -0.1273880      0.0586090      0.6197510      0.3216858
