!HP8753
# HZ S RI R 50
408920000     -0.5167236     -0.6436157      0.0021173     -0.0008961      0.0021602     -0.0008954     -0.5241699     -0.6596069
409044992     -0.5179443     -0.6419678      0.0021205     -0.0008419      0.0021327     -0.0008471     -0.5250244     -0.6583252
409169984     -0.5194702     -0.6409912      0.0020949     -0.0008131      0.0021069     -0.0008094     -0.5263062     -0.6569824
409295008     -0.5209351     -0.6398926      0.0020505     -0.0007727      0.0020511     -0.0007712     -0.5275269     -0.6558228
409420000     -0.5221558     -0.6387329      0.0020347     -0.0007329      0.0020628     -0.0007322     -0.5289917     -0.6544800
409544992     -0.5233765     -0.6372070      0.0020171     -0.0007182      0.0020403     -0.0007063     -0.5299072     -0.6534424
409670016     -0.5247803     -0.6359863      0.0020204     -0.0007175      0.0020239     -0.0007066     -0.5316162     -0.6522827
409795008     -0.5258179     -0.6347046      0.0019649     -0.0007012      0.0019778     -0.0007058     -0.5325928     -0.6508789
409920000     -0.5269775     -0.6336670      0.0019155     -0.0006497      0.0019318     -0.0006559     -0.5337524     -0.6496582
410044992     -0.5284424     -0.6323853      0.0018961     -0.0005745      0.0019295     -0.0005897     -0.5348511     -0.6483765
410169984     -0.5300293     -0.6310425      0.0019323     -0.0005075      0.0019429     -0.0005071     -0.5361938     -0.6473389
410295008     -0.5311890     -0.6297607      0.0019708     -0.0004678      0.0019903     -0.0004827     -0.5374756     -0.6457520
410420000     -0.5323486     -0.6282959      0.0019956     -0.0004622      0.0020185     -0.0004650     -0.5390015     -0.6446533
410544992     -0.5336304     -0.6272583      0.0020049     -0.0004632      0.0020406     -0.0004673     -0.5398560     -0.6431274
410670016     -0.5351563     -0.6259155      0.0020094     -0.0004600      0.0020219     -0.0004777     -0.5412598     -0.6417236
410795008     -0.5362549     -0.6246948      0.0020219     -0.0004569      0.0020310     -0.0004425     -0.5424805     -0.6401978
410920000     -0.5375366     -0.6230469      0.0020186     -0.0004269      0.0020392     -0.0004276     -0.5435791     -0.6389160
411044992     -0.5387573     -0.6218872      0.0020063     -0.0004109      0.0020374     -0.0004187     -0.5448608     -0.6376953
411169984     -0.5400391     -0.6204834      0.0020161     -0.0003819      0.0020446     -0.0003812     -0.5459595     -0.6362305
411295008     -0.5413818     -0.6190796      0.0020297     -0.0003620      0.0020393     -0.0003601     -0.5472412     -0.6347656
411420000     -0.5427246     -0.6175537      0.0020176     -0.0003515      0.0020539     -0.0003455     -0.5481567     -0.6333618
411544992     -0.5438843     -0.6165771      0.0020193     -0.0003043      0.0020581     -0.0002981     -0.5494385     -0.6320801
411670016     -0.5452881     -0.6146851      0.0020223     -0.0002422      0.0020362     -0.0002308     -0.5507202     -0.6307373
411795008     -0.5465698     -0.6132202      0.0020170     -0.0001388      0.0020337     -0.0001236     -0.5518799     -0.6293945
411920000     -0.5477905     -0.6120605      0.0021105      0.0000323      0.0021313      0.0000292     -0.5529175     -0.6277466
412044992     -0.5488281     -0.6106567      0.0023117      0.0001345      0.0023363      0.0001395     -0.5539551     -0.6265259
412169984     -0.5498047     -0.6091309      0.0025579      0.0001177      0.0025803      0.0001190     -0.5548706     -0.6253052
412295008     -0.5510864     -0.6082153      0.0027655      0.0000107      0.0027943      0.0000081     -0.5562744     -0.6239014
412420000     -0.5521851     -0.6066284      0.0028906     -0.0001464      0.0029162     -0.0001585     -0.5572510     -0.6227417
412544992     -0.5518799     -0.6050415      0.0029788     -0.0002749      0.0030093     -0.0002972     -0.5581055     -0.6209106
412670016     -0.5540161     -0.6036377      0.0030838     -0.0004597      0.0031301     -0.0004798     -0.5595093     -0.6199951
412795008     -0.5550537     -0.6028442      0.0031279     -0.0007484      0.0031466     -0.0007540     -0.5608521     -0.6186523
412920000     -0.5561523     -0.6018066      0.0030107     -0.0009727      0.0030128     -0.0009741     -0.5620728     -0.6173706
413044992     -0.5591431     -0.6010742      0.0028055     -0.0010878      0.0028585     -0.0010921     -0.5632935     -0.6165161
413169984     -0.5586548     -0.5995483      0.0026878     -0.0010967      0.0027163     -0.0010873     -0.5641479     -0.6141357
413295008     -0.5600586     -0.5980835      0.0026139     -0.0010885      0.0026373     -0.0011002     -0.5648804     -0.6125488
413420000     -0.5615234     -0.5966797      0.0025939     -0.0010995      0.0026368     -0.0011095     -0.5656738     -0.6112671
413544992     -0.5629883     -0.5951538      0.0026083     -0.0011388      0.0026387     -0.0011442     -0.5665283     -0.6104736
413670016     -0.5642090     -0.5941772      0.0026156     -0.0012273      0.0026269     -0.0012555     -0.5676270     -0.6093750
413795008     -0.5656128     -0.5926514      0.0025496     -0.0013731      0.0025728     -0.0013762     -0.5693359     -0.6079102
413920000     -0.5665894     -0.5909424      0.0024499     -0.0015129      0.0024725     -0.0015284     -0.5709839     -0.6066895
414044992     -0.5674438     -0.5895996      0.0022322     -0.0016574      0.0022362     -0.0016729     -0.5720215     -0.6051636
414169984     -0.5686035     -0.5882568      0.0019037     -0.0016702      0.0019107     -0.0016822     -0.5729370     -0.6036377
414295008     -0.5695801     -0.5872192      0.0016510     -0.0014707      0.0016589     -0.0014914     -0.5740967     -0.6022339
414420000     -0.5708618     -0.5860596      0.0015430     -0.0012398      0.0015476     -0.0012417     -0.5750122     -0.6011963
414544992     -0.5720825     -0.5848389      0.0015380     -0.0010531      0.0015376     -0.0010495     -0.5762939     -0.5997314
414670016     -0.5736084     -0.5834351      0.0015549     -0.0009267      0.0015705     -0.0009221     -0.5776367     -0.5986938
414795008     -0.5749512     -0.5822754      0.0015530     -0.0007963      0.0015765     -0.0007979     -0.5787354     -0.5969849
414920000     -0.5762939     -0.5811157      0.0016193     -0.0006437      0.0016317     -0.0006550     -0.5800171     -0.5955200
415044992     -0.5775757     -0.5795898      0.0017408     -0.0005767      0.0017710     -0.0005694     -0.5814819     -0.5940552
415169984     -0.5788574     -0.5781250      0.0018373     -0.0005526      0.0018533     -0.0005675     -0.5825195     -0.5927124
415295008     -0.5802612     -0.5767822      0.0018917     -0.0005699      0.0019236     -0.0005612     -0.5836792     -0.5910645
415420000     -0.5816650     -0.5751343      0.0019357     -0.0005693      0.0019444     -0.0005715     -0.5851440     -0.5895996
415544992     -0.5828247     -0.5735474      0.0019625     -0.0005667      0.0019664     -0.0005636     -0.5862427     -0.5880737
415670016     -0.5841675     -0.5721436      0.0019752     -0.0005647      0.0019988     -0.0005684     -0.5875244     -0.5866699
415795008     -0.5855103     -0.5701904      0.0019895     -0.0005656      0.0020062     -0.0005568     -0.5886841     -0.5853271
415920000     -0.5866089     -0.5692139      0.0019971     -0.0005494      0.0020241     -0.0005703     -0.5897827     -0.5836792
416044992     -0.5878296     -0.5673828      0.0019941     -0.0005431      0.0020248     -0.0005350     -0.5909424     -0.5819092
416169984     -0.5889282     -0.5658569      0.0019920     -0.0004776      0.0020176     -0.0004985     -0.5922852     -0.5803223
416295008     -0.5902100     -0.5642700      0.0020198     -0.0004325      0.0020275     -0.0004289     -0.5934448     -0.5789185
416420000     -0.5911865     -0.5627441      0.0020528     -0.0003740      0.0020870     -0.0003700     -0.5943604     -0.5767822
416544992     -0.5925903     -0.5612183      0.0021381     -0.0003103      0.0021516     -0.0003068     -0.5954590     -0.5752563
416670016     -0.5938110     -0.5595093      0.0022126     -0.0002472      0.0022347     -0.0002483     -0.5966187     -0.5740356
416795008     -0.5947876     -0.5581055      0.0023415     -0.0001642      0.0023800     -0.0001521     -0.5977173     -0.5723267
416920000     -0.5958862     -0.5565186      0.0025516     -0.0001495      0.0025935     -0.0001491     -0.5986328     -0.5704346
417044992     -0.5967407     -0.5549927      0.0027529     -0.0002798      0.0027884     -0.0002820     -0.5998535     -0.5691528
417169984     -0.5979004     -0.5535278      0.0028417     -0.0004245      0.0028630     -0.0004205     -0.6010132     -0.5675659
417295008     -0.5988770     -0.5521851      0.0028526     -0.0004967      0.0029019     -0.0005012     -0.6022949     -0.5659790
417420000     -0.6004028     -0.5507202      0.0029356     -0.0005220      0.0029672     -0.0005455     -0.6030273     -0.5638428
417544992     -0.5997314     -0.5487671      0.0031331     -0.0005592      0.0031600     -0.0005488     -0.6033325     -0.5615234
417670016     -0.6023560     -0.5474243      0.0033754     -0.0007672      0.0034146     -0.0007946     -0.6043091     -0.5607300
417795008     -0.6038208     -0.5458984      0.0034624     -0.0011322      0.0035111     -0.0011407     -0.6049194     -0.5595703
417920000     -0.6047363     -0.5443115      0.0034145     -0.0014410      0.0034580     -0.0014505     -0.6059570     -0.5583496
418044992     -0.6078491     -0.5427246      0.0033269     -0.0017155      0.0033711     -0.0017573     -0.6079712     -0.5579834
418169984     -0.6065674     -0.5404663      0.0031977     -0.0019743      0.0032202     -0.0020139     -0.6088257     -0.5557861
418295008     -0.6065674     -0.5391846      0.0029533     -0.0022701      0.0029669     -0.0023094     -0.6102295     -0.5541382
418420000     -0.6074219     -0.5383301      0.0025673     -0.0024046      0.0025915     -0.0024320     -0.6113281     -0.5521240
418544992     -0.6087646     -0.5378418      0.0022844     -0.0023400      0.0023011     -0.0023780     -0.6124268     -0.5504150
418670016     -0.6102905     -0.5367432      0.0021249     -0.0022854      0.0021342     -0.0022976     -0.6134033     -0.5489502
418795008     -0.6118164     -0.5349731      0.0020059     -0.0023143      0.0019916     -0.0023383     -0.6143799     -0.5472412
418920000     -0.6130371     -0.5333252      0.0017239     -0.0023823      0.0017312     -0.0024093     -0.6151123     -0.5453491
419044992     -0.6143799     -0.5319214      0.0013734     -0.0022637      0.0013860     -0.0022645     -0.6159668     -0.5443726
419169984     -0.6152344     -0.5303345      0.0011898     -0.0019580      0.0011867     -0.0019656     -0.6171265     -0.5427246
419295008     -0.6166992     -0.5289307      0.0012038     -0.0017383      0.0012097     -0.0017689     -0.6187134     -0.5415649
419420000     -0.6177368     -0.5272827      0.0011871     -0.0016729      0.0011977     -0.0016793     -0.6199951     -0.5397339
419544992     -0.6188354     -0.5260010      0.0010725     -0.0016336      0.0010793     -0.0016506     -0.6209106     -0.5380249
419670016     -0.6201172     -0.5242310      0.0008398     -0.0014867      0.0008414     -0.0014741     -0.6217651     -0.5364990
419795008     -0.6211548     -0.5228271      0.0006945     -0.0010878      0.0007030     -0.0010796     -0.6224976     -0.5350952
419920000     -0.6224976     -0.5211792      0.0008524     -0.0006765      0.0008825     -0.0006655     -0.6239624     -0.5339355
420044992     -0.6240234     -0.5200806      0.0011475     -0.0004694      0.0011832     -0.0004786     -0.6253052     -0.5324707
420169984     -0.6254883     -0.5181274      0.0014091     -0.0004193      0.0014361     -0.0004265     -0.6270142     -0.5309448
420295008     -0.6267090     -0.5167236      0.0016010     -0.0004268      0.0016167     -0.0004353     -0.6280518     -0.5291138
420420000     -0.6278076     -0.5151367      0.0017641     -0.0004702      0.0018049     -0.0004700     -0.6293335     -0.5274658
420544992     -0.6292725     -0.5132446      0.0018852     -0.0005379      0.0018888     -0.0005580     -0.6309814     -0.5252686
420670016     -0.6305542     -0.5114746      0.0019299     -0.0006241      0.0019368     -0.0006360     -0.6320190     -0.5236206
420795008     -0.6318359     -0.5100098      0.0019505     -0.0006589      0.0019858     -0.0006741     -0.6332397     -0.5217896
420920000     -0.6329346     -0.5078735      0.0019636     -0.0006890      0.0020036     -0.0006738     -0.6343384     -0.5195923
421044992     -0.6342773     -0.5059814      0.0019838     -0.0006803      0.0020130     -0.0006852     -0.6356201     -0.5178223
421169984     -0.6356201     -0.5043945      0.0020108     -0.0006582      0.0020354     -0.0006679     -0.6365967     -0.5161743
421295008     -0.6368408     -0.5024414      0.0020419     -0.0006217      0.0020678     -0.0006198     -0.6380005     -0.5140991
421420000     -0.6378174     -0.5006714      0.0020813     -0.0005635      0.0020928     -0.0005633     -0.6389160     -0.5121460
421544992     -0.6389771     -0.4986572      0.0021431     -0.0004619      0.0021635     -0.0004599     -0.6399536     -0.5101929
421670016     -0.6400757     -0.4964600      0.0022933     -0.0002753      0.0023381     -0.0002871     -0.6411133     -0.5079956
421795008     -0.6409912     -0.4946289      0.0026747     -0.0001750      0.0027133     -0.0001776     -0.6419678     -0.5059204
421920000     -0.6419067     -0.4927368      0.0031106     -0.0002975      0.0031676     -0.0003330     -0.6427612     -0.5041504
422044992     -0.6428833     -0.4912109      0.0034349     -0.0006469      0.0034627     -0.0006752     -0.6435547     -0.5026855
422169984     -0.6437988     -0.4893799      0.0035943     -0.0009880      0.0036230     -0.0010241     -0.6445313     -0.5008545
422295008     -0.6449585     -0.4871826      0.0037030     -0.0013353      0.0037512     -0.0013647     -0.6457520     -0.4992065
422420000     -0.6456299     -0.4849854      0.0038093     -0.0017707      0.0038458     -0.0018154     -0.6472778     -0.4969482
422544992     -0.6453857     -0.4832153      0.0037053     -0.0023338      0.0037261     -0.0023786     -0.6482544     -0.4948730
422670016     -0.6446533     -0.4819946      0.0033245     -0.0027400      0.0033123     -0.0027570     -0.6491089     -0.4920654
422795008     -0.6472778     -0.4812622      0.0028784     -0.0027956      0.0028870     -0.0028170     -0.6502686     -0.4904175
422920000     -0.6488647     -0.4800415      0.0026813     -0.0027289      0.0026970     -0.0027527     -0.6507568     -0.4877930
423044992     -0.6503296     -0.4785767      0.0026172     -0.0027087      0.0026484     -0.0027421     -0.6508179     -0.4855347
423169984     -0.6536255     -0.4768677      0.0026609     -0.0027254      0.0026968     -0.0027645     -0.6510620     -0.4851074
423295008     -0.6529541     -0.4743652      0.0028243     -0.0029407      0.0028446     -0.0029796     -0.6511841     -0.4839478
423420000     -0.6544189     -0.4722290      0.0028348     -0.0033724      0.0028656     -0.0034275     -0.6529541     -0.4829712
423544992     -0.6553955     -0.4700317      0.0027113     -0.0039074      0.0027158     -0.0039678     -0.6547241     -0.4810181
423670016     -0.6561890     -0.4677124      0.0023375     -0.0045488      0.0023234     -0.0046282     -0.6567383     -0.4783936
423795008     -0.6567383     -0.4655151      0.0015461     -0.0051908      0.0015101     -0.0052686     -0.6574707     -0.4755249
423920000     -0.6568604     -0.4637451      0.0003002     -0.0054579      0.0002434     -0.0055065     -0.6575317     -0.4730835
424044992     -0.6572876     -0.4622192     -0.0010831     -0.0050449     -0.0011461     -0.0050480     -0.6572876     -0.4714966
424169984     -0.6579590     -0.4612427     -0.0020404     -0.0040097     -0.0020797     -0.0039957     -0.6577148     -0.4705811
424295008     -0.6589966     -0.4598999     -0.0024054     -0.0028696     -0.0024595     -0.0028384     -0.6585083     -0.4699097
424420000     -0.6599121     -0.4584351     -0.0025578     -0.0018389     -0.0025795     -0.0018177     -0.6602783     -0.4687500
424544992     -0.6605835     -0.4575195     -0.0024329     -0.0005949     -0.0024455     -0.0005440     -0.6620483     -0.4677124
424670016     -0.6621094     -0.4566040     -0.0015899      0.0004792     -0.0015454      0.0005041     -0.6641846     -0.4653320
424795008     -0.6640625     -0.4555054     -0.0004806      0.0008190     -0.0004558      0.0008297     -0.6658325     -0.4631958
424920000     -0.6661377     -0.4538574      0.0003389      0.0007094      0.0003690      0.0007190     -0.6672363     -0.4603882
425044992     -0.6677246     -0.4520264      0.0008563      0.0004446      0.0008995      0.0004364     -0.6680908     -0.4583130
425169984     -0.6697998     -0.4495850      0.0011851      0.0001892      0.0012292      0.0001838     -0.6688232     -0.4561768
425295008     -0.6710815     -0.4472046      0.0014063     -0.0000904      0.0014191     -0.0000836     -0.6699219     -0.4545898
425420000     -0.6727295     -0.4451904      0.0014976     -0.0002545      0.0015064     -0.0002637     -0.6718140     -0.4528198
425544992     -0.6740723     -0.4429321      0.0016099     -0.0003757      0.0016164     -0.0003885     -0.6733398     -0.4505615
425670016     -0.6753540     -0.4406128      0.0017151     -0.0004578      0.0017338     -0.0004889     -0.6748047     -0.4481812
425795008     -0.6768799     -0.4384766      0.0018197     -0.0005956      0.0018179     -0.0006096     -0.6767578     -0.4458008
425920000     -0.6784058     -0.4359741      0.0018737     -0.0007111      0.0019048     -0.0007340     -0.6777344     -0.4432983
426044992     -0.6796875     -0.4334717      0.0018955     -0.0007994      0.0019099     -0.0008048     -0.6790161     -0.4403687
426169984     -0.6810303     -0.4309082      0.0019148     -0.0007932      0.0019315     -0.0007957     -0.6806641     -0.4376831
426295008     -0.6823120     -0.4280396      0.0020463     -0.0006964      0.0020652     -0.0006987     -0.6818848     -0.4350586
426420000     -0.6832275     -0.4255981      0.0023305     -0.0006247      0.0023594     -0.0006318     -0.6827393     -0.4320068
426544992     -0.6843872     -0.4231567      0.0027634     -0.0007199      0.0028162     -0.0007455     -0.6838379     -0.4291992
426670016     -0.6851807     -0.4205933      0.0031543     -0.0010958      0.0032002     -0.0011072     -0.6846924     -0.4268188
426795008     -0.6864624     -0.4183350      0.0033842     -0.0015285      0.0034286     -0.0015585     -0.6860352     -0.4240723
426920000     -0.6876221     -0.4154053      0.0035148     -0.0020216      0.0035474     -0.0020561     -0.6876221     -0.4208984
427044992     -0.6886597     -0.4132080      0.0035058     -0.0025573      0.0035337     -0.0025837     -0.6884155     -0.4173584
427169984     -0.6896973     -0.4105835      0.0032948     -0.0030534      0.0033101     -0.0030963     -0.6884766     -0.4135742
427295008     -0.6909790     -0.4075928      0.0028943     -0.0032136      0.0028968     -0.0032557     -0.6878662     -0.4102783
427420000     -0.6921997     -0.4043579      0.0029061     -0.0030742      0.0029472     -0.0030822     -0.6878052     -0.4090576
427544992     -0.6932983     -0.4008789      0.0032499     -0.0031667      0.0032870     -0.0031987     -0.6884155     -0.4075317
427670016     -0.6939087     -0.3971558      0.0036931     -0.0035093      0.0037589     -0.0035672     -0.6896973     -0.4053955
427795008     -0.6937256     -0.3931885      0.0043085     -0.0040977      0.0043509     -0.0041778     -0.6914673     -0.4025879
427920000     -0.6897583     -0.3895874      0.0050869     -0.0053616      0.0051463     -0.0055110     -0.6925659     -0.3991699
