!RF1402D,  DEMO1 ,wide,BN,8/25/06
# HZ S RI R 50
255000000      0.4421082     -0.8800354      0.0007360      0.0005318      0.0007214      0.0004733      0.4401550     -0.8877258
255050000      0.4431152     -0.8804321      0.0007473      0.0004593      0.0007124      0.0004604      0.4395142     -0.8882141
255100000      0.4412842     -0.8812256      0.0007896      0.0004754      0.0007784      0.0004890      0.4389343     -0.8882751
255150000      0.4417725     -0.8803711      0.0008105      0.0003797      0.0007704      0.0003806      0.4385681     -0.8883972
255200000      0.4415588     -0.8803711      0.0007846      0.0004196      0.0007803      0.0003814      0.4376831     -0.8891602
255250000      0.4414063     -0.8813171      0.0007980      0.0004622      0.0008162      0.0004538      0.4380493     -0.8891602
255300000      0.4410095     -0.8810730      0.0009034      0.0004913      0.0009358      0.0004635      0.4380188     -0.8889771
255350000      0.4404907     -0.8816833      0.0010443      0.0003905      0.0010511      0.0004897      0.4381714     -0.8892517
255400000      0.4401855     -0.8812866      0.0011598      0.0003472      0.0011852      0.0003202      0.4375305     -0.8898926
255450000      0.4399109     -0.8827820      0.0012882      0.0001883      0.0012647      0.0002179      0.4377136     -0.8900757
255500000      0.4395752     -0.8825073      0.0014066      0.0001314      0.0013745      0.0001112      0.4371338     -0.8902283
255550000      0.4406433     -0.8830566      0.0013729     -0.0000246      0.0013786     -0.0000258      0.4367981     -0.8903809
255600000      0.4395752     -0.8830872      0.0014168     -0.0000828      0.0014057     -0.0001282      0.4360352     -0.8914795
255650000      0.4397583     -0.8836365      0.0014561     -0.0002241      0.0014579     -0.0002337      0.4364624     -0.8917847
255700000      0.4389648     -0.8835144      0.0014231     -0.0003735      0.0014476     -0.0003558      0.4364624     -0.8916321
255750000      0.4390564     -0.8843079      0.0013753     -0.0004429      0.0013828     -0.0004370      0.4347229     -0.8930969
255800000      0.4378052     -0.8843079      0.0013018     -0.0004805      0.0013318     -0.0005178      0.4349976     -0.8923035
255850000      0.4378357     -0.8849182      0.0013630     -0.0005680      0.0013759     -0.0005084      0.4347839     -0.8925781
255900000      0.4372864     -0.8857422      0.0014151     -0.0006238      0.0014213     -0.0005733      0.4345093     -0.8931580
255950000      0.4367371     -0.8848267      0.0014284     -0.0006693      0.0014358     -0.0006805      0.4342651     -0.8931274
256000000      0.4366760     -0.8856812      0.0014568     -0.0007427      0.0014513     -0.0007870      0.4335327     -0.8935852
256050000      0.4363098     -0.8856506      0.0015243     -0.0008483      0.0015139     -0.0008980      0.4325562     -0.8934937
256100000      0.4355774     -0.8855896      0.0015245     -0.0010378      0.0015381     -0.0010549      0.4318848     -0.8933716
256150000      0.4351807     -0.8854980      0.0015108     -0.0011939      0.0015184     -0.0012218      0.4317627     -0.8938293
256200000      0.4349365     -0.8849182      0.0015070     -0.0013739      0.0014978     -0.0013683      0.4312744     -0.8934021
256250000      0.4342957     -0.8850708      0.0013782     -0.0015048      0.0014461     -0.0015615      0.4312134     -0.8930054
256300000      0.4342651     -0.8851013      0.0012665     -0.0016213      0.0012910     -0.0016349      0.4306641     -0.8931885
256350000      0.4335327     -0.8860474      0.0012211     -0.0017061      0.0011767     -0.0017226      0.4307861     -0.8932190
256400000      0.4329529     -0.8855896      0.0011673     -0.0018192      0.0011897     -0.0017900      0.4306641     -0.8940430
256450000      0.4330750     -0.8856812      0.0011052     -0.0018931      0.0011247     -0.0019065      0.4301147     -0.8928833
256500000      0.4331055     -0.8865356      0.0010086     -0.0020490      0.0010597     -0.0020306      0.4296875     -0.8941040
256550000      0.4326172     -0.8857422      0.0009359     -0.0021535      0.0009478     -0.0021737      0.4289246     -0.8938904
256600000      0.4316406     -0.8862305      0.0009059     -0.0022991      0.0008357     -0.0023283      0.4288940     -0.8934326
256650000      0.4319153     -0.8863220      0.0006897     -0.0024391      0.0007343     -0.0024735      0.4284668     -0.8936462
256700000      0.4310608     -0.8870850      0.0004914     -0.0025617      0.0004704     -0.0026006      0.4282532     -0.8941345
256750000      0.4313354     -0.8873901      0.0002518     -0.0026393      0.0002952     -0.0026484      0.4282532     -0.8939514
256800000      0.4306335     -0.8874512      0.0000471     -0.0026932      0.0000806     -0.0026919      0.4285278     -0.8935852
256850000      0.4299316     -0.8873901     -0.0001930     -0.0026454     -0.0001060     -0.0026215      0.4268799     -0.8937683
256900000      0.4293823     -0.8876953     -0.0003234     -0.0026196     -0.0002509     -0.0026224      0.4267273     -0.8941040
256950000      0.4285889     -0.8875732     -0.0004841     -0.0024980     -0.0004637     -0.0025384      0.4259644     -0.8935547
257000000      0.4284973     -0.8883362     -0.0006119     -0.0024600     -0.0005441     -0.0024253      0.4263916     -0.8945618
257050000      0.4280090     -0.8873596     -0.0006807     -0.0023524     -0.0007192     -0.0024014      0.4259338     -0.8942871
257100000      0.4280396     -0.8866882     -0.0007252     -0.0023329     -0.0007342     -0.0023687      0.4261169     -0.8945923
257150000      0.4269714     -0.8875732     -0.0007609     -0.0023335     -0.0007805     -0.0023848      0.4256287     -0.8944092
257200000      0.4266357     -0.8871460     -0.0009030     -0.0023897     -0.0009096     -0.0024161      0.4252319     -0.8946533
257250000      0.4266968     -0.8873596     -0.0010774     -0.0024136     -0.0011007     -0.0024388      0.4247131     -0.8939514
257300000      0.4269104     -0.8879395     -0.0012797     -0.0023975     -0.0012639     -0.0024327      0.4248962     -0.8951416
257350000      0.4258423     -0.8876038     -0.0015173     -0.0022967     -0.0014801     -0.0023118      0.4242249     -0.8948364
257400000      0.4257507     -0.8870239     -0.0016015     -0.0021708     -0.0016173     -0.0022149      0.4242859     -0.8954468
257450000      0.4251404     -0.8867798     -0.0016927     -0.0020953     -0.0017558     -0.0021265      0.4234009     -0.8949890
257500000      0.4254150     -0.8865967     -0.0018536     -0.0019365     -0.0018481     -0.0020001      0.4228821     -0.8951416
257550000      0.4242859     -0.8870850     -0.0019701     -0.0018214     -0.0019768     -0.0018224      0.4227905     -0.8952637
257600000      0.4253235     -0.8865356     -0.0020076     -0.0016620     -0.0020144     -0.0017040      0.4224548     -0.8957214
257650000      0.4243164     -0.8858948     -0.0021060     -0.0015972     -0.0021553     -0.0016096      0.4222107     -0.8952332
257700000      0.4242859     -0.8858032     -0.0022449     -0.0014287     -0.0022370     -0.0014685      0.4213562     -0.8956604
257750000      0.4241333     -0.8865662     -0.0023390     -0.0013057     -0.0023578     -0.0012950      0.4213257     -0.8947754
257800000      0.4240417     -0.8862305     -0.0023810     -0.0011314     -0.0023502     -0.0011154      0.4206543     -0.8946838
257850000      0.4234314     -0.8869019     -0.0024264     -0.0009404     -0.0024428     -0.0009177      0.4215393     -0.8941650
257900000      0.4237366     -0.8868408     -0.0024346     -0.0007124     -0.0025309     -0.0007539      0.4208374     -0.8947754
257950000      0.4232178     -0.8867493     -0.0024226     -0.0005274     -0.0024415     -0.0005845      0.4204407     -0.8947449
258000000      0.4229126     -0.8871765     -0.0024250     -0.0003467     -0.0024207     -0.0003561      0.4205322     -0.8946228
258050000      0.4234619     -0.8868408     -0.0023056     -0.0001906     -0.0023376     -0.0002421      0.4201355     -0.8948059
258100000      0.4232483     -0.8867798     -0.0022591     -0.0000594     -0.0022552     -0.0000215      0.4194336     -0.8948669
258150000      0.4227600     -0.8870239     -0.0022029      0.0001485     -0.0022029      0.0000890      0.4188843     -0.8946533
258200000      0.4234619     -0.8866577     -0.0021471      0.0002458     -0.0021906      0.0002190      0.4189148     -0.8943787
258250000      0.4222412     -0.8867188     -0.0020250      0.0003453     -0.0019969      0.0003155      0.4198914     -0.8948364
258300000      0.4235229     -0.8862610     -0.0018901      0.0004660     -0.0018948      0.0004956      0.4201050     -0.8945923
258350000      0.4231567     -0.8860474     -0.0017052      0.0005295     -0.0017123      0.0004920      0.4198914     -0.8941040
258400000      0.4234314     -0.8874207     -0.0015692      0.0004883     -0.0015761      0.0004875      0.4199219     -0.8946228
258450000      0.4233704     -0.8874207     -0.0015714      0.0005071     -0.0015826      0.0004590      0.4201965     -0.8950806
258500000      0.4230957     -0.8879089     -0.0015193      0.0005572     -0.0015366      0.0005017      0.4206848     -0.8950195
258550000      0.4235840     -0.8876953     -0.0014335      0.0006360     -0.0014496      0.0005342      0.4197693     -0.8961487
258600000      0.4230042     -0.8876038     -0.0014157      0.0007243     -0.0014626      0.0007036      0.4194336     -0.8964539
258650000      0.4233398     -0.8883362     -0.0013058      0.0007524     -0.0012783      0.0007675      0.4193420     -0.8961487
258700000      0.4228516     -0.8896790     -0.0011797      0.0007799     -0.0011495      0.0007944      0.4192200     -0.8957825
258750000      0.4233398     -0.8893433     -0.0010146      0.0007877     -0.0010879      0.0007975      0.4187012     -0.8956909
258800000      0.4225769     -0.8901672     -0.0009454      0.0008250     -0.0009767      0.0008093      0.4190063     -0.8960266
258850000      0.4224854     -0.8899536     -0.0008243      0.0007996     -0.0008137      0.0007311      0.4190674     -0.8971558
258900000      0.4223633     -0.8901367     -0.0008194      0.0006714     -0.0007996      0.0006961      0.4187622     -0.8971252
258950000      0.4222717     -0.8917236     -0.0007302      0.0007573     -0.0007537      0.0007474      0.4192200     -0.8980103
259000000      0.4219666     -0.8908691     -0.0006615      0.0007153     -0.0007046      0.0007437      0.4184570     -0.8986511
259050000      0.4207764     -0.8917847     -0.0006468      0.0007133     -0.0006372      0.0007192      0.4182434     -0.8989563
259100000      0.4214478     -0.8914490     -0.0005404      0.0007317     -0.0005872      0.0007311      0.4176636     -0.8995667
259150000      0.4208069     -0.8914490     -0.0005106      0.0006901     -0.0004885      0.0006957      0.4167786     -0.8991089
259200000      0.4201965     -0.8925171     -0.0004309      0.0007217     -0.0003847      0.0007119      0.4168701     -0.8995056
259250000      0.4205322     -0.8925171     -0.0003245      0.0006861     -0.0002882      0.0006675      0.4163513     -0.8996582
259300000      0.4198914     -0.8930664     -0.0001923      0.0006500     -0.0002086      0.0005867      0.4166565     -0.9003906
259350000      0.4198303     -0.8932800     -0.0001560      0.0005232     -0.0002027      0.0005051      0.4167175     -0.9000549
259400000      0.4190979     -0.8934021     -0.0001529      0.0004355     -0.0001402      0.0004279      0.4160156     -0.9005432
259450000      0.4195862     -0.8935242     -0.0002028      0.0003694     -0.0001069      0.0003734      0.4157104     -0.9007568
259500000      0.4190674     -0.8941345     -0.0001659      0.0003367     -0.0001871      0.0003540      0.4151917     -0.9007263
259550000      0.4184570     -0.8948669     -0.0001963      0.0002828     -0.0001519      0.0002827      0.4151001     -0.9013977
259600000      0.4178467     -0.8941956     -0.0001785      0.0003417     -0.0001964      0.0002695      0.4143372     -0.9019775
259650000      0.4178467     -0.8946838     -0.0001596      0.0003386     -0.0001516      0.0003062      0.4138489     -0.9011230
259700000      0.4175110     -0.8950195     -0.0001048      0.0002934     -0.0000913      0.0002466      0.4136658     -0.9026184
259750000      0.4167786     -0.8953247     -0.0000206      0.0002731     -0.0000716      0.0002327      0.4138794     -0.9026184
259800000      0.4173279     -0.8950500     -0.0001052      0.0002770     -0.0000686      0.0002278      0.4136658     -0.9033813
259850000      0.4158936     -0.8958435     -0.0000453      0.0002399     -0.0000027      0.0002271      0.4115906     -0.9028625
259900000      0.4147644     -0.8956909      0.0000071      0.0001311      0.0000229      0.0001672      0.4117737     -0.9023438
259950000      0.4156494     -0.8963928      0.0000148      0.0001022     -0.0000312      0.0001210      0.4123840     -0.9033813
260000000      0.4145508     -0.8970947     -0.0000247      0.0000957     -0.0000091      0.0000928      0.4119263     -0.9039001
260050000      0.4148254     -0.8966675     -0.0000097      0.0000471      0.0000051      0.0000739      0.4110718     -0.9033203
260100000      0.4142456     -0.8977661      0.0000344      0.0000803      0.0000178      0.0000634      0.4104919     -0.9040833
260150000      0.4136047     -0.8967590      0.0000645      0.0000116      0.0000004      0.0000241      0.4103699     -0.9041443
260200000      0.4129028     -0.8975525      0.0000261     -0.0000512      0.0001120     -0.0000259      0.4100037     -0.9045105
260250000      0.4125977     -0.8979187      0.0000082     -0.0000665      0.0000149     -0.0000666      0.4102478     -0.9043274
260300000      0.4125671     -0.8984070     -0.0000147     -0.0001021     -0.0000262     -0.0000964      0.4096375     -0.9044495
260350000      0.4124451     -0.8983765     -0.0000454     -0.0001403     -0.0000411     -0.0001048      0.4087830     -0.9052429
260400000      0.4118958     -0.8981323     -0.0000152     -0.0000929     -0.0000416     -0.0000659      0.4078369     -0.9053040
260450000      0.4109192     -0.8986511      0.0000208     -0.0000686      0.0000233     -0.0000876      0.4073792     -0.9057922
260500000      0.4108887     -0.8987732     -0.0000178     -0.0001157      0.0000198     -0.0001279      0.4077759     -0.9057922
260550000      0.4105835     -0.8980103      0.0000140     -0.0002088      0.0000512     -0.0001794      0.4076843     -0.9052124
260600000      0.4108276     -0.8981934      0.0000175     -0.0002453      0.0000161     -0.0002461      0.4071045     -0.9058838
260650000      0.4103394     -0.8987732     -0.0000059     -0.0003033     -0.0000265     -0.0002733      0.4061584     -0.9057312
260700000      0.4094849     -0.8981934     -0.0000418     -0.0003776     -0.0000535     -0.0002772      0.4067078     -0.9059448
260750000      0.4100952     -0.8983459     -0.0001144     -0.0003514     -0.0000834     -0.0002969      0.4067993     -0.9059753
260800000      0.4089661     -0.8989258     -0.0000822     -0.0003186     -0.0000632     -0.0003347      0.4056091     -0.9063110
260850000      0.4089661     -0.8994446     -0.0001636     -0.0002826     -0.0001295     -0.0003019      0.4052429     -0.9064941
260900000      0.4082947     -0.8988037     -0.0001737     -0.0003174     -0.0001731     -0.0002935      0.4054260     -0.9065247
260950000      0.4085083     -0.8986206     -0.0001309     -0.0002812     -0.0001452     -0.0002565      0.4050903     -0.9064026
261000000      0.4082947     -0.8995361     -0.0001140     -0.0003198     -0.0001199     -0.0002742      0.4053345     -0.9067078
261050000      0.4076538     -0.8999329     -0.0001164     -0.0003735     -0.0000961     -0.0003556      0.4048157     -0.9068298
261100000      0.4075623     -0.8997498     -0.0000686     -0.0004146     -0.0001305     -0.0003622      0.4042358     -0.9077148
261150000      0.4076843     -0.8999939     -0.0001670     -0.0003996     -0.0001236     -0.0003983      0.4044495     -0.9065857
261200000      0.4074097     -0.9005127     -0.0001581     -0.0003999     -0.0001954     -0.0003674      0.4031982     -0.9086609
261250000      0.4076843     -0.9005432     -0.0001612     -0.0003727     -0.0001850     -0.0003940      0.4034424     -0.9083252
261300000      0.4069824     -0.9017639     -0.0002143     -0.0003750     -0.0002006     -0.0004084      0.4022827     -0.9080811
261350000      0.4068298     -0.9010925     -0.0002238     -0.0003686     -0.0002180     -0.0003668      0.4021606     -0.9090576
261400000      0.4063721     -0.9017639     -0.0002639     -0.0003597     -0.0002461     -0.0003923      0.4017029     -0.9093018
261450000      0.4059753     -0.9021301     -0.0002329     -0.0003778     -0.0002810     -0.0004172      0.4019165     -0.9093323
261500000      0.4055786     -0.9021301     -0.0002586     -0.0003860     -0.0002472     -0.0004169      0.4016418     -0.9094543
261550000      0.4051819     -0.9026184     -0.0003197     -0.0003533     -0.0003257     -0.0003682      0.4009094     -0.9097290
261600000      0.4045410     -0.9028015     -0.0002888     -0.0003777     -0.0003160     -0.0003734      0.4011536     -0.9096680
261650000      0.4048157     -0.9032898     -0.0003304     -0.0003915     -0.0003099     -0.0003656      0.4000549     -0.9095154
261700000      0.4038696     -0.9039001     -0.0003144     -0.0003428     -0.0003105     -0.0003179      0.3995056     -0.9101257
261750000      0.4037781     -0.9035339     -0.0002964     -0.0003616     -0.0002925     -0.0003292      0.3993530     -0.9107971
261800000      0.4032898     -0.9044800     -0.0003137     -0.0003610     -0.0003108     -0.0003657      0.3997498     -0.9105835
261850000      0.4028931     -0.9052124     -0.0003160     -0.0003619     -0.0003048     -0.0004113      0.3986816     -0.9111023
261900000      0.4022827     -0.9047852     -0.0003709     -0.0003804     -0.0003594     -0.0003480      0.3979492     -0.9117126
261950000      0.4015808     -0.9054565     -0.0003618     -0.0003397     -0.0003504     -0.0003181      0.3977966     -0.9117126
262000000      0.4011841     -0.9049072     -0.0003448     -0.0002751     -0.0003907     -0.0003507      0.3973694     -0.9120789
262050000      0.4011536     -0.9064331     -0.0004058     -0.0003138     -0.0004126     -0.0002873      0.3970947     -0.9128113
262100000      0.4009705     -0.9060059     -0.0003533     -0.0002936     -0.0003693     -0.0002386      0.3970337     -0.9120483
262150000      0.3999329     -0.9058838     -0.0004283     -0.0002717     -0.0003728     -0.0003057      0.3955688     -0.9123230
262200000      0.3993530     -0.9060059     -0.0003665     -0.0002952     -0.0003263     -0.0002736      0.3959351     -0.9128418
262250000      0.3994446     -0.9069214     -0.0003514     -0.0002465     -0.0003454     -0.0002600      0.3948364     -0.9122620
262300000      0.3990173     -0.9058838     -0.0003836     -0.0002668     -0.0003967     -0.0002641      0.3944702     -0.9134827
262350000      0.3984985     -0.9069214     -0.0003508     -0.0002244     -0.0003383     -0.0002306      0.3943787     -0.9136353
262400000      0.3970337     -0.9067078     -0.0003503     -0.0002117     -0.0003373     -0.0002451      0.3938599     -0.9140930
262450000      0.3976440     -0.9071045     -0.0003453     -0.0002228     -0.0003285     -0.0001762      0.3935852     -0.9139709
262500000      0.3974915     -0.9074097     -0.0003462     -0.0001889     -0.0003062     -0.0001771      0.3930664     -0.9140320
262550000      0.3969116     -0.9073486     -0.0002517     -0.0002289     -0.0002741     -0.0002337      0.3929749     -0.9143066
262600000      0.3962708     -0.9074707     -0.0002550     -0.0002173     -0.0002488     -0.0002247      0.3920898     -0.9136353
