!HP8753
# HZ S RI R 50
290000000      0.9276123     -0.3602295      0.0001762      0.0002830      0.0001724      0.0002880      0.9261475     -0.3666992
290031264      0.9276123     -0.3601685      0.0001779      0.0002738      0.0001691      0.0002902      0.9260864     -0.3668823
290062496      0.9276733     -0.3602905      0.0001725      0.0002752      0.0001696      0.0002771      0.9260864     -0.3669434
290093760      0.9277344     -0.3604126      0.0001770      0.0002771      0.0001723      0.0002872      0.9259644     -0.3668823
290124992      0.9276123     -0.3604126      0.0001738      0.0002737      0.0001750      0.0002783      0.9259644     -0.3672485
290156256      0.9276123     -0.3602295      0.0001751      0.0002684      0.0001675      0.0002824      0.9259644     -0.3670044
290187488      0.9275513     -0.3605347      0.0001761      0.0002680      0.0001739      0.0002774      0.9258423     -0.3671265
290218752      0.9274902     -0.3605957      0.0001779      0.0002666      0.0001681      0.0002639      0.9257813     -0.3672485
290249984      0.9274902     -0.3604736      0.0001758      0.0002627      0.0001758      0.0002712      0.9259033     -0.3671265
290281248      0.9274902     -0.3605347      0.0001837      0.0002560      0.0001799      0.0002636      0.9259033     -0.3670654
290312512      0.9277344     -0.3605957      0.0001832      0.0002629      0.0001819      0.0002584      0.9258423     -0.3673096
290343744      0.9275513     -0.3607178      0.0001788      0.0002439      0.0001743      0.0002595      0.9258423     -0.3672485
290375008      0.9273071     -0.3605347      0.0001870      0.0002527      0.0001771      0.0002595      0.9258423     -0.3671875
290406240      0.9274292     -0.3607178      0.0001695      0.0002434      0.0001723      0.0002494      0.9258423     -0.3672485
290437504      0.9274902     -0.3607788      0.0001761      0.0002503      0.0001783      0.0002488      0.9259644     -0.3672485
290468736      0.9272461     -0.3607788      0.0001810      0.0002472      0.0001649      0.0002467      0.9257202     -0.3674316
290500000      0.9274292     -0.3609009      0.0001719      0.0002363      0.0001754      0.0002450      0.9259033     -0.3673706
290531264      0.9273682     -0.3609009      0.0001670      0.0002335      0.0001678      0.0002481      0.9257813     -0.3676147
290562496      0.9273071     -0.3608398      0.0001702      0.0002318      0.0001795      0.0002450      0.9255981     -0.3676147
290593760      0.9273071     -0.3606567      0.0001670      0.0002286      0.0001659      0.0002456      0.9257813     -0.3676758
290624992      0.9272461     -0.3609619      0.0001720      0.0002304      0.0001597      0.0002205      0.9257813     -0.3676147
290656256      0.9271851     -0.3610840      0.0001705      0.0002245      0.0001637      0.0002312      0.9259033     -0.3676758
290687488      0.9272461     -0.3609619      0.0001589      0.0002282      0.0001596      0.0002255      0.9257202     -0.3676147
290718752      0.9273682     -0.3610229      0.0001560      0.0002208      0.0001514      0.0002205      0.9257202     -0.3676758
290750016      0.9273071     -0.3610840      0.0001515      0.0002182      0.0001441      0.0002246      0.9256592     -0.3677979
290781248      0.9274292     -0.3609009      0.0001461      0.0002205      0.0001439      0.0002208      0.9255371     -0.3677368
290812512      0.9273682     -0.3612061      0.0001445      0.0002140      0.0001462      0.0002177      0.9256592     -0.3676758
290843744      0.9271240     -0.3609619      0.0001447      0.0002098      0.0001379      0.0002156      0.9256592     -0.3679199
290875008      0.9271240     -0.3612061      0.0001372      0.0002174      0.0001337      0.0002052      0.9254150     -0.3677979
290906240      0.9271240     -0.3611450      0.0001281      0.0001969      0.0001335      0.0002016      0.9255981     -0.3679810
290937504      0.9271240     -0.3612671      0.0001253      0.0002160      0.0001304      0.0002169      0.9256592     -0.3681030
290968736      0.9271851     -0.3612061      0.0001216      0.0002148      0.0001216      0.0002150      0.9256592     -0.3681030
291000000      0.9271851     -0.3614502      0.0001116      0.0002240      0.0001178      0.0002107      0.9255371     -0.3680420
291031264      0.9271240     -0.3613892      0.0001111      0.0002160      0.0001179      0.0002202      0.9255981     -0.3680420
291062496      0.9271851     -0.3614502      0.0001099      0.0002170      0.0001048      0.0002178      0.9256592     -0.3682251
291093760      0.9271851     -0.3617554      0.0001139      0.0002173      0.0001097      0.0002169      0.9256592     -0.3680420
291124992      0.9274292     -0.3613892      0.0001047      0.0002192      0.0001126      0.0002160      0.9255981     -0.3680420
291156256      0.9271851     -0.3616943      0.0001020      0.0002268      0.0000994      0.0002244      0.9254150     -0.3680420
291187488      0.9272461     -0.3615723      0.0001069      0.0002219      0.0000955      0.0002282      0.9255981     -0.3684082
291218752      0.9270630     -0.3616943      0.0000949      0.0002163      0.0000950      0.0002296      0.9253540     -0.3682251
291249984      0.9271851     -0.3617554      0.0000982      0.0002332      0.0001040      0.0002204      0.9254761     -0.3681641
291281248      0.9272461     -0.3616333      0.0000926      0.0002262      0.0001021      0.0002315      0.9255371     -0.3684082
291312512      0.9270020     -0.3617554      0.0000931      0.0002332      0.0000938      0.0002304      0.9252930     -0.3682861
291343744      0.9268799     -0.3616943      0.0000900      0.0002234      0.0000987      0.0002353      0.9254150     -0.3684082
291375008      0.9270630     -0.3616943      0.0000925      0.0002413      0.0000806      0.0002446      0.9254150     -0.3684692
291406240      0.9271240     -0.3618774      0.0000900      0.0002481      0.0000898      0.0002437      0.9254150     -0.3685303
291437504      0.9268799     -0.3618774      0.0000903      0.0002462      0.0000855      0.0002520      0.9252319     -0.3685913
291468736      0.9269409     -0.3620605      0.0000868      0.0002383      0.0000851      0.0002506      0.9254150     -0.3687744
291500000      0.9270020     -0.3619385      0.0000829      0.0002496      0.0000924      0.0002572      0.9252930     -0.3684082
291531264      0.9271240     -0.3619385      0.0000879      0.0002556      0.0000807      0.0002475      0.9254150     -0.3686523
291562496      0.9269409     -0.3619995      0.0000871      0.0002545      0.0000874      0.0002604      0.9251709     -0.3686523
291593760      0.9268799     -0.3620605      0.0000854      0.0002607      0.0000831      0.0002602      0.9253540     -0.3686523
291624992      0.9268188     -0.3622437      0.0000883      0.0002536      0.0000819      0.0002582      0.9254761     -0.3688965
291656256      0.9268799     -0.3621216      0.0000915      0.0002629      0.0000923      0.0002712      0.9252930     -0.3688354
291687488      0.9270020     -0.3622437      0.0000937      0.0002614      0.0000826      0.0002662      0.9252319     -0.3690186
291718752      0.9268188     -0.3622437      0.0000888      0.0002719      0.0000845      0.0002598      0.9252930     -0.3689575
291750016      0.9266968     -0.3621826      0.0000868      0.0002638      0.0000905      0.0002695      0.9249878     -0.3690186
291781248      0.9268799     -0.3623047      0.0000954      0.0002636      0.0000883      0.0002712      0.9254761     -0.3690186
291812512      0.9268799     -0.3624878      0.0000950      0.0002674      0.0000920      0.0002650      0.9252930     -0.3690186
291843744      0.9266968     -0.3625488      0.0000917      0.0002643      0.0000865      0.0002723      0.9251709     -0.3690796
291875008      0.9268799     -0.3623657      0.0000964      0.0002761      0.0000885      0.0002735      0.9251709     -0.3691406
291906240      0.9266357     -0.3625488      0.0000890      0.0002737      0.0000949      0.0002710      0.9250488     -0.3690186
291937504      0.9266357     -0.3623047      0.0000960      0.0002719      0.0000852      0.0002786      0.9252319     -0.3689575
291968736      0.9268799     -0.3626099      0.0000986      0.0002674      0.0000949      0.0002782      0.9250488     -0.3693848
292000000      0.9266357     -0.3626709      0.0000928      0.0002696      0.0001008      0.0002718      0.9249878     -0.3690796
292031264      0.9269409     -0.3626099      0.0001016      0.0002727      0.0000937      0.0002820      0.9251099     -0.3693848
292062496      0.9266357     -0.3625488      0.0000957      0.0002672      0.0000921      0.0002792      0.9251099     -0.3692017
292093760      0.9268799     -0.3627319      0.0000972      0.0002704      0.0000993      0.0002809      0.9248657     -0.3693237
292124992      0.9265747     -0.3629150      0.0001008      0.0002770      0.0000956      0.0002809      0.9250488     -0.3695679
292156256      0.9266357     -0.3627930      0.0001037      0.0002743      0.0000945      0.0002755      0.9249878     -0.3694458
292187488      0.9264526     -0.3629761      0.0000970      0.0002734      0.0000977      0.0002807      0.9249878     -0.3696899
292218752      0.9268799     -0.3627930      0.0001055      0.0002783      0.0001016      0.0002811      0.9249268     -0.3696289
292249984      0.9265747     -0.3628540      0.0001096      0.0002776      0.0001001      0.0002746      0.9249878     -0.3696289
292281248      0.9265137     -0.3627930      0.0001058      0.0002753      0.0000997      0.0002774      0.9250488     -0.3694458
292312512      0.9265747     -0.3630981      0.0001048      0.0002714      0.0001001      0.0002771      0.9248657     -0.3696899
292343744      0.9265747     -0.3630981      0.0001042      0.0002734      0.0000930      0.0002801      0.9251099     -0.3699341
292375008      0.9264526     -0.3629761      0.0001020      0.0002782      0.0001077      0.0002766      0.9251709     -0.3699341
292406240      0.9263916     -0.3632202      0.0001091      0.0002745      0.0000928      0.0002877      0.9249878     -0.3701172
292437504      0.9265137     -0.3632202      0.0001058      0.0002768      0.0000989      0.0002739      0.9249878     -0.3698120
292468736      0.9265747     -0.3633423      0.0000970      0.0002799      0.0000957      0.0002821      0.9249268     -0.3698730
292500000      0.9265137     -0.3632202      0.0001034      0.0002778      0.0001033      0.0002831      0.9248047     -0.3698730
292531264      0.9265137     -0.3633423      0.0001148      0.0002806      0.0001043      0.0002811      0.9248657     -0.3698730
292562496      0.9263916     -0.3633423      0.0001041      0.0002821      0.0000934      0.0002854      0.9249878     -0.3700562
292593760      0.9263916     -0.3635254      0.0001087      0.0002801      0.0000947      0.0002819      0.9249878     -0.3699951
292624992      0.9264526     -0.3635254      0.0001114      0.0002837      0.0000969      0.0002750      0.9248657     -0.3701172
292656256      0.9263306     -0.3634644      0.0000991      0.0002735      0.0000994      0.0002788      0.9248047     -0.3703003
292687488      0.9262695     -0.3635864      0.0001051      0.0002797      0.0000956      0.0002799      0.9247437     -0.3701782
292718752      0.9263306     -0.3635864      0.0001032      0.0002771      0.0000969      0.0002749      0.9248657     -0.3703003
292750016      0.9264526     -0.3637085      0.0001072      0.0002772      0.0001011      0.0002842      0.9248047     -0.3704224
292781248      0.9263916     -0.3635864      0.0001049      0.0002800      0.0000896      0.0002901      0.9249878     -0.3703003
292812512      0.9263916     -0.3635864      0.0001014      0.0002794      0.0001020      0.0002802      0.9248047     -0.3705444
292843744      0.9263306     -0.3637695      0.0001033      0.0002866      0.0000896      0.0002808      0.9246826     -0.3704834
292875008      0.9262695     -0.3638916      0.0001036      0.0002818      0.0001011      0.0002815      0.9247437     -0.3703613
292906240      0.9261475     -0.3637085      0.0001065      0.0002836      0.0000963      0.0002877      0.9247437     -0.3704834
292937504      0.9262085     -0.3639526      0.0001034      0.0002840      0.0000988      0.0002902      0.9247437     -0.3706665
292968736      0.9263306     -0.3638306      0.0001027      0.0002798      0.0001017      0.0002927      0.9247437     -0.3705444
293000000      0.9262695     -0.3639526      0.0001052      0.0002820      0.0001095      0.0002899      0.9247437     -0.3706055
293031264      0.9262085     -0.3639526      0.0001012      0.0002814      0.0000885      0.0002917      0.9245605     -0.3707275
293062496      0.9261475     -0.3639526      0.0001062      0.0002953      0.0000937      0.0002932      0.9247437     -0.3706665
293093760      0.9261475     -0.3639526      0.0001041      0.0002952      0.0000924      0.0002952      0.9245605     -0.3707886
293124992      0.9260864     -0.3641968      0.0000984      0.0002961      0.0000872      0.0002930      0.9244995     -0.3709106
293156256      0.9262085     -0.3641968      0.0001047      0.0002970      0.0000907      0.0002993      0.9244385     -0.3709106
293187488      0.9260864     -0.3640747      0.0000966      0.0002894      0.0000940      0.0002978      0.9246216     -0.3706055
293218752      0.9258423     -0.3641357      0.0001010      0.0002954      0.0000957      0.0002983      0.9246826     -0.3707886
293249984      0.9260254     -0.3643799      0.0001005      0.0002966      0.0000977      0.0002964      0.9247437     -0.3710327
293281248      0.9262695     -0.3642578      0.0000979      0.0003054      0.0001061      0.0003021      0.9245605     -0.3710938
293312512      0.9259644     -0.3642578      0.0001100      0.0003081      0.0000986      0.0003102      0.9246216     -0.3710327
293343744      0.9260864     -0.3642578      0.0001011      0.0002940      0.0001023      0.0003063      0.9245605     -0.3710938
293375008      0.9259644     -0.3645020      0.0000989      0.0003067      0.0001039      0.0003035      0.9244995     -0.3710938
293406240      0.9260254     -0.3644409      0.0001122      0.0003054      0.0001080      0.0003136      0.9243164     -0.3710327
293437504      0.9259033     -0.3644409      0.0001107      0.0003034      0.0001071      0.0003167      0.9244385     -0.3711548
293468736      0.9258423     -0.3643799      0.0001135      0.0003020      0.0001113      0.0003079      0.9245605     -0.3710938
293500000      0.9257813     -0.3646240      0.0001112      0.0003098      0.0001087      0.0003130      0.9244995     -0.3712769
293531264      0.9259033     -0.3644409      0.0001166      0.0003119      0.0001103      0.0003185      0.9244385     -0.3713989
293562496      0.9257202     -0.3646851      0.0001142      0.0003207      0.0001168      0.0003271      0.9243164     -0.3712769
293593760      0.9257813     -0.3647461      0.0001186      0.0003166      0.0001137      0.0003261      0.9243774     -0.3715820
293624992      0.9259644     -0.3647461      0.0001269      0.0003207      0.0001237      0.0003141      0.9242554     -0.3713989
293656256      0.9257813     -0.3646851      0.0001305      0.0003170      0.0001181      0.0003197      0.9244385     -0.3713989
293687488      0.9257813     -0.3648682      0.0001326      0.0003143      0.0001265      0.0003160      0.9243774     -0.3715210
293718752      0.9257202     -0.3648682      0.0001359      0.0003282      0.0001261      0.0003256      0.9242554     -0.3715820
293750016      0.9256592     -0.3648682      0.0001322      0.0003264      0.0001259      0.0003290      0.9243774     -0.3714600
293781248      0.9257202     -0.3648071      0.0001376      0.0003171      0.0001426      0.0003309      0.9241943     -0.3715210
293812512      0.9255371     -0.3649902      0.0001371      0.0003195      0.0001243      0.0003259      0.9241943     -0.3715820
293843744      0.9256592     -0.3650513      0.0001393      0.0003149      0.0001354      0.0003228      0.9243164     -0.3716431
293875008      0.9256592     -0.3649902      0.0001431      0.0003205      0.0001352      0.0003229      0.9241943     -0.3715820
293906240      0.9257202     -0.3648682      0.0001514      0.0003208      0.0001398      0.0003303      0.9241943     -0.3717651
293937504      0.9255371     -0.3651123      0.0001481      0.0003231      0.0001487      0.0003310      0.9241333     -0.3719482
293968736      0.9254150     -0.3651123      0.0001509      0.0003191      0.0001498      0.0003293      0.9242554     -0.3718872
294000000      0.9256592     -0.3648682      0.0001505      0.0003242      0.0001452      0.0003265      0.9241943     -0.3719482
294031264      0.9254150     -0.3652344      0.0001619      0.0003166      0.0001407      0.0003261      0.9241943     -0.3717651
294062496      0.9256592     -0.3652954      0.0001620      0.0003265      0.0001623      0.0003222      0.9243164     -0.3720703
294093760      0.9254150     -0.3652344      0.0001604      0.0003208      0.0001539      0.0003289      0.9241943     -0.3719482
294124992      0.9255981     -0.3653564      0.0001640      0.0003223      0.0001666      0.0003214      0.9240723     -0.3720703
294156256      0.9254761     -0.3652954      0.0001722      0.0003210      0.0001654      0.0003209      0.9240112     -0.3720703
294187488      0.9254761     -0.3652344      0.0001683      0.0003251      0.0001715      0.0003269      0.9238892     -0.3722534
294218752      0.9255371     -0.3652954      0.0001725      0.0003264      0.0001723      0.0003283      0.9240112     -0.3720703
294249984      0.9254761     -0.3654785      0.0001838      0.0003220      0.0001869      0.0003169      0.9240112     -0.3723145
294281248      0.9254761     -0.3654785      0.0001867      0.0003191      0.0001816      0.0003179      0.9240723     -0.3722534
294312512      0.9255371     -0.3656616      0.0001965      0.0003208      0.0001867      0.0003182      0.9240112     -0.3723145
294343744      0.9254150     -0.3657227      0.0001919      0.0003138      0.0001892      0.0003125      0.9238892     -0.3721313
294375008      0.9254761     -0.3656006      0.0001940      0.0003109      0.0001966      0.0003143      0.9238281     -0.3724365
294406240      0.9252930     -0.3656006      0.0001976      0.0003109      0.0001905      0.0003133      0.9240723     -0.3723755
294437504      0.9252930     -0.3657227      0.0002040      0.0003010      0.0002089      0.0003116      0.9237671     -0.3723755
294468736      0.9254761     -0.3656006      0.0002077      0.0002895      0.0002023      0.0003074      0.9239502     -0.3724365
294500000      0.9254761     -0.3657227      0.0002189      0.0002892      0.0002051      0.0002929      0.9237061     -0.3725586
294531264      0.9253540     -0.3657837      0.0002227      0.0002927      0.0002090      0.0002913      0.9238281     -0.3724365
294562496      0.9254761     -0.3656616      0.0002143      0.0002826      0.0002216      0.0002846      0.9237671     -0.3724365
294593760      0.9253540     -0.3657837      0.0002230      0.0002786      0.0002140      0.0002851      0.9237671     -0.3726196
294624992      0.9251099     -0.3657837      0.0002248      0.0002746      0.0002141      0.0002888      0.9238281     -0.3726807
294656256      0.9251709     -0.3659058      0.0002345      0.0002680      0.0002283      0.0002721      0.9238281     -0.3729858
294687488      0.9251099     -0.3659668      0.0002242      0.0002672      0.0002260      0.0002710      0.9235229     -0.3726196
294718752      0.9250488     -0.3658447      0.0002272      0.0002519      0.0002255      0.0002617      0.9238281     -0.3726807
294750016      0.9252319     -0.3659668      0.0002324      0.0002491      0.0002301      0.0002504      0.9237061     -0.3728638
