!RF1419D #2 in 403-0264-001 fixture
# HZ S RI R 50
383500000     -0.9120483      0.1806335      0.0014768      0.0018138      0.0014664      0.0017834     -0.9003906      0.2294922
383524992     -0.9117126      0.1814880      0.0014789      0.0017660      0.0014640      0.0018396     -0.8996582      0.2306213
383550016     -0.9105530      0.1824341      0.0014702      0.0017217      0.0014818      0.0017666     -0.8984070      0.2320251
383575008     -0.9102478      0.1831970      0.0014503      0.0017691      0.0014495      0.0017687     -0.8988342      0.2314758
383600000     -0.9098816      0.1829224      0.0014578      0.0017444      0.0014586      0.0017911     -0.8982544      0.2333374
383624992     -0.9090576      0.1843567      0.0013629      0.0018206      0.0014194      0.0017635     -0.8979797      0.2339172
383649984     -0.9083862      0.1845093      0.0014176      0.0018207      0.0014720      0.0017774     -0.8969727      0.2340393
383675008     -0.9081726      0.1856995      0.0013627      0.0017489      0.0014426      0.0017484     -0.8968506      0.2345581
383700000     -0.9069824      0.1859131      0.0014595      0.0017650      0.0014365      0.0017631     -0.8963013      0.2351685
383724992     -0.9062500      0.1862793      0.0014281      0.0017475      0.0014809      0.0017319     -0.8946838      0.2352600
383750016     -0.9060364      0.1866150      0.0014642      0.0017270      0.0014464      0.0017161     -0.8939514      0.2366638
383775008     -0.9060364      0.1866760      0.0014187      0.0017598      0.0014586      0.0017130     -0.8933411      0.2363586
383800000     -0.9058533      0.1872253      0.0014552      0.0017503      0.0014653      0.0017039     -0.8933716      0.2367249
383824992     -0.9055176      0.1875916      0.0015049      0.0017965      0.0014591      0.0017278     -0.8928223      0.2369690
383849984     -0.9053650      0.1881104      0.0014275      0.0017334      0.0013974      0.0017494     -0.8918762      0.2372437
383875008     -0.9046021      0.1881714      0.0013889      0.0017143      0.0014068      0.0017023     -0.8925781      0.2362976
383900000     -0.9039001      0.1888428      0.0014569      0.0016708      0.0014312      0.0017393     -0.8919373      0.2377014
383924992     -0.9043884      0.1890259      0.0014760      0.0017074      0.0014352      0.0016514     -0.8919067      0.2370605
383950016     -0.9046631      0.1892395      0.0014969      0.0017058      0.0014575      0.0016867     -0.8916016      0.2384949
383975008     -0.9044800      0.1892700      0.0014195      0.0016268      0.0014074      0.0016080     -0.8916626      0.2386475
384000000     -0.9047241      0.1901245      0.0013943      0.0016295      0.0013975      0.0016261     -0.8916321      0.2385254
384024992     -0.9044189      0.1904297      0.0013685      0.0016620      0.0014042      0.0016173     -0.8913879      0.2393494
384049984     -0.9041138      0.1915283      0.0013950      0.0015947      0.0013770      0.0016218     -0.8910217      0.2402039
384075008     -0.9042664      0.1916504      0.0014184      0.0016266      0.0014164      0.0016505     -0.8918457      0.2405090
384100000     -0.9040833      0.1925049      0.0013745      0.0016147      0.0013686      0.0016214     -0.8916931      0.2415771
384124992     -0.9044495      0.1931152      0.0013987      0.0015649      0.0013354      0.0015583     -0.8914490      0.2410278
384150016     -0.9039917      0.1933594      0.0013505      0.0015283      0.0013887      0.0015647     -0.8913574      0.2426453
384175008     -0.9040527      0.1951599      0.0013434      0.0015789      0.0013164      0.0016054     -0.8910522      0.2433167
384200000     -0.9037476      0.1953125      0.0013007      0.0015216      0.0013553      0.0015320     -0.8919373      0.2432556
384224992     -0.9045410      0.1964417      0.0013127      0.0015296      0.0013441      0.0015767     -0.8917236      0.2449646
384249984     -0.9030457      0.1971130      0.0013280      0.0014956      0.0012724      0.0015906     -0.8908691      0.2452698
384275008     -0.9032288      0.1977844      0.0012295      0.0015597      0.0012498      0.0015186     -0.8913269      0.2470093
384300000     -0.9030151      0.1993713      0.0011950      0.0015204      0.0012565      0.0015112     -0.8900757      0.2478027
384324992     -0.9024353      0.1998596      0.0012261      0.0015349      0.0012228      0.0015291     -0.8900757      0.2483215
384350016     -0.9024658      0.2003784      0.0012294      0.0014293      0.0012361      0.0015504     -0.8903503      0.2487488
384375008     -0.9025269      0.2006531      0.0012143      0.0014938      0.0011369      0.0014904     -0.8895569      0.2500610
384400000     -0.9018555      0.2029724      0.0011952      0.0015023      0.0011657      0.0015181     -0.8893433      0.2507019
384424992     -0.9015808      0.2026062      0.0011693      0.0014886      0.0011458      0.0014871     -0.8881226      0.2510376
384449984     -0.9009094      0.2037354      0.0011336      0.0015130      0.0011054      0.0014774     -0.8878479      0.2517700
384475008     -0.9002686      0.2039490      0.0010751      0.0015045      0.0010831      0.0015172     -0.8878479      0.2536316
384500000     -0.9001465      0.2048950      0.0010560      0.0014505      0.0009961      0.0015050     -0.8871155      0.2535400
384524992     -0.9002686      0.2055054      0.0010791      0.0014830      0.0009953      0.0014617     -0.8866577      0.2537537
384550016     -0.8998108      0.2072144      0.0009620      0.0015110      0.0009375      0.0015055     -0.8866577      0.2549133
384575008     -0.8994446      0.2072449      0.0009383      0.0015299      0.0008841      0.0015192     -0.8857727      0.2557678
384600000     -0.8987122      0.2087402      0.0008734      0.0015163      0.0009005      0.0015713     -0.8856506      0.2567749
384624992     -0.8980713      0.2085266      0.0008521      0.0015371      0.0008475      0.0015655     -0.8846741      0.2576599
384649984     -0.8977051      0.2090454      0.0008413      0.0016062      0.0008649      0.0016433     -0.8843994      0.2573853
384675008     -0.8974915      0.2099304      0.0007749      0.0015465      0.0008154      0.0015984     -0.8831482      0.2583923
384700000     -0.8968811      0.2113037      0.0007663      0.0016298      0.0008184      0.0016043     -0.8831787      0.2591248
384724992     -0.8956299      0.2120361      0.0007257      0.0016496      0.0007349      0.0016395     -0.8827515      0.2596130
384750016     -0.8956604      0.2124023      0.0006949      0.0016527      0.0006700      0.0017054     -0.8818970      0.2606201
384775008     -0.8942566      0.2131958      0.0005989      0.0017359      0.0006279      0.0016716     -0.8811340      0.2608337
384800000     -0.8944092      0.2134094      0.0006162      0.0017222      0.0005358      0.0017518     -0.8808594      0.2613525
384824992     -0.8928833      0.2137451      0.0005113      0.0018241      0.0005062      0.0018076     -0.8798218      0.2620544
384849984     -0.8929443      0.2143250      0.0004485      0.0019217      0.0004451      0.0018452     -0.8793030      0.2633667
384875008     -0.8919373      0.2156677      0.0004371      0.0018817      0.0004127      0.0019766     -0.8785400      0.2632141
384900000     -0.8913879      0.2156372      0.0003475      0.0019517      0.0003535      0.0019928     -0.8777771      0.2629395
384924992     -0.8904114      0.2148438      0.0003079      0.0021316      0.0003113      0.0020891     -0.8774414      0.2635803
384950016     -0.8890076      0.2155762      0.0002288      0.0022124      0.0002722      0.0022163     -0.8768311      0.2642212
384975008     -0.8884583      0.2159729      0.0003104      0.0023389      0.0002761      0.0023425     -0.8764343      0.2635498
385000000     -0.8877258      0.2158813      0.0002509      0.0025142      0.0002552      0.0024856     -0.8753967      0.2645874
385024992     -0.8872681      0.2154541      0.0002476      0.0026133      0.0002638      0.0026318     -0.8745422      0.2636414
385049984     -0.8863525      0.2153320      0.0003005      0.0027920      0.0002614      0.0027360     -0.8737793      0.2644958
385075008     -0.8863220      0.2149353      0.0003221      0.0030268      0.0003511      0.0029638     -0.8732910      0.2644043
385100000     -0.8853760      0.2140503      0.0004516      0.0030912      0.0004871      0.0031086     -0.8727417      0.2635498
385124992     -0.8858337      0.2136230      0.0006368      0.0032566      0.0006065      0.0032644     -0.8723450      0.2639771
385150016     -0.8860779      0.2140198      0.0008245      0.0033405      0.0008070      0.0033543     -0.8722534      0.2631531
385175008     -0.8864441      0.2135620      0.0009258      0.0033307      0.0009654      0.0034425     -0.8721008      0.2623291
385200000     -0.8867188      0.2133484      0.0010984      0.0035067      0.0012178      0.0034473     -0.8732300      0.2617493
385224992     -0.8866272      0.2122498      0.0013053      0.0033796      0.0013549      0.0034380     -0.8725281      0.2622681
385249984     -0.8873596      0.2125854      0.0015979      0.0033917      0.0016079      0.0034049     -0.8735046      0.2613831
385275008     -0.8881226      0.2130737      0.0017600      0.0033250      0.0017707      0.0032947     -0.8740845      0.2616577
385300000     -0.8889771      0.2127686      0.0018787      0.0032454      0.0019124      0.0032647     -0.8741760      0.2619019
385324992     -0.8906555      0.2132874      0.0019913      0.0031018      0.0019977      0.0030615     -0.8757324      0.2617493
385350016     -0.8906250      0.2134399      0.0020585      0.0029733      0.0020759      0.0030069     -0.8759766      0.2616882
385375008     -0.8911438      0.2142944      0.0021250      0.0028565      0.0021305      0.0028765     -0.8770752      0.2635803
385400000     -0.8919983      0.2161560      0.0021024      0.0026960      0.0021484      0.0027235     -0.8775635      0.2626648
385424992     -0.8928833      0.2160950      0.0021586      0.0026102      0.0021472      0.0026155     -0.8793945      0.2630615
385449984     -0.8936768      0.2169189      0.0021448      0.0025167      0.0021243      0.0025334     -0.8795166      0.2647400
385475008     -0.8942566      0.2181702      0.0021379      0.0025413      0.0021026      0.0024924     -0.8793335      0.2657471
385500000     -0.8940430      0.2191772      0.0021193      0.0023763      0.0021074      0.0023975     -0.8800659      0.2670288
385524992     -0.8945618      0.2199707      0.0021589      0.0023174      0.0020874      0.0023789     -0.8805847      0.2681580
385550016     -0.8947144      0.2214050      0.0021322      0.0023212      0.0020471      0.0023201     -0.8816223      0.2692871
385575008     -0.8947449      0.2225647      0.0020843      0.0022640      0.0020273      0.0022683     -0.8809814      0.2703857
385600000     -0.8956604      0.2232971      0.0020320      0.0022426      0.0020511      0.0022428     -0.8812561      0.2715759
385624992     -0.8949890      0.2250366      0.0019624      0.0021489      0.0019996      0.0022290     -0.8816223      0.2724609
385649984     -0.8946533      0.2257996      0.0020103      0.0022082      0.0020208      0.0021708     -0.8811035      0.2731628
385675008     -0.8947754      0.2267151      0.0019681      0.0021751      0.0019701      0.0021298     -0.8813477      0.2748413
385700000     -0.8954163      0.2271118      0.0019681      0.0022275      0.0019596      0.0021749     -0.8810120      0.2758179
385724992     -0.8949585      0.2288208      0.0019715      0.0021818      0.0019579      0.0021515     -0.8810425      0.2770996
385750016     -0.8941650      0.2296753      0.0019119      0.0021396      0.0019448      0.0021558     -0.8807068      0.2779846
385775008     -0.8946838      0.2307129      0.0019619      0.0021307      0.0019190      0.0020924     -0.8808899      0.2792358
385800000     -0.8938293      0.2316284      0.0019114      0.0021591      0.0019021      0.0021648     -0.8805237      0.2806702
385824992     -0.8945007      0.2329407      0.0019331      0.0021298      0.0018885      0.0021162     -0.8807373      0.2808838
385849984     -0.8938904      0.2336426      0.0018883      0.0020463      0.0019021      0.0021129     -0.8800659      0.2831726
385875008     -0.8941345      0.2349548      0.0019124      0.0021126      0.0019252      0.0021574     -0.8803101      0.2832642
385900000     -0.8936462      0.2360840      0.0019059      0.0021267      0.0019011      0.0021303     -0.8796387      0.2842102
385924992     -0.8938599      0.2373352      0.0019848      0.0021169      0.0019424      0.0021300     -0.8790588      0.2852783
385950016     -0.8936157      0.2377319      0.0019085      0.0021226      0.0019259      0.0021214     -0.8793945      0.2868652
385975008     -0.8933716      0.2384644      0.0019321      0.0021024      0.0019364      0.0021088     -0.8786621      0.2869568
386000000     -0.8927612      0.2397461      0.0019674      0.0020962      0.0019042      0.0021327     -0.8775330      0.2879639
386024992     -0.8926086      0.2400208      0.0018821      0.0021207      0.0019031      0.0020909     -0.8778381      0.2893066
386049984     -0.8920288      0.2415161      0.0019805      0.0021031      0.0019329      0.0021029     -0.8773193      0.2895203
386075008     -0.8916321      0.2424622      0.0019052      0.0021658      0.0020025      0.0021176     -0.8766479      0.2906189
386100000     -0.8912964      0.2434998      0.0019443      0.0020909      0.0019486      0.0021179     -0.8762512      0.2922058
386124992     -0.8910828      0.2439575      0.0020089      0.0021269      0.0019355      0.0020802     -0.8754578      0.2928162
386150016     -0.8899536      0.2445984      0.0019841      0.0020986      0.0020325      0.0021558     -0.8751221      0.2935181
386175008     -0.8896790      0.2452393      0.0020370      0.0021210      0.0020144      0.0021667     -0.8749390      0.2941895
386200000     -0.8898315      0.2464600      0.0020440      0.0020950      0.0020292      0.0022190     -0.8752441      0.2944946
386224992     -0.8885193      0.2470398      0.0020850      0.0022264      0.0020339      0.0021527     -0.8732910      0.2955017
386249984     -0.8883362      0.2475586      0.0021331      0.0021837      0.0021627      0.0021734     -0.8741150      0.2956848
386275008     -0.8880920      0.2482605      0.0021884      0.0022380      0.0021648      0.0021985     -0.8735352      0.2966003
386300000     -0.8873596      0.2486267      0.0022364      0.0021608      0.0022128      0.0021126     -0.8725586      0.2966003
386324992     -0.8871460      0.2487793      0.0022209      0.0020514      0.0023119      0.0020852     -0.8723755      0.2981567
386350016     -0.8874207      0.2490540      0.0023384      0.0020742      0.0023544      0.0020740     -0.8726807      0.2974548
386375008     -0.8869324      0.2492676      0.0023980      0.0019469      0.0023701      0.0020022     -0.8724976      0.2984009
386400000     -0.8869629      0.2502747      0.0024438      0.0019612      0.0023990      0.0018942     -0.8716736      0.2984314
386424992     -0.8871460      0.2500610      0.0025027      0.0018663      0.0024550      0.0018351     -0.8713989      0.2989807
386449984     -0.8879395      0.2502136      0.0024767      0.0016687      0.0025163      0.0017030     -0.8722839      0.2998047
386475008     -0.8871765      0.2510071      0.0024068      0.0016012      0.0024323      0.0016439     -0.8715515      0.2999268
386500000     -0.8873596      0.2517395      0.0024784      0.0015414      0.0024137      0.0015600     -0.8716736      0.3004150
386524992     -0.8882751      0.2520752      0.0023942      0.0014586      0.0023870      0.0014665     -0.8721924      0.3007507
386550016     -0.8881531      0.2527771      0.0023756      0.0014215      0.0023615      0.0013471     -0.8726196      0.3013000
386575008     -0.8882446      0.2530518      0.0022354      0.0013458      0.0022484      0.0013134     -0.8728943      0.3021240
386600000     -0.8891602      0.2540588      0.0021611      0.0012637      0.0021527      0.0012777     -0.8728638      0.3028870
386624992     -0.8895874      0.2548218      0.0021362      0.0013314      0.0021175      0.0013040     -0.8731995      0.3045959
386649984     -0.8901062      0.2554626      0.0019631      0.0012771      0.0019943      0.0012841     -0.8738403      0.3050232
386675008     -0.8904724      0.2576599      0.0019885      0.0013150      0.0019472      0.0012661     -0.8737183      0.3059998
386700000     -0.8895569      0.2592773      0.0019455      0.0012835      0.0019479      0.0012746     -0.8747559      0.3067627
386724992     -0.8907471      0.2601318      0.0018893      0.0012825      0.0018586      0.0013089     -0.8742371      0.3080139
386750016     -0.8909912      0.2614441      0.0018234      0.0012538      0.0018058      0.0013168     -0.8743286      0.3091125
386775008     -0.8906860      0.2629395      0.0017990      0.0013255      0.0017833      0.0013579     -0.8742065      0.3109436
386800000     -0.8907776      0.2645874      0.0017567      0.0013889      0.0017265      0.0013887     -0.8740540      0.3120422
386824992     -0.8909912      0.2648926      0.0017583      0.0013283      0.0017207      0.0014143     -0.8741760      0.3135376
386849984     -0.8902588      0.2666626      0.0017037      0.0013846      0.0016673      0.0013920     -0.8742065      0.3153381
386875008     -0.8900757      0.2681274      0.0016472      0.0014418      0.0016407      0.0014015     -0.8739319      0.3161621
386900000     -0.8899536      0.2692566      0.0015881      0.0014429      0.0016766      0.0014315     -0.8732605      0.3178101
386924992     -0.8900452      0.2703857      0.0016435      0.0014853      0.0016571      0.0014586     -0.8739014      0.3180237
386950016     -0.8899536      0.2713318      0.0016228      0.0014734      0.0016584      0.0014613     -0.8726807      0.3204956
386975008     -0.8892517      0.2731323      0.0016484      0.0015663      0.0016686      0.0015540     -0.8725891      0.3202209
387000000     -0.8895874      0.2742615      0.0015886      0.0015554      0.0016829      0.0015130     -0.8730469      0.3220215
387024992     -0.8887939      0.2750854      0.0016270      0.0015192      0.0015678      0.0015347     -0.8721619      0.3237305
387049984     -0.8889160      0.2764587      0.0016049      0.0015398      0.0016149      0.0015545     -0.8711548      0.3249207
387075008     -0.8882141      0.2767029      0.0016494      0.0015497      0.0015895      0.0015908     -0.8715515      0.3256836
387100000     -0.8875732      0.2787476      0.0016098      0.0016118      0.0016242      0.0016154     -0.8708496      0.3274231
387124992     -0.8884888      0.2793579      0.0016160      0.0015965      0.0016621      0.0015863     -0.8705444      0.3283997
387150016     -0.8873901      0.2801514      0.0016114      0.0015669      0.0016471      0.0016768     -0.8699341      0.3288269
387175008     -0.8870239      0.2816162      0.0016160      0.0016401      0.0016899      0.0016825     -0.8697510      0.3310547
387200000     -0.8867188      0.2835388      0.0016255      0.0016483      0.0016091      0.0016694     -0.8696899      0.3321533
387224992     -0.8861084      0.2839966      0.0016314      0.0016698      0.0016398      0.0016301     -0.8691101      0.3329468
387249984     -0.8854370      0.2863464      0.0015877      0.0016452      0.0016509      0.0016315     -0.8685913      0.3338318
387275008     -0.8857117      0.2869263      0.0016811      0.0016755      0.0016568      0.0016654     -0.8680725      0.3356934
387300000     -0.8851624      0.2877808      0.0016297      0.0016506      0.0016676      0.0016356     -0.8675232      0.3368835
