!RF1404D Cal'd @ device
# HZ S RI R 50
432920000      0.8536987     -0.4733887      0.0043063     -0.0073528      0.0045128     -0.0072436      0.8609009     -0.4829712
432921248      0.8536377     -0.4729614      0.0043955     -0.0075221      0.0045629     -0.0074563      0.8609619     -0.4826660
432922496      0.8530273     -0.4730225      0.0044341     -0.0076966      0.0046268     -0.0076256      0.8610229     -0.4830933
432923744      0.8532104     -0.4726563      0.0044665     -0.0078950      0.0046740     -0.0078406      0.8606567     -0.4827881
432924992      0.8529053     -0.4724731      0.0045443     -0.0080762      0.0047135     -0.0079861      0.8606567     -0.4827881
432926240      0.8529663     -0.4721680      0.0045938     -0.0082526      0.0047812     -0.0081601      0.8604736     -0.4826050
432927488      0.8530884     -0.4723511      0.0046182     -0.0084605      0.0048118     -0.0083871      0.8601685     -0.4824219
432928736      0.8523560     -0.4725952      0.0046721     -0.0086927      0.0048566     -0.0086098      0.8602295     -0.4824219
432929984      0.8524170     -0.4721069      0.0046639     -0.0089002      0.0049200     -0.0088515      0.8601685     -0.4822388
432931264      0.8524780     -0.4722290      0.0047159     -0.0090923      0.0049005     -0.0090346      0.8601685     -0.4821777
432932512      0.8521118     -0.4720459      0.0047011     -0.0093389      0.0049095     -0.0092654      0.8603516     -0.4826050
432933760      0.8523560     -0.4712524      0.0047355     -0.0095801      0.0049372     -0.0094743      0.8604736     -0.4824829
432935008      0.8517456     -0.4719849      0.0047197     -0.0097609      0.0049634     -0.0097179      0.8600464     -0.4823608
432936256      0.8518677     -0.4714355      0.0047126     -0.0100412      0.0049295     -0.0099440      0.8599243     -0.4821777
432937504      0.8517456     -0.4712524      0.0046992     -0.0102859      0.0049067     -0.0101776      0.8601074     -0.4818726
432938752      0.8523560     -0.4707031      0.0046806     -0.0105286      0.0049243     -0.0104094      0.8598022     -0.4818726
432940000      0.8519897     -0.4705811      0.0046868     -0.0107732      0.0049229     -0.0106702      0.8597412     -0.4818726
432941248      0.8521729     -0.4703979      0.0046673     -0.0110044      0.0048409     -0.0109682      0.8601074     -0.4819946
432942496      0.8516235     -0.4700317      0.0045881     -0.0113039      0.0048594     -0.0111618      0.8600464     -0.4816895
432943744      0.8513794     -0.4700317      0.0045261     -0.0115108      0.0048223     -0.0114689      0.8599243     -0.4812012
432944992      0.8518677     -0.4696655      0.0044470     -0.0118079      0.0047679     -0.0117483      0.8603516     -0.4813843
432946240      0.8519897     -0.4696655      0.0043745     -0.0120425      0.0046654     -0.0119777      0.8598633     -0.4812012
432947488      0.8520508     -0.4689941      0.0043297     -0.0122933      0.0045590     -0.0122037      0.8603516     -0.4812012
432948736      0.8516235     -0.4688110      0.0042362     -0.0125542      0.0045056     -0.0124879      0.8598022     -0.4807739
432950016      0.8521729     -0.4686279      0.0041037     -0.0128107      0.0043941     -0.0127625      0.8604736     -0.4807739
432951264      0.8521729     -0.4683228      0.0040255     -0.0130444      0.0042577     -0.0130014      0.8602295     -0.4804688
432952512      0.8520508     -0.4683228      0.0038729     -0.0133276      0.0041542     -0.0132985      0.8606567     -0.4802856
432953760      0.8519897     -0.4682007      0.0037708     -0.0135441      0.0040350     -0.0135403      0.8602295     -0.4799805
432955008      0.8524170     -0.4677734      0.0036097     -0.0137863      0.0038748     -0.0137625      0.8604126     -0.4807739
432956256      0.8529053     -0.4672241      0.0034437     -0.0140324      0.0037308     -0.0140047      0.8607178     -0.4802246
432957504      0.8526001     -0.4671021      0.0032473     -0.0143032      0.0035582     -0.0142393      0.8610229     -0.4801636
432958752      0.8527222     -0.4672852      0.0030985     -0.0145426      0.0034037     -0.0144987      0.8609009     -0.4795532
432960000      0.8531494     -0.4669189      0.0028706     -0.0147295      0.0032206     -0.0147448      0.8607178     -0.4797974
432961248      0.8533325     -0.4663086      0.0027208     -0.0149927      0.0030298     -0.0149651      0.8612671     -0.4796753
432962496      0.8533325     -0.4664917      0.0024824     -0.0151682      0.0028763     -0.0151920      0.8608398     -0.4796753
432963744      0.8540649     -0.4662476      0.0023289     -0.0153770      0.0026569     -0.0153828      0.8616333     -0.4796143
432964992      0.8536377     -0.4658813      0.0021381     -0.0155754      0.0024261     -0.0155602      0.8614502     -0.4796753
432966240      0.8540039     -0.4658203      0.0018940     -0.0157690      0.0021839     -0.0157452      0.8615112     -0.4794922
432967488      0.8540039     -0.4656372      0.0016708     -0.0159321      0.0019836     -0.0159512      0.8616333     -0.4796753
432968736      0.8544922     -0.4656372      0.0014124     -0.0160980      0.0017605     -0.0161161      0.8621826     -0.4795532
432969984      0.8544922     -0.4656982      0.0011883     -0.0162687      0.0015297     -0.0162935      0.8616333     -0.4792480
432971264      0.8550415     -0.4649658      0.0009069     -0.0163889      0.0012903     -0.0164433      0.8620605     -0.4792480
432972512      0.8551025     -0.4654541      0.0006952     -0.0165482      0.0009899     -0.0165653      0.8623657     -0.4792480
432973760      0.8554077     -0.4655151      0.0004444     -0.0166941      0.0007782     -0.0167265      0.8621216     -0.4797363
432975008      0.8553467     -0.4654541      0.0001659     -0.0167799      0.0005293     -0.0168152      0.8625488     -0.4796753
432976256      0.8562622     -0.4651489     -0.0000925     -0.0169172      0.0002508     -0.0169306      0.8625488     -0.4791870
432977504      0.8561401     -0.4652710     -0.0003633     -0.0170345      0.0000019     -0.0170603      0.8626099     -0.4793701
432978752      0.8559570     -0.4654541     -0.0005636     -0.0170774     -0.0002441     -0.0171509      0.8631592     -0.4793091
432980000      0.8562622     -0.4656982     -0.0008144     -0.0171967     -0.0004663     -0.0172205      0.8634033     -0.4795532
432981248      0.8571167     -0.4655762     -0.0010748     -0.0172062     -0.0007381     -0.0172758      0.8635864     -0.4800415
432982496      0.8566895     -0.4659424     -0.0013418     -0.0172720     -0.0010109     -0.0174074      0.8631592     -0.4800415
432983744      0.8572998     -0.4658203     -0.0015602     -0.0173368     -0.0012302     -0.0174618      0.8633423     -0.4801636
432984992      0.8572998     -0.4657593     -0.0018406     -0.0173903     -0.0014715     -0.0174656      0.8640137     -0.4802246
432986240      0.8574829     -0.4658813     -0.0020542     -0.0174112     -0.0017233     -0.0175238      0.8641357     -0.4797363
432987488      0.8574219     -0.4660645     -0.0023298     -0.0174351     -0.0019770     -0.0175390      0.8640137     -0.4804688
432988736      0.8578491     -0.4659424     -0.0025120     -0.0174541     -0.0021763     -0.0175686      0.8641357     -0.4806519
432990016      0.8585205     -0.4660034     -0.0027857     -0.0174532     -0.0024271     -0.0176163      0.8646240     -0.4802246
432991264      0.8585205     -0.4666138     -0.0030203     -0.0174513     -0.0026550     -0.0175924      0.8643188     -0.4804077
432992512      0.8583984     -0.4661865     -0.0032177     -0.0174541     -0.0028734     -0.0175886      0.8643799     -0.4807129
432993760      0.8591309     -0.4666138     -0.0034494     -0.0174952     -0.0030861     -0.0175848      0.8641968     -0.4809570
432995008      0.8590698     -0.4669189     -0.0036659     -0.0174608     -0.0032349     -0.0175638      0.8646240     -0.4812012
432996256      0.8590698     -0.4671021     -0.0038376     -0.0174456     -0.0034943     -0.0175972      0.8643188     -0.4809570
432997504      0.8590698     -0.4672852     -0.0040665     -0.0174122     -0.0037069     -0.0175657      0.8647461     -0.4812622
432998752      0.8596802     -0.4673462     -0.0042953     -0.0174131     -0.0039043     -0.0175648      0.8652344     -0.4813843
433000000      0.8594971     -0.4677734     -0.0044994     -0.0173616     -0.0041208     -0.0175066      0.8645020     -0.4811401
433001248      0.8599854     -0.4676514     -0.0046473     -0.0173092     -0.0042648     -0.0174704      0.8651733     -0.4815674
433002496      0.8599243     -0.4674683     -0.0048256     -0.0172834     -0.0045090     -0.0174284      0.8648071     -0.4816895
433003744      0.8599854     -0.4682617     -0.0050182     -0.0172729     -0.0046396     -0.0174122      0.8649292     -0.4815674
433004992      0.8597412     -0.4682007     -0.0051680     -0.0171986     -0.0048103     -0.0173540      0.8652344     -0.4824219
433006240      0.8605347     -0.4683228     -0.0053768     -0.0171633     -0.0049973     -0.0173330      0.8649292     -0.4823608
433007488      0.8605347     -0.4685669     -0.0055170     -0.0171127     -0.0051794     -0.0172930      0.8649292     -0.4820557
433008736      0.8600464     -0.4685669     -0.0056820     -0.0170841     -0.0053225     -0.0172033      0.8649902     -0.4824219
433009984      0.8605957     -0.4689941     -0.0058346     -0.0170336     -0.0054951     -0.0171862      0.8651733     -0.4827271
433011264      0.8605347     -0.4689941     -0.0059614     -0.0169935     -0.0056009     -0.0171337      0.8654175     -0.4824829
433012512      0.8609619     -0.4692993     -0.0061388     -0.0168962     -0.0057936     -0.0170975      0.8651733     -0.4826660
433013760      0.8610229     -0.4694824     -0.0062647     -0.0168924     -0.0059071     -0.0170546      0.8651733     -0.4827271
433015008      0.8606567     -0.4694214     -0.0064106     -0.0168314     -0.0060425     -0.0170317      0.8652954     -0.4836426
433016256      0.8605347     -0.4696045     -0.0065374     -0.0168037     -0.0061693     -0.0169306      0.8657227     -0.4830933
433017504      0.8611450     -0.4700928     -0.0066719     -0.0167408     -0.0063210     -0.0169077      0.8653564     -0.4835815
433018752      0.8609619     -0.4702148     -0.0067863     -0.0166674     -0.0064487     -0.0168180      0.8650513     -0.4837646
433020000      0.8617554     -0.4699097     -0.0068789     -0.0166521     -0.0065212     -0.0167952      0.8654175     -0.4835205
433021248      0.8607178     -0.4701538     -0.0069990     -0.0165377     -0.0066738     -0.0167694      0.8655396     -0.4840088
433022496      0.8615112     -0.4709473     -0.0071239     -0.0164948     -0.0067921     -0.0167160      0.8647461     -0.4840088
433023744      0.8612671     -0.4707642     -0.0072308     -0.0164509     -0.0069103     -0.0166531      0.8656616     -0.4839478
433024992      0.8609009     -0.4710693     -0.0073423     -0.0163908     -0.0070343     -0.0166149      0.8659058     -0.4843750
433026240      0.8613281     -0.4716187     -0.0074568     -0.0163584     -0.0071363     -0.0165577      0.8657837     -0.4847412
433027488      0.8612061     -0.4714355     -0.0075426     -0.0163116     -0.0072184     -0.0164766      0.8654785     -0.4846191
433028736      0.8616333     -0.4719849     -0.0076475     -0.0162458     -0.0073023     -0.0164709      0.8660889     -0.4852905
433030016      0.8615723     -0.4719849     -0.0077744     -0.0162210     -0.0074129     -0.0163918      0.8662109     -0.4854126
433031264      0.8616943     -0.4719238     -0.0078087     -0.0161743     -0.0075102     -0.0163860      0.8659668     -0.4854126
433032512      0.8614502     -0.4722900     -0.0079222     -0.0160942     -0.0075827     -0.0163212      0.8660889     -0.4853516
433033760      0.8618164     -0.4724731     -0.0079651     -0.0161066     -0.0076714     -0.0163050      0.8657837     -0.4859009
433035008      0.8622437     -0.4730225     -0.0080862     -0.0160503     -0.0077572     -0.0162573      0.8659058     -0.4861450
433036256      0.8618774     -0.4732666     -0.0081778     -0.0159836     -0.0078459     -0.0162230      0.8659668     -0.4862671
433037504      0.8618774     -0.4736938     -0.0082502     -0.0159502     -0.0079279     -0.0161638      0.8659668     -0.4864502
433038752      0.8616943     -0.4738770     -0.0083504     -0.0159006     -0.0080166     -0.0161390      0.8656616     -0.4866943
433040000      0.8621216     -0.4738770     -0.0083885     -0.0158930     -0.0080900     -0.0160942      0.8655396     -0.4866333
433041248      0.8623657     -0.4739380     -0.0084782     -0.0158663     -0.0081520     -0.0160322      0.8654175     -0.4869385
433042496      0.8621216     -0.4749146     -0.0085697     -0.0158195     -0.0082417     -0.0159798      0.8660278     -0.4872437
433043744      0.8627319     -0.4745483     -0.0085936     -0.0157585     -0.0083103     -0.0159903      0.8656006     -0.4874268
433044992      0.8622437     -0.4747925     -0.0086699     -0.0157261     -0.0083628     -0.0159521      0.8659058     -0.4877319
433046240      0.8621216     -0.4747925     -0.0087414     -0.0156889     -0.0084553     -0.0159245      0.8660278     -0.4873657
433047488      0.8618774     -0.4752808     -0.0088158     -0.0156870     -0.0085287     -0.0158682      0.8656006     -0.4877319
433048736      0.8613892     -0.4754028     -0.0088816     -0.0156612     -0.0086088     -0.0158615      0.8653564     -0.4877930
433049984      0.8618164     -0.4755859     -0.0089417     -0.0155935     -0.0086212     -0.0158491      0.8653564     -0.4877930
433051264      0.8621826     -0.4758301     -0.0090332     -0.0155754     -0.0086880     -0.0158291      0.8651123     -0.4879761
433052512      0.8613281     -0.4763794     -0.0090513     -0.0155268     -0.0087967     -0.0157738      0.8651733     -0.4877319
433053760      0.8617554     -0.4760132     -0.0091505     -0.0155296     -0.0087996     -0.0157747      0.8649902     -0.4882813
433055008      0.8615723     -0.4765625     -0.0092087     -0.0155001     -0.0088892     -0.0157232      0.8654175     -0.4890137
433056256      0.8613892     -0.4768677     -0.0092402     -0.0154562     -0.0089989     -0.0156679      0.8648071     -0.4888306
433057504      0.8611450     -0.4767456     -0.0093184     -0.0154581     -0.0089903     -0.0156918      0.8652344     -0.4891968
433058752      0.8609009     -0.4773560     -0.0093651     -0.0154543     -0.0090513     -0.0156794      0.8646851     -0.4891357
433060000      0.8614502     -0.4769897     -0.0093994     -0.0153933     -0.0091362     -0.0156240      0.8645020     -0.4891968
433061248      0.8604736     -0.4771118     -0.0094690     -0.0153608     -0.0091906     -0.0156097      0.8647461     -0.4892578
433062496      0.8612061     -0.4775391     -0.0095282     -0.0153656     -0.0092430     -0.0155935      0.8646851     -0.4896240
433063744      0.8606567     -0.4780273     -0.0095329     -0.0153217     -0.0092592     -0.0155869      0.8646851     -0.4898071
433064992      0.8602905     -0.4779053     -0.0096264     -0.0152817     -0.0093393     -0.0155916      0.8648682     -0.4896240
433066240      0.8604126     -0.4779663     -0.0096998     -0.0153170     -0.0094299     -0.0155582      0.8647461     -0.4904785
433067488      0.8608398     -0.4784546     -0.0097103     -0.0153008     -0.0094604     -0.0155659      0.8641968     -0.4902954
433068736      0.8607178     -0.4781494     -0.0097637     -0.0152559     -0.0094633     -0.0155363      0.8641357     -0.4906006
433070016      0.8600464     -0.4782715     -0.0098009     -0.0152922     -0.0095158     -0.0155611      0.8640747     -0.4905396
433071264      0.8601074     -0.4785156     -0.0098829     -0.0152769     -0.0095835     -0.0155592      0.8645020     -0.4904785
433072512      0.8597412     -0.4789429     -0.0099506     -0.0152769     -0.0096540     -0.0155525      0.8642578     -0.4906006
433073760      0.8599854     -0.4788818     -0.0099764     -0.0152798     -0.0097132     -0.0155296      0.8638306     -0.4904785
433075008      0.8596802     -0.4790649     -0.0100555     -0.0152073     -0.0097523     -0.0155373      0.8638916     -0.4910278
433076256      0.8602295     -0.4793091     -0.0101061     -0.0152197     -0.0098019     -0.0155010      0.8638306     -0.4909668
433077504      0.8596191     -0.4793091     -0.0101843     -0.0152473     -0.0098124     -0.0155621      0.8638306     -0.4907227
433078752      0.8602295     -0.4795532     -0.0101748     -0.0152760     -0.0098677     -0.0154791      0.8644409     -0.4911499
433080000      0.8595581     -0.4793091     -0.0102587     -0.0151968     -0.0099373     -0.0155354      0.8640747     -0.4916992
433081248      0.8601074     -0.4799194     -0.0102577     -0.0152130     -0.0100021     -0.0155487      0.8640747     -0.4913330
433082496      0.8595581     -0.4800415     -0.0103073     -0.0152264     -0.0100260     -0.0154915      0.8639526     -0.4913330
433083744      0.8595581     -0.4799805     -0.0103693     -0.0152512     -0.0100927     -0.0154829      0.8637085     -0.4913330
433084992      0.8595581     -0.4802246     -0.0104132     -0.0152473     -0.0101242     -0.0155039      0.8640137     -0.4920044
433086240      0.8594360     -0.4801636     -0.0104713     -0.0152559     -0.0101624     -0.0155277      0.8635864     -0.4915161
433087488      0.8594971     -0.4805908     -0.0105314     -0.0152702     -0.0101938     -0.0154886      0.8632813     -0.4923706
433088736      0.8598633     -0.4802856     -0.0105286     -0.0152531     -0.0102472     -0.0155096      0.8636475     -0.4920654
433089984      0.8591309     -0.4805908     -0.0106335     -0.0152636     -0.0103636     -0.0155210      0.8634644     -0.4921875
433091264      0.8594971     -0.4807129     -0.0106659     -0.0152359     -0.0103760     -0.0155354      0.8635864     -0.4923706
433092512      0.8593750     -0.4806519     -0.0107031     -0.0152578     -0.0103846     -0.0155087      0.8634033     -0.4924927
433093760      0.8594971     -0.4815674     -0.0107250     -0.0152702     -0.0104904     -0.0155287      0.8634033     -0.4930420
433095008      0.8595581     -0.4810791     -0.0108585     -0.0152912     -0.0105076     -0.0155449      0.8629761     -0.4930420
433096256      0.8592529     -0.4812622     -0.0108509     -0.0153065     -0.0105562     -0.0155735      0.8628540     -0.4933472
433097504      0.8590088     -0.4816895     -0.0109138     -0.0152950     -0.0106058     -0.0155897      0.8629150     -0.4932861
433098752      0.8588867     -0.4816284     -0.0109425     -0.0152912     -0.0106373     -0.0155697      0.8626099     -0.4929810
433100000      0.8587646     -0.4820557     -0.0109825     -0.0153141     -0.0107250     -0.0155869      0.8628540     -0.4934082
433101248      0.8582764     -0.4822998     -0.0110188     -0.0153484     -0.0107441     -0.0156364      0.8624878     -0.4933472
433102496      0.8580322     -0.4821167     -0.0111027     -0.0153255     -0.0107956     -0.0155773      0.8626709     -0.4937744
433103744      0.8581543     -0.4826050     -0.0111046     -0.0153522     -0.0108547     -0.0156116      0.8624268     -0.4939575
433104992      0.8582764     -0.4829712     -0.0111790     -0.0153923     -0.0108986     -0.0156345      0.8622437     -0.4940186
433106240      0.8582764     -0.4827881     -0.0112495     -0.0153923     -0.0109634     -0.0156517      0.8620605     -0.4940796
433107488      0.8580933     -0.4830933     -0.0113049     -0.0154152     -0.0109482     -0.0156708      0.8618774     -0.4944458
433108736      0.8580322     -0.4833374     -0.0113258     -0.0154419     -0.0110245     -0.0156994      0.8614502     -0.4947510
433110016      0.8578491     -0.4836426     -0.0113678     -0.0154476     -0.0110741     -0.0157070      0.8618164     -0.4947510
