!HP8753
# HZ S RI R 50
432920000     -0.7688904     -0.1047974      0.0109100     -0.0619316      0.0107155     -0.0625191     -0.7515259     -0.0730591
432924992     -0.7690735     -0.1026917      0.0109024     -0.0625420      0.0107117     -0.0631752     -0.7512512     -0.0708923
432929984     -0.7690735     -0.1011047      0.0108109     -0.0633698      0.0105820     -0.0638962     -0.7510681     -0.0685120
432935008     -0.7686768     -0.0993652      0.0106430     -0.0640335      0.0104523     -0.0646210     -0.7509460     -0.0667114
432940000     -0.7690125     -0.0972595      0.0106201     -0.0648346      0.0104294     -0.0653877     -0.7507019     -0.0647583
432944992     -0.7689514     -0.0953369      0.0104790     -0.0656052      0.0102386     -0.0661240     -0.7506714     -0.0624695
432950016     -0.7687988     -0.0935669      0.0104370     -0.0663948      0.0102119     -0.0668831     -0.7502441     -0.0601501
432955008     -0.7688904     -0.0917358      0.0103416     -0.0671844      0.0101128     -0.0677032     -0.7502747     -0.0579224
432960000     -0.7688904     -0.0897217      0.0102577     -0.0680351      0.0099220     -0.0684891     -0.7499084     -0.0556335
432964992     -0.7690125     -0.0876465      0.0100632     -0.0688324      0.0098953     -0.0693474     -0.7497559     -0.0535583
432969984     -0.7687683     -0.0856018      0.0099945     -0.0696602      0.0098000     -0.0702095     -0.7493896     -0.0512085
432975008     -0.7687073     -0.0837402      0.0099030     -0.0705452      0.0096130     -0.0710564     -0.7494202     -0.0489197
432980000     -0.7689819     -0.0817566      0.0096931     -0.0714493      0.0094948     -0.0719414     -0.7488403     -0.0464783
432984992     -0.7687073     -0.0798035      0.0095673     -0.0723915      0.0094147     -0.0728836     -0.7484741     -0.0441895
432990016     -0.7685852     -0.0775146      0.0094604     -0.0732193      0.0092468     -0.0738411     -0.7482605     -0.0417786
432995008     -0.7683716     -0.0753174      0.0093460     -0.0743103      0.0090485     -0.0748177     -0.7480774     -0.0392456
433000000     -0.7685547     -0.0731201      0.0091248     -0.0751801      0.0089340     -0.0757904     -0.7476807     -0.0366211
433004992     -0.7684937     -0.0714111      0.0090637     -0.0761642      0.0088043     -0.0767365     -0.7473145     -0.0340576
433009984     -0.7681885     -0.0685425      0.0088272     -0.0772171      0.0086517     -0.0777740     -0.7469482     -0.0317383
433015008     -0.7680664     -0.0664673      0.0086670     -0.0782471      0.0084000     -0.0788574     -0.7466431     -0.0291138
433020000     -0.7681274     -0.0643921      0.0085602     -0.0792999      0.0081863     -0.0799561     -0.7460327     -0.0266113
433024992     -0.7677612     -0.0620117      0.0083084     -0.0803452      0.0080643     -0.0809860     -0.7456055     -0.0238647
433030016     -0.7677612     -0.0598755      0.0081253     -0.0815048      0.0079041     -0.0820618     -0.7453003     -0.0213623
433035008     -0.7677002     -0.0576172      0.0079727     -0.0825958      0.0076675     -0.0831680     -0.7446899     -0.0185547
433040000     -0.7674561     -0.0551758      0.0077667     -0.0837402      0.0075302     -0.0843964     -0.7444458     -0.0158691
433044992     -0.7670898     -0.0524902      0.0074921     -0.0849380      0.0072098     -0.0855942     -0.7438354     -0.0129395
433049984     -0.7670898     -0.0504150      0.0073013     -0.0861206      0.0070648     -0.0867386     -0.7433472     -0.0104370
433055008     -0.7666016     -0.0479736      0.0070343     -0.0873642      0.0066910     -0.0879517     -0.7427368     -0.0076904
433060000     -0.7664185     -0.0453491      0.0067291     -0.0886612      0.0065765     -0.0892334     -0.7420044     -0.0046387
433064992     -0.7664185     -0.0429688      0.0065002     -0.0899353      0.0062332     -0.0905685     -0.7417603     -0.0017090
433070016     -0.7660522     -0.0402832      0.0061264     -0.0912399      0.0059128     -0.0918350     -0.7408447      0.0013428
433075008     -0.7656860     -0.0376587      0.0059433     -0.0925293      0.0056458     -0.0932617     -0.7403564      0.0040894
433080000     -0.7653198     -0.0350952      0.0055618     -0.0939026      0.0053177     -0.0946121     -0.7398071      0.0070801
433084992     -0.7653198     -0.0322876      0.0052338     -0.0953293      0.0049667     -0.0960159     -0.7388306      0.0101929
433089984     -0.7648926     -0.0296631      0.0049667     -0.0968018      0.0046463     -0.0974197     -0.7381592      0.0129395
433095008     -0.7645264     -0.0270996      0.0045929     -0.0982819      0.0042114     -0.0988693     -0.7376099      0.0164795
433100000     -0.7641602     -0.0243530      0.0042725     -0.0997162      0.0038910     -0.1004410     -0.7365112      0.0194092
433104992     -0.7636108     -0.0211182      0.0038223     -0.1012344      0.0034790     -0.1019516     -0.7359619      0.0230103
433110016     -0.7631836     -0.0184937      0.0033646     -0.1028214      0.0030060     -0.1035385     -0.7352295      0.0260620
433115008     -0.7629395     -0.0155029      0.0029602     -0.1043930      0.0025864     -0.1050949     -0.7343140      0.0293579
433120000     -0.7622681     -0.0124512      0.0025406     -0.1060562      0.0021210     -0.1067123     -0.7333374      0.0328979
433124992     -0.7618408     -0.0096436      0.0019913     -0.1078644      0.0015869     -0.1084518     -0.7322998      0.0360718
433129984     -0.7614136     -0.0064697      0.0014877     -0.1095123      0.0011063     -0.1101913     -0.7313232      0.0397339
433135008     -0.7608643     -0.0036011      0.0009155     -0.1112823      0.0006561     -0.1119690     -0.7304688      0.0432739
433140000     -0.7603760     -0.0005493      0.0005035     -0.1129608      0.0000305     -0.1136627     -0.7293091      0.0467529
433144992     -0.7595825      0.0025024     -0.0001068     -0.1147308     -0.0005493     -0.1155701     -0.7282715      0.0504150
433150016     -0.7589111      0.0058594     -0.0007019     -0.1166687     -0.0011444     -0.1175079     -0.7270508      0.0538330
433155008     -0.7584229      0.0091553     -0.0013733     -0.1185913     -0.0018005     -0.1193848     -0.7259521      0.0577393
433160000     -0.7575684      0.0125122     -0.0020752     -0.1205597     -0.0025177     -0.1213074     -0.7246094      0.0615234
433164992     -0.7565918      0.0157471     -0.0027924     -0.1225128     -0.0031738     -0.1233063     -0.7233276      0.0650635
433169984     -0.7561035      0.0191040     -0.0034485     -0.1245880     -0.0039520     -0.1253967     -0.7221069      0.0690308
433175008     -0.7553711      0.0225830     -0.0042114     -0.1267242     -0.0047455     -0.1274719     -0.7205200      0.0731201
433180000     -0.7544556      0.0261230     -0.0050659     -0.1288910     -0.0055084     -0.1295624     -0.7191162      0.0772095
433184992     -0.7535400      0.0297241     -0.0059052     -0.1310883     -0.0064240     -0.1318054     -0.7177734      0.0810547
433190016     -0.7527466      0.0335083     -0.0067444     -0.1333008     -0.0072937     -0.1340332     -0.7161865      0.0852051
433195008     -0.7516479      0.0368042     -0.0077362     -0.1355438     -0.0081635     -0.1363068     -0.7144165      0.0895386
433200000     -0.7506104      0.0408325     -0.0086670     -0.1379700     -0.0092163     -0.1386566     -0.7128906      0.0937500
433204992     -0.7493286      0.0449219     -0.0097198     -0.1403809     -0.0102081     -0.1410828     -0.7107544      0.0979614
433209984     -0.7480469      0.0484619     -0.0107574     -0.1426697     -0.0113220     -0.1435242     -0.7089233      0.1022949
433215008     -0.7468872      0.0523071     -0.0119324     -0.1452637     -0.0124664     -0.1460571     -0.7070923      0.1069336
433220000     -0.7456055      0.0567017     -0.0130768     -0.1478119     -0.0136566     -0.1486053     -0.7050171      0.1111450
433224992     -0.7447510      0.0603638     -0.0143738     -0.1504974     -0.0149384     -0.1512299     -0.7030029      0.1159058
433230016     -0.7432861      0.0646973     -0.0157013     -0.1531372     -0.0162964     -0.1539917     -0.7006836      0.1205444
433235008     -0.7416382      0.0686646     -0.0171509     -0.1558838     -0.0177002     -0.1567230     -0.6983643      0.1254272
433240000     -0.7401733      0.0731201     -0.0186615     -0.1587372     -0.0192108     -0.1595764     -0.6960449      0.1300049
433244992     -0.7387085      0.0774536     -0.0202026     -0.1615448     -0.0207214     -0.1624756     -0.6936035      0.1348877
433249984     -0.7369385      0.0815430     -0.0217896     -0.1644745     -0.0224152     -0.1652527     -0.6907959      0.1396484
433255008     -0.7350464      0.0864258     -0.0234680     -0.1674347     -0.0240784     -0.1682129     -0.6882324      0.1446533
433260000     -0.7333984      0.0908813     -0.0252228     -0.1704712     -0.0260010     -0.1713104     -0.6855469      0.1494751
433264992     -0.7314453      0.0952759     -0.0272369     -0.1735687     -0.0278168     -0.1744385     -0.6826172      0.1548462
433270016     -0.7294312      0.0996094     -0.0291138     -0.1766815     -0.0297699     -0.1775360     -0.6794434      0.1597900
433275008     -0.7271118      0.1046143     -0.0312500     -0.1799164     -0.0318909     -0.1807251     -0.6763306      0.1649780
433280000     -0.7251587      0.1093140     -0.0333099     -0.1831055     -0.0340118     -0.1840668     -0.6728516      0.1702881
433284992     -0.7225952      0.1141968     -0.0356445     -0.1863861     -0.0362854     -0.1873474     -0.6694946      0.1757202
433289984     -0.7203369      0.1192627     -0.0380707     -0.1899414     -0.0387115     -0.1906586     -0.6658325      0.1809082
433295008     -0.7173462      0.1243286     -0.0405731     -0.1934204     -0.0412445     -0.1942596     -0.6614990      0.1862793
433300000     -0.7153320      0.1292725     -0.0430603     -0.1970062     -0.0436707     -0.1978760     -0.6585083      0.1918945
433304992     -0.7122803      0.1343384     -0.0458069     -0.2006531     -0.0464172     -0.2014465     -0.6543579      0.1975708
433310016     -0.7092896      0.1395874     -0.0487366     -0.2043457     -0.0494385     -0.2051086     -0.6500854      0.2032471
433315008     -0.7061768      0.1452026     -0.0517883     -0.2081604     -0.0524597     -0.2088623     -0.6459351      0.2091064
433320000     -0.7030029      0.1505127     -0.0549316     -0.2120361     -0.0555115     -0.2129211     -0.6414185      0.2149658
433324992     -0.6996460      0.1557617     -0.0582581     -0.2159424     -0.0588989     -0.2167358     -0.6363525      0.2209473
433329984     -0.6962280      0.1616211     -0.0617065     -0.2199402     -0.0624084     -0.2208862     -0.6317749      0.2269897
433335008     -0.6925659      0.1672974     -0.0655212     -0.2240295     -0.0661011     -0.2249146     -0.6263428      0.2331543
433340000     -0.6883545      0.1727905     -0.0694885     -0.2282410     -0.0700378     -0.2290039     -0.6207886      0.2390747
433344992     -0.6841431      0.1788330     -0.0734863     -0.2325745     -0.0741882     -0.2332764     -0.6152954      0.2452393
433350016     -0.6799927      0.1846924     -0.0779419     -0.2366943     -0.0785828     -0.2377014     -0.6093750      0.2516479
433355008     -0.6753540      0.1906738     -0.0824890     -0.2410278     -0.0830994     -0.2419128     -0.6031494      0.2578735
433360000     -0.6707764      0.1966553     -0.0873108     -0.2454529     -0.0879517     -0.2463379     -0.5965576      0.2640991
433364992     -0.6654053      0.2025146     -0.0924072     -0.2498474     -0.0930176     -0.2507935     -0.5899048      0.2704468
433369984     -0.6601563      0.2084351     -0.0977478     -0.2543030     -0.0984497     -0.2552490     -0.5827637      0.2767944
433375008     -0.6547852      0.2144165     -0.1033630     -0.2588806     -0.1039124     -0.2598572     -0.5752563      0.2832642
433380000     -0.6488037      0.2205200     -0.1095276     -0.2632141     -0.1099548     -0.2644043     -0.5673828      0.2896729
433384992     -0.6426392      0.2268677     -0.1156921     -0.2679138     -0.1162415     -0.2688599     -0.5593262      0.2959900
433390016     -0.6364136      0.2330322     -0.1221924     -0.2724304     -0.1227417     -0.2735291     -0.5509949      0.3022461
433395008     -0.6295776      0.2391357     -0.1292419     -0.2772217     -0.1296082     -0.2780762     -0.5418701      0.3087158
433400000     -0.6223145      0.2451172     -0.1364746     -0.2815552     -0.1370239     -0.2826538     -0.5328369      0.3148499
433404992     -0.6150513      0.2513428     -0.1440430     -0.2861633     -0.1446838     -0.2872314     -0.5233459      0.3214111
433409984     -0.6073608      0.2574463     -0.1521606     -0.2906189     -0.1526184     -0.2917786     -0.5131531      0.3271790
433415008     -0.5989990      0.2633667     -0.1605530     -0.2949524     -0.1610413     -0.2960205     -0.5023499      0.3331604
433420000     -0.5903931      0.2693481     -0.1695251     -0.2991333     -0.1700745     -0.3003845     -0.4916382      0.3389282
433424992     -0.5814819      0.2750244     -0.1789551     -0.3032837     -0.1792297     -0.3043823     -0.4799805      0.3444824
433430016     -0.5720215      0.2805786     -0.1888733     -0.3073730     -0.1890869     -0.3084106     -0.4679871      0.3500671
433435008     -0.5619202      0.2861328     -0.1990967     -0.3111572     -0.1994324     -0.3124084     -0.4555054      0.3550720
433440000     -0.5517578      0.2914124     -0.2101135     -0.3147888     -0.2101135     -0.3161011     -0.4427490      0.3599854
433444992     -0.5409851      0.2964783     -0.2212524     -0.3179321     -0.2214966     -0.3195190     -0.4292908      0.3645935
433449984     -0.5295715      0.3013000     -0.2333374     -0.3212280     -0.2333374     -0.3226318     -0.4150696      0.3689880
433455008     -0.5178528      0.3057861     -0.2454834     -0.3237915     -0.2456055     -0.3254395     -0.4003906      0.3728638
433460000     -0.5055847      0.3099060     -0.2586670     -0.3261719     -0.2586670     -0.3279419     -0.3856201      0.3759460
433464992     -0.4927673      0.3134155     -0.2722778     -0.3282471     -0.2720337     -0.3300171     -0.3698425      0.3789978
433470016     -0.4793701      0.3166199     -0.2861938     -0.3297729     -0.2860107     -0.3316040     -0.3538513      0.3813782
433475008     -0.4657593      0.3191528     -0.3010864     -0.3304749     -0.3009033     -0.3324890     -0.3369141      0.3832245
433480000     -0.4514313      0.3209839     -0.3162842     -0.3306580     -0.3159485     -0.3329468     -0.3197174      0.3839264
433484992     -0.4368439      0.3224487     -0.3320007     -0.3302307     -0.3316956     -0.3326721     -0.3019562      0.3843231
433489984     -0.4215088      0.3227234     -0.3484192     -0.3288574     -0.3481140     -0.3314819     -0.2835999      0.3836212
433495008     -0.4060974      0.3220825     -0.3650208     -0.3266907     -0.3646545     -0.3293457     -0.2653046      0.3819427
433500000     -0.3902893      0.3206024     -0.3824463     -0.3234253     -0.3819275     -0.3263550     -0.2460632      0.3792572
433504992     -0.3745575      0.3179169     -0.3999023     -0.3187561     -0.3994751     -0.3221741     -0.2269745      0.3754730
433510016     -0.3585510      0.3135834     -0.4177856     -0.3131409     -0.4172363     -0.3166504     -0.2076721      0.3704224
433515008     -0.3430328      0.3080750     -0.4356384     -0.3059387     -0.4352112     -0.3098145     -0.1882172      0.3641510
433520000     -0.3281250      0.3008423     -0.4530945     -0.2973328     -0.4528198     -0.3014832     -0.1693573      0.3560181
433524992     -0.3142090      0.2923431     -0.4704895     -0.2870483     -0.4701843     -0.2915344     -0.1505585      0.3468628
433529984     -0.3019409      0.2823029     -0.4865417     -0.2749939     -0.4860535     -0.2797241     -0.1328888      0.3359222
433535008     -0.2921295      0.2719879     -0.5007935     -0.2620239     -0.5006714     -0.2673950     -0.1163330      0.3241425
433540000     -0.2847748      0.2618561     -0.5132751     -0.2482605     -0.5134583     -0.2540588     -0.1014862      0.3112183
433544992     -0.2794037      0.2535095     -0.5240479     -0.2347717     -0.5244446     -0.2411194     -0.0880890      0.2986908
433550016     -0.2749634      0.2475433     -0.5332336     -0.2229309     -0.5343323     -0.2297363     -0.0755005      0.2866821
433555008     -0.2698517      0.2441406     -0.5424805     -0.2122803     -0.5436707     -0.2194824     -0.0633392      0.2753143
433560000     -0.2630157      0.2424774     -0.5522766     -0.2028503     -0.5545044     -0.2107239     -0.0506439      0.2645569
433564992     -0.2537384      0.2409058     -0.5637817     -0.1937256     -0.5664978     -0.2016907     -0.0372009      0.2536621
433569984     -0.2427979      0.2391434     -0.5767212     -0.1841736     -0.5801086     -0.1921997     -0.0231323      0.2418060
433575008     -0.2301483      0.2362061     -0.5905457     -0.1736145     -0.5944824     -0.1815186     -0.0083618      0.2288361
433580000     -0.2163086      0.2317810     -0.6054993     -0.1611633     -0.6099243     -0.1694336      0.0063858      0.2140350
433584992     -0.2014694      0.2255859     -0.6208191     -0.1470947     -0.6260986     -0.1552124      0.0207901      0.1975708
433590016     -0.1860962      0.2172241     -0.6358337     -0.1308899     -0.6416016     -0.1390076      0.0341339      0.1793213
433595008     -0.1712952      0.2065353     -0.6502991     -0.1127930     -0.6565247     -0.1206360      0.0463486      0.1596909
433600000     -0.1575546      0.1937561     -0.6633301     -0.0928650     -0.6699219     -0.1006470      0.0567856      0.1389389
433604992     -0.1453247      0.1794052     -0.6753235     -0.0717773     -0.6821594     -0.0792542      0.0655518      0.1173401
433609984     -0.1345749      0.1639023     -0.6853638     -0.0495605     -0.6928101     -0.0567017      0.0725403      0.0953064
433615008     -0.1255417      0.1477356     -0.6937866     -0.0265808     -0.7020874     -0.0335693      0.0776596      0.0728531
433620000     -0.1180344      0.1309814     -0.7012024     -0.0029297     -0.7094727     -0.0099182      0.0814514      0.0504074
433624992     -0.1124229      0.1141968     -0.7067566      0.0205078     -0.7155151      0.0141602      0.0832520      0.0281067
433630016     -0.1080704      0.0972824     -0.7106323      0.0445557     -0.7198792      0.0384521      0.0836525      0.0059433
433635008     -0.1050758      0.0805893     -0.7133484      0.0683594     -0.7228394      0.0626526      0.0825768     -0.0155334
433640000     -0.1036682      0.0640984     -0.7144775      0.0926208     -0.7244873      0.0873108      0.0799751     -0.0367088
433644992     -0.1032791      0.0480118     -0.7144165      0.1161499     -0.7246704      0.1112671      0.0760651     -0.0571976
433649984     -0.1041870      0.0326080     -0.7130737      0.1395264     -0.7237244      0.1349792      0.0709724     -0.0769005
433655008     -0.1061974      0.0176468     -0.7105103      0.1626282     -0.7216187      0.1585693      0.0646439     -0.0956612
433660000     -0.1088982      0.0034065     -0.7071533      0.1853333     -0.7180481      0.1814880      0.0573463     -0.1134529
433664992     -0.1125374     -0.0100250     -0.7024231      0.2073059     -0.7137146      0.2041626      0.0491333     -0.1305084
433670016     -0.1169586     -0.0229416     -0.6970520      0.2284241     -0.7084045      0.2264404      0.0401459     -0.1464767
433675008     -0.1221466     -0.0348511     -0.6904907      0.2494202     -0.7022705      0.2478333      0.0304947     -0.1613235
433680000     -0.1277390     -0.0460587     -0.6831970      0.2694702     -0.6949768      0.2684937      0.0201874     -0.1750488
