!HP8753
# HZ S RI R 50
312500000      0.9108276     -0.3968506      0.0006968      0.0001816      0.0006814      0.0001937      0.9086304     -0.4068604
312503136      0.9108887     -0.3969116      0.0007047      0.0001677      0.0006955      0.0001865      0.9088135     -0.4069214
312506240      0.9108276     -0.3970337      0.0007148      0.0001601      0.0007149      0.0001755      0.9085693     -0.4069824
312509376      0.9106445     -0.3966675      0.0007284      0.0001394      0.0007349      0.0001457      0.9086304     -0.4068604
312512512      0.9108887     -0.3968506      0.0007359      0.0001277      0.0007353      0.0001399      0.9085693     -0.4069214
312515616      0.9108276     -0.3969116      0.0007525      0.0001152      0.0007557      0.0001330      0.9086304     -0.4069214
312518752      0.9107666     -0.3970947      0.0007609      0.0001025      0.0007613      0.0001135      0.9085693     -0.4070435
312521888      0.9108887     -0.3969116      0.0007722      0.0000867      0.0007703      0.0000991      0.9085693     -0.4069214
312524992      0.9106445     -0.3970947      0.0007922      0.0000736      0.0007964      0.0000789      0.9086914     -0.4070435
312528128      0.9106445     -0.3969727      0.0008069      0.0000473      0.0008079      0.0000607      0.9085083     -0.4070435
312531264      0.9106445     -0.3968506      0.0008122      0.0000447      0.0008130      0.0000500      0.9085083     -0.4070435
312534368      0.9106445     -0.3969116      0.0008322      0.0000184      0.0008317      0.0000323      0.9086304     -0.4069824
312537504      0.9105225     -0.3970337      0.0008460     -0.0000060      0.0008442      0.0000191      0.9084473     -0.4071045
312540640      0.9107056     -0.3970947      0.0008631     -0.0000155      0.0008405     -0.0000051      0.9085083     -0.4070435
312543744      0.9105835     -0.3969116      0.0008709     -0.0000352      0.0008591     -0.0000260      0.9085083     -0.4069824
312546880      0.9104004     -0.3970337      0.0008693     -0.0000520      0.0008748     -0.0000480      0.9086914     -0.4071045
312550016      0.9105835     -0.3970947      0.0008804     -0.0000839      0.0008844     -0.0000737      0.9083862     -0.4068604
312553120      0.9105225     -0.3970947      0.0008893     -0.0001068      0.0008912     -0.0000944      0.9084473     -0.4071655
312556256      0.9105835     -0.3969116      0.0008963     -0.0001239      0.0008978     -0.0001176      0.9083252     -0.4071045
312559360      0.9105835     -0.3971558      0.0009072     -0.0001532      0.0009050     -0.0001428      0.9083862     -0.4069824
312562496      0.9105225     -0.3970947      0.0009141     -0.0001666      0.0009119     -0.0001608      0.9083862     -0.4070435
312565632      0.9104004     -0.3970337      0.0009207     -0.0001988      0.0009177     -0.0001831      0.9084473     -0.4069824
312568736      0.9104614     -0.3969727      0.0009334     -0.0002253      0.0009257     -0.0002102      0.9082642     -0.4071045
312571872      0.9104614     -0.3970947      0.0009266     -0.0002471      0.0009355     -0.0002317      0.9083862     -0.4071655
312575008      0.9104004     -0.3969727      0.0009425     -0.0002658      0.0009449     -0.0002632      0.9080811     -0.4072266
312578112      0.9104614     -0.3970337      0.0009392     -0.0003021      0.0009304     -0.0002869      0.9082031     -0.4071655
312581248      0.9104004     -0.3969727      0.0009415     -0.0003216      0.0009391     -0.0003191      0.9081421     -0.4071045
312584384      0.9104004     -0.3970947      0.0009366     -0.0003453      0.0009423     -0.0003342      0.9083252     -0.4071045
312587488      0.9104614     -0.3970337      0.0009436     -0.0003773      0.0009478     -0.0003678      0.9080811     -0.4070435
312590624      0.9104614     -0.3971558      0.0009382     -0.0004004      0.0009498     -0.0003871      0.9082031     -0.4070435
312593760      0.9103394     -0.3969727      0.0009441     -0.0004314      0.0009491     -0.0004203      0.9082642     -0.4071045
312596864      0.9104004     -0.3970337      0.0009426     -0.0004618      0.0009459     -0.0004430      0.9080200     -0.4069824
312600000      0.9099731     -0.3969727      0.0009426     -0.0004878      0.0009462     -0.0004687      0.9080200     -0.4071655
312603136      0.9104004     -0.3969116      0.0009395     -0.0005116      0.0009378     -0.0005081      0.9080811     -0.4071045
312606240      0.9103394     -0.3970947      0.0009288     -0.0005339      0.0009348     -0.0005227      0.9080811     -0.4070435
312609376      0.9102783     -0.3971558      0.0009248     -0.0005656      0.0009358     -0.0005481      0.9081421     -0.4071045
312612512      0.9102783     -0.3970337      0.0009219     -0.0005915      0.0009259     -0.0005889      0.9080200     -0.4069824
312615616      0.9103394     -0.3970947      0.0009186     -0.0006220      0.0009143     -0.0006033      0.9082031     -0.4071045
312618752      0.9102783     -0.3971558      0.0009046     -0.0006397      0.0009066     -0.0006311      0.9082031     -0.4070435
312621888      0.9104614     -0.3970947      0.0008984     -0.0006634      0.0008976     -0.0006475      0.9081421     -0.4070435
312624992      0.9102173     -0.3971558      0.0008932     -0.0006880      0.0008883     -0.0006807      0.9080200     -0.4071655
312628128      0.9101563     -0.3972168      0.0008802     -0.0007136      0.0008848     -0.0007011      0.9078369     -0.4069824
312631264      0.9102783     -0.3971558      0.0008733     -0.0007392      0.0008798     -0.0007291      0.9080811     -0.4071655
312634368      0.9104004     -0.3970947      0.0008579     -0.0007668      0.0008690     -0.0007566      0.9081421     -0.4071655
312637504      0.9102783     -0.3970337      0.0008472     -0.0007871      0.0008569     -0.0007794      0.9080200     -0.4072876
312640640      0.9102783     -0.3970947      0.0008267     -0.0008141      0.0008403     -0.0007962      0.9082031     -0.4071045
312643744      0.9102783     -0.3972168      0.0008198     -0.0008364      0.0008344     -0.0008165      0.9080200     -0.4070435
312646880      0.9102783     -0.3970947      0.0008062     -0.0008566      0.0008156     -0.0008498      0.9080200     -0.4072266
312649984      0.9102783     -0.3970337      0.0007993     -0.0008727      0.0008073     -0.0008597      0.9080811     -0.4070435
312653120      0.9102173     -0.3973389      0.0007777     -0.0009018      0.0007935     -0.0008837      0.9078979     -0.4071045
312656256      0.9100952     -0.3972168      0.0007718     -0.0009134      0.0007793     -0.0008984      0.9078979     -0.4072876
312659360      0.9101563     -0.3972168      0.0007532     -0.0009254      0.0007572     -0.0009193      0.9080200     -0.4072876
312662496      0.9101563     -0.3972168      0.0007432     -0.0009609      0.0007415     -0.0009402      0.9082031     -0.4072876
312665632      0.9102783     -0.3972168      0.0007204     -0.0009719      0.0007303     -0.0009658      0.9079590     -0.4073486
312668736      0.9101563     -0.3972168      0.0007004     -0.0009917      0.0007123     -0.0009856      0.9080200     -0.4072266
312671872      0.9102173     -0.3969116      0.0006902     -0.0010027      0.0006993     -0.0009950      0.9079590     -0.4071045
312675008      0.9102783     -0.3973389      0.0006719     -0.0010219      0.0006810     -0.0010128      0.9081421     -0.4074707
312678112      0.9103394     -0.3970337      0.0006521     -0.0010391      0.0006677     -0.0010362      0.9079590     -0.4071655
312681248      0.9101563     -0.3971558      0.0006353     -0.0010518      0.0006414     -0.0010505      0.9080811     -0.4073486
312684384      0.9102173     -0.3972778      0.0006242     -0.0010774      0.0006300     -0.0010583      0.9080200     -0.4071655
312687488      0.9101563     -0.3973999      0.0006035     -0.0010884      0.0006155     -0.0010789      0.9080200     -0.4074097
312690624      0.9102173     -0.3973999      0.0005914     -0.0011075      0.0006049     -0.0010903      0.9078979     -0.4074097
312693760      0.9102783     -0.3975220      0.0005762     -0.0011111      0.0005866     -0.0011035      0.9080200     -0.4072266
312696864      0.9103394     -0.3973999      0.0005592     -0.0011186      0.0005718     -0.0011119      0.9079590     -0.4072876
312700000      0.9103394     -0.3973389      0.0005451     -0.0011337      0.0005562     -0.0011289      0.9080200     -0.4074097
312703136      0.9103394     -0.3974609      0.0005339     -0.0011473      0.0005320     -0.0011361      0.9079590     -0.4074707
312706240      0.9101563     -0.3975220      0.0005046     -0.0011601      0.0005278     -0.0011471      0.9080200     -0.4075928
312709376      0.9100952     -0.3973999      0.0004983     -0.0011629      0.0005121     -0.0011659      0.9078979     -0.4076538
312712512      0.9102783     -0.3976440      0.0004854     -0.0011869      0.0004970     -0.0011746      0.9082031     -0.4075317
312715616      0.9101563     -0.3976440      0.0004610     -0.0011997      0.0004745     -0.0011828      0.9080811     -0.4074707
312718752      0.9102173     -0.3975220      0.0004576     -0.0011992      0.0004572     -0.0011988      0.9082031     -0.4075928
312721888      0.9101563     -0.3977051      0.0004356     -0.0012135      0.0004504     -0.0012028      0.9081421     -0.4075928
312724992      0.9102783     -0.3975220      0.0004185     -0.0012310      0.0004396     -0.0012109      0.9080811     -0.4076538
312728128      0.9101563     -0.3975220      0.0003963     -0.0012324      0.0004190     -0.0012157      0.9080200     -0.4077759
312731264      0.9102173     -0.3977661      0.0003883     -0.0012393      0.0004026     -0.0012385      0.9079590     -0.4077148
312734368      0.9104004     -0.3976440      0.0003709     -0.0012436      0.0003910     -0.0012442      0.9080200     -0.4077759
312737504      0.9102173     -0.3977661      0.0003615     -0.0012645      0.0003770     -0.0012478      0.9080811     -0.4076538
312740640      0.9101563     -0.3976440      0.0003428     -0.0012759      0.0003580     -0.0012584      0.9080811     -0.4075928
312743744      0.9100952     -0.3977051      0.0003230     -0.0012674      0.0003381     -0.0012606      0.9079590     -0.4078979
312746880      0.9100952     -0.3977051      0.0003144     -0.0012819      0.0003303     -0.0012791      0.9080811     -0.4078369
312750016      0.9100952     -0.3977051      0.0002994     -0.0012963      0.0003135     -0.0012838      0.9080811     -0.4077148
312753120      0.9100952     -0.3978882      0.0002917     -0.0012987      0.0003046     -0.0012913      0.9078979     -0.4079590
312756256      0.9102783     -0.3977661      0.0002750     -0.0013082      0.0002889     -0.0013030      0.9080811     -0.4079590
312759360      0.9102173     -0.3979492      0.0002614     -0.0013140      0.0002819     -0.0013074      0.9082642     -0.4080200
312762496      0.9100952     -0.3978271      0.0002368     -0.0013191      0.0002560     -0.0013083      0.9081421     -0.4078979
312765632      0.9101563     -0.3979492      0.0002281     -0.0013347      0.0002553     -0.0013208      0.9078369     -0.4080200
312768736      0.9102173     -0.3978882      0.0002228     -0.0013281      0.0002313     -0.0013279      0.9080811     -0.4078979
312771872      0.9103394     -0.3980713      0.0002075     -0.0013450      0.0002198     -0.0013257      0.9078979     -0.4079590
312775008      0.9099731     -0.3979492      0.0001909     -0.0013455      0.0002073     -0.0013472      0.9080811     -0.4080811
312778112      0.9101563     -0.3979492      0.0001872     -0.0013503      0.0001947     -0.0013523      0.9079590     -0.4081421
312781248      0.9101563     -0.3980103      0.0001638     -0.0013636      0.0001832     -0.0013637      0.9079590     -0.4081421
312784384      0.9100952     -0.3981934      0.0001530     -0.0013772      0.0001702     -0.0013680      0.9079590     -0.4081421
312787488      0.9101563     -0.3981934      0.0001418     -0.0013725      0.0001618     -0.0013669      0.9078979     -0.4082642
312790624      0.9102783     -0.3981323      0.0001218     -0.0013791      0.0001448     -0.0013762      0.9078979     -0.4081421
312793760      0.9100952     -0.3981934      0.0001197     -0.0013881      0.0001363     -0.0013915      0.9079590     -0.4081421
312796864      0.9102783     -0.3981934      0.0001044     -0.0013947      0.0001276     -0.0013850      0.9078979     -0.4082642
312800000      0.9101563     -0.3982544      0.0000914     -0.0013971      0.0001142     -0.0013920      0.9079590     -0.4083252
312803136      0.9099731     -0.3984375      0.0000808     -0.0014127      0.0000974     -0.0014115      0.9078369     -0.4082642
312806240      0.9100952     -0.3983154      0.0000742     -0.0014125      0.0000930     -0.0014059      0.9079590     -0.4082031
312809376      0.9099731     -0.3984375      0.0000621     -0.0014162      0.0000803     -0.0014202      0.9080200     -0.4083862
312812512      0.9099121     -0.3982544      0.0000529     -0.0014236      0.0000628     -0.0014175      0.9079590     -0.4083252
312815616      0.9100342     -0.3984375      0.0000322     -0.0014294      0.0000545     -0.0014183      0.9078979     -0.4084473
312818752      0.9101563     -0.3984375      0.0000229     -0.0014350      0.0000435     -0.0014390      0.9079590     -0.4086914
312821888      0.9102173     -0.3984375      0.0000065     -0.0014528      0.0000331     -0.0014433      0.9078979     -0.4085083
312824992      0.9102173     -0.3984375      0.0000015     -0.0014448      0.0000144     -0.0014466      0.9078979     -0.4085693
312828128      0.9099121     -0.3984985     -0.0000001     -0.0014558      0.0000036     -0.0014539      0.9078369     -0.4086304
312831264      0.9101563     -0.3984375     -0.0000209     -0.0014606      0.0000051     -0.0014645      0.9078979     -0.4087524
312834368      0.9099731     -0.3984375     -0.0000315     -0.0014673     -0.0000155     -0.0014734      0.9080200     -0.4086304
312837504      0.9100342     -0.3986816     -0.0000461     -0.0014680     -0.0000234     -0.0014753      0.9077148     -0.4088135
312840640      0.9099121     -0.3986816     -0.0000495     -0.0014772     -0.0000305     -0.0014752      0.9079590     -0.4086914
312843744      0.9100342     -0.3988647     -0.0000579     -0.0014984     -0.0000415     -0.0014883      0.9079590     -0.4087524
312846880      0.9100952     -0.3984985     -0.0000734     -0.0015002     -0.0000551     -0.0014935      0.9078369     -0.4088745
312849984      0.9100342     -0.3986816     -0.0000873     -0.0015065     -0.0000671     -0.0015076      0.9078369     -0.4089355
312853120      0.9098511     -0.3989258     -0.0000941     -0.0015174     -0.0000834     -0.0015148      0.9077759     -0.4089355
312856256      0.9097900     -0.3988647     -0.0001001     -0.0015274     -0.0000822     -0.0015171      0.9077759     -0.4089966
312859360      0.9100342     -0.3988647     -0.0001112     -0.0015232     -0.0000973     -0.0015216      0.9076538     -0.4089355
312862496      0.9098511     -0.3988037     -0.0001299     -0.0015330     -0.0001111     -0.0015281      0.9077148     -0.4090576
312865632      0.9098511     -0.3991699     -0.0001391     -0.0015361     -0.0001206     -0.0015349      0.9077759     -0.4088745
312868736      0.9098511     -0.3989258     -0.0001454     -0.0015442     -0.0001262     -0.0015450      0.9077148     -0.4092407
312871872      0.9097900     -0.3989868     -0.0001560     -0.0015523     -0.0001357     -0.0015497      0.9078369     -0.4090576
312875008      0.9098511     -0.3989258     -0.0001627     -0.0015630     -0.0001485     -0.0015532      0.9075928     -0.4090576
312878112      0.9097900     -0.3989868     -0.0001737     -0.0015663     -0.0001563     -0.0015632      0.9078979     -0.4091797
312881248      0.9098511     -0.3991089     -0.0001832     -0.0015814     -0.0001613     -0.0015787      0.9077148     -0.4091797
312884384      0.9097900     -0.3991089     -0.0001943     -0.0015697     -0.0001704     -0.0015779      0.9076538     -0.4091797
312887488      0.9098511     -0.3992310     -0.0002007     -0.0015955     -0.0001880     -0.0015966      0.9076538     -0.4093018
312890624      0.9100342     -0.3990479     -0.0002263     -0.0016005     -0.0001959     -0.0016004      0.9077759     -0.4094849
312893760      0.9096069     -0.3991699     -0.0002235     -0.0016111     -0.0002123     -0.0016046      0.9075928     -0.4095459
312896864      0.9095459     -0.3993530     -0.0002278     -0.0016170     -0.0002185     -0.0016203      0.9076538     -0.4092407
312900000      0.9097290     -0.3992310     -0.0002480     -0.0016283     -0.0002331     -0.0016353      0.9074707     -0.4093018
312903136      0.9096680     -0.3991699     -0.0002527     -0.0016317     -0.0002433     -0.0016388      0.9075317     -0.4096069
312906240      0.9097290     -0.3994141     -0.0002668     -0.0016370     -0.0002546     -0.0016414      0.9075928     -0.4095459
312909376      0.9096069     -0.3994141     -0.0002750     -0.0016503     -0.0002517     -0.0016502      0.9076538     -0.4096069
312912512      0.9097900     -0.3995972     -0.0002887     -0.0016626     -0.0002638     -0.0016545      0.9074707     -0.4096069
312915616      0.9096069     -0.3995361     -0.0003107     -0.0016698     -0.0002804     -0.0016727      0.9074707     -0.4097290
312918752      0.9097290     -0.3995361     -0.0003005     -0.0016799     -0.0002954     -0.0016841      0.9075317     -0.4096680
312921888      0.9096680     -0.3995361     -0.0003183     -0.0016938     -0.0002960     -0.0016875      0.9074097     -0.4096069
312924992      0.9096069     -0.3996582     -0.0003240     -0.0016977     -0.0003039     -0.0017002      0.9075317     -0.4097290
312928128      0.9096069     -0.3996582     -0.0003382     -0.0017065     -0.0003175     -0.0017120      0.9076538     -0.4099121
312931264      0.9094238     -0.3997192     -0.0003510     -0.0017157     -0.0003287     -0.0017228      0.9074707     -0.4098511
312934368      0.9094849     -0.3997803     -0.0003574     -0.0017322     -0.0003480     -0.0017346      0.9073486     -0.4097290
312937504      0.9096069     -0.3999023     -0.0003622     -0.0017387     -0.0003464     -0.0017433      0.9074707     -0.4100952
312940640      0.9096069     -0.3997803     -0.0003756     -0.0017511     -0.0003681     -0.0017577      0.9072876     -0.4098511
312943744      0.9093628     -0.3999634     -0.0003974     -0.0017530     -0.0003824     -0.0017631      0.9073486     -0.4100342
312946880      0.9094849     -0.3997192     -0.0004088     -0.0017734     -0.0003877     -0.0017724      0.9074707     -0.4102173
312950016      0.9096680     -0.3999634     -0.0004165     -0.0017842     -0.0003996     -0.0017905      0.9072876     -0.4101563
312953120      0.9095459     -0.4000854     -0.0004276     -0.0017872     -0.0004035     -0.0017927      0.9072876     -0.4101563
312956256      0.9094238     -0.4000854     -0.0004376     -0.0017940     -0.0004213     -0.0017999      0.9072266     -0.4100952
312959360      0.9095459     -0.4000854     -0.0004464     -0.0018213     -0.0004292     -0.0018107      0.9072876     -0.4101563
312962496      0.9094238     -0.4000244     -0.0004661     -0.0018274     -0.0004368     -0.0018296      0.9074097     -0.4102783
312965632      0.9093628     -0.4001465     -0.0004687     -0.0018356     -0.0004617     -0.0018466      0.9072266     -0.4101563
312968736      0.9093018     -0.4002075     -0.0004888     -0.0018443     -0.0004650     -0.0018550      0.9071655     -0.4102783
312971872      0.9093628     -0.4002075     -0.0004958     -0.0018651     -0.0004790     -0.0018693      0.9070435     -0.4105225
312975008      0.9094849     -0.4001465     -0.0005186     -0.0018796     -0.0004890     -0.0018824      0.9071655     -0.4104004
