!RF1402D,  DEMO1 ,narrow,BN,8/25/06
# HZ S RI R 50
311000000     -0.8286133      0.2359009     -0.0001044      0.0039349     -0.0000250      0.0038393     -0.8530273      0.1674805
311004992     -0.8275146      0.2391663     -0.0000318      0.0038602     -0.0000075      0.0038306     -0.8521729      0.1707764
311009984     -0.8259888      0.2424927     -0.0000428      0.0038369      0.0000030      0.0038633     -0.8505249      0.1740417
311015008     -0.8237305      0.2465820      0.0000554      0.0038229      0.0001000      0.0037650     -0.8486023      0.1777344
311020000     -0.8221741      0.2498779      0.0001218      0.0038345      0.0000992      0.0037593     -0.8474121      0.1810303
311024992     -0.8193970      0.2540588      0.0001343      0.0037632      0.0001360      0.0036992     -0.8458862      0.1851807
311030016     -0.8182983      0.2573547      0.0001638      0.0036899      0.0002640      0.0036780     -0.8447571      0.1886597
311035008     -0.8168030      0.2608032      0.0002037      0.0036459      0.0002352      0.0036172     -0.8430786      0.1918335
311040000     -0.8153687      0.2640686      0.0002780      0.0035807      0.0002580      0.0035542     -0.8408203      0.1956787
311044992     -0.8135376      0.2669678      0.0003248      0.0035405      0.0003039      0.0034800     -0.8399353      0.1991882
311049984     -0.8105774      0.2709045      0.0002986      0.0035034      0.0003490      0.0033978     -0.8388977      0.2027588
311055008     -0.8086548      0.2737732      0.0003147      0.0034016      0.0003808      0.0033445     -0.8363342      0.2066040
311060000     -0.8071594      0.2778625      0.0003719      0.0033697      0.0003644      0.0032747     -0.8348389      0.2104492
311064992     -0.8049011      0.2808533      0.0003370      0.0032524      0.0003998      0.0032078     -0.8330688      0.2137146
311070016     -0.8032227      0.2850037      0.0003341      0.0031749      0.0004449      0.0031431     -0.8315735      0.2172241
311075008     -0.8021851      0.2882385      0.0003572      0.0030744      0.0003884      0.0030061     -0.8290405      0.2206421
311080000     -0.7991943      0.2911682      0.0003219      0.0030030      0.0003814      0.0029535     -0.8273010      0.2242737
311084992     -0.7966003      0.2944946      0.0003179      0.0028615      0.0002826      0.0028604     -0.8255920      0.2273254
311089984     -0.7954407      0.2975464      0.0002123      0.0028027      0.0002990      0.0027641     -0.8233948      0.2306213
311095008     -0.7928467      0.3008423      0.0001781      0.0027161      0.0002079      0.0027107     -0.8217468      0.2343140
311100000     -0.7905579      0.3036194      0.0001479      0.0027163      0.0001556      0.0026131     -0.8197021      0.2377625
311104992     -0.7887573      0.3083496      0.0001061      0.0026407      0.0001407      0.0025787     -0.8184204      0.2406921
311110016     -0.7857361      0.3099365     -0.0000026      0.0025760     -0.0000145      0.0025107     -0.8163452      0.2438354
311115008     -0.7840881      0.3125610     -0.0000426      0.0024676     -0.0000366      0.0024644     -0.8136292      0.2478027
311120000     -0.7821655      0.3164368     -0.0001903      0.0024116     -0.0001295      0.0024260     -0.8118896      0.2509155
311124992     -0.7796936      0.3189697     -0.0001986      0.0024203     -0.0002643      0.0024265     -0.8099365      0.2537231
311129984     -0.7769165      0.3224792     -0.0003433      0.0023413     -0.0003610      0.0023324     -0.8077698      0.2573547
311135008     -0.7747192      0.3259888     -0.0004138      0.0023235     -0.0004150      0.0023646     -0.8064575      0.2607727
311140000     -0.7728577      0.3285217     -0.0005085      0.0023543     -0.0005208      0.0023558     -0.8040161      0.2633362
311144992     -0.7700806      0.3315125     -0.0005875      0.0023451     -0.0005764      0.0023245     -0.8019714      0.2661743
311150016     -0.7680359      0.3336487     -0.0006984      0.0023355     -0.0006468      0.0023415     -0.8004761      0.2698059
311155008     -0.7655640      0.3364258     -0.0008396      0.0023030     -0.0007926      0.0023350     -0.7974548      0.2721558
311160000     -0.7629700      0.3393250     -0.0009298      0.0023720     -0.0008963      0.0023160     -0.7966003      0.2754517
311164992     -0.7605286      0.3418579     -0.0010446      0.0023583     -0.0009695      0.0023686     -0.7936096      0.2780457
311169984     -0.7586975      0.3450623     -0.0011381      0.0023885     -0.0010808      0.0024178     -0.7915955      0.2807312
311175008     -0.7568359      0.3464966     -0.0011387      0.0024016     -0.0011551      0.0024312     -0.7894287      0.2840881
311180000     -0.7543335      0.3491211     -0.0012726      0.0024687     -0.0012892      0.0025190     -0.7879028      0.2863464
311184992     -0.7526550      0.3517151     -0.0013603      0.0025390     -0.0013139      0.0025265     -0.7853088      0.2892456
311190016     -0.7494812      0.3533936     -0.0014517      0.0026261     -0.0014606      0.0025922     -0.7837830      0.2920532
311195008     -0.7484741      0.3556824     -0.0015018      0.0026698     -0.0015168      0.0026435     -0.7818298      0.2947998
311200000     -0.7466125      0.3581543     -0.0015185      0.0027912     -0.0015702      0.0027530     -0.7802429      0.2972412
311204992     -0.7444763      0.3601990     -0.0017017      0.0028968     -0.0016091      0.0027950     -0.7781067      0.3000183
311209984     -0.7425842      0.3622437     -0.0017147      0.0029153     -0.0016440      0.0029305     -0.7762451      0.3028564
311215008     -0.7406616      0.3645935     -0.0017169      0.0030473     -0.0016798      0.0030057     -0.7745361      0.3049622
311220000     -0.7388306      0.3665771     -0.0017827      0.0031279     -0.0016996      0.0031203     -0.7729492      0.3077698
311224992     -0.7373962      0.3686218     -0.0018198      0.0031710     -0.0017428      0.0031712     -0.7710266      0.3099365
311230016     -0.7365112      0.3709717     -0.0017734      0.0032939     -0.0018090      0.0033231     -0.7705383      0.3118286
311235008     -0.7347107      0.3728943     -0.0018368      0.0034691     -0.0018077      0.0033569     -0.7687683      0.3142700
311240000     -0.7341309      0.3752747     -0.0017959      0.0034761     -0.0017585      0.0035162     -0.7677002      0.3174744
311244992     -0.7334900      0.3776855     -0.0017872      0.0036089     -0.0017517      0.0035650     -0.7666016      0.3203430
311249984     -0.7318420      0.3796082     -0.0017898      0.0036975     -0.0017155      0.0036542     -0.7655945      0.3218689
311255008     -0.7316284      0.3828735     -0.0017451      0.0037234     -0.0017074      0.0037137     -0.7649231      0.3255310
311260000     -0.7304993      0.3855591     -0.0017253      0.0038240     -0.0016930      0.0037369     -0.7637939      0.3283081
311264992     -0.7297363      0.3883667     -0.0016549      0.0038676     -0.0016075      0.0038520     -0.7632751      0.3312988
311270016     -0.7294312      0.3923340     -0.0015851      0.0038756     -0.0015708      0.0038811     -0.7624512      0.3341980
311275008     -0.7284851      0.3948059     -0.0015516      0.0039175     -0.0015330      0.0038869     -0.7617493      0.3369751
311280000     -0.7277832      0.3984070     -0.0015645      0.0039504     -0.0015137      0.0039241     -0.7612915      0.3410339
311284992     -0.7274170      0.4026184     -0.0014875      0.0039895     -0.0014856      0.0039856     -0.7613220      0.3448792
311289984     -0.7263794      0.4054871     -0.0014892      0.0039983     -0.0014191      0.0039532     -0.7608948      0.3481140
311295008     -0.7254028      0.4099426     -0.0014637      0.0040412     -0.0013776      0.0039489     -0.7599792      0.3522949
311300000     -0.7246399      0.4138184     -0.0014496      0.0040107     -0.0013609      0.0039625     -0.7597961      0.3558350
311304992     -0.7234802      0.4183655     -0.0013855      0.0040116     -0.0013883      0.0039980     -0.7590942      0.3606262
311310016     -0.7225037      0.4227295     -0.0013645      0.0040450     -0.0013587      0.0040522     -0.7585449      0.3649597
311315008     -0.7216492      0.4268494     -0.0013072      0.0040643     -0.0012987      0.0040064     -0.7575378      0.3692932
311320000     -0.7197571      0.4313049     -0.0013123      0.0040359     -0.0012400      0.0040338     -0.7562256      0.3746643
311324992     -0.7178955      0.4360657     -0.0012915      0.0040867     -0.0012934      0.0040188     -0.7551270      0.3790588
311329984     -0.7168884      0.4403992     -0.0013497      0.0040731     -0.0012994      0.0040390     -0.7541504      0.3841248
311335008     -0.7146606      0.4449158     -0.0013022      0.0041285     -0.0012250      0.0040572     -0.7526855      0.3893127
311340000     -0.7121582      0.4501038     -0.0012739      0.0040724     -0.0012519      0.0041282     -0.7512512      0.3945618
311344992     -0.7104797      0.4543762     -0.0013075      0.0040991     -0.0012395      0.0040913     -0.7492371      0.3998413
311350016     -0.7082214      0.4595642     -0.0012698      0.0041232     -0.0012221      0.0041006     -0.7471008      0.4044189
311355008     -0.7057495      0.4636536     -0.0012233      0.0041394     -0.0012190      0.0041082     -0.7456665      0.4102783
311360000     -0.7035217      0.4688110     -0.0012181      0.0041878     -0.0011477      0.0041494     -0.7428589      0.4154968
311364992     -0.7005615      0.4737244     -0.0011821      0.0041976     -0.0011625      0.0041552     -0.7413025      0.4208679
311369984     -0.6979980      0.4783020     -0.0011709      0.0041649     -0.0011244      0.0041416     -0.7387695      0.4256592
311375008     -0.6958313      0.4829102     -0.0010948      0.0041475     -0.0010324      0.0041449     -0.7354736      0.4304199
311380000     -0.6922913      0.4867249     -0.0010810      0.0041833     -0.0010498      0.0041411     -0.7332764      0.4358215
311384992     -0.6885681      0.4920959     -0.0010247      0.0041492     -0.0009985      0.0041349     -0.7298279      0.4410400
311390016     -0.6854858      0.4965515     -0.0009913      0.0041392     -0.0009232      0.0041335     -0.7268677      0.4464417
311395008     -0.6828918      0.5009766     -0.0009868      0.0041392     -0.0009060      0.0040703     -0.7240906      0.4518127
311400000     -0.6791687      0.5057068     -0.0008988      0.0041034     -0.0008636      0.0041556     -0.7210083      0.4566040
311404992     -0.6753235      0.5086975     -0.0008576      0.0041118     -0.0007966      0.0040359     -0.7177429      0.4615479
311409984     -0.6725159      0.5144653     -0.0007515      0.0041056     -0.0007637      0.0040624     -0.7142944      0.4671326
311415008     -0.6693726      0.5179443     -0.0008123      0.0040648     -0.0007236      0.0039854     -0.7116394      0.4714050
311420000     -0.6666870      0.5219116     -0.0007322      0.0039814     -0.0007353      0.0039649     -0.7069702      0.4767151
311424992     -0.6617737      0.5262146     -0.0006790      0.0039980     -0.0006620      0.0038545     -0.7046509      0.4816284
311430016     -0.6582336      0.5308228     -0.0006406      0.0038635     -0.0005990      0.0037986     -0.7007446      0.4864197
311435008     -0.6550293      0.5351563     -0.0006118      0.0038358     -0.0005385      0.0038109     -0.6975403      0.4910278
311440000     -0.6513062      0.5386963     -0.0005825      0.0037757     -0.0005232      0.0037544     -0.6923218      0.4958801
311444992     -0.6468506      0.5426025     -0.0005057      0.0036582     -0.0005372      0.0036609     -0.6894226      0.5001221
311449984     -0.6430969      0.5470886     -0.0004804      0.0035633     -0.0004673      0.0035220     -0.6850891      0.5060730
311455008     -0.6398010      0.5507202     -0.0004653      0.0035509     -0.0004247      0.0035182     -0.6814880      0.5100403
311460000     -0.6354370      0.5543823     -0.0004697      0.0034335     -0.0004016      0.0033756     -0.6772156      0.5145264
311464992     -0.6318970      0.5588684     -0.0004164      0.0032829     -0.0003883      0.0032731     -0.6731873      0.5198059
311470016     -0.6283875      0.5627747     -0.0003682      0.0031869     -0.0003616      0.0031775     -0.6695251      0.5242920
311475008     -0.6237793      0.5667419     -0.0003718      0.0031223     -0.0003797      0.0030478     -0.6649475      0.5288391
311480000     -0.6199341      0.5700989     -0.0004176      0.0029323     -0.0003202      0.0029150     -0.6604309      0.5338440
311484992     -0.6161804      0.5738525     -0.0003468      0.0028495     -0.0003766      0.0027668     -0.6562500      0.5374756
311489984     -0.6122131      0.5783386     -0.0003898      0.0026754     -0.0003604      0.0026312     -0.6518250      0.5432739
311495008     -0.6072998      0.5819092     -0.0003908      0.0024951     -0.0003842      0.0025260     -0.6468201      0.5471802
311500000     -0.6040649      0.5857239     -0.0003985      0.0023698     -0.0003672      0.0023679     -0.6422424      0.5512085
311504992     -0.5993347      0.5899963     -0.0004288      0.0021439     -0.0004560      0.0021967     -0.6379395      0.5563965
311510016     -0.5952148      0.5930481     -0.0004843      0.0021102     -0.0004820      0.0020643     -0.6336365      0.5608521
311515008     -0.5907288      0.5975952     -0.0004922      0.0018762     -0.0004662      0.0017899     -0.6289063      0.5646057
311520000     -0.5867920      0.6012878     -0.0005880      0.0016895     -0.0005590      0.0015975     -0.6240234      0.5686035
311524992     -0.5818787      0.6051025     -0.0006149      0.0015180     -0.0006101      0.0014943     -0.6191101      0.5731506
311529984     -0.5774536      0.6091919     -0.0007024      0.0013357     -0.0006526      0.0013230     -0.6141663      0.5777283
311535008     -0.5729675      0.6127930     -0.0007647      0.0011430     -0.0007701      0.0010880     -0.6097412      0.5816956
311540000     -0.5681763      0.6165771     -0.0009045      0.0009255     -0.0008509      0.0009284     -0.6047974      0.5866394
311544992     -0.5638123      0.6201477     -0.0009651      0.0006909     -0.0009271      0.0006899     -0.5995483      0.5910034
311550016     -0.5592346      0.6230774     -0.0011078      0.0005445     -0.0011095      0.0004981     -0.5942993      0.5952759
311555008     -0.5543518      0.6275940     -0.0012441      0.0002620     -0.0011467      0.0002231     -0.5893860      0.5988770
311560000     -0.5493774      0.6317444     -0.0013629      0.0000483     -0.0013791      0.0000175     -0.5845337      0.6036377
311564992     -0.5446167      0.6346741     -0.0015127     -0.0001859     -0.0015261     -0.0001625     -0.5791016      0.6073303
311569984     -0.5394592      0.6386414     -0.0017159     -0.0003989     -0.0016702     -0.0004470     -0.5736694      0.6115723
311575008     -0.5348816      0.6415710     -0.0018604     -0.0006716     -0.0018896     -0.0006225     -0.5680237      0.6154480
311580000     -0.5292358      0.6456299     -0.0020798     -0.0008789     -0.0020574     -0.0008602     -0.5628357      0.6194763
311584992     -0.5249329      0.6490784     -0.0023260     -0.0010910     -0.0022838     -0.0010886     -0.5572510      0.6233215
311590016     -0.5197144      0.6526489     -0.0024894     -0.0012351     -0.0025423     -0.0012677     -0.5520020      0.6277161
311595008     -0.5147705      0.6553650     -0.0027492     -0.0015638     -0.0027711     -0.0015690     -0.5460815      0.6310425
311600000     -0.5096741      0.6589355     -0.0030606     -0.0017624     -0.0030503     -0.0017655     -0.5403137      0.6359863
311604992     -0.5041504      0.6621094     -0.0033224     -0.0019643     -0.0033016     -0.0019166     -0.5350037      0.6391296
311609984     -0.4983826      0.6659241     -0.0036097     -0.0021262     -0.0036273     -0.0021491     -0.5290222      0.6429749
311615008     -0.4934692      0.6694641     -0.0039461     -0.0023625     -0.0039096     -0.0023723     -0.5231323      0.6468811
311620000     -0.4882813      0.6728210     -0.0042684     -0.0025537     -0.0042312     -0.0024915     -0.5176086      0.6509094
311624992     -0.4821777      0.6758423     -0.0046048     -0.0027409     -0.0045640     -0.0027630     -0.5111084      0.6545715
311630016     -0.4776306      0.6796875     -0.0049763     -0.0029187     -0.0049133     -0.0029478     -0.5042114      0.6581421
311635008     -0.4716797      0.6825562     -0.0052967     -0.0030942     -0.0052834     -0.0031056     -0.4991150      0.6620789
311640000     -0.4657288      0.6854553     -0.0056362     -0.0032868     -0.0056167     -0.0032248     -0.4928284      0.6655884
311644992     -0.4597778      0.6884155     -0.0060444     -0.0035172     -0.0060072     -0.0034060     -0.4863892      0.6693420
311649984     -0.4541931      0.6921082     -0.0063429     -0.0036211     -0.0063329     -0.0036178     -0.4797058      0.6733704
311655008     -0.4491272      0.6952515     -0.0068431     -0.0037923     -0.0067744     -0.0037756     -0.4734192      0.6765747
311660000     -0.4428711      0.6983032     -0.0072517     -0.0039797     -0.0071325     -0.0039077     -0.4665527      0.6804199
311664992     -0.4369812      0.7011108     -0.0076351     -0.0040517     -0.0075951     -0.0040679     -0.4601440      0.6839294
311670016     -0.4308777      0.7038574     -0.0080690     -0.0042295     -0.0079751     -0.0042377     -0.4532166      0.6871948
311675008     -0.4248352      0.7076111     -0.0085254     -0.0044103     -0.0084677     -0.0044022     -0.4465942      0.6907349
311680000     -0.4188538      0.7105408     -0.0090089     -0.0045395     -0.0089040     -0.0045252     -0.4402161      0.6938477
311684992     -0.4121094      0.7130737     -0.0095100     -0.0046730     -0.0094004     -0.0047097     -0.4323730      0.6973877
311689984     -0.4059753      0.7159424     -0.0100083     -0.0048189     -0.0098820     -0.0048261     -0.4251709      0.7006531
311695008     -0.3995972      0.7184753     -0.0105290     -0.0049853     -0.0104585     -0.0049314     -0.4187012      0.7039795
311700000     -0.3929749      0.7214355     -0.0110073     -0.0051031     -0.0109558     -0.0050297     -0.4107361      0.7073364
311704992     -0.3871155      0.7236023     -0.0115709     -0.0051889     -0.0114937     -0.0051327     -0.4038086      0.7103882
311710016     -0.3801880      0.7269897     -0.0121984     -0.0053711     -0.0120687     -0.0052586     -0.3962402      0.7132874
311715008     -0.3735657      0.7295227     -0.0127687     -0.0053720     -0.0126581     -0.0053501     -0.3887939      0.7168274
311720000     -0.3674011      0.7315979     -0.0133705     -0.0054703     -0.0132694     -0.0054474     -0.3808899      0.7199097
311724992     -0.3605652      0.7342529     -0.0140066     -0.0055084     -0.0139036     -0.0055132     -0.3722839      0.7221375
311729984     -0.3546448      0.7370911     -0.0145969     -0.0056114     -0.0145473     -0.0055618     -0.3657532      0.7249756
311735008     -0.3468018      0.7391968     -0.0152502     -0.0055809     -0.0151310     -0.0056486     -0.3576965      0.7272949
311740000     -0.3400574      0.7417603     -0.0159197     -0.0056572     -0.0158081     -0.0056906     -0.3493958      0.7299500
311744992     -0.3336182      0.7438965     -0.0166016     -0.0056467     -0.0164318     -0.0056572     -0.3413696      0.7323608
311750016     -0.3266602      0.7456970     -0.0173092     -0.0057020     -0.0171661     -0.0056705     -0.3331299      0.7348022
311755008     -0.3188477      0.7485962     -0.0179768     -0.0056839     -0.0178814     -0.0056381     -0.3253174      0.7377014
311760000     -0.3121948      0.7500610     -0.0187016     -0.0056629     -0.0185242     -0.0056772     -0.3165894      0.7398071
