!RF1407D, #2,job7175,wide,bn,8/22/05
# HZ S RI R 50
803454976      0.6145935      0.1540833     -0.0027760      0.0011493     -0.0026845      0.0011834      0.6523743      0.0951843
803536384      0.6146851      0.1527100     -0.0027580      0.0012163     -0.0026414      0.0011473      0.6522827      0.0944214
803617856      0.6147766      0.1517029     -0.0027282      0.0012618     -0.0025904      0.0011523      0.6520081      0.0932312
803699264      0.6148682      0.1509094     -0.0027343      0.0012832     -0.0025595      0.0012127      0.6520996      0.0917664
803780672      0.6151428      0.1496887     -0.0026757      0.0012407     -0.0025476      0.0012374      0.6521912      0.0906677
803862144      0.6148987      0.1484985     -0.0026547      0.0013148     -0.0025517      0.0012583      0.6517944      0.0898743
803943552      0.6153259      0.1474304     -0.0026803      0.0013236     -0.0025092      0.0012707      0.6518555      0.0881348
804025024      0.6152649      0.1461182     -0.0026106      0.0014046     -0.0024579      0.0013206      0.6516418      0.0874634
804106432      0.6150208      0.1451111     -0.0025558      0.0013804     -0.0024743      0.0013775      0.6517944      0.0862732
804187840      0.6155090      0.1442261     -0.0025198      0.0014282     -0.0024058      0.0013716      0.6513062      0.0848389
804269312      0.6158142      0.1433411     -0.0024638      0.0014396     -0.0023820      0.0013896      0.6515808      0.0838013
804350720      0.6157837      0.1422119     -0.0024644      0.0014477     -0.0023336      0.0014110      0.6517334      0.0825806
804432128      0.6155090      0.1412964     -0.0023704      0.0014561     -0.0022874      0.0014110      0.6516418      0.0808411
804513600      0.6155701      0.1398621     -0.0023308      0.0014956     -0.0022310      0.0014040      0.6512756      0.0798035
804595008      0.6157837      0.1390686     -0.0023236      0.0014560     -0.0021889      0.0013578      0.6512756      0.0786133
804676416      0.6156006      0.1381226     -0.0022554      0.0014451     -0.0021328      0.0014082      0.6511841      0.0776062
804757888      0.6156311      0.1368103     -0.0021964      0.0014044     -0.0020926      0.0013747      0.6510620      0.0760193
804839296      0.6157227      0.1356812     -0.0021414      0.0013982     -0.0020428      0.0013387      0.6505127      0.0758362
804920768      0.6156921      0.1347046     -0.0020710      0.0013762     -0.0020278      0.0013407      0.6508789      0.0742798
805002176      0.6156616      0.1336670     -0.0020845      0.0013450     -0.0020183      0.0012543      0.6509705      0.0726929
805083584      0.6159058      0.1325989     -0.0020251      0.0012782     -0.0019333      0.0012269      0.6506348      0.0717773
805165056      0.6165771      0.1315613     -0.0020518      0.0012337     -0.0019195      0.0011722      0.6506348      0.0704956
805246464      0.6157837      0.1306152     -0.0019974      0.0012163     -0.0019226      0.0010920      0.6511841      0.0691528
805327872      0.6160889      0.1296692     -0.0020194      0.0011749     -0.0019290      0.0010833      0.6509399      0.0680847
805409344      0.6161804      0.1281433     -0.0019770      0.0011176     -0.0019151      0.0010943      0.6509094      0.0665588
805490752      0.6162109      0.1275635     -0.0019934      0.0010982     -0.0019186      0.0010043      0.6500854      0.0655212
805572160      0.6165466      0.1259766     -0.0019552      0.0010210     -0.0019655      0.0010011      0.6502991      0.0644531
805653632      0.6165466      0.1255798     -0.0020548      0.0009720     -0.0019956      0.0009626      0.6504517      0.0628052
805735040      0.6165161      0.1242371     -0.0020279      0.0009797     -0.0019819      0.0009260      0.6502380      0.0622864
805816512      0.6165161      0.1230164     -0.0020339      0.0009387     -0.0019951      0.0009394      0.6502686      0.0606995
805897920      0.6169128      0.1216125     -0.0020655      0.0009005     -0.0020133      0.0008600      0.6501770      0.0596313
805979328      0.6172180      0.1207886     -0.0020581      0.0008699     -0.0020826      0.0008507      0.6502991      0.0586243
806060800      0.6170044      0.1200562     -0.0020998      0.0008657     -0.0020523      0.0008366      0.6499023      0.0566711
806142208      0.6167908      0.1186829     -0.0021603      0.0007936     -0.0020938      0.0007987      0.6501160      0.0557251
806223616      0.6166382      0.1179504     -0.0021430      0.0008553     -0.0020717      0.0007830      0.6499634      0.0545654
806305088      0.6169128      0.1162109     -0.0022050      0.0008217     -0.0020851      0.0008140      0.6494141      0.0534668
806386496      0.6167908      0.1154175     -0.0022348      0.0008132     -0.0021539      0.0008014      0.6495361      0.0518494
806467904      0.6171265      0.1144104     -0.0022465      0.0008464     -0.0021247      0.0007571      0.6496582      0.0511475
806549376      0.6166077      0.1132507     -0.0022805      0.0008034     -0.0021744      0.0007831      0.6495972      0.0495605
806630784      0.6172485      0.1125793     -0.0022421      0.0008227     -0.0022267      0.0007437      0.6494446      0.0485229
806712256      0.6167908      0.1111450     -0.0023135      0.0007992     -0.0022281      0.0007232      0.6490784      0.0469360
806793664      0.6174316      0.1101990     -0.0023472      0.0007839     -0.0022510      0.0007417      0.6488342      0.0458679
806875072      0.6173096      0.1089783     -0.0022941      0.0008247     -0.0022632      0.0007515      0.6490173      0.0444031
806956544      0.6173401      0.1079407     -0.0023460      0.0007882     -0.0022845      0.0007484      0.6488342      0.0435181
807037952      0.6173706      0.1065674     -0.0023863      0.0008227     -0.0022823      0.0007563      0.6486816      0.0419312
807119360      0.6174011      0.1056519     -0.0024136      0.0008012     -0.0022962      0.0007739      0.6487732      0.0408325
807200832      0.6177979      0.1044922     -0.0024391      0.0008670     -0.0023521      0.0007637      0.6488342      0.0394287
807282240      0.6173096      0.1036377     -0.0024674      0.0008245     -0.0023489      0.0007644      0.6486816      0.0382996
807363648      0.6173706      0.1024475     -0.0025053      0.0008513     -0.0024029      0.0007622      0.6481628      0.0371704
807445120      0.6175842      0.1015320     -0.0024983      0.0008451     -0.0024270      0.0008196      0.6484070      0.0358276
807526528      0.6177673      0.1004028     -0.0025554      0.0008488     -0.0024453      0.0008255      0.6481323      0.0348816
807608000      0.6173706      0.0990295     -0.0025870      0.0008936     -0.0024526      0.0007930      0.6481934      0.0336304
807689408      0.6174011      0.0978394     -0.0025519      0.0008390     -0.0024862      0.0008488      0.6477051      0.0323792
807770816      0.6175537      0.0968018     -0.0025970      0.0008774     -0.0024436      0.0008699      0.6477051      0.0310974
807852288      0.6177673      0.0954285     -0.0025774      0.0008955     -0.0024590      0.0009055      0.6478882      0.0296326
807933696      0.6179199      0.0946960     -0.0026110      0.0009935     -0.0025080      0.0009081      0.6474609      0.0286255
808015104      0.6176147      0.0935364     -0.0026020      0.0010208     -0.0025209      0.0009258      0.6478271      0.0270386
808096576      0.6176147      0.0925293     -0.0026083      0.0010239     -0.0025475      0.0009761      0.6470642      0.0263367
808177984      0.6175842      0.0915222     -0.0025800      0.0010419     -0.0025626      0.0009315      0.6473389      0.0243225
808259392      0.6178589      0.0906982     -0.0026317      0.0010595     -0.0025643      0.0010307      0.6470642      0.0232849
808340864      0.6175232      0.0887146     -0.0025923      0.0010791     -0.0025599      0.0010077      0.6468201      0.0220032
808422272      0.6174316      0.0877686     -0.0026475      0.0011094     -0.0025580      0.0009955      0.6469116      0.0210266
808503744      0.6177673      0.0865784     -0.0027058      0.0011145     -0.0025532      0.0010544      0.6465454      0.0198059
808585152      0.6174622      0.0855103     -0.0026572      0.0011529     -0.0025623      0.0010811      0.6467590      0.0188293
808666560      0.6176453      0.0846252     -0.0026352      0.0011532     -0.0025394      0.0010639      0.6463318      0.0167847
808748032      0.6176758      0.0830078     -0.0026824      0.0012183     -0.0025944      0.0011361      0.6460266      0.0159607
808829440      0.6178894      0.0817871     -0.0026704      0.0011654     -0.0025308      0.0010964      0.6455078      0.0150757
808910848      0.6175842      0.0808105     -0.0026218      0.0012078     -0.0025269      0.0011319      0.6461182      0.0132751
808992320      0.6176758      0.0800171     -0.0026098      0.0012170     -0.0025282      0.0011363      0.6458740      0.0123596
809073728      0.6179810      0.0787964     -0.0026168      0.0012153     -0.0025104      0.0011775      0.6456299      0.0113831
809155136      0.6176453      0.0780945     -0.0025908      0.0012493     -0.0025463      0.0011959      0.6457520      0.0097656
809236608      0.6174927      0.0765381     -0.0026077      0.0012621     -0.0025703      0.0011415      0.6448364      0.0083008
809318016      0.6180725      0.0752869     -0.0026163      0.0012306     -0.0024924      0.0011618      0.6452942      0.0068359
809399488      0.6176453      0.0741577     -0.0026453      0.0012411     -0.0025169      0.0012054      0.6450806      0.0057678
809480896      0.6173096      0.0731812     -0.0026355      0.0012699     -0.0025669      0.0011982      0.6440430      0.0047913
809562304      0.6174622      0.0718384     -0.0026852      0.0012511     -0.0025328      0.0012038      0.6441650      0.0032959
809643776      0.6175842      0.0705872     -0.0026172      0.0012655     -0.0024941      0.0011951      0.6440735      0.0021362
809725184      0.6174622      0.0697021     -0.0026281      0.0013098     -0.0025629      0.0012448      0.6439819      0.0007935
809806592      0.6172485      0.0682068     -0.0026239      0.0012918     -0.0025080      0.0011939      0.6435852     -0.0005493
809888064      0.6172180      0.0669250     -0.0026623      0.0013237     -0.0025110      0.0012469      0.6435852     -0.0017395
809969472      0.6167908      0.0660400     -0.0026517      0.0013373     -0.0025551      0.0012360      0.6433716     -0.0029602
810050880      0.6171570      0.0649109     -0.0026177      0.0013772     -0.0025702      0.0012418      0.6431580     -0.0040588
810132352      0.6171570      0.0636597     -0.0026553      0.0013753     -0.0026091      0.0012531      0.6427612     -0.0056458
810213760      0.6174927      0.0624084     -0.0026175      0.0013704     -0.0025767      0.0012807      0.6427307     -0.0072021
810295232      0.6170959      0.0617065     -0.0027261      0.0013809     -0.0025977      0.0013236      0.6426086     -0.0080566
810376640      0.6167297      0.0603027     -0.0026740      0.0013880     -0.0026089      0.0013371      0.6419067     -0.0092773
810458048      0.6169739      0.0592346     -0.0027039      0.0013859     -0.0025944      0.0013313      0.6423035     -0.0107727
810539520      0.6169128      0.0580750     -0.0027261      0.0014502     -0.0026315      0.0013201      0.6416931     -0.0121155
810620928      0.6166077      0.0571289     -0.0027115      0.0014172     -0.0025839      0.0013617      0.6416321     -0.0132446
810702336      0.6163025      0.0559082     -0.0026946      0.0014989     -0.0026410      0.0014615      0.6413269     -0.0147400
810783808      0.6166687      0.0545349     -0.0027572      0.0015022     -0.0025884      0.0014434      0.6407776     -0.0158997
810865216      0.6166992      0.0532227     -0.0026989      0.0016112     -0.0025787      0.0014620      0.6404114     -0.0170593
810946624      0.6165771      0.0521545     -0.0026875      0.0015974     -0.0026538      0.0015054      0.6405029     -0.0184937
811028096      0.6166382      0.0509949     -0.0026881      0.0016371     -0.0026414      0.0015446      0.6401672     -0.0194397
811109504      0.6163025      0.0494385     -0.0026696      0.0016646     -0.0026200      0.0015914      0.6400146     -0.0204468
811190976      0.6159058      0.0488892     -0.0027003      0.0017177     -0.0026169      0.0016288      0.6397705     -0.0222473
811272384      0.6160278      0.0477905     -0.0026983      0.0017247     -0.0026172      0.0016541      0.6394958     -0.0232849
811353792      0.6159973      0.0465698     -0.0026491      0.0017598     -0.0025820      0.0017170      0.6390991     -0.0246582
811435264      0.6159363      0.0453491     -0.0026249      0.0018466     -0.0025535      0.0017744      0.6389160     -0.0258789
811516672      0.6161499      0.0444336     -0.0025692      0.0018584     -0.0025520      0.0017498      0.6385803     -0.0271606
811598080      0.6155701      0.0436096     -0.0025581      0.0018737     -0.0025386      0.0017618      0.6382751     -0.0286865
811679552      0.6154785      0.0422668     -0.0025434      0.0018747     -0.0024823      0.0017785      0.6379089     -0.0300903
811760960      0.6154785      0.0408630     -0.0024655      0.0019122     -0.0024158      0.0018237      0.6374207     -0.0313416
811842368      0.6155701      0.0398865     -0.0024652      0.0019008     -0.0023978      0.0018024      0.6374207     -0.0322876
811923840      0.6151733      0.0387573     -0.0024327      0.0019412     -0.0023793      0.0017939      0.6375732     -0.0336914
812005248      0.6152954      0.0374451     -0.0024341      0.0019532     -0.0023319      0.0018145      0.6369934     -0.0348206
812086720      0.6151123      0.0365295     -0.0023547      0.0019343     -0.0022820      0.0018648      0.6361694     -0.0361633
812168128      0.6150818      0.0358276     -0.0023280      0.0019335     -0.0022632      0.0018947      0.6362305     -0.0373840
812249536      0.6149292      0.0343628     -0.0022960      0.0019538     -0.0022171      0.0018079      0.6357117     -0.0389709
812331008      0.6148376      0.0330505     -0.0022939      0.0019540     -0.0021733      0.0018734      0.6355896     -0.0401917
812412416      0.6147156      0.0321960     -0.0021996      0.0019724     -0.0021751      0.0018288      0.6353149     -0.0413513
812493824      0.6148071      0.0305481     -0.0022044      0.0019007     -0.0021511      0.0018294      0.6347351     -0.0430298
812575296      0.6145020      0.0296936     -0.0021678      0.0019475     -0.0021183      0.0018479      0.6347046     -0.0440063
812656704      0.6142578      0.0286865     -0.0021342      0.0019431     -0.0021257      0.0018516      0.6346741     -0.0451660
812738112      0.6143188      0.0278931     -0.0021513      0.0019525     -0.0021157      0.0017934      0.6341553     -0.0465393
812819584      0.6141052      0.0263062     -0.0020839      0.0019290     -0.0020479      0.0018561      0.6337891     -0.0476990
812900992      0.6139832      0.0251770     -0.0020660      0.0019808     -0.0020427      0.0018172      0.6335754     -0.0487366
812982464      0.6138306      0.0240479     -0.0020595      0.0019004     -0.0019438      0.0018342      0.6330261     -0.0503845
813063872      0.6139221      0.0226746     -0.0020037      0.0019687     -0.0019823      0.0018740      0.6325378     -0.0512085
813145280      0.6140442      0.0220947     -0.0020049      0.0019429     -0.0019366      0.0018581      0.6322632     -0.0527954
813226752      0.6137390      0.0208740     -0.0019844      0.0019438     -0.0018994      0.0018547      0.6323853     -0.0540466
813308160      0.6134033      0.0197449     -0.0019258      0.0019307     -0.0018890      0.0018647      0.6318359     -0.0554199
813389568      0.6131287      0.0182190     -0.0019008      0.0018985     -0.0018134      0.0018297      0.6315918     -0.0567322
813471040      0.6129761      0.0171204     -0.0018271      0.0019171     -0.0018165      0.0018145      0.6308289     -0.0575867
813552448      0.6130066      0.0161438     -0.0017953      0.0019110     -0.0017892      0.0017914      0.6309814     -0.0591431
813633856      0.6130066      0.0148621     -0.0017440      0.0018835     -0.0017478      0.0017898      0.6300354     -0.0606689
813715328      0.6128235      0.0140076     -0.0017073      0.0018107     -0.0016803      0.0017272      0.6303101     -0.0617065
813796736      0.6123352      0.0129395     -0.0016675      0.0017936     -0.0016958      0.0016943      0.6298523     -0.0623779
813878144      0.6123047      0.0117188     -0.0016731      0.0017643     -0.0015628      0.0016807      0.6294861     -0.0642090
813959616      0.6121521      0.0108337     -0.0015985      0.0016980     -0.0015742      0.0015887      0.6290588     -0.0650940
814041024      0.6119995      0.0088196     -0.0015726      0.0016246     -0.0015596      0.0015142      0.6286926     -0.0667419
814122496      0.6120911      0.0086975     -0.0015581      0.0015544     -0.0015264      0.0014942      0.6283264     -0.0678406
814203904      0.6118774      0.0072327     -0.0015834      0.0014707     -0.0015218      0.0014169      0.6281433     -0.0694580
814285312      0.6118774      0.0058289     -0.0015993      0.0014470     -0.0015618      0.0013157      0.6276855     -0.0701599
814366784      0.6116943      0.0046692     -0.0015911      0.0013710     -0.0015249      0.0012870      0.6274719     -0.0716858
814448192      0.6115723      0.0036011     -0.0016251      0.0012840     -0.0015839      0.0012058      0.6268616     -0.0726318
814529600      0.6114502      0.0024414     -0.0016516      0.0012043     -0.0016035      0.0011913      0.6266479     -0.0740967
814611072      0.6113892      0.0013428     -0.0016515      0.0011616     -0.0016155      0.0010709      0.6265869     -0.0754395
814692480      0.6113892      0.0005798     -0.0016857      0.0011216     -0.0017147      0.0010878      0.6259155     -0.0766907
814773888      0.6109314     -0.0008850     -0.0017374      0.0010662     -0.0017340      0.0009772      0.6252136     -0.0777588
814855360      0.6108398     -0.0017090     -0.0018207      0.0010512     -0.0017776      0.0009509      0.6253967     -0.0793152
814936768      0.6105347     -0.0028687     -0.0018760      0.0010198     -0.0018277      0.0009526      0.6245422     -0.0802307
815018240      0.6105042     -0.0040894     -0.0019486      0.0010021     -0.0018933      0.0009313      0.6245117     -0.0815735
815099648      0.6104736     -0.0052490     -0.0020716      0.0009499     -0.0020064      0.0009027      0.6241455     -0.0828857
815181056      0.6097717     -0.0059204     -0.0021058      0.0009532     -0.0020409      0.0008974      0.6236267     -0.0841675
815262528      0.6097717     -0.0081177     -0.0021840      0.0009899     -0.0020974      0.0008992      0.6235046     -0.0851440
815343936      0.6097717     -0.0088196     -0.0022573      0.0009944     -0.0021663      0.0008894      0.6229553     -0.0865784
815425344      0.6096802     -0.0095825     -0.0022668      0.0009903     -0.0022068      0.0009458      0.6228943     -0.0878296
815506816      0.6094666     -0.0109253     -0.0023339      0.0010314     -0.0023001      0.0009570      0.6227417     -0.0893860
815588224      0.6097412     -0.0123596     -0.0024108      0.0010897     -0.0023270      0.0009376      0.6221008     -0.0902405
815669632      0.6094971     -0.0135498     -0.0024471      0.0010649     -0.0023609      0.0010194      0.6220703     -0.0919495
815751104      0.6092834     -0.0140381     -0.0024281      0.0011331     -0.0024166      0.0010381      0.6213989     -0.0931396
815832512      0.6093750     -0.0154724     -0.0024811      0.0011566     -0.0024527      0.0010468      0.6210327     -0.0946960
