!RF1407D, #2,job7175,narrow,bn,8/22/05
# HZ S RI R 50
855571008      0.1901245     -0.2768555      0.0005348      0.0019262      0.0003846      0.0020864      0.0845947     -0.5905151
855587264      0.1902161     -0.2769165      0.0005164      0.0019016      0.0003362      0.0020761      0.0840454     -0.5895996
855603584      0.1895752     -0.2765503      0.0004721      0.0018888      0.0003850      0.0020967      0.0839844     -0.5899048
855619840      0.1900330     -0.2769470      0.0004497      0.0018592      0.0003674      0.0020533      0.0831299     -0.5899658
855636160      0.1898804     -0.2772827      0.0004027      0.0018418      0.0003169      0.0020273      0.0830688     -0.5912476
855652416      0.1889954     -0.2774353      0.0004749      0.0018260      0.0003841      0.0020452      0.0823975     -0.5914307
855668736      0.1886902     -0.2772827      0.0004303      0.0018609      0.0003161      0.0020165      0.0827637     -0.5912476
855684992      0.1885986     -0.2776184      0.0004361      0.0018222      0.0003436      0.0020163      0.0816040     -0.5908203
855701312      0.1883850     -0.2779541      0.0004518      0.0018470      0.0002575      0.0020585      0.0808105     -0.5906372
855717568      0.1880798     -0.2777710      0.0003984      0.0018473      0.0002561      0.0019996      0.0802612     -0.5910645
855733888      0.1878052     -0.2779846      0.0003710      0.0018125      0.0002439      0.0019460      0.0797729     -0.5908813
855750144      0.1876526     -0.2781067      0.0003469      0.0017810      0.0002270      0.0019882      0.0802002     -0.5906372
855766464      0.1876526     -0.2784119      0.0003035      0.0017717      0.0002048      0.0019619      0.0791016     -0.5914307
855782720      0.1868896     -0.2785034      0.0003183      0.0018029      0.0002081      0.0019450      0.0787354     -0.5912476
855799040      0.1869812     -0.2788391      0.0002589      0.0017684      0.0001409      0.0019658      0.0783081     -0.5909424
855815296      0.1862488     -0.2786560      0.0003273      0.0017800      0.0001528      0.0019760      0.0783691     -0.5911865
855831616      0.1866455     -0.2789612      0.0002830      0.0017819      0.0001435      0.0019522      0.0769653     -0.5913696
855847872      0.1861572     -0.2792053      0.0002244      0.0017631      0.0001175      0.0018694      0.0774536     -0.5911865
855864192      0.1857300     -0.2791443      0.0002211      0.0017403      0.0001068      0.0019143      0.0758057     -0.5920410
855880448      0.1858521     -0.2789307      0.0001808      0.0017663      0.0000582      0.0019274      0.0763550     -0.5916138
855896704      0.1858521     -0.2791748      0.0001982      0.0017567      0.0000491      0.0019407      0.0754395     -0.5911865
855913024      0.1852722     -0.2792664      0.0001922      0.0017562      0.0000371      0.0018922      0.0746460     -0.5909424
855929280      0.1853943     -0.2795105      0.0001358      0.0017494      0.0000341      0.0019174      0.0747070     -0.5913696
855945600      0.1850586     -0.2797241      0.0001323      0.0017064     -0.0000119      0.0019143      0.0737915     -0.5910645
855961856      0.1847534     -0.2797241      0.0001130      0.0016930     -0.0000550      0.0018607      0.0740967     -0.5916748
855978176      0.1848145     -0.2801208      0.0000780      0.0017332     -0.0000412      0.0018775      0.0734253     -0.5922241
855994432      0.1843567     -0.2797241      0.0000434      0.0017039     -0.0001051      0.0018581      0.0728149     -0.5915527
856010752      0.1842651     -0.2797241      0.0000134      0.0017413     -0.0000863      0.0018607      0.0723877     -0.5921631
856027008      0.1834106     -0.2798462     -0.0000172      0.0017450     -0.0001113      0.0018213      0.0715332     -0.5918579
856043328      0.1835022     -0.2802734     -0.0000176      0.0017042     -0.0001370      0.0018576      0.0714722     -0.5924683
856059584      0.1832275     -0.2804565     -0.0000303      0.0016794     -0.0001906      0.0018642      0.0712280     -0.5917969
856075904      0.1826782     -0.2804260     -0.0000876      0.0017371     -0.0001401      0.0018222      0.0706177     -0.5916748
856092160      0.1831055     -0.2808838     -0.0000449      0.0016905     -0.0001875      0.0018330      0.0704956     -0.5916138
856108480      0.1825562     -0.2804565     -0.0000708      0.0017529     -0.0002338      0.0017940      0.0693359     -0.5916748
856124736      0.1823120     -0.2806091     -0.0001041      0.0017031     -0.0002757      0.0018505      0.0696411     -0.5914917
856141056      0.1822205     -0.2812805     -0.0001338      0.0016894     -0.0002866      0.0018245      0.0688477     -0.5921631
856157312      0.1814575     -0.2809448     -0.0001695      0.0017313     -0.0003140      0.0018556      0.0681152     -0.5925293
856173568      0.1813354     -0.2813416     -0.0001343      0.0017500     -0.0003470      0.0018672      0.0679321     -0.5927734
856189888      0.1814880     -0.2819214     -0.0002147      0.0017452     -0.0003806      0.0018147      0.0678101     -0.5927124
856206144      0.1814575     -0.2816467     -0.0002019      0.0017356     -0.0003549      0.0018569      0.0669556     -0.5924072
856222464      0.1812439     -0.2811890     -0.0002006      0.0017103     -0.0003803      0.0018208      0.0659180     -0.5921021
856238720      0.1810913     -0.2817688     -0.0002502      0.0017159     -0.0004367      0.0018123      0.0662842     -0.5922241
856255040      0.1805725     -0.2815857     -0.0002519      0.0016826     -0.0004410      0.0018262      0.0650024     -0.5919189
856271296      0.1802673     -0.2819519     -0.0003066      0.0017107     -0.0004948      0.0018264      0.0650635     -0.5927124
856287616      0.1799316     -0.2823792     -0.0003361      0.0016922     -0.0005114      0.0018092      0.0647583     -0.5926514
856303872      0.1797485     -0.2822876     -0.0003549      0.0017248     -0.0005536      0.0017985      0.0643311     -0.5925903
856320192      0.1795349     -0.2825623     -0.0003585      0.0017221     -0.0005101      0.0018802      0.0636597     -0.5928955
856336448      0.1791687     -0.2827759     -0.0004120      0.0017440     -0.0006088      0.0018489      0.0641479     -0.5926514
856352768      0.1791992     -0.2825928     -0.0003936      0.0016979     -0.0005965      0.0017867      0.0632324     -0.5925903
856369024      0.1788635     -0.2827148     -0.0004319      0.0017174     -0.0006264      0.0018171      0.0621338     -0.5930176
856385344      0.1787720     -0.2830200     -0.0004646      0.0017277     -0.0006139      0.0018536      0.0621338     -0.5933228
856401600      0.1783447     -0.2830505     -0.0005424      0.0017074     -0.0006490      0.0017844      0.0618896     -0.5930786
856417920      0.1777649     -0.2832031     -0.0004945      0.0016609     -0.0006868      0.0017989      0.0616455     -0.5933838
856434176      0.1782227     -0.2832947     -0.0005294      0.0017010     -0.0007143      0.0018082      0.0604248     -0.5925293
856450496      0.1777039     -0.2834167     -0.0005312      0.0017174     -0.0007418      0.0017740      0.0602417     -0.5936279
856466752      0.1775818     -0.2834167     -0.0005773      0.0017028     -0.0007652      0.0017905      0.0602417     -0.5932617
856483008      0.1771851     -0.2836304     -0.0006083      0.0016773     -0.0007854      0.0017806      0.0594482     -0.5932617
856499328      0.1772156     -0.2841187     -0.0006136      0.0017164     -0.0008199      0.0017985      0.0581665     -0.5937500
856515584      0.1765137     -0.2839050     -0.0006543      0.0016927     -0.0008335      0.0018399      0.0587158     -0.5931396
856531904      0.1764221     -0.2839355     -0.0006814      0.0016909     -0.0008531      0.0018173      0.0581665     -0.5935669
856548160      0.1763306     -0.2844543     -0.0006511      0.0016745     -0.0009313      0.0017712      0.0573120     -0.5931396
856564480      0.1764832     -0.2848206     -0.0006993      0.0017008     -0.0009013      0.0017933      0.0573730     -0.5938110
856580736      0.1759033     -0.2843933     -0.0007476      0.0016954     -0.0009607      0.0018026      0.0566406     -0.5935669
856597056      0.1755676     -0.2844238     -0.0007521      0.0016892     -0.0009892      0.0017622      0.0565186     -0.5941772
856613312      0.1750488     -0.2843018     -0.0007578      0.0016930     -0.0009716      0.0017995      0.0560303     -0.5933838
856629632      0.1748657     -0.2849731     -0.0008043      0.0016987     -0.0010178      0.0017587      0.0550537     -0.5941772
856645888      0.1747437     -0.2844849     -0.0008333      0.0016943     -0.0010870      0.0017452      0.0549927     -0.5936890
856662208      0.1746216     -0.2850952     -0.0008910      0.0017149     -0.0011022      0.0017598      0.0546265     -0.5935059
856678464      0.1743774     -0.2850647     -0.0009006      0.0016927     -0.0011499      0.0017792      0.0537109     -0.5942383
856694784      0.1739197     -0.2851868     -0.0009267      0.0017114     -0.0011729      0.0017995      0.0537109     -0.5942383
856711040      0.1738586     -0.2852783     -0.0009727      0.0016500     -0.0011612      0.0017420      0.0535278     -0.5935669
856727360      0.1737976     -0.2853394     -0.0010015      0.0016930     -0.0012336      0.0017596      0.0528564     -0.5938110
856743616      0.1733551     -0.2857208     -0.0010383      0.0016730     -0.0012732      0.0017954      0.0524597     -0.5944824
856759936      0.1729889     -0.2853699     -0.0011048      0.0016750     -0.0013405      0.0017675      0.0518494     -0.5942688
856776192      0.1728210     -0.2858429     -0.0010852      0.0017168     -0.0013284      0.0017688      0.0513611     -0.5938416
856792448      0.1728821     -0.2857971     -0.0011726      0.0017049     -0.0013664      0.0017009      0.0504150     -0.5936279
856808768      0.1723328     -0.2861786     -0.0012025      0.0017084     -0.0014011      0.0018042      0.0494385     -0.5942078
856825024      0.1725311     -0.2859650     -0.0012542      0.0016531     -0.0014516      0.0017376      0.0501709     -0.5941162
856841344      0.1716919     -0.2863312     -0.0012185      0.0017092     -0.0015048      0.0017778      0.0496216     -0.5948181
856857600      0.1714630     -0.2862854     -0.0012751      0.0017220     -0.0015165      0.0017393      0.0492249     -0.5942078
856873920      0.1718597     -0.2865448     -0.0013012      0.0016784     -0.0015953      0.0017686      0.0487061     -0.5952148
856890176      0.1714020     -0.2867889     -0.0013344      0.0017112     -0.0015823      0.0017806      0.0478821     -0.5950928
856906496      0.1709900     -0.2865295     -0.0013847      0.0016929     -0.0016806      0.0017833      0.0475159     -0.5941772
856922752      0.1702576     -0.2868042     -0.0014151      0.0017856     -0.0016784      0.0017869      0.0469666     -0.5942383
856939072      0.1706696     -0.2868195     -0.0014880      0.0017456     -0.0017158      0.0018356      0.0464172     -0.5942993
856955328      0.1704712     -0.2870941     -0.0015148      0.0017314     -0.0017976      0.0018449      0.0461121     -0.5946045
856971648      0.1699219     -0.2875519     -0.0015324      0.0017756     -0.0018313      0.0018144      0.0453186     -0.5942078
856987904      0.1698914     -0.2870941     -0.0016388      0.0017502     -0.0018449      0.0017820      0.0453186     -0.5952454
857004224      0.1694489     -0.2873383     -0.0016063      0.0017724     -0.0018656      0.0018148      0.0446472     -0.5942383
857020480      0.1689758     -0.2877808     -0.0016315      0.0017785     -0.0019693      0.0017759      0.0439758     -0.5944214
857036800      0.1689301     -0.2874908     -0.0016896      0.0017362     -0.0020115      0.0018772      0.0433350     -0.5950012
857053056      0.1685486     -0.2883453     -0.0017347      0.0018260     -0.0020100      0.0017998      0.0430908     -0.5944519
857069312      0.1684570     -0.2878265     -0.0017954      0.0018336     -0.0021223      0.0018529      0.0426941     -0.5948181
857085632      0.1681671     -0.2882233     -0.0018090      0.0018403     -0.0021505      0.0018463      0.0425720     -0.5947876
857101888      0.1681366     -0.2879944     -0.0018792      0.0018881     -0.0021634      0.0018508      0.0415955     -0.5951843
857118208      0.1676483     -0.2881012     -0.0019087      0.0018373     -0.0021999      0.0018551      0.0414124     -0.5947266
857134464      0.1675415     -0.2883453     -0.0020145      0.0018530     -0.0022765      0.0018408      0.0411987     -0.5947266
857150784      0.1669617     -0.2883453     -0.0020134      0.0018249     -0.0023292      0.0018740      0.0400391     -0.5951538
857167040      0.1669769     -0.2884521     -0.0020391      0.0018741     -0.0023541      0.0019071      0.0395203     -0.5951233
857183360      0.1664429     -0.2884216     -0.0021068      0.0018651     -0.0023990      0.0018848      0.0396729     -0.5953979
857199616      0.1657257     -0.2890472     -0.0021456      0.0018890     -0.0024749      0.0019144      0.0391235     -0.5946960
857215936      0.1662445     -0.2891541     -0.0021299      0.0019236     -0.0025328      0.0018554      0.0389709     -0.5947266
857232192      0.1657867     -0.2892151     -0.0022638      0.0019054     -0.0025649      0.0019367      0.0376892     -0.5947876
857248512      0.1654816     -0.2892609     -0.0022545      0.0019460     -0.0025752      0.0019438      0.0375977     -0.5949402
857264768      0.1646729     -0.2893219     -0.0022916      0.0019341     -0.0026716      0.0019420      0.0372009     -0.5953369
857281088      0.1648102     -0.2895508     -0.0023482      0.0019472     -0.0027248      0.0019435      0.0365906     -0.5949707
857297344      0.1643524     -0.2893829     -0.0024250      0.0020002     -0.0027841      0.0018717      0.0360413     -0.5942383
857313664      0.1639557     -0.2895966     -0.0024422      0.0019771     -0.0028782      0.0019860      0.0355530     -0.5947266
857329920      0.1640167     -0.2901611     -0.0025291      0.0019975     -0.0028960      0.0019532      0.0346069     -0.5948486
857346240      0.1635742     -0.2900238     -0.0025603      0.0020082     -0.0029075      0.0019902      0.0340881     -0.5947876
857362496      0.1631165     -0.2903137     -0.0026894      0.0020319     -0.0029868      0.0019971      0.0340271     -0.5948792
857378752      0.1635742     -0.2897491     -0.0026724      0.0019873     -0.0030745      0.0020046      0.0339355     -0.5944519
857395072      0.1627502     -0.2909241     -0.0027403      0.0020463     -0.0030988      0.0020564      0.0333557     -0.5944824
857411328      0.1623840     -0.2899628     -0.0027783      0.0020620     -0.0031497      0.0020652      0.0325623     -0.5942993
857427648      0.1622009     -0.2905273     -0.0028335      0.0021150     -0.0032552      0.0020528      0.0322571     -0.5949097
857443904      0.1617584     -0.2906494     -0.0028757      0.0020880     -0.0033222      0.0021075      0.0311279     -0.5945129
857460224      0.1613617     -0.2911987     -0.0029591      0.0021018     -0.0033644      0.0021355      0.0310669     -0.5949402
857476480      0.1612396     -0.2909088     -0.0030288      0.0021144     -0.0034368      0.0021247      0.0301514     -0.5945435
857492800      0.1608276     -0.2907104     -0.0031053      0.0021842     -0.0035515      0.0021657      0.0300598     -0.5946350
857509056      0.1608582     -0.2911224     -0.0030966      0.0021820     -0.0035808      0.0021611      0.0290527     -0.5948486
857525376      0.1603394     -0.2911835     -0.0031613      0.0021884     -0.0036284      0.0021722      0.0288086     -0.5943909
857541632      0.1600494     -0.2906799     -0.0032889      0.0022465     -0.0037163      0.0022178      0.0281372     -0.5936890
857557952      0.1594849     -0.2910614     -0.0033590      0.0022534     -0.0038375      0.0022544      0.0279846     -0.5933838
857574208      0.1593323     -0.2912598     -0.0034218      0.0022815     -0.0038813      0.0022691      0.0266724     -0.5945129
857590528      0.1589813     -0.2921448     -0.0034628      0.0023201     -0.0039690      0.0022745      0.0270386     -0.5938110
857606784      0.1588135     -0.2915649     -0.0035225      0.0023630     -0.0040817      0.0022702      0.0260315     -0.5939941
857623104      0.1586456     -0.2914886     -0.0036167      0.0023650     -0.0041373      0.0023506      0.0253906     -0.5941162
857639360      0.1579437     -0.2916870     -0.0037566      0.0023996     -0.0042493      0.0023453      0.0251160     -0.5933533
857655680      0.1574554     -0.2917938     -0.0038086      0.0024325     -0.0043614      0.0023961      0.0246582     -0.5940247
857671936      0.1574860     -0.2919464     -0.0038605      0.0024331     -0.0044024      0.0024207      0.0244141     -0.5938721
857688192      0.1572266     -0.2917938     -0.0039299      0.0025313     -0.0044796      0.0024812      0.0237427     -0.5933838
857704512      0.1570282     -0.2913818     -0.0040269      0.0025594     -0.0046599      0.0025210      0.0230408     -0.5935669
857720768      0.1567535     -0.2920532     -0.0040991      0.0026059     -0.0047467      0.0025516      0.0225220     -0.5928345
857737088      0.1565399     -0.2917938     -0.0042043      0.0026331     -0.0047271      0.0025632      0.0220032     -0.5928955
857753344      0.1555634     -0.2921143     -0.0042262      0.0026500     -0.0048807      0.0026186      0.0210266     -0.5930176
857769664      0.1555176     -0.2919922     -0.0043774      0.0027165     -0.0050323      0.0026598      0.0214233     -0.5924683
857785920      0.1558685     -0.2922211     -0.0044620      0.0027845     -0.0051057      0.0027514      0.0209961     -0.5928345
857802240      0.1547852     -0.2920227     -0.0045576      0.0028696     -0.0051944      0.0027723      0.0199890     -0.5931091
857818496      0.1549530     -0.2915344     -0.0046451      0.0028939     -0.0053205      0.0028453      0.0191956     -0.5929260
857834816      0.1547546     -0.2916718     -0.0048299      0.0029001     -0.0054204      0.0029306      0.0189819     -0.5925598
857851072      0.1537933     -0.2922058     -0.0049057      0.0029721     -0.0054920      0.0029845      0.0189514     -0.5925598
857867392      0.1540222     -0.2918091     -0.0049767      0.0030682     -0.0056071      0.0030081      0.0179138     -0.5923462
857883648      0.1534729     -0.2920074     -0.0050533      0.0031304     -0.0057304      0.0030990      0.0179138     -0.5925598
857899968      0.1536407     -0.2919464     -0.0051546      0.0032372     -0.0058424      0.0031233      0.0169983     -0.5917053
857916224      0.1532135     -0.2920685     -0.0053329      0.0033112     -0.0059855      0.0032666      0.0169678     -0.5920410
857932544      0.1525269     -0.2916260     -0.0053780      0.0034070     -0.0061557      0.0032887      0.0160522     -0.5917664
857948800      0.1525421     -0.2921600     -0.0054815      0.0034978     -0.0062308      0.0033941      0.0156250     -0.5914307
857965056      0.1519623     -0.2913971     -0.0055776      0.0035520     -0.0064032      0.0034802      0.0148926     -0.5911255
857981376      0.1516876     -0.2915802     -0.0057156      0.0036922     -0.0064731      0.0036654      0.0149231     -0.5918579
857997632      0.1515350     -0.2914734     -0.0058281      0.0038087     -0.0066054      0.0037408      0.0140076     -0.5914917
858013952      0.1512604     -0.2914124     -0.0059130      0.0038559     -0.0067604      0.0038114      0.0134888     -0.5916443
858030208      0.1508484     -0.2920837     -0.0060740      0.0039899     -0.0069108      0.0039313      0.0129395     -0.5908203
858046528      0.1506348     -0.2915344     -0.0061276      0.0041113     -0.0069849      0.0040538      0.0124207     -0.5906372
