!RF1404D Cal'd @ device
# HZ S RI R 50
413920000      0.8992920     -0.4202271      0.0001291      0.0001306      0.0001002      0.0001325      0.9012451     -0.4307251
413944992      0.8993530     -0.4216309      0.0001091      0.0001259      0.0001144      0.0001265      0.9022217     -0.4302979
413969984      0.8990479     -0.4204712      0.0001191      0.0001296      0.0001428      0.0001142      0.9013672     -0.4304199
413995008      0.8989868     -0.4208984      0.0001034      0.0001334      0.0001069      0.0001517      0.9018555     -0.4304199
414020000      0.8994141     -0.4205933      0.0001406      0.0001208      0.0001283      0.0001179      0.9020996     -0.4307251
414044992      0.8992310     -0.4206543      0.0001222      0.0000934      0.0001345      0.0001343      0.9020386     -0.4295044
414070016      0.8990479     -0.4213867      0.0001106      0.0001079      0.0001568      0.0001103      0.9014282     -0.4301147
414095008      0.8994751     -0.4216919      0.0000940      0.0001195      0.0000912      0.0000869      0.9016113     -0.4310303
414120000      0.8989258     -0.4209595      0.0001382      0.0000895      0.0001441      0.0000771      0.9027710     -0.4308472
414144992      0.8991089     -0.4203491      0.0001462      0.0001186      0.0001240      0.0001255      0.9020996     -0.4301147
414169984      0.8996582     -0.4211426      0.0001435      0.0000869      0.0001151      0.0001361      0.9020996     -0.4304199
414195008      0.8989868     -0.4211426      0.0001369      0.0001049      0.0001275      0.0001104      0.9014893     -0.4302979
414220000      0.8990479     -0.4208984      0.0001000      0.0001097      0.0001463      0.0001013      0.9020386     -0.4301147
414244992      0.8985596     -0.4211426      0.0000624      0.0000623      0.0001274      0.0001079      0.9010620     -0.4304199
414270016      0.8992310     -0.4208374      0.0001288      0.0000755      0.0000816      0.0000902      0.9014893     -0.4306641
414295008      0.8996582     -0.4208374      0.0001275      0.0000935      0.0001113      0.0000924      0.9022827     -0.4302979
414320000      0.8986206     -0.4210815      0.0001127      0.0000844      0.0001170      0.0001015      0.9011230     -0.4306641
414344992      0.8984985     -0.4215698      0.0001180      0.0000823      0.0001155      0.0000846      0.9018555     -0.4307861
414369984      0.8986206     -0.4215088      0.0001504      0.0000666      0.0001248      0.0000788      0.9014893     -0.4308472
414395008      0.8991699     -0.4213867      0.0001506      0.0000640      0.0001001      0.0000762      0.9014893     -0.4306030
414420000      0.8985596     -0.4214478      0.0001454      0.0000637      0.0001392      0.0000774      0.9015503     -0.4302979
414444992      0.8991089     -0.4211426      0.0000797      0.0000428      0.0001302      0.0000857      0.9017334     -0.4302979
414470016      0.8977661     -0.4207764      0.0001042      0.0000602      0.0001038      0.0000638      0.9014282     -0.4301758
414495008      0.8997803     -0.4216919      0.0001201      0.0000564      0.0001363      0.0000972      0.9014893     -0.4307861
414520000      0.8994141     -0.4216919      0.0001373      0.0001020      0.0000705      0.0000739      0.9012451     -0.4304199
414544992      0.8991089     -0.4215088      0.0000792      0.0000479      0.0001333      0.0000656      0.9008179     -0.4310913
414569984      0.8989258     -0.4216309      0.0001258      0.0000492      0.0000823      0.0000435      0.9016724     -0.4307251
414595008      0.8991699     -0.4219360      0.0001297      0.0000649      0.0001100      0.0000776      0.9016113     -0.4304810
414620000      0.8981934     -0.4209595      0.0001299      0.0000622      0.0001350      0.0000313      0.9017334     -0.4307861
414644992      0.8984985     -0.4213257      0.0001116      0.0000323      0.0001023      0.0000490      0.9016113     -0.4308472
414670016      0.8984375     -0.4219971      0.0000986      0.0000650      0.0001171      0.0000499      0.9015503     -0.4310303
414695008      0.8985596     -0.4215088      0.0000761      0.0000217      0.0001087      0.0000629      0.9013062     -0.4310303
414720000      0.8985596     -0.4220581      0.0000801      0.0000374      0.0001112      0.0000383      0.9020386     -0.4308472
414744992      0.8980103     -0.4216919      0.0000433      0.0000424      0.0000588      0.0000531      0.9016113     -0.4312134
414769984      0.8986206     -0.4211426      0.0000809      0.0000271      0.0001150      0.0000279      0.9006348     -0.4309692
414795008      0.8984985     -0.4217529      0.0001311      0.0000491      0.0001110      0.0000358      0.9016113     -0.4313965
414820000      0.8986206     -0.4224243      0.0000691      0.0000444      0.0000867      0.0000382      0.9010620     -0.4309082
414844992      0.8992920     -0.4222412      0.0000843      0.0000507      0.0000733      0.0000003      0.9011230     -0.4319458
414870016      0.8990479     -0.4213257      0.0000415      0.0000007      0.0000782      0.0000511      0.9013672     -0.4310303
414895008      0.8984985     -0.4219971      0.0000844      0.0000480      0.0000496      0.0000075      0.9017334     -0.4319458
414920000      0.8987427     -0.4220581      0.0000699      0.0000339      0.0001195      0.0000226      0.9016113     -0.4312744
414944992      0.8984985     -0.4220581      0.0000957      0.0000360      0.0000947      0.0000202      0.9015503     -0.4312744
414969984      0.8991089     -0.4221802      0.0000887      0.0000588      0.0000796      0.0000655      0.9009399     -0.4313965
414995008      0.8989868     -0.4223022      0.0001081      0.0000785      0.0000312      0.0000702      0.9011841     -0.4313965
415020000      0.8976440     -0.4223022      0.0000443      0.0000319      0.0000822      0.0000409      0.9014893     -0.4312744
415044992      0.8986206     -0.4219971      0.0000490      0.0000375      0.0000526      0.0000389      0.9017944     -0.4308472
415070016      0.8989258     -0.4219971      0.0000646      0.0000361      0.0000531      0.0000437      0.9011230     -0.4309692
415095008      0.8982544     -0.4218140      0.0000509      0.0000117      0.0000331      0.0000383      0.9008179     -0.4310303
415120000      0.8988037     -0.4222412      0.0000664      0.0000129      0.0000519      0.0000315      0.9008789     -0.4313354
415144992      0.8984375     -0.4216309      0.0000803      0.0000346      0.0000625      0.0000404      0.9008179     -0.4315796
415169984      0.8980103     -0.4219360      0.0000351      0.0000156      0.0000342      0.0000504      0.9008179     -0.4314575
415195008      0.8991089     -0.4216919      0.0000078      0.0000343      0.0000236      0.0000417      0.9013672     -0.4312744
415220000      0.8986206     -0.4226074      0.0000167      0.0000531      0.0000313      0.0000701      0.9007568     -0.4309082
415244992      0.8984985     -0.4220581      0.0000765      0.0000161      0.0000400      0.0000596      0.9015503     -0.4309692
415270016      0.8984985     -0.4229126      0.0000502      0.0000220      0.0000517      0.0000291      0.9010010     -0.4312744
415295008      0.8992920     -0.4224243     -0.0000021      0.0000283      0.0000819     -0.0000105      0.9011230     -0.4314575
415320000      0.8988037     -0.4226685      0.0000458      0.0000112      0.0000490      0.0000514      0.9010010     -0.4312744
415344992      0.8983765     -0.4222412      0.0000020      0.0000416      0.0000529      0.0000412      0.9013672     -0.4318237
415369984      0.8983765     -0.4224854      0.0000397      0.0000237      0.0000625      0.0000402      0.9014282     -0.4320068
415395008      0.8988647     -0.4220581      0.0000397      0.0000237      0.0000184     -0.0000116      0.9011230     -0.4318237
415420000      0.8982544     -0.4221191      0.0000345      0.0000233      0.0000398      0.0000571      0.9011230     -0.4316406
415444992      0.8985596     -0.4224854      0.0000248      0.0000148      0.0000355      0.0000624      0.9008789     -0.4318848
415470016      0.8986816     -0.4227295      0.0000293      0.0000229      0.0000082      0.0000334      0.9003296     -0.4319458
415495008      0.8979492     -0.4226685     -0.0000046      0.0000618      0.0000113      0.0000649      0.9011841     -0.4320679
415520000      0.8982544     -0.4224243      0.0000193      0.0000196     -0.0000097      0.0000498      0.9012451     -0.4320068
415544992      0.8985596     -0.4226074      0.0000328      0.0000465     -0.0000012      0.0000368      0.9009399     -0.4320068
415569984      0.8983154     -0.4228516      0.0000239      0.0000276     -0.0000126      0.0000208      0.9010620     -0.4323730
415595008      0.8979492     -0.4221802     -0.0000084      0.0000433     -0.0000037      0.0000614      0.9013062     -0.4318237
415620000      0.8983765     -0.4225464     -0.0000295      0.0000496     -0.0000166      0.0000774      0.9005737     -0.4318848
415644992      0.8980103     -0.4222412     -0.0000078      0.0000357      0.0000210      0.0000150      0.9010620     -0.4319458
415670016      0.8980103     -0.4232178     -0.0000087      0.0000486     -0.0000379      0.0000111      0.9010010     -0.4318848
415695008      0.8983765     -0.4224243     -0.0000391      0.0000385      0.0000029      0.0000290      0.9005737     -0.4317627
415720000      0.8983154     -0.4232178      0.0000081      0.0000316      0.0000222      0.0000271      0.9011230     -0.4310303
415744992      0.8978271     -0.4226685     -0.0000242      0.0000474     -0.0000087      0.0000595      0.9011230     -0.4314575
415769984      0.8980103     -0.4227295     -0.0000270      0.0000860     -0.0000285      0.0000566      0.9014893     -0.4329224
415795008      0.8983154     -0.4227905      0.0000003      0.0000673     -0.0000031      0.0000662      0.9010620     -0.4329834
415820000      0.8982544     -0.4224854     -0.0000083      0.0000434      0.0000030      0.0000290      0.9010010     -0.4321899
415844992      0.8987427     -0.4225464      0.0000002      0.0000699     -0.0000558      0.0000764      0.9011841     -0.4326172
415870016      0.8979492     -0.4235840     -0.0000431      0.0000952     -0.0000155      0.0000871      0.9012451     -0.4324951
415895008      0.8978882     -0.4226685     -0.0000310      0.0000703     -0.0000374      0.0000160      0.9011230     -0.4323120
415920000      0.8987427     -0.4227905     -0.0000230      0.0000320     -0.0000052      0.0000934      0.9009399     -0.4331665
415944992      0.8979492     -0.4227295     -0.0000454      0.0000563     -0.0000432      0.0000556      0.9008179     -0.4319458
415969984      0.8976440     -0.4229736     -0.0000402      0.0000566     -0.0000236      0.0001025      0.9010010     -0.4325562
415995008      0.8974609     -0.4229736     -0.0000193      0.0000530      0.0000226      0.0000782      0.9003296     -0.4321289
416020000      0.8981934     -0.4233398     -0.0000112      0.0000846     -0.0000298      0.0000908      0.9009399     -0.4320068
416044992      0.8984375     -0.4231567     -0.0000368      0.0000827     -0.0000404      0.0000822      0.9010010     -0.4323120
416070016      0.8978882     -0.4227295     -0.0000379      0.0000983     -0.0000500      0.0000832      0.9005737     -0.4324951
416095008      0.8981323     -0.4230957     -0.0000335      0.0001089     -0.0000117      0.0000769      0.9015503     -0.4334106
416120000      0.8978271     -0.4234619     -0.0000242      0.0001224      0.0000087      0.0000844      0.9008789     -0.4327393
416144992      0.8980103     -0.4230347     -0.0000573      0.0000787     -0.0000043      0.0001004      0.9004517     -0.4325562
416169984      0.8980713     -0.4232178     -0.0000204      0.0000709     -0.0000180      0.0001091      0.9011841     -0.4331665
416195008      0.8981323     -0.4232178     -0.0000542      0.0001099     -0.0000009      0.0001343      0.9008789     -0.4321899
416220000      0.8977051     -0.4229736     -0.0000697      0.0001089     -0.0000419      0.0001142      0.9005127     -0.4322510
416244992      0.8983765     -0.4234009     -0.0000338      0.0001141     -0.0000111      0.0000817      0.9010010     -0.4330444
416270016      0.8977661     -0.4234009     -0.0000031      0.0001186      0.0000109      0.0001524      0.9006958     -0.4323120
416295008      0.8979492     -0.4230957     -0.0000444      0.0001184     -0.0000302      0.0001322      0.9003906     -0.4328003
416320000      0.8982544     -0.4238892     -0.0000518      0.0000765     -0.0000293      0.0001396      0.9009399     -0.4332886
416344992      0.8978271     -0.4229736      0.0000125      0.0001171     -0.0000603      0.0001233      0.8999634     -0.4332275
416369984      0.8981323     -0.4237671      0.0000110      0.0001402     -0.0000230      0.0001073      0.9004517     -0.4327393
416395008      0.8973389     -0.4229126      0.0000229      0.0001178     -0.0000584      0.0001426      0.9003906     -0.4331665
416420000      0.8984985     -0.4237061      0.0000067      0.0001297     -0.0000264      0.0001223      0.9007568     -0.4329834
416444992      0.8981934     -0.4238281     -0.0000066      0.0001725      0.0000270      0.0001654      0.9011841     -0.4334106
416470016      0.8978882     -0.4232788      0.0000169      0.0001330     -0.0000074      0.0001154      0.9006958     -0.4328003
416495008      0.8971558     -0.4230347      0.0000565      0.0001562     -0.0000269      0.0001636      0.9005737     -0.4324951
416520000      0.8975220     -0.4237671     -0.0000277      0.0001040      0.0000237      0.0001340      0.9002075     -0.4327393
416544992      0.8977661     -0.4229736      0.0000322      0.0001339     -0.0000104      0.0001815      0.9006348     -0.4326172
416569984      0.8972168     -0.4232178      0.0000379      0.0001291      0.0000229      0.0001268      0.9012451     -0.4332275
416595008      0.8977051     -0.4236450      0.0000384      0.0001214      0.0000356      0.0001085      0.9010010     -0.4328003
416620000      0.8972778     -0.4230957     -0.0000102      0.0001492      0.0000121      0.0001158      0.9003906     -0.4331665
416644992      0.8977661     -0.4235840      0.0000367      0.0001471      0.0000526      0.0001309      0.9000854     -0.4323730
416670016      0.8975220     -0.4241333      0.0000117      0.0001325      0.0000281      0.0001287      0.9008789     -0.4325562
416695008      0.8978882     -0.4239502     -0.0000041      0.0001391      0.0000460      0.0001121      0.9005737     -0.4332886
416720000      0.8975830     -0.4241943     -0.0000144      0.0001385      0.0000125      0.0001181      0.9003906     -0.4339600
416744992      0.8973999     -0.4236450      0.0000634      0.0001332      0.0000482      0.0000875      0.9000854     -0.4338989
416769984      0.8975220     -0.4241333      0.0000058      0.0001449      0.0000269      0.0001166      0.9003296     -0.4329224
416795008      0.8978882     -0.4235229      0.0000102      0.0001555      0.0000490      0.0001411      0.9004517     -0.4338989
416820000      0.8978882     -0.4238892      0.0000687      0.0001311      0.0000293      0.0001382      0.9005737     -0.4342041
416844992      0.8979492     -0.4241333      0.0000338      0.0001134      0.0000435      0.0001344      0.9008179     -0.4330444
416870016      0.8979492     -0.4245605      0.0000455      0.0000934      0.0000079      0.0001211      0.9003296     -0.4326172
416895008      0.8971558     -0.4237671      0.0000435      0.0001215      0.0000075      0.0001625      0.9005737     -0.4342651
416920000      0.8974609     -0.4237671      0.0000012      0.0001395      0.0000425      0.0001246      0.9002686     -0.4338379
416944992      0.8973999     -0.4244385      0.0000012      0.0001393      0.0000686      0.0001413      0.9000244     -0.4328613
416969984      0.8975830     -0.4245605      0.0000222      0.0001331      0.0000399      0.0001468      0.9000244     -0.4333496
416995008      0.8981323     -0.4241333      0.0000524      0.0001454      0.0000212      0.0001538      0.9002075     -0.4337769
417020000      0.8972168     -0.4237671      0.0000113      0.0001427      0.0000440      0.0001390      0.8998413     -0.4337158
417044992      0.8972168     -0.4241943      0.0000646      0.0001177      0.0000132      0.0001228      0.8999634     -0.4339600
417070016      0.8977051     -0.4241333      0.0000540      0.0001248      0.0000052      0.0000944      0.9005127     -0.4337769
417095008      0.8971558     -0.4245605      0.0000475      0.0001423      0.0000441      0.0001389      0.9001465     -0.4340820
417120000      0.8975830     -0.4241333      0.0000513      0.0000833      0.0000765      0.0001232      0.9000854     -0.4332275
417144992      0.8978271     -0.4244995      0.0000420      0.0001497      0.0000703      0.0001558      0.9005737     -0.4344482
417169984      0.8973389     -0.4243774      0.0000340      0.0001130      0.0000030      0.0001191      0.9001465     -0.4340210
417195008      0.8970337     -0.4246216      0.0000204      0.0001637      0.0000180      0.0001223      0.9004517     -0.4347534
417220000      0.8977051     -0.4241333      0.0000643      0.0001226      0.0000165      0.0001542      0.8999023     -0.4339600
417244992      0.8975220     -0.4240723      0.0000791      0.0001339      0.0000361      0.0001546      0.9005737     -0.4339600
417270016      0.8969116     -0.4243774      0.0000785      0.0001442      0.0000382      0.0001275      0.9004517     -0.4338379
417295008      0.8972778     -0.4243164      0.0000187      0.0001120      0.0000581      0.0001302      0.9002075     -0.4346924
417320000      0.8973999     -0.4248657      0.0000473      0.0001473      0.0000062      0.0001478      0.8998413     -0.4347534
417344992      0.8973389     -0.4244385      0.0000131      0.0001192      0.0000538      0.0001379      0.9008179     -0.4338379
417369984      0.8970337     -0.4239502      0.0000551      0.0001065     -0.0000040      0.0000979      0.9006348     -0.4342041
417395008      0.8969727     -0.4241333      0.0000427      0.0001418      0.0000696      0.0001484      0.9006348     -0.4345093
417420000      0.8970947     -0.4244385      0.0000385      0.0001262      0.0000450      0.0001462      0.8995361     -0.4340820
417444992      0.8976440     -0.4246826      0.0000324      0.0001412      0.0000313      0.0001086      0.8994141     -0.4345703
417470016      0.8974609     -0.4243164      0.0000227      0.0001329      0.0000314      0.0001086      0.9003906     -0.4345703
417495008      0.8978882     -0.4248047      0.0000592      0.0001223      0.0000463      0.0001119      0.9006348     -0.4341431
417520000      0.8967896     -0.4252930      0.0000634      0.0001405      0.0000582      0.0001300      0.8997803     -0.4338379
417544992      0.8975830     -0.4252930      0.0000457      0.0000956      0.0000490      0.0001359      0.9001465     -0.4340210
417569984      0.8972168     -0.4247437      0.0000503      0.0001011      0.0000682      0.0001337      0.8995972     -0.4349365
417595008      0.8972168     -0.4251709      0.0000497      0.0001138     -0.0000073      0.0001103      0.9006348     -0.4346924
417620000      0.8972778     -0.4251099      0.0000434      0.0001315      0.0000470      0.0001190      0.8992920     -0.4347534
417644992      0.8977661     -0.4249268      0.0000750      0.0001205      0.0000826      0.0001321      0.9002075     -0.4343262
417670016      0.8975220     -0.4254150      0.0000491      0.0001241      0.0000478      0.0001699      0.8995361     -0.4345093
417695008      0.8976440     -0.4246826      0.0000456      0.0000956      0.0000703      0.0001527      0.8999634     -0.4345703
417720000      0.8969727     -0.4249878      0.0000582      0.0001427      0.0000109      0.0001424      0.9000854     -0.4350586
