!RF1414D #1, In tuned fixture, 2-12-07, Narrow span
# HZ S RI R 50
371500000     -0.2115479      0.8321838     -0.0344696     -0.0568123     -0.0335388     -0.0572548      0.0749512      0.9027710
371501248     -0.2113342      0.8329163     -0.0346642     -0.0565605     -0.0337639     -0.0570297      0.0753174      0.9032593
371502496     -0.2104187      0.8334351     -0.0348511     -0.0562286     -0.0339317     -0.0566940      0.0757446      0.9035645
371503744     -0.2101135      0.8342896     -0.0351143     -0.0559845     -0.0341492     -0.0564270      0.0761108      0.9039307
371504992     -0.2093811      0.8346252     -0.0352287     -0.0556374     -0.0343246     -0.0561790      0.0764771      0.9040527
371506240     -0.2088318      0.8350830     -0.0354195     -0.0554276     -0.0344772     -0.0559311      0.0767212      0.9040527
371507488     -0.2078857      0.8354797     -0.0355759     -0.0551109     -0.0345993     -0.0556946      0.0772095      0.9038696
371508736     -0.2075500      0.8360291     -0.0357361     -0.0548286     -0.0348320     -0.0553818      0.0772095      0.9042969
371510016     -0.2067261      0.8364258     -0.0358429     -0.0545578     -0.0349998     -0.0551376      0.0778198      0.9046631
371511264     -0.2061768      0.8371582     -0.0360413     -0.0544128     -0.0351028     -0.0548248      0.0780029      0.9046631
371512512     -0.2058411      0.8375244     -0.0361900     -0.0540504     -0.0352631     -0.0546913      0.0786133      0.9046631
371513760     -0.2050476      0.8378296     -0.0363655     -0.0538368     -0.0353775     -0.0543480      0.0788574      0.9048462
371515008     -0.2041931      0.8381958     -0.0364151     -0.0536652     -0.0355186     -0.0542030      0.0792847      0.9047241
371516256     -0.2036438      0.8387756     -0.0365067     -0.0534058     -0.0356674     -0.0538445      0.0798950      0.9049683
371517504     -0.2031555      0.8393860     -0.0367050     -0.0531044     -0.0357895     -0.0536156      0.0799561      0.9048462
371518752     -0.2024841      0.8397827     -0.0368118     -0.0528259     -0.0359612     -0.0534096      0.0803223      0.9051514
371520000     -0.2015991      0.8401794     -0.0369339     -0.0526276     -0.0360031     -0.0531387      0.0807495      0.9052124
371521248     -0.2010193      0.8404846     -0.0370865     -0.0524101     -0.0362015     -0.0529404      0.0811157      0.9055176
371522496     -0.2005615      0.8408813     -0.0371742     -0.0521851     -0.0363274     -0.0527153      0.0813599      0.9053345
371523744     -0.2001038      0.8413086     -0.0372276     -0.0519295     -0.0363693     -0.0525284      0.0817871      0.9058228
371524992     -0.1996155      0.8416138     -0.0373917     -0.0517502     -0.0364876     -0.0522766      0.0821533      0.9058838
371526240     -0.1987915      0.8420715     -0.0374565     -0.0515747     -0.0366325     -0.0521088      0.0825195      0.9059448
371527488     -0.1983032      0.8424377     -0.0375214     -0.0512886     -0.0366745     -0.0518608      0.0828247      0.9058228
371528736     -0.1975403      0.8428955     -0.0377083     -0.0511398     -0.0367622     -0.0516396      0.0833130      0.9062500
371529984     -0.1968994      0.8430786     -0.0377121     -0.0508766     -0.0369377     -0.0514908      0.0836792      0.9063110
371531264     -0.1963806      0.8434448     -0.0377922     -0.0507088     -0.0368919     -0.0513420      0.0840454      0.9064941
371532512     -0.1956177      0.8438110     -0.0378532     -0.0506287     -0.0370293     -0.0511017      0.0845947      0.9065552
371533760     -0.1948242      0.8440857     -0.0380516     -0.0504417     -0.0371284     -0.0509377      0.0848999      0.9066772
371535008     -0.1944275      0.8445740     -0.0380325     -0.0501938     -0.0371933     -0.0508575      0.0851440      0.9067993
371536256     -0.1936951      0.8448181     -0.0381012     -0.0500183     -0.0372925     -0.0506020      0.0855103      0.9067383
371537504     -0.1928711      0.8453674     -0.0381699     -0.0498619     -0.0373001     -0.0504379      0.0858765      0.9066162
371538752     -0.1923523      0.8452454     -0.0382462     -0.0497169     -0.0373611     -0.0502396      0.0862427      0.9067383
371540000     -0.1918335      0.8456421     -0.0383034     -0.0495872     -0.0374527     -0.0500832      0.0865479      0.9069824
371541248     -0.1913452      0.8460693     -0.0383797     -0.0493164     -0.0375214     -0.0499077      0.0869141      0.9070435
371542496     -0.1906128      0.8464661     -0.0384140     -0.0491447     -0.0376244     -0.0497627      0.0870972      0.9071045
371543744     -0.1897888      0.8467407     -0.0384979     -0.0489426     -0.0376358     -0.0496140      0.0878296      0.9074097
371544992     -0.1890564      0.8468323     -0.0385323     -0.0488319     -0.0377808     -0.0494385      0.0883789      0.9072876
371546240     -0.1886292      0.8468933     -0.0386391     -0.0487328     -0.0378342     -0.0493660      0.0886230      0.9075317
371547488     -0.1879578      0.8476563     -0.0387726     -0.0485153     -0.0377808     -0.0491867      0.0886230      0.9071045
371548736     -0.1875610      0.8478088     -0.0386925     -0.0483704     -0.0379333     -0.0489845      0.0893555      0.9074097
371550016     -0.1870117      0.8479004     -0.0387955     -0.0482178     -0.0379257     -0.0488892      0.0899658      0.9071045
371551264     -0.1863708      0.8479919     -0.0388451     -0.0481339     -0.0380707     -0.0487404      0.0899048      0.9074097
371552512     -0.1856689      0.8483276     -0.0388908     -0.0479698     -0.0380745     -0.0486221      0.0903931      0.9074707
371553760     -0.1852417      0.8486023     -0.0389977     -0.0478287     -0.0381165     -0.0485420      0.0908813      0.9077759
371555008     -0.1842346      0.8487854     -0.0390244     -0.0477753     -0.0381966     -0.0483780      0.0912476      0.9079590
371556256     -0.1838074      0.8489990     -0.0390282     -0.0476265     -0.0381737     -0.0482712      0.0916138      0.9080200
371557504     -0.1834412      0.8493347     -0.0391159     -0.0474892     -0.0383034     -0.0480728      0.0919189      0.9078979
371558752     -0.1828003      0.8496094     -0.0390778     -0.0473938     -0.0383415     -0.0480614      0.0923462      0.9078979
371560000     -0.1822510      0.8497620     -0.0391998     -0.0473099     -0.0383759     -0.0479050      0.0927734      0.9077759
371561248     -0.1816711      0.8497925     -0.0392342     -0.0471001     -0.0384560     -0.0477867      0.0933228      0.9079590
371562496     -0.1809082      0.8501282     -0.0393105     -0.0469971     -0.0384865     -0.0476913      0.0933228      0.9081421
371563744     -0.1804504      0.8502502     -0.0393257     -0.0468788     -0.0384521     -0.0475845      0.0939331      0.9082031
371564992     -0.1797791      0.8504333     -0.0393524     -0.0468445     -0.0385780     -0.0475235      0.0945435      0.9081421
371566240     -0.1792297      0.8508301     -0.0394554     -0.0467339     -0.0386200     -0.0473824      0.0947266      0.9080200
371567488     -0.1785889      0.8508606     -0.0394669     -0.0466270     -0.0386467     -0.0473175      0.0953369      0.9082031
371568736     -0.1781616      0.8511963     -0.0395355     -0.0464630     -0.0387077     -0.0471878      0.0955200      0.9083252
371569984     -0.1776428      0.8511963     -0.0395279     -0.0464554     -0.0387573     -0.0471497      0.0958862      0.9084473
371571264     -0.1768494      0.8515930     -0.0396042     -0.0463371     -0.0387611     -0.0470352      0.0962524      0.9080811
371572512     -0.1760864      0.8516541     -0.0396271     -0.0461922     -0.0388069     -0.0469246      0.0967407      0.9083862
371573760     -0.1758118      0.8520203     -0.0397110     -0.0461197     -0.0389290     -0.0468483      0.0972290      0.9085083
371575008     -0.1752014      0.8518677     -0.0396805     -0.0461006     -0.0388832     -0.0467796      0.0973511      0.9082031
371576256     -0.1747437      0.8524170     -0.0397606     -0.0460663     -0.0389938     -0.0467072      0.0980835      0.9082031
371577504     -0.1741333      0.8525085     -0.0397949     -0.0459099     -0.0389709     -0.0465622      0.0982056      0.9083252
371578752     -0.1733398      0.8525391     -0.0398026     -0.0458946     -0.0390511     -0.0465660      0.0988770      0.9082031
371580000     -0.1727600      0.8527222     -0.0398827     -0.0457878     -0.0390739     -0.0464821      0.0989990      0.9086914
371581248     -0.1724243      0.8530273     -0.0399628     -0.0457344     -0.0391235     -0.0464211      0.0996094      0.9086304
371582496     -0.1717834      0.8529663     -0.0400009     -0.0455971     -0.0391388     -0.0463371      0.0997925      0.9084473
371583744     -0.1711731      0.8532104     -0.0399590     -0.0455437     -0.0392227     -0.0462875      0.1002197      0.9084473
371584992     -0.1705322      0.8534851     -0.0399971     -0.0454865     -0.0392990     -0.0462265      0.1004639      0.9086304
371586240     -0.1701050      0.8536377     -0.0400620     -0.0454712     -0.0393143     -0.0461617      0.1010742      0.9083252
371587488     -0.1694946      0.8538818     -0.0400848     -0.0453758     -0.0393295     -0.0461426      0.1014404      0.9086304
371588736     -0.1692505      0.8538818     -0.0401535     -0.0452995     -0.0394135     -0.0460930      0.1018066      0.9086914
371590016     -0.1684875      0.8541260     -0.0401535     -0.0453033     -0.0393829     -0.0460472      0.1021118      0.9085083
371591264     -0.1680298      0.8541870     -0.0402718     -0.0452118     -0.0394707     -0.0459557      0.1024780      0.9085693
371592512     -0.1673584      0.8545227     -0.0402870     -0.0451965     -0.0395164     -0.0458679      0.1027832      0.9086914
371593760     -0.1667175      0.8542786     -0.0402832     -0.0451546     -0.0395622     -0.0458107      0.1035767      0.9084473
371595008     -0.1662598      0.8546143     -0.0403175     -0.0450897     -0.0396156     -0.0458031      0.1035767      0.9088745
371596256     -0.1658630      0.8547668     -0.0403709     -0.0450325     -0.0396767     -0.0457497      0.1041870      0.9086304
371597504     -0.1651001      0.8547668     -0.0404663     -0.0449257     -0.0396614     -0.0457077      0.1046143      0.9086914
371598752     -0.1644287      0.8549500     -0.0404282     -0.0449448     -0.0397644     -0.0457039      0.1047363      0.9086914
371600000     -0.1637573      0.8551941     -0.0405388     -0.0448761     -0.0397606     -0.0457115      0.1054077      0.9085083
371601248     -0.1634216      0.8554688     -0.0406189     -0.0448456     -0.0398483     -0.0455818      0.1057129      0.9086914
371602496     -0.1628113      0.8557739     -0.0406456     -0.0448265     -0.0399094     -0.0455933      0.1060791      0.9086304
371603744     -0.1622925      0.8556519     -0.0406532     -0.0448074     -0.0399246     -0.0455627      0.1067505      0.9087524
371604992     -0.1618042      0.8554993     -0.0406837     -0.0447655     -0.0399895     -0.0454636      0.1069946      0.9086914
371606240     -0.1614685      0.8560791     -0.0407867     -0.0447159     -0.0400009     -0.0454330      0.1073608      0.9084473
371607488     -0.1609192      0.8559875     -0.0407867     -0.0447655     -0.0401115     -0.0454025      0.1075439      0.9087524
371608736     -0.1601868      0.8562012     -0.0408821     -0.0446854     -0.0401115     -0.0454063      0.1080933      0.9084473
371609984     -0.1597290      0.8561707     -0.0408745     -0.0446320     -0.0401878     -0.0453682      0.1083984      0.9088135
371611264     -0.1589661      0.8564453     -0.0409203     -0.0445709     -0.0401955     -0.0453606      0.1089478      0.9087524
371612512     -0.1586609      0.8567810     -0.0410805     -0.0445442     -0.0402031     -0.0453300      0.1092529      0.9086914
371613760     -0.1581726      0.8567810     -0.0410805     -0.0445747     -0.0403137     -0.0452309      0.1098633      0.9085693
371615008     -0.1574707      0.8567810     -0.0411034     -0.0445099     -0.0403709     -0.0452805      0.1098633      0.9089966
371616256     -0.1571655      0.8570251     -0.0411606     -0.0444450     -0.0404205     -0.0451927      0.1107788      0.9088135
371617504     -0.1560059      0.8570557     -0.0411873     -0.0444260     -0.0404816     -0.0452309      0.1109619      0.9087524
371618752     -0.1560059      0.8569946     -0.0413094     -0.0445175     -0.0405350     -0.0452347      0.1113892      0.9085083
371620000     -0.1551208      0.8572083     -0.0413399     -0.0444489     -0.0406075     -0.0451851      0.1116943      0.9086914
371621248     -0.1547546      0.8572998     -0.0414162     -0.0444183     -0.0405884     -0.0451584      0.1119385      0.9086914
371622496     -0.1541138      0.8573914     -0.0414352     -0.0443535     -0.0406342     -0.0451660      0.1126709      0.9085693
371623744     -0.1535339      0.8574219     -0.0414925     -0.0443192     -0.0407524     -0.0451508      0.1132202      0.9085693
371624992     -0.1530457      0.8576355     -0.0415535     -0.0443802     -0.0407677     -0.0452156      0.1133423      0.9085083
371626240     -0.1524353      0.8575134     -0.0415802     -0.0443649     -0.0408669     -0.0451241      0.1137695      0.9085083
371627488     -0.1518555      0.8580627     -0.0416756     -0.0443115     -0.0409279     -0.0451393      0.1141968      0.9083252
371628736     -0.1516113      0.8576660     -0.0416985     -0.0443611     -0.0409660     -0.0451164      0.1145630      0.9086304
371630016     -0.1510010      0.8579407     -0.0417747     -0.0443039     -0.0410004     -0.0450821      0.1151123      0.9085693
371631264     -0.1505737      0.8582764     -0.0418968     -0.0442848     -0.0410767     -0.0450554      0.1154175      0.9083252
371632512     -0.1502380      0.8582764     -0.0419159     -0.0442505     -0.0411110     -0.0451088      0.1156006      0.9082031
371633760     -0.1491699      0.8583984     -0.0419464     -0.0443115     -0.0412369     -0.0450935      0.1159668      0.9082031
371635008     -0.1489563      0.8585510     -0.0420723     -0.0442696     -0.0412636     -0.0451050      0.1166992      0.9085083
371636256     -0.1483765      0.8586426     -0.0420799     -0.0442505     -0.0413246     -0.0450783      0.1171875      0.9084473
371637504     -0.1478882      0.8585205     -0.0420761     -0.0443153     -0.0413475     -0.0450706      0.1172485      0.9082031
371638752     -0.1474304      0.8590393     -0.0422249     -0.0442505     -0.0414658     -0.0450325      0.1177979      0.9082642
371640000     -0.1468201      0.8588257     -0.0422211     -0.0443687     -0.0414352     -0.0451126      0.1181641      0.9082642
371641248     -0.1461182      0.8589172     -0.0423126     -0.0442619     -0.0415535     -0.0450478      0.1185303      0.9079590
371642496     -0.1455078      0.8589478     -0.0423279     -0.0442009     -0.0416298     -0.0451050      0.1189575      0.9082642
371643744     -0.1451111      0.8593750     -0.0424232     -0.0442276     -0.0416832     -0.0450706      0.1193848      0.9082031
371644992     -0.1444702      0.8594055     -0.0424690     -0.0443077     -0.0417709     -0.0450783      0.1198120      0.9080200
371646240     -0.1440430      0.8596497     -0.0425301     -0.0442810     -0.0418015     -0.0451088      0.1204224      0.9080811
371647488     -0.1433716      0.8594055     -0.0426102     -0.0442467     -0.0418510     -0.0450859      0.1207886      0.9079590
371648736     -0.1426697      0.8593140     -0.0427551     -0.0442429     -0.0419235     -0.0450974      0.1209106      0.9077759
371649984     -0.1423340      0.8597412     -0.0427666     -0.0443535     -0.0420341     -0.0451164      0.1212158      0.9078369
371651264     -0.1416016      0.8597412     -0.0428200     -0.0443153     -0.0420990     -0.0451813      0.1218262      0.9079590
371652512     -0.1412659      0.8595581     -0.0428314     -0.0442696     -0.0421219     -0.0451202      0.1224365      0.9079590
371653760     -0.1407166      0.8597412     -0.0429916     -0.0442924     -0.0421677     -0.0450935      0.1226196      0.9077148
371655008     -0.1400757      0.8598938     -0.0429916     -0.0442772     -0.0422554     -0.0450974      0.1232910      0.9078979
371656256     -0.1394348      0.8600769     -0.0431137     -0.0443268     -0.0423393     -0.0451431      0.1235962      0.9079590
371657504     -0.1390686      0.8599854     -0.0432014     -0.0443726     -0.0424194     -0.0452042      0.1239014      0.9078369
371658752     -0.1387634      0.8601074     -0.0432510     -0.0444069     -0.0424690     -0.0451393      0.1242065      0.9077148
371660000     -0.1378784      0.8603821     -0.0433235     -0.0444031     -0.0426025     -0.0452232      0.1246338      0.9075928
371661248     -0.1374512      0.8605957     -0.0433655     -0.0443993     -0.0426140     -0.0452042      0.1251831      0.9072876
371662496     -0.1368408      0.8606567     -0.0434036     -0.0443573     -0.0426750     -0.0452690      0.1259155      0.9075317
371663744     -0.1362915      0.8605652     -0.0435295     -0.0444260     -0.0428162     -0.0452423      0.1258545      0.9072266
371664992     -0.1357117      0.8607178     -0.0436363     -0.0444183     -0.0429153     -0.0453033      0.1266479      0.9074707
371666240     -0.1350403      0.8608704     -0.0436554     -0.0443993     -0.0429306     -0.0452957      0.1268311      0.9072876
371667488     -0.1347046      0.8609009     -0.0437050     -0.0443802     -0.0430183     -0.0452690      0.1272583      0.9073486
371668736     -0.1340637      0.8612061     -0.0438385     -0.0444908     -0.0430832     -0.0452461      0.1278076      0.9072876
371670016     -0.1337280      0.8609619     -0.0438652     -0.0444870     -0.0431709     -0.0453453      0.1281128      0.9071655
371671264     -0.1328735      0.8613892     -0.0439606     -0.0445061     -0.0432281     -0.0453682      0.1283569      0.9071655
371672512     -0.1325989      0.8610840     -0.0441132     -0.0445061     -0.0433426     -0.0453491      0.1289063      0.9072876
371673760     -0.1321411      0.8613586     -0.0440941     -0.0445099     -0.0433998     -0.0453873      0.1290283      0.9070435
371675008     -0.1311340      0.8612976     -0.0441742     -0.0445442     -0.0435104     -0.0453568      0.1296997      0.9072266
371676256     -0.1310120      0.8612976     -0.0442314     -0.0446434     -0.0436020     -0.0454674      0.1299438      0.9067993
371677504     -0.1302490      0.8616333     -0.0443687     -0.0445633     -0.0436172     -0.0454369      0.1304321      0.9069824
371678752     -0.1298218      0.8617249     -0.0444450     -0.0446510     -0.0436974     -0.0454865      0.1307983      0.9067383
371680000     -0.1295166      0.8614807     -0.0444832     -0.0446396     -0.0438194     -0.0455093      0.1315308      0.9067993
371681248     -0.1288147      0.8617859     -0.0445938     -0.0447044     -0.0438461     -0.0456161      0.1317749      0.9068604
371682496     -0.1285095      0.8618164     -0.0446320     -0.0447731     -0.0439644     -0.0455780      0.1323242      0.9065552
371683744     -0.1276245      0.8619690     -0.0447044     -0.0447121     -0.0440292     -0.0456314      0.1325684      0.9069824
371684992     -0.1275330      0.8616638     -0.0448418     -0.0447617     -0.0440979     -0.0456429      0.1329956      0.9067993
371686240     -0.1267395      0.8618774     -0.0449219     -0.0447922     -0.0441895     -0.0456238      0.1334839      0.9063721
371687488     -0.1262207      0.8618164     -0.0450096     -0.0447617     -0.0442505     -0.0456924      0.1337891      0.9062500
371688736     -0.1253967      0.8621521     -0.0450897     -0.0448456     -0.0443344     -0.0457077      0.1343384      0.9067383
371689984     -0.1249390      0.8619080     -0.0451469     -0.0448990     -0.0444717     -0.0457001      0.1346436      0.9062500
