!RF1414D #1, In tuned fixture, 2-12-07, Wide span
# HZ S RI R 50
352500000     -0.7611389      0.4578247      0.0004951     -0.0022091      0.0004915     -0.0021878     -0.5125122      0.7466431
352524992     -0.7608032      0.4585266      0.0004870     -0.0021883      0.0005196     -0.0021812     -0.5117493      0.7468567
352550016     -0.7605286      0.4588928      0.0004988     -0.0022137      0.0004925     -0.0021764     -0.5110168      0.7475586
352575008     -0.7597046      0.4592590      0.0005138     -0.0021663      0.0005273     -0.0021392     -0.5104370      0.7476501
352600000     -0.7591553      0.4601135      0.0005274     -0.0021600      0.0005224     -0.0021453     -0.5098267      0.7485046
352624992     -0.7589722      0.4608154      0.0005175     -0.0021557      0.0005345     -0.0021318     -0.5092773      0.7485657
352649984     -0.7586060      0.4613037      0.0005499     -0.0021404      0.0005447     -0.0021282     -0.5087280      0.7489319
352675008     -0.7578430      0.4622192      0.0005789     -0.0021378      0.0005858     -0.0021280     -0.5081787      0.7497559
352700000     -0.7576294      0.4629211      0.0006157     -0.0021594      0.0006070     -0.0021081     -0.5076904      0.7500610
352724992     -0.7573547      0.4633484      0.0006284     -0.0021410      0.0006324     -0.0021123     -0.5067139      0.7501831
352750016     -0.7566833      0.4641418      0.0006728     -0.0021279      0.0006711     -0.0021236     -0.5061340      0.7509155
352775008     -0.7562866      0.4645691      0.0007178     -0.0021371      0.0007088     -0.0021293     -0.5055542      0.7513123
352800000     -0.7560730      0.4652405      0.0007519     -0.0021449      0.0007612     -0.0021163     -0.5051575      0.7517700
352824992     -0.7554016      0.4658508      0.0007832     -0.0021628      0.0007924     -0.0021480     -0.5046082      0.7521667
352849984     -0.7548218      0.4665833      0.0008404     -0.0021847      0.0008603     -0.0021621     -0.5040283      0.7524109
352875008     -0.7547607      0.4667053      0.0008655     -0.0022237      0.0008978     -0.0022055     -0.5032349      0.7529297
352900000     -0.7543945      0.4677124      0.0009263     -0.0022516      0.0009307     -0.0022330     -0.5027771      0.7533875
352924992     -0.7538147      0.4678345      0.0009770     -0.0022950      0.0009862     -0.0022755     -0.5021362      0.7535706
352950016     -0.7534485      0.4686890      0.0010074     -0.0023531      0.0010264     -0.0023385     -0.5013123      0.7539368
352975008     -0.7529907      0.4690857      0.0010501     -0.0024186      0.0010550     -0.0023888     -0.5009460      0.7545166
353000000     -0.7523193      0.4694824      0.0010608     -0.0024995      0.0010763     -0.0024686     -0.5001526      0.7548828
353024992     -0.7523804      0.4701233      0.0010900     -0.0025759      0.0010799     -0.0025649     -0.4995728      0.7553711
353049984     -0.7520752      0.4706421      0.0011054     -0.0026598      0.0010962     -0.0026301     -0.4991150      0.7557068
353075008     -0.7519226      0.4713440      0.0010661     -0.0027241      0.0010893     -0.0026950     -0.4985046      0.7562256
353100000     -0.7514954      0.4718628      0.0010765     -0.0028099      0.0010755     -0.0027908     -0.4978027      0.7568665
353124992     -0.7511597      0.4723511      0.0010254     -0.0028584      0.0010314     -0.0028405     -0.4970703      0.7568970
353150016     -0.7509460      0.4729919      0.0009987     -0.0029613      0.0009934     -0.0029153     -0.4967041      0.7573242
353175008     -0.7507324      0.4736328      0.0009665     -0.0029911      0.0009882     -0.0029693     -0.4963989      0.7577820
353200000     -0.7504883      0.4743958      0.0009199     -0.0030478      0.0009352     -0.0030127     -0.4956665      0.7581787
353224992     -0.7500305      0.4748230      0.0008706     -0.0031067      0.0008676     -0.0030857     -0.4948730      0.7587585
353249984     -0.7497864      0.4757385      0.0007975     -0.0031552      0.0008439     -0.0031346     -0.4942627      0.7587280
353275008     -0.7496033      0.4765625      0.0007714     -0.0032002      0.0007892     -0.0031626     -0.4934692      0.7593994
353300000     -0.7491150      0.4774475      0.0007014     -0.0031997      0.0007302     -0.0031872     -0.4930725      0.7597656
353324992     -0.7487183      0.4779663      0.0006856     -0.0032375      0.0006896     -0.0032102     -0.4922180      0.7602234
353350016     -0.7483215      0.4786987      0.0006257     -0.0032798      0.0006303     -0.0032506     -0.4919434      0.7605591
353375008     -0.7477722      0.4793701      0.0005836     -0.0032974      0.0005740     -0.0032494     -0.4909973      0.7609558
353400000     -0.7477722      0.4803467      0.0005213     -0.0033164      0.0005407     -0.0032802     -0.4904785      0.7612610
353424992     -0.7471008      0.4808655      0.0004992     -0.0033422      0.0005015     -0.0032949     -0.4897766      0.7614746
353449984     -0.7470703      0.4815369      0.0004538     -0.0033449      0.0004754     -0.0032974     -0.4893188      0.7619934
353475008     -0.7463684      0.4822083      0.0004101     -0.0033545      0.0004236     -0.0033354     -0.4887695      0.7622681
353500000     -0.7459717      0.4829407      0.0003781     -0.0033907      0.0003920     -0.0033568     -0.4883118      0.7624207
353524992     -0.7456665      0.4832458      0.0002950     -0.0034101      0.0003364     -0.0033902     -0.4872742      0.7633362
353550016     -0.7454529      0.4839783      0.0002638     -0.0034436      0.0002806     -0.0034055     -0.4867859      0.7633972
353575008     -0.7445984      0.4850464      0.0002071     -0.0034349      0.0002325     -0.0034187     -0.4859314      0.7640076
353600000     -0.7442932      0.4857178      0.0001477     -0.0034510      0.0001589     -0.0034152     -0.4858093      0.7642212
353624992     -0.7436218      0.4864807      0.0001012     -0.0034745      0.0001100     -0.0034484     -0.4850769      0.7646484
353649984     -0.7432251      0.4870605      0.0000409     -0.0034842      0.0000461     -0.0034759     -0.4841614      0.7648926
353675008     -0.7429504      0.4875793     -0.0000401     -0.0034808     -0.0000209     -0.0034645     -0.4837036      0.7652283
353700000     -0.7421570      0.4881897     -0.0001048     -0.0034976     -0.0000705     -0.0034711     -0.4832458      0.7657166
353724992     -0.7419434      0.4886169     -0.0001743     -0.0034758     -0.0001512     -0.0034459     -0.4828186      0.7658997
353750016     -0.7414551      0.4895325     -0.0002626     -0.0034473     -0.0002260     -0.0034120     -0.4820862      0.7662964
353775008     -0.7409363      0.4900513     -0.0003189     -0.0034226     -0.0002892     -0.0033914     -0.4812927      0.7666931
353800000     -0.7406616      0.4908447     -0.0003804     -0.0033717     -0.0003608     -0.0033535     -0.4812012      0.7670898
353824992     -0.7399292      0.4912109     -0.0004381     -0.0033298     -0.0003898     -0.0032916     -0.4802856      0.7672119
353849984     -0.7395325      0.4916687     -0.0004799     -0.0032834     -0.0004317     -0.0032525     -0.4795227      0.7678223
353875008     -0.7392273      0.4924927     -0.0004977     -0.0032233     -0.0004809     -0.0031976     -0.4791260      0.7682190
353900000     -0.7386780      0.4928894     -0.0005274     -0.0031815     -0.0005141     -0.0031610     -0.4789429      0.7686462
353924992     -0.7385254      0.4936218     -0.0005503     -0.0031118     -0.0005349     -0.0031000     -0.4780579      0.7688904
353950016     -0.7380066      0.4942932     -0.0005723     -0.0030860     -0.0005563     -0.0030743     -0.4775696      0.7691956
353975008     -0.7375183      0.4947205     -0.0005891     -0.0030465     -0.0005440     -0.0030229     -0.4768982      0.7697754
354000000     -0.7371521      0.4953003     -0.0005850     -0.0029957     -0.0005496     -0.0029838     -0.4763489      0.7700195
354024992     -0.7364502      0.4960327     -0.0005962     -0.0029631     -0.0005422     -0.0029516     -0.4756470      0.7703247
354049984     -0.7365112      0.4967651     -0.0005835     -0.0029285     -0.0005678     -0.0029011     -0.4751282      0.7711182
354075008     -0.7359009      0.4973755     -0.0005931     -0.0029024     -0.0005399     -0.0029008     -0.4745178      0.7713318
354100000     -0.7355652      0.4977112     -0.0005697     -0.0029038     -0.0005232     -0.0028626     -0.4740295      0.7715759
354124992     -0.7352295      0.4986877     -0.0005740     -0.0028836     -0.0005425     -0.0028477     -0.4734192      0.7718811
354150016     -0.7348633      0.4991150     -0.0005616     -0.0028747     -0.0005444     -0.0028602     -0.4729309      0.7724609
354175008     -0.7341614      0.4997253     -0.0005671     -0.0028569     -0.0005541     -0.0028499     -0.4720764      0.7728577
354200000     -0.7338867      0.5005493     -0.0006000     -0.0028603     -0.0005369     -0.0028335     -0.4714661      0.7733154
354224992     -0.7337036      0.5012207     -0.0005848     -0.0028567     -0.0005542     -0.0028483     -0.4709473      0.7736511
354249984     -0.7332153      0.5017700     -0.0005916     -0.0028627     -0.0005704     -0.0028346     -0.4702759      0.7739258
354275008     -0.7327576      0.5023499     -0.0006014     -0.0028505     -0.0005720     -0.0028316     -0.4696045      0.7743530
354300000     -0.7322998      0.5029907     -0.0006205     -0.0028484     -0.0005908     -0.0028281     -0.4690552      0.7747803
354324992     -0.7318115      0.5037231     -0.0006452     -0.0028447     -0.0006199     -0.0028336     -0.4685059      0.7751160
354350016     -0.7313538      0.5044250     -0.0006701     -0.0028520     -0.0006458     -0.0028096     -0.4677429      0.7756042
354375008     -0.7311707      0.5048523     -0.0006927     -0.0028402     -0.0006490     -0.0028106     -0.4674072      0.7759399
354400000     -0.7309570      0.5054016     -0.0007179     -0.0028241     -0.0006964     -0.0027977     -0.4668579      0.7760315
354424992     -0.7301636      0.5061951     -0.0007432     -0.0027885     -0.0007169     -0.0027801     -0.4660339      0.7767639
354449984     -0.7295532      0.5070190     -0.0007879     -0.0027910     -0.0007437     -0.0027684     -0.4653931      0.7770691
354475008     -0.7292175      0.5075378     -0.0008013     -0.0027632     -0.0007689     -0.0027486     -0.4648132      0.7774048
354500000     -0.7290039      0.5082092     -0.0008440     -0.0027323     -0.0007973     -0.0026958     -0.4643555      0.7778625
354524992     -0.7283936      0.5089417     -0.0008451     -0.0027061     -0.0008203     -0.0026799     -0.4638672      0.7781982
354550016     -0.7281799      0.5094910     -0.0008647     -0.0026572     -0.0008491     -0.0026553     -0.4631653      0.7783508
354575008     -0.7277832      0.5101929     -0.0008891     -0.0026183     -0.0008425     -0.0026009     -0.4625244      0.7789307
354600000     -0.7274170      0.5104675     -0.0008940     -0.0025842     -0.0008515     -0.0025611     -0.4617615      0.7793884
354624992     -0.7268372      0.5115051     -0.0008764     -0.0025740     -0.0008384     -0.0025465     -0.4611511      0.7796936
354649984     -0.7266235      0.5121155     -0.0008762     -0.0025301     -0.0008569     -0.0025198     -0.4606628      0.7801514
354675008     -0.7262268      0.5128479     -0.0008721     -0.0025098     -0.0008705     -0.0024921     -0.4600525      0.7803345
354700000     -0.7256775      0.5137329     -0.0008775     -0.0025042     -0.0008566     -0.0024775     -0.4591980      0.7806396
354724992     -0.7250061      0.5140991     -0.0009017     -0.0024962     -0.0008684     -0.0024734     -0.4590759      0.7808533
354750016     -0.7247925      0.5149536     -0.0009023     -0.0024840     -0.0008740     -0.0024458     -0.4583435      0.7814636
354775008     -0.7242126      0.5155945     -0.0009083     -0.0024714     -0.0008626     -0.0024381     -0.4576721      0.7817688
354800000     -0.7236023      0.5162659     -0.0009091     -0.0024486     -0.0008737     -0.0024245     -0.4568787      0.7819214
354824992     -0.7232971      0.5165405     -0.0009079     -0.0024192     -0.0008757     -0.0024149     -0.4561768      0.7826538
354849984     -0.7228699      0.5171814     -0.0009203     -0.0024230     -0.0008944     -0.0024036     -0.4555969      0.7827148
354875008     -0.7223511      0.5180664     -0.0009145     -0.0024105     -0.0009091     -0.0023897     -0.4550476      0.7834473
354900000     -0.7217102      0.5186157     -0.0009723     -0.0024198     -0.0009297     -0.0023915     -0.4545288      0.7837524
354924992     -0.7213440      0.5192261     -0.0009780     -0.0023884     -0.0009314     -0.0023683     -0.4541016      0.7840881
354950016     -0.7209167      0.5200500     -0.0009868     -0.0023547     -0.0009739     -0.0023476     -0.4533997      0.7846069
354975008     -0.7201538      0.5205078     -0.0010020     -0.0023531     -0.0009855     -0.0023390     -0.4525757      0.7850647
355000000     -0.7196350      0.5212097     -0.0010294     -0.0023106     -0.0010030     -0.0023093     -0.4519653      0.7854004
355024992     -0.7192688      0.5218506     -0.0010513     -0.0022613     -0.0010276     -0.0022851     -0.4515991      0.7854309
355049984     -0.7189941      0.5223999     -0.0010705     -0.0022525     -0.0010426     -0.0022601     -0.4510193      0.7861023
355075008     -0.7182617      0.5228271     -0.0011033     -0.0022459     -0.0010697     -0.0022279     -0.4503479      0.7862549
355100000     -0.7173767      0.5237732     -0.0011141     -0.0022143     -0.0010955     -0.0022061     -0.4497986      0.7867432
355124992     -0.7170410      0.5242615     -0.0011585     -0.0021734     -0.0011206     -0.0021777     -0.4492493      0.7870178
355150016     -0.7166443      0.5246582     -0.0011998     -0.0021454     -0.0011457     -0.0021352     -0.4485474      0.7874451
355175008     -0.7160950      0.5252991     -0.0012109     -0.0020941     -0.0011907     -0.0020987     -0.4479065      0.7877808
355200000     -0.7156067      0.5255737     -0.0012363     -0.0020387     -0.0012164     -0.0020373     -0.4472961      0.7881165
355224992     -0.7153015      0.5262451     -0.0012426     -0.0020202     -0.0012345     -0.0019840     -0.4465942      0.7884521
355249984     -0.7148132      0.5269470     -0.0012782     -0.0019492     -0.0012491     -0.0019248     -0.4461365      0.7887573
355275008     -0.7142944      0.5274353     -0.0012779     -0.0018473     -0.0012358     -0.0018508     -0.4454956      0.7891541
355300000     -0.7138672      0.5278625     -0.0012867     -0.0017902     -0.0012535     -0.0017804     -0.4447632      0.7897644
355324992     -0.7133484      0.5282288     -0.0012701     -0.0017366     -0.0012540     -0.0017020     -0.4444275      0.7898865
355350016     -0.7131042      0.5290527     -0.0012586     -0.0016358     -0.0012358     -0.0016123     -0.4438782      0.7905273
355375008     -0.7126770      0.5295715     -0.0012504     -0.0015514     -0.0012028     -0.0015600     -0.4430542      0.7908630
355400000     -0.7124023      0.5300293     -0.0012032     -0.0015039     -0.0011767     -0.0014858     -0.4424744      0.7911377
355424992     -0.7118225      0.5306091     -0.0011418     -0.0014336     -0.0011146     -0.0014229     -0.4418945      0.7915955
355449984     -0.7116394      0.5310364     -0.0011137     -0.0013945     -0.0010750     -0.0013738     -0.4415588      0.7917786
355475008     -0.7111816      0.5317383     -0.0010480     -0.0013356     -0.0010194     -0.0013250     -0.4406738      0.7922363
355500000     -0.7111511      0.5322266     -0.0009798     -0.0012962     -0.0009711     -0.0012877     -0.4398804      0.7927246
355524992     -0.7104187      0.5328979     -0.0009390     -0.0012691     -0.0009257     -0.0012636     -0.4394836      0.7930603
355550016     -0.7100830      0.5332642     -0.0008961     -0.0012565     -0.0008706     -0.0012439     -0.4385376      0.7933960
355575008     -0.7096863      0.5342407     -0.0008233     -0.0012255     -0.0008144     -0.0012469     -0.4378662      0.7937622
355600000     -0.7092590      0.5350952     -0.0008013     -0.0012279     -0.0007959     -0.0012317     -0.4373474      0.7944031
355624992     -0.7090759      0.5356445     -0.0007738     -0.0012214     -0.0007417     -0.0011991     -0.4367981      0.7945862
355649984     -0.7085876      0.5362244     -0.0007398     -0.0012098     -0.0007396     -0.0012156     -0.4358521      0.7950745
355675008     -0.7078247      0.5369873     -0.0007186     -0.0011774     -0.0006859     -0.0011950     -0.4349670      0.7950745
355700000     -0.7076416      0.5379028     -0.0007033     -0.0011697     -0.0006945     -0.0011642     -0.4346313      0.7956238
355724992     -0.7070313      0.5385437     -0.0006696     -0.0011649     -0.0006581     -0.0011525     -0.4338684      0.7957458
355750016     -0.7065125      0.5393372     -0.0006709     -0.0011241     -0.0006365     -0.0011204     -0.4333801      0.7959900
355775008     -0.7058716      0.5397949     -0.0006474     -0.0011092     -0.0006163     -0.0010937     -0.4324951      0.7964478
355800000     -0.7055664      0.5403442     -0.0005792     -0.0010733     -0.0005918     -0.0010661     -0.4321899      0.7967529
355824992     -0.7052307      0.5408936     -0.0005846     -0.0010373     -0.0005602     -0.0010388     -0.4313049      0.7971497
355849984     -0.7045898      0.5413208     -0.0005088     -0.0010021     -0.0005091     -0.0010006     -0.4307556      0.7973022
355875008     -0.7039490      0.5422668     -0.0004821     -0.0009674     -0.0004695     -0.0009874     -0.4300537      0.7975159
355900000     -0.7036438      0.5428467     -0.0004402     -0.0009393     -0.0004279     -0.0009378     -0.4294434      0.7980347
355924992     -0.7032776      0.5434265     -0.0003909     -0.0009300     -0.0003532     -0.0009227     -0.4288940      0.7983093
355950016     -0.7025757      0.5441284     -0.0003195     -0.0008901     -0.0003168     -0.0008955     -0.4283447      0.7985535
355975008     -0.7020264      0.5448914     -0.0002640     -0.0008723     -0.0002608     -0.0008860     -0.4277649      0.7990417
356000000     -0.7017212      0.5453491     -0.0002149     -0.0009016     -0.0001881     -0.0008549     -0.4269714      0.7989197
356024992     -0.7014465      0.5458374     -0.0001344     -0.0008638     -0.0001243     -0.0008729     -0.4263916      0.7996826
356049984     -0.7006836      0.5467224     -0.0000672     -0.0008680     -0.0000697     -0.0008649     -0.4257202      0.7998047
356075008     -0.7001038      0.5472717     -0.0000170     -0.0008759     -0.0000068     -0.0008658     -0.4253235      0.8003540
356100000     -0.6997375      0.5476685      0.0000500     -0.0008999      0.0000581     -0.0008878     -0.4246521      0.8004761
356124992     -0.6993408      0.5479431      0.0001005     -0.0009272      0.0001154     -0.0009286     -0.4240112      0.8009644
356150016     -0.6988220      0.5487671      0.0001592     -0.0009677      0.0001700     -0.0009532     -0.4237061      0.8009949
356175008     -0.6982422      0.5491943      0.0002074     -0.0009914      0.0002068     -0.0009977     -0.4228821      0.8015137
356200000     -0.6978149      0.5496826      0.0002326     -0.0010524      0.0002371     -0.0010461     -0.4222717      0.8016357
356224992     -0.6974487      0.5504761      0.0002576     -0.0011036      0.0002702     -0.0010797     -0.4216614      0.8018494
356249984     -0.6968689      0.5511780      0.0002488     -0.0011370      0.0002745     -0.0011050     -0.4206543      0.8023987
356275008     -0.6965332      0.5515747      0.0002392     -0.0011609      0.0002638     -0.0011383     -0.4207458      0.8031006
356300000     -0.6962891      0.5523682      0.0002565     -0.0011631      0.0002564     -0.0011434     -0.4198914      0.8032532
