!RF1417D Cal @ device
# HZ S RI R 50
265000000      0.9390259     -0.3281555      0.0000326      0.0002579      0.0000972      0.0002387      0.9418335     -0.3312073
265062496      0.9385071     -0.3271179      0.0000219      0.0002251      0.0000688      0.0002599      0.9416199     -0.3309937
265124992      0.9375305     -0.3287048      0.0000906      0.0002317      0.0000448      0.0002264      0.9422913     -0.3307495
265187504      0.9379883     -0.3280945      0.0000428      0.0002080      0.0000583      0.0002392      0.9418335     -0.3308716
265250000      0.9389038     -0.3288574      0.0000751      0.0002239      0.0000087      0.0002257      0.9417725     -0.3312988
265312496      0.9389954     -0.3291016      0.0000403      0.0001992      0.0000479      0.0002384      0.9416199     -0.3305054
265375008      0.9383850     -0.3285828      0.0000483      0.0002427      0.0000415      0.0003075      0.9416199     -0.3316956
265437504      0.9380493     -0.3282166      0.0000366      0.0002269      0.0000481      0.0002251      0.9420471     -0.3315125
265500000      0.9382019     -0.3291016      0.0000329      0.0002746      0.0000883      0.0002702      0.9420471     -0.3314514
265562496      0.9386292     -0.3284607      0.0000696      0.0002458      0.0000695      0.0002404      0.9422302     -0.3311157
265624992      0.9382019     -0.3294067      0.0000422      0.0002617      0.0000436      0.0002408      0.9420166     -0.3313904
265687504      0.9381714     -0.3285828      0.0000854      0.0002705      0.0000304      0.0002345      0.9416199     -0.3325806
265750000      0.9383850     -0.3288879      0.0000691      0.0002231      0.0000805      0.0002416      0.9421082     -0.3316956
265812496      0.9379883     -0.3287964      0.0001091      0.0002427      0.0000549      0.0002552      0.9426880     -0.3315430
265875008      0.9385986     -0.3291016      0.0000714      0.0002487      0.0001046      0.0002488      0.9418335     -0.3328857
265937504      0.9378662     -0.3292847      0.0000509      0.0002658      0.0000468      0.0002266      0.9418030     -0.3323059
266000000      0.9386597     -0.3289795      0.0000509      0.0002458      0.0000967      0.0002465      0.9416809     -0.3321838
266062496      0.9380493     -0.3294678      0.0000771      0.0002637      0.0000716      0.0002858      0.9415894     -0.3315735
266124992      0.9375000     -0.3292236      0.0000444      0.0002648      0.0000922      0.0002622      0.9410095     -0.3325195
266187504      0.9373779     -0.3297729      0.0000643      0.0002448      0.0000975      0.0002656      0.9417114     -0.3325500
266250000      0.9375916     -0.3296204      0.0000761      0.0002206      0.0000640      0.0002704      0.9411316     -0.3320618
266312496      0.9380188     -0.3300171      0.0000634      0.0002418      0.0001312      0.0002345      0.9410706     -0.3327942
266375008      0.9380188     -0.3294678      0.0001040      0.0002612      0.0000726      0.0003054      0.9414368     -0.3321838
266437504      0.9377747     -0.3307190      0.0000779      0.0002436      0.0000821      0.0002411      0.9412231     -0.3319702
266500000      0.9375610     -0.3294373      0.0000948      0.0002343      0.0000611      0.0002327      0.9415588     -0.3327637
266562496      0.9375000     -0.3299561      0.0000798      0.0002094      0.0000408      0.0002498      0.9412842     -0.3326721
266624992      0.9375610     -0.3308411      0.0000735      0.0002481      0.0000849      0.0002400      0.9415588     -0.3332825
266687504      0.9376526     -0.3302917      0.0000940      0.0002680      0.0000859      0.0002658      0.9411621     -0.3326111
266750000      0.9375610     -0.3303833      0.0000959      0.0002543      0.0000802      0.0002427      0.9418335     -0.3329468
266812496      0.9375916     -0.3305664      0.0000985      0.0002229      0.0000514      0.0002442      0.9406128     -0.3324890
266875008      0.9377441     -0.3307800      0.0000626      0.0002729      0.0000807      0.0002552      0.9412537     -0.3327332
266937504      0.9371643     -0.3302307      0.0000825      0.0002722      0.0000720      0.0002202      0.9410400     -0.3334045
267000000      0.9376526     -0.3308411      0.0001070      0.0002265      0.0001073      0.0002547      0.9411926     -0.3334656
267062496      0.9374084     -0.3307495      0.0001001      0.0002258      0.0001121      0.0002453      0.9412231     -0.3333130
267124992      0.9370117     -0.3316040      0.0000851      0.0002212      0.0001075      0.0002611      0.9411316     -0.3344727
267187504      0.9378662     -0.3311462      0.0000700      0.0002168      0.0001268      0.0002842      0.9404907     -0.3328247
267250000      0.9367065     -0.3313599      0.0000985      0.0002196      0.0000733      0.0002401      0.9403076     -0.3340759
267312496      0.9374695     -0.3308411      0.0001318      0.0002381      0.0000835      0.0002277      0.9411621     -0.3340454
267375008      0.9375000     -0.3309937      0.0000682      0.0002476      0.0000693      0.0002753      0.9408875     -0.3331299
267437504      0.9372864     -0.3309937      0.0000587      0.0002579      0.0000791      0.0002438      0.9407959     -0.3339233
267500000      0.9371338     -0.3313904      0.0000732      0.0002424      0.0000478      0.0002474      0.9409790     -0.3334656
267562496      0.9375610     -0.3309326      0.0000704      0.0002335      0.0000713      0.0002348      0.9414368     -0.3346252
267624992      0.9371033     -0.3315125      0.0000817      0.0002460      0.0000577      0.0002223      0.9413147     -0.3333130
267687504      0.9369202     -0.3314819      0.0000478      0.0002451      0.0000875      0.0002460      0.9407349     -0.3347168
267750000      0.9368591     -0.3317261      0.0000937      0.0002217      0.0001255      0.0002787      0.9406128     -0.3345947
267812496      0.9365845     -0.3321533      0.0000993      0.0002565      0.0001004      0.0002322      0.9407654     -0.3343506
267875008      0.9370422     -0.3318481      0.0000798      0.0002567      0.0001161      0.0002304      0.9403687     -0.3345337
267937504      0.9373169     -0.3314819      0.0000924      0.0002358      0.0000994      0.0001995      0.9411316     -0.3338318
268000000      0.9371033     -0.3313293      0.0000946      0.0002418      0.0000747      0.0002397      0.9406433     -0.3338928
268062496      0.9373779     -0.3319397      0.0000773      0.0002679      0.0000812      0.0002694      0.9400330     -0.3344421
268124992      0.9365845     -0.3320313      0.0000634      0.0002838      0.0000393      0.0002662      0.9410706     -0.3347168
268187504      0.9365845     -0.3318176      0.0000583      0.0002515      0.0000844      0.0002078      0.9407349     -0.3347168
268250000      0.9367065     -0.3316345      0.0000487      0.0002248      0.0000615      0.0002206      0.9401855     -0.3343201
268312496      0.9367981     -0.3319702      0.0000380      0.0002320      0.0000598      0.0002416      0.9408875     -0.3354187
268375008      0.9367981     -0.3323669      0.0000809      0.0002198      0.0000889      0.0002457      0.9402161     -0.3346863
268437504      0.9368591     -0.3325195      0.0000663      0.0001984      0.0001095      0.0002342      0.9397583     -0.3349304
268500000      0.9369202     -0.3323059      0.0000985      0.0002303      0.0000743      0.0002672      0.9387207     -0.3354797
268562496      0.9367371     -0.3330688      0.0000864      0.0002516      0.0000979      0.0002004      0.9401245     -0.3341370
268624992      0.9360657     -0.3333130      0.0000702      0.0002440      0.0001035      0.0002041      0.9405212     -0.3346558
268687488      0.9366150     -0.3325195      0.0000751      0.0002018      0.0000701      0.0002159      0.9407349     -0.3350830
268750016      0.9362488     -0.3329163      0.0000914      0.0002093      0.0000846      0.0002548      0.9402771     -0.3348083
268812512      0.9365845     -0.3328247      0.0000736      0.0002159      0.0000471      0.0002290      0.9399414     -0.3356323
268875008      0.9367981     -0.3320923      0.0001008      0.0002158      0.0000712      0.0002357      0.9402161     -0.3348083
268937504      0.9363708     -0.3330078      0.0000162      0.0002240      0.0000486      0.0002552      0.9398499     -0.3352051
269000000      0.9359131     -0.3326416      0.0001020      0.0002360      0.0000405      0.0002531      0.9404907     -0.3353577
269062496      0.9368286     -0.3325195      0.0000565      0.0002226      0.0000469      0.0002094      0.9396057     -0.3357239
269124992      0.9362793     -0.3319397      0.0000453      0.0002468      0.0000528      0.0002259      0.9395447     -0.3360291
269187488      0.9363403     -0.3318176      0.0000675      0.0002694      0.0000504      0.0002275      0.9405823     -0.3360901
269249984      0.9360046     -0.3330994      0.0001169      0.0002200      0.0000197      0.0001844      0.9399719     -0.3356323
269312512      0.9364624     -0.3323975      0.0000840      0.0002391      0.0000894      0.0002660      0.9399414     -0.3360596
269375008      0.9362793     -0.3335266      0.0000209      0.0002702      0.0000562      0.0002313      0.9403381     -0.3362732
269437504      0.9360657     -0.3336487      0.0000703      0.0002208      0.0000644      0.0002401      0.9396667     -0.3356323
269500000      0.9356995     -0.3335266      0.0000698      0.0002549      0.0000676      0.0002449      0.9396973     -0.3367615
269562496      0.9374695     -0.3336487      0.0000534      0.0002647      0.0000487      0.0002289      0.9400330     -0.3354797
269624992      0.9362183     -0.3330994      0.0000412      0.0002323      0.0000362      0.0002426      0.9393005     -0.3365479
269687488      0.9360352     -0.3332520      0.0000433      0.0002382      0.0001036      0.0002718      0.9398193     -0.3361511
269750016      0.9366455     -0.3332825      0.0000501      0.0002016      0.0000049      0.0002875      0.9398193     -0.3364563
269812512      0.9364929     -0.3334656      0.0000284      0.0002506      0.0000689      0.0002581      0.9398804     -0.3365173
269875008      0.9356384     -0.3341675      0.0000357      0.0002343      0.0000496      0.0002355      0.9396362     -0.3370361
269937504      0.9361267     -0.3338928      0.0000775      0.0002011      0.0000451      0.0002450      0.9396667     -0.3374023
270000000      0.9360962     -0.3345032      0.0000582      0.0002565      0.0000342      0.0002377      0.9406738     -0.3368225
270062496      0.9356689     -0.3340149      0.0000797      0.0002412      0.0000487      0.0002630      0.9397278     -0.3368225
270124992      0.9364929     -0.3339539      0.0000724      0.0002578      0.0000617      0.0002082      0.9396057     -0.3367310
270187488      0.9356995     -0.3331909      0.0000763      0.0002495      0.0000415      0.0002203      0.9396973     -0.3372803
270249984      0.9358215     -0.3339233      0.0000501      0.0002867      0.0000285      0.0002685      0.9391785     -0.3365173
270312512      0.9356995     -0.3338623      0.0000282      0.0002650      0.0000656      0.0002672      0.9395142     -0.3370056
270375008      0.9357910     -0.3347473      0.0001248      0.0003024      0.0000504      0.0002763      0.9393616     -0.3370667
270437504      0.9358826     -0.3348083      0.0000689      0.0002286      0.0000622      0.0002489      0.9398193     -0.3369141
270500000      0.9362488     -0.3349915      0.0000263      0.0002416      0.0000480      0.0002777      0.9403687     -0.3375244
270562496      0.9357910     -0.3340759      0.0000307      0.0002880      0.0000965      0.0002496      0.9393311     -0.3378906
270624992      0.9362793     -0.3352051      0.0000734      0.0003086      0.0000428      0.0002737      0.9390564     -0.3374634
270687488      0.9356384     -0.3353577      0.0001161      0.0002782      0.0001246      0.0002676      0.9401245     -0.3385315
270750016      0.9354553     -0.3349609      0.0000694      0.0002967      0.0000872      0.0002622      0.9401855     -0.3372192
270812512      0.9351807     -0.3347778      0.0001085      0.0002576      0.0000554      0.0002533      0.9396362     -0.3380127
270875008      0.9356384     -0.3348999      0.0000896      0.0002785      0.0000742      0.0002628      0.9395142     -0.3376160
270937504      0.9352417     -0.3354187      0.0000745      0.0003086      0.0000879      0.0002210      0.9391479     -0.3374939
271000000      0.9353333     -0.3352051      0.0000712      0.0002657      0.0000975      0.0002492      0.9396057     -0.3369141
271062496      0.9348450     -0.3360901      0.0000538      0.0002723      0.0000663      0.0002474      0.9396057     -0.3377686
271124992      0.9352417     -0.3347778      0.0000963      0.0002761      0.0000799      0.0002529      0.9398804     -0.3378296
271187488      0.9354858     -0.3354187      0.0001035      0.0002938      0.0000748      0.0002558      0.9395752     -0.3376465
271249984      0.9353638     -0.3355103      0.0001121      0.0002459      0.0000358      0.0002586      0.9395447     -0.3384705
271312512      0.9351807     -0.3359375      0.0000566      0.0002441      0.0000742      0.0002426      0.9386902     -0.3377991
271375008      0.9350586     -0.3363953      0.0001231      0.0002380      0.0001038      0.0002869      0.9392395     -0.3380432
271437504      0.9348755     -0.3359070      0.0001197      0.0002634      0.0000918      0.0002665      0.9399414     -0.3384094
271500000      0.9349976     -0.3356018      0.0001196      0.0002632      0.0001253      0.0002540      0.9397888     -0.3380432
271562496      0.9349976     -0.3360596      0.0001281      0.0002496      0.0000508      0.0002428      0.9396362     -0.3383179
271624992      0.9357605     -0.3368530      0.0001119      0.0002596      0.0000748      0.0002426      0.9397583     -0.3375549
271687488      0.9355469     -0.3367310      0.0001027      0.0002702      0.0000522      0.0002561      0.9393005     -0.3384094
271750016      0.9354858     -0.3358459      0.0000283      0.0002387      0.0000812      0.0002185      0.9387817     -0.3389587
271812512      0.9346008     -0.3366699      0.0001003      0.0002300      0.0000689      0.0002259      0.9387817     -0.3383789
271875008      0.9352722     -0.3366089      0.0000862      0.0002289      0.0000848      0.0002645      0.9390259     -0.3382568
271937504      0.9350281     -0.3363953      0.0001148      0.0002141      0.0000786      0.0002884      0.9387817     -0.3387451
272000000      0.9348755     -0.3369446      0.0000619      0.0002184      0.0000989      0.0002355      0.9389343     -0.3391113
272062496      0.9350281     -0.3368530      0.0001128      0.0002424      0.0000892      0.0002479      0.9391174     -0.3381042
272124992      0.9353027     -0.3372192      0.0000437      0.0002740      0.0000849      0.0002575      0.9386292     -0.3392029
272187488      0.9352417     -0.3370056      0.0000495      0.0002544      0.0000702      0.0002732      0.9394226     -0.3388062
272249984      0.9346008     -0.3374329      0.0000778      0.0002220      0.0000751      0.0002292      0.9393616     -0.3388977
272312512      0.9345703     -0.3375854      0.0000919      0.0002236      0.0000453      0.0002537      0.9388428     -0.3389282
272375008      0.9347839     -0.3379211      0.0001003      0.0002096      0.0001115      0.0002553      0.9391785     -0.3385925
272437504      0.9348450     -0.3370361      0.0000903      0.0002515      0.0000618      0.0002235      0.9389648     -0.3393555
272500000      0.9349976     -0.3370056      0.0001270      0.0002399      0.0001209      0.0002704      0.9389343     -0.3394470
272562496      0.9350281     -0.3371887      0.0000632      0.0002353      0.0000540      0.0002212      0.9387817     -0.3391113
272624992      0.9350281     -0.3374634      0.0000828      0.0002651      0.0000655      0.0002629      0.9392395     -0.3393860
272687488      0.9343262     -0.3374634      0.0000578      0.0002374      0.0000458      0.0002473      0.9387207     -0.3396606
272750016      0.9343872     -0.3374329      0.0000425      0.0002338      0.0000455      0.0002408      0.9392090     -0.3393250
272812512      0.9350891     -0.3381042      0.0000586      0.0002233      0.0000809      0.0002539      0.9386292     -0.3398743
272875008      0.9340515     -0.3382874      0.0000219      0.0002495      0.0000571      0.0002542      0.9394226     -0.3394775
272937504      0.9347229     -0.3378296      0.0000840      0.0002164      0.0000650      0.0002495      0.9388428     -0.3392029
273000000      0.9340210     -0.3375244      0.0001114      0.0002325      0.0000552      0.0002214      0.9380188     -0.3401794
273062496      0.9344788     -0.3376465      0.0000541      0.0002428      0.0000475      0.0002258      0.9383850     -0.3399963
273124992      0.9345398     -0.3371887      0.0000801      0.0002559      0.0000729      0.0002106      0.9385681     -0.3401184
273187488      0.9347839     -0.3385620      0.0000395      0.0002733      0.0000702      0.0002396      0.9383850     -0.3401489
273249984      0.9344482     -0.3381958      0.0000340      0.0002274      0.0000651      0.0002427      0.9384155     -0.3396301
273312512      0.9335327     -0.3386230      0.0001048      0.0002144      0.0000682      0.0002478      0.9388123     -0.3401184
273375008      0.9345398     -0.3387451      0.0001226      0.0002242      0.0000935      0.0002324      0.9386597     -0.3407593
273437504      0.9340515     -0.3374939      0.0000406      0.0002417      0.0001028      0.0002474      0.9384766     -0.3406677
273500000      0.9339905     -0.3386841      0.0000813      0.0002074      0.0000348      0.0002822      0.9388428     -0.3404846
273562496      0.9338684     -0.3377991      0.0000993      0.0002170      0.0000875      0.0002503      0.9391479     -0.3412476
273624992      0.9339600     -0.3387146      0.0000743      0.0002069      0.0000738      0.0002102      0.9378967     -0.3409729
273687488      0.9342957     -0.3387451      0.0000578      0.0002484      0.0000473      0.0002402      0.9385986     -0.3410034
273750016      0.9344482     -0.3384705      0.0000645      0.0002147      0.0000820      0.0002121      0.9381104     -0.3405151
273812512      0.9350586     -0.3394775      0.0000783      0.0002466      0.0000754      0.0002234      0.9379883     -0.3414001
273875008      0.9338989     -0.3386536      0.0001120      0.0002771      0.0000502      0.0002388      0.9387512     -0.3413696
273937504      0.9347229     -0.3391113      0.0000753      0.0002550      0.0000741      0.0002378      0.9377136     -0.3411865
274000000      0.9333496     -0.3392334      0.0000237      0.0002149      0.0000374      0.0002121      0.9385071     -0.3414001
274062496      0.9342651     -0.3394470      0.0000497      0.0002108      0.0000788      0.0002282      0.9382629     -0.3410950
274124992      0.9346619     -0.3388062      0.0000150      0.0001946      0.0000806      0.0002756      0.9387512     -0.3419495
274187488      0.9341431     -0.3381348      0.0000529      0.0002335      0.0000790      0.0002559      0.9384766     -0.3404846
274249984      0.9336243     -0.3387146      0.0000519      0.0003106      0.0000872      0.0002299      0.9381714     -0.3408203
274312512      0.9335632     -0.3395691      0.0000675      0.0002344      0.0000756      0.0001886      0.9381714     -0.3402405
274375008      0.9336853     -0.3396301      0.0000212      0.0001919      0.0000457      0.0002072      0.9382935     -0.3408203
274437504      0.9337158     -0.3396912      0.0000620      0.0002537      0.0000600      0.0002191      0.9376221     -0.3405151
274500000      0.9342346     -0.3392639      0.0000269      0.0002522      0.0000208      0.0002782      0.9376526     -0.3404541
