!RF3181D
# HZ S RI R 50
914499968      0.4532776     -0.8185120     -0.0217972      0.0315914     -0.0203524      0.0303726      0.4390869     -0.8037109
914502464      0.4537659     -0.8188782     -0.0212631      0.0313282     -0.0198269      0.0301533      0.4391785     -0.8042603
914504960      0.4537659     -0.8193054     -0.0207996      0.0311079     -0.0194139      0.0298405      0.4394531     -0.8046265
914507456      0.4542236     -0.8198547     -0.0202904      0.0308437     -0.0188408      0.0296240      0.4396973     -0.8050537
914509952      0.4545593     -0.8202515     -0.0198116      0.0305471     -0.0184269      0.0293350      0.4401855     -0.8055115
914512448      0.4546204     -0.8210449     -0.0192871      0.0302525     -0.0180082      0.0290222      0.4401550     -0.8059082
914514944      0.4548645     -0.8212280     -0.0189009      0.0300283     -0.0175867      0.0288172      0.4404907     -0.8064575
914517440      0.4552917     -0.8218689     -0.0183878      0.0297461     -0.0171757      0.0285225      0.4406738     -0.8068848
914519936      0.4554443     -0.8224182     -0.0180302      0.0294037     -0.0167494      0.0282450      0.4408264     -0.8072510
914522496      0.4554749     -0.8227234     -0.0175858      0.0291319     -0.0163078      0.0279598      0.4410400     -0.8078918
914524992      0.4558716     -0.8233032     -0.0171652      0.0288649     -0.0159426      0.0277214      0.4413147     -0.8082581
914527488      0.4560547     -0.8239441     -0.0167818      0.0285730     -0.0155458      0.0274458      0.4414063     -0.8086548
914529984      0.4561157     -0.8243408     -0.0163889      0.0282640     -0.0152054      0.0271235      0.4416199     -0.8091125
914532480      0.4564514     -0.8250427     -0.0160007      0.0279703     -0.0148640      0.0268335      0.4417419     -0.8095093
914534976      0.4565430     -0.8256531     -0.0156078      0.0276651     -0.0144901      0.0266151      0.4418335     -0.8099060
914537472      0.4569092     -0.8259583     -0.0152645      0.0273771     -0.0141201      0.0263186      0.4418335     -0.8103333
914539968      0.4567566     -0.8266602     -0.0149097      0.0270596     -0.0138426      0.0260172      0.4419861     -0.8108521
914542464      0.4570313     -0.8270264     -0.0145960      0.0267859     -0.0135059      0.0257177      0.4421692     -0.8113403
914544960      0.4570923     -0.8277893     -0.0142279      0.0264559     -0.0131283      0.0254135      0.4421082     -0.8118286
914547456      0.4573059     -0.8279114     -0.0139284      0.0261774     -0.0129213      0.0251541      0.4422607     -0.8122253
914549952      0.4573364     -0.8287354     -0.0135927      0.0258713     -0.0125818      0.0248680      0.4422913     -0.8127136
914552448      0.4575195     -0.8293152     -0.0132704      0.0256081     -0.0122757      0.0245762      0.4422913     -0.8131714
914554944      0.4574890     -0.8296204     -0.0129862      0.0252848     -0.0119915      0.0242767      0.4424744     -0.8135376
914557440      0.4573364     -0.8299561     -0.0126686      0.0249472     -0.0117111      0.0239496      0.4422302     -0.8138428
914560000      0.4575500     -0.8307495     -0.0124359      0.0247049     -0.0114679      0.0237064      0.4423523     -0.8143616
914562496      0.4574890     -0.8308716     -0.0121641      0.0243845     -0.0112028      0.0233850      0.4423828     -0.8148193
914564992      0.4576111     -0.8315430     -0.0118923      0.0241022     -0.0109406      0.0230846      0.4424133     -0.8153381
914567488      0.4578552     -0.8320007     -0.0116243      0.0237722     -0.0107088      0.0228252      0.4423828     -0.8157654
914569984      0.4578247     -0.8324890     -0.0113745      0.0235453     -0.0104561      0.0225725      0.4422913     -0.8161011
914572480      0.4576721     -0.8329163     -0.0111055      0.0232286     -0.0102730      0.0222330      0.4423523     -0.8166809
914574976      0.4579773     -0.8332520     -0.0108957      0.0229387     -0.0100727      0.0219307      0.4422913     -0.8171387
914577472      0.4577637     -0.8336487     -0.0106554      0.0226355     -0.0098114      0.0216799      0.4421997     -0.8174438
914579968      0.4579468     -0.8342590     -0.0104542      0.0223303     -0.0096149      0.0213652      0.4421692     -0.8177185
914582464      0.4577332     -0.8348083     -0.0102491      0.0220518     -0.0094070      0.0211191      0.4420471     -0.8183899
914584960      0.4579773     -0.8351135     -0.0100574      0.0217953     -0.0092096      0.0208693      0.4420471     -0.8184814
914587456      0.4577637     -0.8356628     -0.0097990      0.0214777     -0.0090828      0.0205612      0.4419556     -0.8191528
914589952      0.4577942     -0.8361511     -0.0096273      0.0211945     -0.0088291      0.0203047      0.4417725     -0.8194580
914592448      0.4577332     -0.8366699     -0.0094099      0.0209007     -0.0086708      0.0200157      0.4416504     -0.8198547
914594944      0.4577637     -0.8371887     -0.0092783      0.0206423     -0.0084610      0.0197020      0.4416504     -0.8202820
914597440      0.4577026     -0.8374939     -0.0090456      0.0203066     -0.0083542      0.0194969      0.4415588     -0.8207397
914599936      0.4578552     -0.8380127     -0.0088930      0.0200558     -0.0081863      0.0192156      0.4413452     -0.8210754
914602496      0.4576416     -0.8384705     -0.0086889      0.0198040     -0.0080004      0.0189791      0.4412537     -0.8213806
914604992      0.4574280     -0.8388367     -0.0086260      0.0195484     -0.0078793      0.0187063      0.4411926     -0.8218384
914607488      0.4573669     -0.8391113     -0.0083790      0.0192194     -0.0077229      0.0184250      0.4412537     -0.8222656
914609984      0.4574890     -0.8395996     -0.0082607      0.0189848     -0.0075855      0.0181599      0.4409180     -0.8227539
914612480      0.4570923     -0.8402710     -0.0080690      0.0187178     -0.0073833      0.0179501      0.4407654     -0.8229065
914614976      0.4569702     -0.8405457     -0.0079613      0.0184669     -0.0072937      0.0176840      0.4408569     -0.8233337
914617472      0.4569397     -0.8409424     -0.0078306      0.0181971     -0.0072060      0.0174227      0.4405823     -0.8237305
914619968      0.4568176     -0.8415833     -0.0076857      0.0178719     -0.0070477      0.0171518      0.4403076     -0.8240356
914622464      0.4566345     -0.8415833     -0.0075798      0.0176573     -0.0069084      0.0169058      0.4403076     -0.8244324
914624960      0.4565430     -0.8421631     -0.0074759      0.0173740     -0.0068235      0.0166979      0.4401550     -0.8248596
914627456      0.4564819     -0.8425598     -0.0073824      0.0171013     -0.0066910      0.0163937      0.4399414     -0.8250732
914629952      0.4562683     -0.8430786     -0.0071936      0.0168800     -0.0066166      0.0161695      0.4399109     -0.8256531
914632448      0.4559631     -0.8432922     -0.0071163      0.0166416     -0.0065174      0.0159512      0.4397278     -0.8258362
914634944      0.4560242     -0.8438110     -0.0070162      0.0163784     -0.0063276      0.0157137      0.4396362     -0.8262634
914637440      0.4558411     -0.8442383     -0.0069027      0.0161419     -0.0062246      0.0154557      0.4396362     -0.8266296
914640000      0.4558716     -0.8449097     -0.0067940      0.0159311     -0.0061831      0.0152488      0.4394531     -0.8269653
914642496      0.4555054     -0.8448792     -0.0066733      0.0156126     -0.0060868      0.0149965      0.4393005     -0.8274231
914644992      0.4553223     -0.8456421     -0.0066142      0.0154586     -0.0059657      0.0147696      0.4390259     -0.8275757
914647488      0.4551392     -0.8456116     -0.0064917      0.0151629     -0.0059562      0.0145493      0.4389343     -0.8279724
914649984      0.4552307     -0.8461609     -0.0064015      0.0149369     -0.0058661      0.0142879      0.4387512     -0.8283386
914652480      0.4551086     -0.8464661     -0.0063415      0.0147066     -0.0057964      0.0140572      0.4385071     -0.8285828
914654976      0.4545593     -0.8466797     -0.0062141      0.0144587     -0.0056553      0.0138988      0.4382629     -0.8288269
914657472      0.4545288     -0.8471069     -0.0061793      0.0142312     -0.0055861      0.0136752      0.4382019     -0.8292236
914659968      0.4543457     -0.8476257     -0.0061059      0.0139966     -0.0054665      0.0134172      0.4379883     -0.8294373
914662464      0.4542847     -0.8476563     -0.0060325      0.0137982     -0.0054636      0.0132155      0.4378357     -0.8298035
914664960      0.4539795     -0.8481445     -0.0059037      0.0135560     -0.0054111      0.0130177      0.4377441     -0.8299561
914667456      0.4536133     -0.8486633     -0.0058856      0.0133548     -0.0053391      0.0127730      0.4374390     -0.8302917
914669952      0.4533997     -0.8489075     -0.0058103      0.0131183     -0.0052910      0.0125899      0.4374695     -0.8305359
914672448      0.4533386     -0.8492737     -0.0056581      0.0128970     -0.0052047      0.0123920      0.4372253     -0.8307190
914674944      0.4530640     -0.8493652     -0.0056658      0.0127034     -0.0051308      0.0121469      0.4369812     -0.8309631
914677440      0.4529724     -0.8500061     -0.0055647      0.0124192     -0.0050421      0.0119009      0.4369507     -0.8313599
914679936      0.4525757     -0.8501892     -0.0055275      0.0122423     -0.0050092      0.0117693      0.4365845     -0.8315430
914682496      0.4525146     -0.8504333     -0.0054841      0.0120001     -0.0050249      0.0115356      0.4364624     -0.8318481
914684992      0.4522400     -0.8507080     -0.0054355      0.0118303     -0.0049715      0.0113683      0.4363708     -0.8319702
914687488      0.4523315     -0.8511658     -0.0053945      0.0116115     -0.0049167      0.0111623      0.4362488     -0.8323975
914689984      0.4519653     -0.8514404     -0.0053325      0.0114541     -0.0048647      0.0109372      0.4360046     -0.8326416
914692480      0.4519043     -0.8515625     -0.0052762      0.0112219     -0.0048118      0.0107646      0.4358521     -0.8328552
914694976      0.4515686     -0.8519287     -0.0052390      0.0110021     -0.0047731      0.0105805      0.4356995     -0.8331299
914697472      0.4515076     -0.8520508     -0.0052090      0.0108361     -0.0047369      0.0103831      0.4354858     -0.8335571
914699968      0.4511719     -0.8523560     -0.0051661      0.0106554     -0.0047030      0.0102100      0.4353638     -0.8338318
914702464      0.4510803     -0.8525391     -0.0051279      0.0104628     -0.0046792      0.0100284      0.4351196     -0.8341370
914704960      0.4507446     -0.8528442     -0.0050917      0.0102687     -0.0046453      0.0098381      0.4350586     -0.8344727
914707456      0.4503784     -0.8532410     -0.0050440      0.0100818     -0.0046215      0.0096588      0.4345703     -0.8347168
914709952      0.4504089     -0.8535156     -0.0050144      0.0098915     -0.0045767      0.0094862      0.4343872     -0.8349609
914712448      0.4498596     -0.8536682     -0.0049844      0.0097160     -0.0045462      0.0093126      0.4341431     -0.8352051
914714944      0.4497070     -0.8540955     -0.0049520      0.0095334     -0.0045185      0.0091381      0.4338379     -0.8354797
914717440      0.4495850     -0.8543091     -0.0049276      0.0093427     -0.0045037      0.0089693      0.4336853     -0.8358154
914720000      0.4493408     -0.8544922     -0.0048933      0.0091753     -0.0044785      0.0088010      0.4334717     -0.8360291
914722496      0.4488525     -0.8550720     -0.0048637      0.0089965     -0.0044575      0.0086370      0.4331360     -0.8363037
914724992      0.4487000     -0.8549500     -0.0048409      0.0088215     -0.0044355      0.0084643      0.4329834     -0.8365784
914727488      0.4486389     -0.8552856     -0.0048122      0.0086565     -0.0044136      0.0082951      0.4327087     -0.8368530
914729984      0.4482422     -0.8556519     -0.0047922      0.0084777     -0.0043840      0.0081315      0.4324951     -0.8371582
914732480      0.4481812     -0.8557434     -0.0047669      0.0083227     -0.0043740      0.0079727      0.4321899     -0.8374329
914734976      0.4479980     -0.8561096     -0.0047474      0.0081420     -0.0043516      0.0078139      0.4320679     -0.8374023
914737472      0.4474487     -0.8563538     -0.0047274      0.0079827     -0.0043426      0.0076506      0.4317932     -0.8377686
914739968      0.4472351     -0.8568420     -0.0047188      0.0078263     -0.0043159      0.0074975      0.4314880     -0.8380737
914742464      0.4469910     -0.8568115     -0.0046902      0.0076685     -0.0043037      0.0073442      0.4312744     -0.8382263
914744960      0.4464417     -0.8570557     -0.0046747      0.0074918     -0.0043018      0.0071990      0.4309998     -0.8386230
914747456      0.4465637     -0.8575745     -0.0046561      0.0073454     -0.0042760      0.0070336      0.4308167     -0.8389587
914749952      0.4461365     -0.8577576     -0.0046377      0.0071981     -0.0042675      0.0068865      0.4305115     -0.8388672
914752448      0.4459839     -0.8579102     -0.0046320      0.0070250     -0.0042481      0.0067389      0.4302673     -0.8393555
914754944      0.4460144     -0.8580322     -0.0046179      0.0068719     -0.0042462      0.0065916      0.4299011     -0.8393860
914757440      0.4455872     -0.8581848     -0.0046017      0.0067232     -0.0042419      0.0064526      0.4295959     -0.8396912
914759936      0.4454041     -0.8585510     -0.0045915      0.0065722     -0.0042298      0.0063024      0.4295044     -0.8398132
914762496      0.4450684     -0.8589783     -0.0045865      0.0064373     -0.0042195      0.0061722      0.4291382     -0.8399963
914764992      0.4449768     -0.8591614     -0.0045688      0.0062673     -0.0042050      0.0060244      0.4289246     -0.8402405
914767488      0.4445496     -0.8591003     -0.0045629      0.0061345     -0.0042028      0.0058849      0.4286499     -0.8403931
914769984      0.4444580     -0.8594666     -0.0045543      0.0059867     -0.0041881      0.0057409      0.4282532     -0.8405762
914772480      0.4440613     -0.8596497     -0.0045366      0.0058439     -0.0041871      0.0056078      0.4281311     -0.8408203
914774976      0.4440002     -0.8600769     -0.0045233      0.0056911     -0.0041788      0.0054765      0.4277344     -0.8410034
914777472      0.4437866     -0.8601990     -0.0045164      0.0055549     -0.0041704      0.0053425      0.4276123     -0.8411255
914779968      0.4433594     -0.8609009     -0.0045178      0.0054355     -0.0041642      0.0052094      0.4273071     -0.8413696
914782464      0.4432373     -0.8607483     -0.0045025      0.0052762     -0.0041552      0.0050721      0.4270325     -0.8415833
914784960      0.4428406     -0.8611145     -0.0044949      0.0051460     -0.0041482      0.0049467      0.4266968     -0.8416748
914787456      0.4425049     -0.8611145     -0.0044937      0.0050120     -0.0041435      0.0048139      0.4264221     -0.8418884
914789952      0.4423523     -0.8616638     -0.0044949      0.0048795     -0.0041516      0.0046918      0.4262390     -0.8420105
914792448      0.4421997     -0.8616943     -0.0044761      0.0047543     -0.0041301      0.0045645      0.4259949     -0.8423157
914794944      0.4418640     -0.8620605     -0.0044649      0.0046232     -0.0041244      0.0044470      0.4257202     -0.8423462
914797440      0.4418335     -0.8621826     -0.0044768      0.0044887     -0.0041256      0.0043097      0.4255066     -0.8426819
914800000      0.4413147     -0.8626404     -0.0044663      0.0043573     -0.0041120      0.0041842      0.4251404     -0.8429260
914802496      0.4408875     -0.8628845     -0.0044591      0.0042326     -0.0041225      0.0040755      0.4249878     -0.8431396
914804992      0.4405518     -0.8630981     -0.0044534      0.0040977     -0.0041144      0.0039549      0.4245605     -0.8431396
914807488      0.4404297     -0.8631287     -0.0044549      0.0039728     -0.0041072      0.0038271      0.4243774     -0.8434143
914809984      0.4402161     -0.8635864     -0.0044477      0.0038421     -0.0040989      0.0037153      0.4240417     -0.8435974
914812480      0.4397888     -0.8636169     -0.0044324      0.0037324     -0.0041022      0.0035961      0.4238892     -0.8436890
914814976      0.4395447     -0.8637085     -0.0044303      0.0036070     -0.0040994      0.0034821      0.4234009     -0.8439636
914817472      0.4390869     -0.8638611     -0.0044205      0.0034838     -0.0040867      0.0033593      0.4231873     -0.8441467
914819968      0.4388428     -0.8640442     -0.0044284      0.0033543     -0.0040870      0.0032506      0.4230957     -0.8442078
914822464      0.4386292     -0.8642578     -0.0044153      0.0032382     -0.0040843      0.0031371      0.4226990     -0.8444214
914824960      0.4384155     -0.8645935     -0.0044057      0.0031188     -0.0040679      0.0030148      0.4225464     -0.8445435
914827456      0.4378967     -0.8646545     -0.0044038      0.0030022     -0.0040679      0.0029113      0.4221191     -0.8448486
914829952      0.4375305     -0.8647461     -0.0043910      0.0028887     -0.0040629      0.0027943      0.4218750     -0.8449097
914832448      0.4375916     -0.8647766     -0.0043874      0.0027797     -0.0040622      0.0026910      0.4214783     -0.8451538
914834944      0.4367676     -0.8649292     -0.0043805      0.0026598     -0.0040610      0.0025682      0.4215393     -0.8450928
914837440      0.4366760     -0.8652039     -0.0043733      0.0025315     -0.0040634      0.0024703      0.4210510     -0.8453674
914839936      0.4366760     -0.8653564     -0.0043597      0.0024350     -0.0040512      0.0023608      0.4207153     -0.8454590
914842496      0.4361572     -0.8652954     -0.0043631      0.0023170     -0.0040460      0.0022528      0.4203796     -0.8457031
914844992      0.4361572     -0.8658142     -0.0043488      0.0022089     -0.0040398      0.0021489      0.4200134     -0.8458252
914847488      0.4356689     -0.8656006     -0.0043311      0.0020921     -0.0040233      0.0020361      0.4198914     -0.8459473
914849984      0.4354248     -0.8658142     -0.0043292      0.0019755     -0.0040190      0.0019357      0.4196472     -0.8460693
914852480      0.4348145     -0.8659973     -0.0043218      0.0018663     -0.0040188      0.0018330      0.4193115     -0.8462219
914854976      0.4347229     -0.8662415     -0.0043082      0.0017614     -0.0040123      0.0017192      0.4190369     -0.8464355
914857472      0.4343567     -0.8663940     -0.0042999      0.0016518     -0.0039937      0.0016198      0.4187012     -0.8464050
914859968      0.4341431     -0.8666992     -0.0042932      0.0015402     -0.0039816      0.0015154      0.4183044     -0.8465576
914862464      0.4338379     -0.8666992     -0.0042875      0.0014377     -0.0039835      0.0014203      0.4180603     -0.8468323
914864960      0.4336853     -0.8669128     -0.0042696      0.0013158     -0.0039659      0.0013075      0.4178467     -0.8468323
914867456      0.4333801     -0.8669128     -0.0042474      0.0012136     -0.0039575      0.0012202      0.4176331     -0.8469238
914869952      0.4329224     -0.8673401     -0.0042410      0.0011177     -0.0039418      0.0011077      0.4171753     -0.8471375
914872448      0.4325867     -0.8671570     -0.0042264      0.0010066     -0.0039396      0.0010133      0.4170532     -0.8471069
914874944      0.4323120     -0.8675232     -0.0042114      0.0009048     -0.0039163      0.0009129      0.4167175     -0.8472595
914877440      0.4319763     -0.8675537     -0.0042038      0.0007863     -0.0039067      0.0008111      0.4163208     -0.8472900
914880000      0.4318237     -0.8677673     -0.0041988      0.0006831     -0.0038891      0.0007114      0.4159546     -0.8473206
