!RF3181D
# HZ S RI R 50
876499968      0.5406494     -0.8315430      0.0003470      0.0001481      0.0003395      0.0001410      0.5242615     -0.8152466
876549952      0.5405273     -0.8312378      0.0003540      0.0001526      0.0003426      0.0001476      0.5243225     -0.8153076
876599936      0.5401611     -0.8313599      0.0003604      0.0001501      0.0003553      0.0001311      0.5245056     -0.8153687
876649984      0.5405273     -0.8311768      0.0003691      0.0001431      0.0003665      0.0001250      0.5241699     -0.8152771
876699968      0.5401001     -0.8309937      0.0003793      0.0001289      0.0003668      0.0001286      0.5245361     -0.8151550
876749952      0.5401001     -0.8312378      0.0003861      0.0001287      0.0003829      0.0001156      0.5243225     -0.8149109
876800000      0.5399780     -0.8311768      0.0004059      0.0001238      0.0003927      0.0001055      0.5242310     -0.8151550
876849984      0.5403442     -0.8309937      0.0004030      0.0001207      0.0003920      0.0001130      0.5239868     -0.8151550
876899968      0.5398560     -0.8315430      0.0004135      0.0001194      0.0004069      0.0001012      0.5242920     -0.8151550
876949952      0.5399170     -0.8310547      0.0004158      0.0001160      0.0004047      0.0001064      0.5240173     -0.8152771
876999936      0.5402222     -0.8315430      0.0004272      0.0001013      0.0004162      0.0000956      0.5241089     -0.8149414
877049984      0.5399170     -0.8314209      0.0004351      0.0000983      0.0004243      0.0000923      0.5239258     -0.8150940
877099968      0.5397339     -0.8315430      0.0004316      0.0000850      0.0004321      0.0000764      0.5235901     -0.8157349
877149952      0.5397949     -0.8316040      0.0004421      0.0000812      0.0004352      0.0000674      0.5238037     -0.8150635
877200000      0.5397949     -0.8317261      0.0004483      0.0000694      0.0004387      0.0000537      0.5237732     -0.8149719
877249984      0.5397339     -0.8316040      0.0004529      0.0000574      0.0004451      0.0000575      0.5234985     -0.8155212
877299968      0.5397339     -0.8320313      0.0004473      0.0000508      0.0004440      0.0000505      0.5234375     -0.8153076
877349952      0.5396729     -0.8311768      0.0004611      0.0000373      0.0004547      0.0000266      0.5233765     -0.8153992
877399936      0.5397339     -0.8319092      0.0004676      0.0000323      0.0004525      0.0000209      0.5236206     -0.8153992
877449984      0.5388184     -0.8310547      0.0004677      0.0000220      0.0004621      0.0000162      0.5235596     -0.8167114
877499968      0.5393677     -0.8317261      0.0004650      0.0000138      0.0004547      0.0000062      0.5234070     -0.8154907
877549952      0.5393066     -0.8316650      0.0004801      0.0000130      0.0004599      0.0000061      0.5232849     -0.8153992
877600000      0.5391235     -0.8314209      0.0004797     -0.0000100      0.0004649     -0.0000082      0.5234680     -0.8150330
877649984      0.5389709     -0.8315735      0.0004811     -0.0000115      0.0004511     -0.0000302      0.5230103     -0.8154602
877699968      0.5392761     -0.8319092      0.0004781     -0.0000161      0.0004540     -0.0000317      0.5233459     -0.8154602
877749952      0.5389099     -0.8317261      0.0004802     -0.0000321      0.0004551     -0.0000294      0.5230713     -0.8151245
877799936      0.5393372     -0.8318481      0.0004757     -0.0000324      0.0004559     -0.0000416      0.5234680     -0.8154297
877849984      0.5391235     -0.8316956      0.0004807     -0.0000392      0.0004598     -0.0000599      0.5229492     -0.8156738
877899968      0.5388794     -0.8316345      0.0004795     -0.0000571      0.0004492     -0.0000575      0.5230408     -0.8159180
877949952      0.5390625     -0.8317871      0.0004744     -0.0000610      0.0004505     -0.0000699      0.5230103     -0.8156433
878000000      0.5389404     -0.8315735      0.0004655     -0.0000708      0.0004521     -0.0000767      0.5232544     -0.8156433
878049984      0.5385437     -0.8315735      0.0004610     -0.0000784      0.0004579     -0.0000873      0.5228271     -0.8155823
878099968      0.5389404     -0.8318176      0.0004659     -0.0000867      0.0004463     -0.0000973      0.5228271     -0.8153076
878149952      0.5388184     -0.8321533      0.0004592     -0.0000915      0.0004454     -0.0000958      0.5225220     -0.8157349
878199936      0.5385132     -0.8317566      0.0004597     -0.0001023      0.0004487     -0.0001099      0.5227966     -0.8157043
878249984      0.5386353     -0.8320923      0.0004595     -0.0001131      0.0004428     -0.0001098      0.5228271     -0.8155518
878299968      0.5385742     -0.8318787      0.0004493     -0.0001205      0.0004404     -0.0001256      0.5225830     -0.8157349
878349952      0.5385132     -0.8319397      0.0004501     -0.0001278      0.0004315     -0.0001306      0.5223999     -0.8157043
878400000      0.5383301     -0.8324890      0.0004389     -0.0001428      0.0004316     -0.0001463      0.5223389     -0.8158875
878449984      0.5381165     -0.8320313      0.0004423     -0.0001504      0.0004235     -0.0001605      0.5223389     -0.8157043
878499968      0.5382690     -0.8320923      0.0004263     -0.0001529      0.0004130     -0.0001617      0.5223999     -0.8157959
878549952      0.5382080     -0.8319397      0.0004247     -0.0001521      0.0004034     -0.0001686      0.5221863     -0.8158264
878599936      0.5381775     -0.8318481      0.0004200     -0.0001630      0.0004029     -0.0001563      0.5221252     -0.8158875
878649984      0.5379944     -0.8317871      0.0004200     -0.0001703      0.0003953     -0.0001650      0.5220032     -0.8157349
878699968      0.5379028     -0.8321533      0.0004026     -0.0001676      0.0003955     -0.0001619      0.5220032     -0.8157654
878749952      0.5380249     -0.8325195      0.0004081     -0.0001885      0.0003796     -0.0001833      0.5221863     -0.8156738
878800000      0.5377502     -0.8325500      0.0003984     -0.0001915      0.0003803     -0.0001832      0.5218506     -0.8162842
878849984      0.5378113     -0.8320923      0.0003867     -0.0001900      0.0003654     -0.0001946      0.5216370     -0.8160095
878899968      0.5376282     -0.8323364      0.0003851     -0.0001934      0.0003604     -0.0001926      0.5217285     -0.8158264
878949952      0.5374756     -0.8324585      0.0003752     -0.0002043      0.0003563     -0.0002043      0.5215759     -0.8159790
878999936      0.5375977     -0.8326721      0.0003767     -0.0002035      0.0003483     -0.0002042      0.5212097     -0.8159180
879049984      0.5379944     -0.8321838      0.0003707     -0.0002053      0.0003434     -0.0002023      0.5221863     -0.8160706
879099968      0.5377808     -0.8325500      0.0003610     -0.0002174      0.0003400     -0.0002074      0.5214844     -0.8159790
879149952      0.5377502     -0.8324585      0.0003613     -0.0002103      0.0003337     -0.0002139      0.5212708     -0.8159790
879200000      0.5374451     -0.8329773      0.0003438     -0.0002151      0.0003342     -0.0002151      0.5214844     -0.8159790
879249984      0.5374146     -0.8325806      0.0003394     -0.0002194      0.0003224     -0.0002171      0.5215759     -0.8156433
879299968      0.5375977     -0.8327332      0.0003297     -0.0002263      0.0003084     -0.0002223      0.5215454     -0.8160706
879349952      0.5374146     -0.8325806      0.0003135     -0.0002313      0.0003152     -0.0002289      0.5212708     -0.8161316
879399936      0.5371399     -0.8327942      0.0003095     -0.0002306      0.0003007     -0.0002279      0.5215454     -0.8164673
879449984      0.5372925     -0.8328247      0.0003181     -0.0002388      0.0002824     -0.0002400      0.5209961     -0.8162537
879499968      0.5372009     -0.8329773      0.0002929     -0.0002404      0.0002774     -0.0002364      0.5210571     -0.8159485
879549952      0.5370178     -0.8327637      0.0003018     -0.0002187      0.0002686     -0.0002366      0.5208130     -0.8160095
879600000      0.5365601     -0.8326721      0.0002804     -0.0002464      0.0002608     -0.0002428      0.5209656     -0.8163757
879649984      0.5368042     -0.8326721      0.0002593     -0.0002460      0.0002545     -0.0002416      0.5210266     -0.8161621
879699968      0.5367432     -0.8330383      0.0002595     -0.0002429      0.0002485     -0.0002389      0.5210876     -0.8161011
879749952      0.5368652     -0.8328857      0.0002616     -0.0002498      0.0002395     -0.0002345      0.5208435     -0.8159790
879799936      0.5367432     -0.8328552      0.0002474     -0.0002377      0.0002330     -0.0002461      0.5205383     -0.8163147
879849984      0.5365601     -0.8327637      0.0002367     -0.0002406      0.0002180     -0.0002326      0.5205383     -0.8162842
879899968      0.5366821     -0.8327026      0.0002284     -0.0002449      0.0002080     -0.0002369      0.5207214     -0.8163147
879949952      0.5367126     -0.8328247      0.0002183     -0.0002351      0.0002008     -0.0002365      0.5206604     -0.8166199
880000000      0.5364380     -0.8330383      0.0002049     -0.0002369      0.0001910     -0.0002263      0.5204773     -0.8167725
880049984      0.5360413     -0.8327942      0.0002143     -0.0002302      0.0001814     -0.0002242      0.5208740     -0.8165894
880099968      0.5364075     -0.8329468      0.0001956     -0.0002340      0.0001834     -0.0002305      0.5202637     -0.8163147
880149952      0.5360718     -0.8329468      0.0001731     -0.0002328      0.0001720     -0.0002152      0.5201416     -0.8165894
880199936      0.5363159     -0.8330688      0.0001667     -0.0002285      0.0001617     -0.0002244      0.5203857     -0.8164368
880249984      0.5362854     -0.8329163      0.0001618     -0.0002202      0.0001483     -0.0002102      0.5202942     -0.8164368
880299968      0.5360413     -0.8330994      0.0001643     -0.0002204      0.0001362     -0.0002108      0.5204163     -0.8163147
880349952      0.5362854     -0.8334351      0.0001363     -0.0001978      0.0001355     -0.0002049      0.5198669     -0.8164368
880400000      0.5359497     -0.8331604      0.0001317     -0.0002107      0.0001355     -0.0001909      0.5198975     -0.8166809
880449984      0.5359192     -0.8332214      0.0001356     -0.0002116      0.0001245     -0.0002003      0.5199280     -0.8165894
880499968      0.5360718     -0.8332520      0.0001273     -0.0001934      0.0001154     -0.0001930      0.5198364     -0.8163147
880549952      0.5359497     -0.8334045      0.0001118     -0.0001833      0.0001095     -0.0001839      0.5198059     -0.8168030
880599936      0.5356140     -0.8333740      0.0001117     -0.0001846      0.0001014     -0.0001871      0.5199585     -0.8166809
880649984      0.5358887     -0.8333740      0.0001064     -0.0001829      0.0000960     -0.0001699      0.5195923     -0.8163452
880699968      0.5359802     -0.8331299      0.0000990     -0.0001707      0.0000833     -0.0001600      0.5198364     -0.8166199
880749952      0.5357361     -0.8335571      0.0000928     -0.0001632      0.0000884     -0.0001540      0.5198975     -0.8167419
880800000      0.5354919     -0.8334656      0.0000812     -0.0001567      0.0000772     -0.0001495      0.5193787     -0.8164673
880849984      0.5356750     -0.8334656      0.0000751     -0.0001458      0.0000640     -0.0001386      0.5196838     -0.8170166
880899968      0.5354004     -0.8332520      0.0000626     -0.0001280      0.0000667     -0.0001354      0.5197449     -0.8168335
880949952      0.5354004     -0.8334656      0.0000625     -0.0001307      0.0000509     -0.0001242      0.5195923     -0.8165894
880999936      0.5354309     -0.8335266      0.0000526     -0.0001170      0.0000622     -0.0001223      0.5193787     -0.8165588
881049984      0.5353699     -0.8336182      0.0000508     -0.0001005      0.0000551     -0.0001047      0.5188904     -0.8168030
881099968      0.5352783     -0.8334961      0.0000455     -0.0000982      0.0000400     -0.0000932      0.5191040     -0.8168335
881149952      0.5352478     -0.8336182      0.0000434     -0.0000869      0.0000438     -0.0000971      0.5190735     -0.8166199
881200000      0.5355225     -0.8336487      0.0000384     -0.0000807      0.0000385     -0.0000693      0.5189514     -0.8170471
881249984      0.5347290     -0.8336182      0.0000438     -0.0000770      0.0000355     -0.0000694      0.5188904     -0.8169556
881299968      0.5350037     -0.8338013      0.0000288     -0.0000592      0.0000245     -0.0000571      0.5188293     -0.8169556
881349952      0.5350647     -0.8334656      0.0000289     -0.0000572      0.0000415     -0.0000488      0.5189819     -0.8170166
881399936      0.5350037     -0.8338318      0.0000351     -0.0000371      0.0000318     -0.0000389      0.5187988     -0.8173218
881449984      0.5349731     -0.8339539      0.0000254     -0.0000189      0.0000368     -0.0000329      0.5189819     -0.8170166
881499968      0.5347900     -0.8336487      0.0000340     -0.0000042      0.0000384     -0.0000088      0.5188904     -0.8170776
881549952      0.5349121     -0.8339539      0.0000224      0.0000003      0.0000281      0.0000023      0.5187378     -0.8169556
881600000      0.5346680     -0.8341675      0.0000453      0.0000137      0.0000286      0.0000135      0.5188904     -0.8169556
881649984      0.5343628     -0.8336792      0.0000275      0.0000283      0.0000370      0.0000230      0.5185242     -0.8171692
881699968      0.5346985     -0.8336487      0.0000370      0.0000351      0.0000338      0.0000350      0.5183716     -0.8171997
881749952      0.5345764     -0.8338623      0.0000403      0.0000500      0.0000285      0.0000536      0.5184937     -0.8171997
881799936      0.5345459     -0.8341980      0.0000435      0.0000623      0.0000361      0.0000472      0.5183105     -0.8172607
881849984      0.5342712     -0.8334656      0.0000346      0.0000679      0.0000497      0.0000690      0.5183411     -0.8169250
881899968      0.5343628     -0.8338623      0.0000575      0.0000826      0.0000495      0.0000827      0.5183411     -0.8171387
881949952      0.5339966     -0.8339233      0.0000568      0.0000944      0.0000586      0.0000989      0.5183716     -0.8169250
882000000      0.5343018     -0.8339233      0.0000621      0.0000981      0.0000665      0.0000973      0.5185547     -0.8172913
882049984      0.5340271     -0.8341675      0.0000748      0.0001165      0.0000745      0.0001220      0.5183105     -0.8171692
882099968      0.5340576     -0.8340454      0.0000935      0.0001267      0.0000763      0.0001215      0.5181885     -0.8173828
882149952      0.5340576     -0.8341675      0.0000966      0.0001370      0.0000865      0.0001319      0.5180359     -0.8173218
882199936      0.5334167     -0.8338623      0.0000948      0.0001554      0.0001081      0.0001306      0.5178833     -0.8174133
882249984      0.5341797     -0.8343506      0.0001086      0.0001443      0.0001074      0.0001594      0.5178223     -0.8175354
882299968      0.5336609     -0.8341370      0.0001277      0.0001629      0.0001230      0.0001500      0.5176392     -0.8177185
882349952      0.5336609     -0.8341980      0.0001209      0.0001568      0.0001288      0.0001609      0.5178223     -0.8174438
882400000      0.5338745     -0.8341980      0.0001475      0.0001673      0.0001350      0.0001662      0.5179749     -0.8173523
882449984      0.5336609     -0.8341064      0.0001477      0.0001738      0.0001616      0.0001615      0.5177612     -0.8171997
882499968      0.5334778     -0.8342896      0.0001542      0.0001734      0.0001555      0.0001655      0.5175476     -0.8177490
882549952      0.5332336     -0.8344727      0.0001727      0.0001792      0.0001629      0.0001761      0.5174561     -0.8173828
882599936      0.5337219     -0.8345032      0.0001700      0.0001792      0.0001839      0.0001757      0.5173035     -0.8176270
882649984      0.5336914     -0.8344421      0.0001925      0.0001860      0.0001972      0.0001711      0.5176392     -0.8173523
882699968      0.5331421     -0.8343201      0.0001961      0.0001817      0.0001967      0.0001862      0.5173035     -0.8175049
882749952      0.5332642     -0.8345642      0.0002082      0.0001924      0.0002101      0.0001832      0.5171204     -0.8171997
882800000      0.5333557     -0.8347473      0.0002162      0.0001940      0.0002174      0.0001829      0.5174255     -0.8177490
882849984      0.5330505     -0.8345947      0.0002237      0.0001896      0.0002274      0.0001825      0.5174561     -0.8175354
882899968      0.5334778     -0.8345337      0.0002383      0.0001968      0.0002294      0.0001867      0.5172729     -0.8175659
882949952      0.5332031     -0.8346252      0.0002421      0.0002004      0.0002482      0.0001820      0.5171509     -0.8178406
882999936      0.5326843     -0.8348083      0.0002550      0.0001934      0.0002573      0.0001874      0.5169067     -0.8175964
883049984      0.5328979     -0.8348999      0.0002692      0.0001925      0.0002600      0.0001891      0.5171204     -0.8178406
883099968      0.5328674     -0.8349304      0.0002848      0.0001905      0.0002685      0.0001833      0.5167847     -0.8180542
883149952      0.5327759     -0.8349304      0.0002941      0.0001992      0.0002757      0.0001829      0.5167847     -0.8179321
883200000      0.5325623     -0.8347168      0.0002988      0.0001899      0.0002943      0.0001811      0.5164795     -0.8179016
883249984      0.5330811     -0.8349915      0.0002988      0.0001919      0.0002961      0.0001793      0.5166626     -0.8178406
883299968      0.5327759     -0.8351135      0.0003061      0.0001778      0.0002971      0.0001798      0.5166931     -0.8180542
883349952      0.5326233     -0.8348999      0.0003246      0.0001878      0.0003057      0.0001725      0.5165100     -0.8177795
883399936      0.5325317     -0.8351135      0.0003216      0.0001808      0.0003166      0.0001666      0.5165100     -0.8179321
883449984      0.5323486     -0.8352966      0.0003188      0.0001789      0.0003343      0.0001693      0.5165405     -0.8179626
883499968      0.5325012     -0.8349915      0.0003404      0.0001734      0.0003259      0.0001582      0.5166321     -0.8181458
883549952      0.5323181     -0.8352051      0.0003445      0.0001751      0.0003355      0.0001562      0.5162354     -0.8181763
883600000      0.5323181     -0.8351746      0.0003573      0.0001765      0.0003348      0.0001651      0.5160828     -0.8177795
883649984      0.5320129     -0.8350830      0.0003597      0.0001692      0.0003519      0.0001567      0.5159912     -0.8180847
883699968      0.5318604     -0.8354492      0.0003710      0.0001666      0.0003544      0.0001626      0.5162048     -0.8180847
883749952      0.5318604     -0.8353577      0.0003736      0.0001646      0.0003708      0.0001539      0.5158386     -0.8179321
883799936      0.5319824     -0.8353271      0.0003812      0.0001622      0.0003680      0.0001494      0.5159607     -0.8180847
883849984      0.5317383     -0.8354797      0.0003965      0.0001640      0.0003768      0.0001527      0.5156860     -0.8181763
883899968      0.5317688     -0.8352661      0.0003969      0.0001706      0.0003838      0.0001414      0.5158386     -0.8182983
883949952      0.5318298     -0.8353271      0.0004145      0.0001607      0.0004014      0.0001425      0.5156555     -0.8183594
884000000      0.5315247     -0.8353577      0.0004297      0.0001599      0.0004041      0.0001459      0.5156555     -0.8182678
884049984      0.5316162     -0.8350525      0.0004281      0.0001561      0.0004177      0.0001534      0.5156555     -0.8181458
884099968      0.5315552     -0.8354492      0.0004541      0.0001549      0.0004277      0.0001442      0.5153503     -0.8182373
