# Hz S RI R 50
865850000	-0.480963828479718	-0.802481634103995	-5.23954784255908E-02	0.026203515033043			-5.22443083449051E-02	2.60465536918039E-02	-0.548672897849798	-0.768406079952034
865856250	-0.481645470724942	-0.803005807321859	-5.21063561641009E-02	2.65703170839071E-02			-5.19693260693475E-02	2.65943277557823E-02	-0.548251231218247	-0.769172631168059
865862500	-0.482397560704525	-0.802295768254095	-5.20077800487097E-02	0.027138657052668			-5.18848161612462E-02	2.69550215439332E-02	-0.548135071224999	-0.769630176400389
865868750	-0.482993222485651	-0.801916260029418	-5.16648442008199E-02	2.76201254066732E-02			-5.16949231895373E-02	2.75908268602941E-02	-0.549268844666342	-0.768733598886174
865875000	-0.48329420011304	-0.80171049762105	-0.051420716375267	2.80651283133495E-02			-5.13205825297918E-02	2.82539632712879E-02	-0.550598546859499	-0.76523082820928
865881250	-0.484027104266978	-0.802030440616906	-5.13029849237376E-02	2.87037373143968E-02			-5.12211203028158E-02	2.86038276969334E-02	-0.550204948822681	-0.765784758053946
865887500	-0.484975612923999	-0.801644041233359	-5.10611063030079E-02	2.91325616908922E-02			-5.10104357986246E-02	2.90508549496819E-02	-0.551265380871498	-0.765666607527058
865893750	-0.48603198221908	-0.800643356113409	-0.050939189121424	2.97022087456751E-02			-5.08479255762886E-02	2.96015013623693E-02	-0.552526331779291	-0.765294052514689
865900000	-0.486032678886751	-0.800606140632424	-0.050676954975396	3.01365952957509E-02			-5.06393730235714E-02	3.01048119638547E-02	-0.55237343377431	-0.765141225563394
865906250	-0.486268688710477	-0.800107915254733	-0.050468520826182	3.07350542120398E-02			-5.04688983816977E-02	3.05779425888019E-02	-0.552367119480462	-0.764422902611589
865912500	-0.486735346036178	-0.800214408378783	-5.03435867147791E-02	3.12351668029825E-02			-5.02417659892584E-02	3.11598717337433E-02	-0.553253067842328	-0.764673219258958
865918750	-0.488105737343139	-0.799615294771551	-5.01194129302842E-02	0.031765315175422			-5.00337761232141E-02	0.031686083522893	-0.553632095986052	-0.764864011004533
865925000	-0.488711063901511	-0.799001964336917	-4.99439673598001E-02	3.22546502451405E-02			-4.99440955775024E-02	3.22284514853471E-02	-0.554309160439185	-0.762141518292684
865931250	-0.488752948761949	-0.798650120721412	-4.98094204860021E-02	3.28809907957787E-02			-4.98366317771648E-02	0.032854064590597	-0.555034482148411	-0.764234094249163
865937500	-0.489342787003287	-0.797810409502001	-4.96643725806368E-02	3.33267666912263E-02			-4.94911236325518E-02	3.34508903342162E-02	-0.555550401727462	-0.761437009595824
865943750	-0.491183002219229	-0.797949328269797	-0.049455161118647	3.40550994676868E-02			-4.93937521854333E-02	0.03408474498063	-0.556068702822053	-0.760655059812818
865950000	-0.491033387204885	-0.797065410757748	-4.92083377765377E-02	3.45713719025865E-02			-4.92066788357077E-02	0.034579385100583	-0.555910027065401	-0.760724008265001
865956250	-0.491572275391271	-0.79713372834227	-4.91300258012142E-02	3.52714292323302E-02			-4.90455084432867E-02	3.51156797129784E-02	-0.556970702344539	-0.760624898712258
865962500	-0.49160247928969	-0.796089572211196	-4.89448310973745E-02	3.58867470046302E-02			-4.88471730354032E-02	3.58271880695165E-02	-0.55764822853851	-0.758265089975259
865968750	-0.492845543362437	-0.79508540728702	-0.048587740262775	3.64427921205507E-02			-0.048672930130145	3.64299995281059E-02	-0.557571134653704	-0.75805106899099
865975000	-0.492853175965895	-0.795343526291529	-4.84995934988253E-02	3.70769900786696E-02			-4.84192790025969E-02	3.70614088781809E-02	-0.558666083343467	-0.757285245736683
865981250	-0.49285510304531	-0.794637021443113	-4.83955260027058E-02	3.77666657354562E-02			-4.83312981968317E-02	3.77415969385966E-02	-0.558793766369824	-0.756663607864888
865987500	-0.493861015430462	-0.793550410510627	-4.80862642102097E-02	3.83974329602178E-02			-4.80789760215172E-02	0.038393627528519	-0.55917800667483	-0.756071391586876
865993750	-0.493802056941261	-0.793542648640925	-4.80263654599063E-02	3.91375030229252E-02			-4.79062935668123E-02	3.91168012667147E-02	-0.559414032263801	-0.755729209825634
866000000	-0.495267343155075	-0.793772788807773	-4.77526622799182E-02	3.99059290141155E-02			-4.76485689917511E-02	3.97738786201544E-02	-0.559885612238317	-0.75404252128848
866006250	-0.495658688873467	-0.792133131562943	-4.75816320863003E-02	4.05318078463519E-02			-4.74287519919417E-02	0.040442142266938	-0.560221933819781	-0.754052205959792
866012500	-0.495925720291836	-0.792062413616811	-4.72255917158171E-02	4.13979985070332E-02			-0.047256401053855	4.12254638106251E-02	-0.560405171286612	-0.753478723932814
866018750	-0.497066831939191	-0.790522398794532	-4.70507643028353E-02	4.20416447458608E-02			-4.69616317987223E-02	4.20213810463639E-02	-0.560283836722256	-0.750671220649481
866025000	-0.496386945094019	-0.790925013289522	-4.68646417321715E-02	4.29114837237858E-02			-4.67135042384767E-02	4.28438366256932E-02	-0.5619350101852	-0.748222956859821
866031250	-0.497942807989191	-0.789835842111763	-4.65646199516192E-02	4.38263555360027E-02			-4.64502613925947E-02	0.043766918958917	-0.562664162654553	-0.748220212691496
866037500	-0.498088606119397	-0.788082963916028	-4.62135530153793E-02	4.45395351080658E-02			-4.62072324345217E-02	4.44857366572707E-02	-0.562524020877201	-0.747192781148116
866043750	-0.497643608083214	-0.788115727423669	-4.60482369969127E-02	4.54262337273969E-02			-4.59650758598183E-02	4.53527229419808E-02	-0.562137078548862	-0.745930780675595
866050000	-0.499056947970148	-0.78755743663543	-4.57030264086418E-02	4.64092703629906E-02			-4.56098638844153E-02	4.62744201909189E-02	-0.563039976945035	-0.744646709666134
866056250	-0.49904063416275	-0.785635267450905	-4.52123541672338E-02	4.72030729752954E-02			-4.53222382188344E-02	0.047161164017557	-0.562598550330175	-0.744422087402103
866062500	-0.500205408380969	-0.785087337109476	-0.044918656672443	4.82536578877703E-02			-4.49366245030704E-02	4.80680844770673E-02	-0.563163081393477	-0.742905803568614
866068750	-0.498731717189141	-0.784595043065648	-0.044654080187784	4.91896517856503E-02			-4.45630199777016E-02	4.90749415641999E-02	-0.562558181704578	-0.742139295705477
866075000	-0.49922361066354	-0.783080206365471	-4.41328455157008E-02	4.99673678056572E-02			-4.41496110385408E-02	5.00567124440058E-02	-0.562299276417364	-0.740839883788303
866081250	-0.499028527599063	-0.782881156036311	-4.36425423679636E-02	5.11049596537337E-02			-0.043669988949304	5.10040392811057E-02	-0.563262429779484	-0.738298896075982
866087500	-0.499142336521905	-0.781364252435047	-4.33357032084776E-02	5.22091773515169E-02			-0.043197801873433	5.20201595996035E-02	-0.561963364111557	-0.739405956731174
866093750	-0.500628976646305	-0.780519739732793	-4.26562898201937E-02	5.32318955618222E-02			-4.26621831147867E-02	5.31976415382963E-02	-0.562872342283602	-0.735577201745822
866100000	-0.499897807145859	-0.779832567328356	-4.21183759203006E-02	5.44127917521925E-02			-4.20767148688993E-02	5.43186019633799E-02	-0.561367896661078	-0.736934097927806
866106250	-0.500305639629269	-0.778637252022056	-4.15615152388683E-02	5.55317725263742E-02			-4.13846053237633E-02	5.53312657094649E-02	-0.562207896054801	-0.732726920133348
866112500	-0.500845427108105	-0.776741436309901	-4.07558959028421E-02	5.67088910985634E-02			-4.08677616375639E-02	5.66046098445889E-02	-0.561229205459355	-0.732807976628794
866118750	-0.500041874146792	-0.776369001642212	-3.99047663631101E-02	5.78997561306276E-02			-4.00245405970403E-02	5.77210381334343E-02	-0.561636212482554	-0.731112731174687
866125000	-0.500767006349686	-0.775495101494552	-3.92743238654935E-02	0.059129470302156			-3.91793404150338E-02	5.90061631106721E-02	-0.561052619258049	-0.72902056686669
866131250	-0.499982120911627	-0.774005168198774	-0.038364115144294	6.02377160732314E-02			-3.83221594083503E-02	0.060184044255595	-0.55998433108183	-0.728696941959104
866137500	-0.49981008725836	-0.772741486427716	-3.73990919987939E-02	6.15449126536484E-02			-3.73087148828246E-02	6.13663254478896E-02	-0.560017086563047	-0.724508494670419
866143750	-0.500111074988855	-0.771151297861615	-3.62143572082755E-02	6.26898893925828E-02			-3.62770467973883E-02	0.062668022477205	-0.559039859677992	-0.724641908981479
866150000	-0.499161742982792	-0.770488125930191	-0.035084423765786	6.40209738971401E-02			-3.52591764450756E-02	6.39161468567301E-02	-0.557368789649686	-0.723505439793504
866156250	-0.499363132661462	-0.769168973503079	-3.39668061969064E-02	0.065300888337369			-3.40312832684247E-02	0.065102589717816	-0.556740634957997	-0.722048795339303
866162500	-0.497802980265286	-0.767943727333579	-3.27419331748427E-02	6.64330303894901E-02			-3.26614304741554E-02	6.64466510549119E-02	-0.555479659347674	-0.719580752037527
866168750	-0.497399229522574	-0.766798433060983	-3.12759791883234E-02	0.06768675625228			-3.12323714985553E-02	6.75851240753008E-02	-0.553161315484132	-0.719770895059106
866175000	-0.497381273758575	-0.765204314143122	-2.96550374308969E-02	6.88843722598906E-02			-2.96565221039896E-02	6.87243071794884E-02	-0.552708054145325	-0.716450247764723
866181250	-0.495980374844796	-0.764318607336524	-2.79985339343839E-02	7.00453545221797E-02			-2.79941602560664E-02	0.069934650874979	-0.551130770079954	-0.715110990911279
866187500	-0.495839676470391	-0.763422514926896	-2.61773256678736E-02	7.11620894398206E-02			-2.62700860724243E-02	7.10257291915606E-02	-0.549877410766097	-0.713079692645867
866193750	-0.494782772494761	-0.76236306100661	-2.43539487730933E-02	7.22708877077649E-02			-2.43315604900765E-02	7.20510050357938E-02	-0.547616313364837	-0.711935506277044
866200000	-0.493078062403825	-0.76128108338744	-2.22537367942357E-02	7.31187462977021E-02			-2.23786815749501E-02	7.30919841317001E-02	-0.545907755439496	-0.710772656596617
866206250	-0.492118502094356	-0.760247233490026	-2.02861919462141E-02	7.39410241437772E-02			-2.01259834189684E-02	7.39774881248894E-02	-0.543631952346905	-0.709624471088935
866212500	-0.490603193272845	-0.75953232703739	-1.79717543106181E-02	7.47434159144372E-02			-1.80052945548837E-02	7.45868861252515E-02	-0.541067867044819	-0.710366231229763
866218750	-0.489183380173439	-0.758662745943906	-1.58033316363046E-02	7.55227800656285E-02			-1.57596085921786E-02	7.53384246407528E-02	-0.538692972056753	-0.708024269549715
866225000	-0.487391426286306	-0.757636465667478	-1.31391811688069E-02	7.59389269015616E-02			-1.31453168259441E-02	7.58409851517005E-02	-0.536414829114998	-0.707580408190774
866231250	-0.486366298129345	-0.757224398914687	-1.06601630161009E-02	7.63005760952333E-02			-1.06938841030912E-02	7.62606034463345E-02	-0.533684496903614	-0.70749010329231
866237500	-0.484850696963188	-0.756764131040054	-7.88769039100548E-03	7.64308378044857E-02			-8.10945927003462E-03	7.63723702946163E-02	-0.530933739806674	-0.707151023526036
866243750	-0.482645452927797	-0.75658140988847	-5.44462603736018E-03	7.64497254559634E-02			-5.32344599429155E-03	7.63427630748194E-02	-0.528647407318976	-0.706737098173561
866250000	-0.480861317563547	-0.756092991176244	-2.67591956047848E-03	7.62420447527114E-02			-2.97811085447527E-03	7.61843531115308E-02	-0.524892784006865	-0.707106298959051
866256250	-0.478803746418168	-0.75606872964824	7.23992540383354E-05	7.57034574733465E-02			-6.37405063033439E-05	7.56942628765611E-02	-0.522327766890166	-0.707997670408641
866262500	-0.477409336819726	-0.756397035188933	2.80240437606454E-03	7.50967765123852E-02			2.45756408193787E-03	7.51598061685884E-02	-0.519824354623754	-0.70877994196915
866268750	-0.475972463248214	-0.756716255055101	5.32053085339849E-03	7.43723607655285E-02			5.29939412857179E-03	7.42176857734834E-02	-0.517533640989686	-0.710220045739141
866275000	-0.474405413080121	-0.757280394783577	7.91774476890197E-03	7.33738435447589E-02			7.78675738351442E-03	7.32990720100049E-02	-0.515400788632311	-0.708915299508322
866281250	-0.4726966104434	-0.757757831262314	1.04125636560658E-02	7.20732341372268E-02			0.010171102356379	7.21541421988331E-02	-0.512398588520494	-0.711108477990422
866287500	-0.471013261135732	-0.758474048900063	0.01272476496087	7.07931193250992E-02			1.27691899016381E-02	7.06711382907993E-02	-0.510028495611895	-0.712452095189666
866293750	-0.469256306803625	-0.760352220037388	1.51607640183394E-02	6.91929511377267E-02			1.49890405899583E-02	0.069083707138617	-0.507319627442918	-0.715385879452453
866300000	-0.468157072510509	-0.760770066363765	1.72918688520806E-02	6.73296567284422E-02			1.72449651729248E-02	6.73834335869051E-02	-0.505076789305498	-0.7183965046093
866306250	-0.468135082561785	-0.761536490604933	1.91132127191504E-02	6.54958891479624E-02			1.91339949871389E-02	6.57019419000844E-02	-0.503367059124493	-0.720288892157523
866312500	-0.465756711642891	-0.76370398286522	2.09691578444445E-02	6.35464627440819E-02			2.10216056890293E-02	6.34732563614531E-02	-0.501798739801656	-0.721255726469727
866318750	-0.465013160485585	-0.765148915759619	2.27264602646369E-02	6.15200298559398E-02			2.25719759075232E-02	6.13150036328183E-02	-0.50097198403585	-0.722709566620665
866325000	-0.464256735199043	-0.766325873276937	2.39982433112404E-02	5.93048492482578E-02			2.38478448905808E-02	5.92791545533569E-02	-0.498854828307438	-0.726005045757329
866331250	-0.462858912628366	-0.768720308314296	2.52525212652361E-02	5.71526178389059E-02			2.51700338608418E-02	5.70278130426973E-02	-0.498713504848613	-0.727457272571599
866337500	-0.46270513460491	-0.769396568335665	2.62478272755044E-02	5.50350306600855E-02			2.63658009228216E-02	0.054904156391612	-0.498314049938	-0.730658601339058
866343750	-0.462412465324022	-0.771473647000339	2.72668183075657E-02	5.28601125052173E-02			2.71793256339736E-02	5.26521653513465E-02	-0.497634699720207	-0.733461999318261
866350000	-0.462079880142523	-0.772330429400694	2.79049703797761E-02	5.05738171563358E-02			2.79744953347374E-02	5.05734724577378E-02	-0.496896046009368	-0.736712624745807
866356250	-0.462274252818134	-0.77359407459613	2.84311124273221E-02	4.83404642574738E-02			2.85236976101473E-02	4.83464795864607E-02	-0.496686296390045	-0.737901222088603
866362500	-0.46155505650032	-0.776510320729228	2.89675171247089E-02	4.62176360956751E-02			2.88902311619244E-02	4.61851387660611E-02	-0.497205018051415	-0.738822230716914
866368750	-0.462084796642262	-0.777043242921823	2.92536569120939E-02	0.044188398054832			2.91371281651409E-02	4.41005511322112E-02	-0.496647427857332	-0.743289399077901
866375000	-0.462626863697658	-0.778225747013101	2.93771127801362E-02	4.22202777508295E-02			2.93905240802839E-02	4.21620701490904E-02	-0.497688375180148	-0.743687325879233
866381250	-0.462350988396657	-0.779733849189509	2.93206259574617E-02	4.02088440402607E-02			2.93914439021272E-02	4.01734950257456E-02	-0.497646701865115	-0.747700689702453
866387500	-0.463056408050652	-0.781227680351885	2.93771611564095E-02	3.82830645037713E-02			0.029326361576717	3.82072641820147E-02	-0.498588223466107	-0.749594919991829
866393750	-0.463436385651241	-0.782688035345343	2.93132310790807E-02	3.65229844974818E-02			2.91635353024185E-02	3.64935665769467E-02	-0.498596256293956	-0.750543929243664
866400000	-0.464509489245935	-0.783121404478147	2.89855060202913E-02	3.48272324604543E-02			2.90320037720149E-02	3.47153227083176E-02	-0.498993129743631	-0.754371591684722
866406250	-0.464354203067838	-0.785286181667327	2.88100355909858E-02	3.30520057571021E-02			2.87539707359627E-02	3.30181593169508E-02	-0.500063870581813	-0.75531780010567
866412500	-0.465792343450677	-0.785893259588362	2.83271033373531E-02	3.14856884657372E-02			0.028337236411401	3.14350879279033E-02	-0.501022982226755	-0.756461027594076
866418750	-0.466757132644431	-0.786979983079101	2.80654385119217E-02	2.98920896319518E-02			2.79256922790095E-02	2.99978966857398E-02	-0.501048028923085	-0.759882000828701
866425000	-0.466912651142705	-0.78685472905594	2.74426436825552E-02	2.86117245935755E-02			2.75023238487214E-02	2.84693752422713E-02	-0.503515261457536	-0.758528581344954
866431250	-0.467929916930473	-0.788740103403797	2.70236606792442E-02	2.71011314661497E-02			2.70364000790847E-02	0.027095900440409	-0.50450786385437	-0.759165525519918
866437500	-0.468648982375168	-0.789448130608075	2.64944501697887E-02	0.02586531662808			2.64815618583595E-02	2.57828217734242E-02	-0.505073274318645	-0.760416250445078
866443750	-0.469603624809835	-0.790530809896701	2.59998807677417E-02	2.46357928610633E-02			0.025980574401067	2.45327898239296E-02	-0.506241398631668	-0.763783108754151
866450000	-0.471063580334901	-0.790453189834447	2.54070977776944E-02	2.33017769875174E-02			2.53168523798822E-02	2.33451700647239E-02	-0.507020269917383	-0.765090847253746
866456250	-0.471710000007063	-0.791291633687219	2.47901920916646E-02	2.22189794032344E-02			2.47541046330702E-02	2.21978638598722E-02	-0.508564882699066	-0.765518142805738
866462500	-0.472371619994048	-0.792200716868248	2.41548353789992E-02	2.12133275168539E-02			2.40968489150883E-02	2.11155098578557E-02	-0.509486411402648	-0.766993064730783
866468750	-0.473486657781324	-0.792229519341735	2.34801064683118E-02	2.01718117370722E-02			2.34545139786076E-02	2.01189855781805E-02	-0.510826586258959	-0.767012075149898
866475000	-0.474433395526993	-0.793207957622742	2.28408030477849E-02	1.92014505068606E-02			2.28194068955076E-02	1.91753388650731E-02	-0.512682232946204	-0.768285966770883
866481250	-0.475729860306686	-0.793613749830929	2.21057263956188E-02	1.82675208434149E-02			2.20901332690848E-02	1.82128561352774E-02	-0.513521793364352	-0.768847382140888
866487500	-0.475614402352547	-0.794000893348528	2.14710371867408E-02	0.017448922746975			2.14702042824392E-02	1.74002187430933E-02	-0.514074784069194	-0.77061640475794
866493750	-0.477060216026283	-0.794440529301137	2.07684847290994E-02	0.016555471184134			2.07264297060411E-02	1.65453489122652E-02	-0.515403385458179	-0.771639981589674
866500000	-0.478336773409019	-0.795178792289902	0.020153080171191	1.58357597834045E-02			2.01012683378833E-02	1.58624973328513E-02	-0.51625936758489	-0.7724071434939
866506250	-0.479425776183933	-0.794846094882863	1.93221949686407E-02	1.51877643414549E-02			1.93789410489156E-02	1.51738809386428E-02	-0.517959633251468	-0.772810095229013
866512500	-0.480787497220156	-0.795526531383321	1.87438871302503E-02	0.014438043725737			1.86186864314942E-02	1.44593504317716E-02	-0.519908028532212	-0.771595955070408
866518750	-0.48164617235783	-0.794955118320649	1.79456091949698E-02	1.39213826696846E-02			1.79836410884385E-02	1.38730192036779E-02	-0.520581101270218	-0.772247959364789
866525000	-0.482745827216206	-0.795807847301667	1.73432072165814E-02	1.33249121051143E-02			1.72426270187971E-02	1.32799248867231E-02	-0.521930979372281	-0.773936229224888
866531250	-0.483783175538339	-0.795316714075724	0.016641778966391	1.27613476503226E-02			1.65874851356541E-02	1.27852153527601E-02	-0.523255107622326	-0.772293390856805
866537500	-0.485209156106204	-0.795373485841427	1.60065089307339E-02	1.22688991164124E-02			1.59330382722823E-02	0.012205159598526	-0.524642125195136	-0.77348993027073
866543750	-0.485864355363991	-0.795457168338774	1.53305465290841E-02	1.18001429652557E-02			1.52600614083104E-02	1.17528951963638E-02	-0.526147497272522	-0.772777308158004
866550000	-0.486171714123554	-0.795734482965869	1.46600838503717E-02	1.13607668569754E-02			0.014569917219849	1.13658833772887E-02	-0.527436784178679	-0.771855122273067
866556250	-0.487489969793482	-0.795979539394215	1.40278524821896E-02	1.09866241839871E-02			1.40258942117939E-02	1.09313815718179E-02	-0.528151120283301	-0.774000728825119
866562500	-0.488241951180846	-0.795719883732663	1.34478923652686E-02	1.06286072455283E-02			1.34289192321373E-02	0.010592875766992	-0.529429250048089	-0.774239534250422
866568750	-0.488676134435089	-0.794911762128907	0.012749952232387	1.02705929663823E-02			0.012804097357957	1.02547485364913E-02	-0.530442785967809	-0.774956978555125
