!Keysight Technologies,E5080A,MY55200989,A.11.70.00
!Date: Tuesday, June 05, 2018 09:34:09
!Correction: S11(Full 2 Port(1,2)) 
!S21(Full 2 Port(1,2)) 
!S12(Full 2 Port(1,2)) 
!S22(Full 2 Port(1,2)) 
!S2P File: Measurements: S11, S21, S12, S22:
# Hz S  dB   R 50
215000000 -0.15072873 -51.832905 -57.673717 39.98127 -57.730694 39.370224 -0.13183619 -45.623135
215125000 -0.15040067 -51.86927 -57.75956 39.760094 -57.653362 39.306221 -0.13219595 -45.675308
215250000 -0.15405278 -51.908421 -57.728153 39.588676 -57.570988 39.756695 -0.13096899 -45.722153
215375000 -0.15411037 -51.988995 -57.657894 39.724472 -57.683193 39.584995 -0.13198279 -45.780396
215500000 -0.15324263 -52.056107 -57.729683 38.867298 -57.729767 39.116547 -0.13142253 -45.820965
215625000 -0.15733081 -52.130848 -57.751377 39.470566 -57.563992 39.705124 -0.13258789 -45.882813
215750000 -0.1541543 -52.171997 -57.674561 38.299461 -57.509727 40.095222 -0.13600995 -45.918358
215875000 -0.15394537 -52.227528 -57.690952 38.76828 -57.562096 39.015266 -0.13044472 -45.960629
216000000 -0.1535015 -52.289829 -57.711773 39.120625 -57.57629 39.27037 -0.1331647 -46.019382
216125000 -0.15562026 -52.329777 -57.526924 39.403145 -57.636345 39.203495 -0.13167438 -46.090851
216250000 -0.1578604 -52.39772 -57.539124 39.486732 -57.530598 39.293083 -0.13345189 -46.150764
216375000 -0.15663247 -52.469383 -57.477833 38.541374 -57.477692 38.11731 -0.13688624 -46.178215
216500000 -0.15509398 -52.514912 -57.571091 38.594601 -57.634579 39.287941 -0.13703994 -46.24276
216625000 -0.15491362 -52.568531 -57.496696 38.558388 -57.522495 38.561157 -0.13797343 -46.282475
216750000 -0.15925857 -52.646107 -57.428482 39.520065 -57.38023 39.022758 -0.13484748 -46.332432
216875000 -0.15549149 -52.714092 -57.520885 37.654087 -57.46785 37.994503 -0.13408281 -46.399319
217000000 -0.15911527 -52.752525 -57.473019 37.587151 -57.572033 37.489674 -0.134113 -46.440083
217125000 -0.15974662 -52.821461 -57.514606 37.511555 -57.543419 36.899349 -0.13597932 -46.501549
217250000 -0.16055918 -52.877895 -57.519531 37.636681 -57.435947 37.41349 -0.14229001 -46.549068
217375000 -0.15974537 -52.926716 -57.54652 37.858692 -57.499893 37.767975 -0.13459437 -46.599564
217500000 -0.15955743 -53.019371 -57.470135 38.081375 -57.488739 38.117981 -0.13791348 -46.662071
217625000 -0.16051331 -53.041866 -57.532848 37.21146 -57.479641 36.909122 -0.14017968 -46.700005
217750000 -0.16218618 -53.129704 -57.636322 37.491344 -57.491127 38.063736 -0.14098486 -46.739082
217875000 -0.16158725 -53.187496 -57.409698 37.784363 -57.452641 38.355118 -0.140977 -46.794662
218000000 -0.1604722 -53.243195 -57.392292 37.873894 -57.458057 38.192326 -0.1396766 -46.860565
218125000 -0.15701354 -53.296272 -57.40395 38.605721 -57.529007 38.500847 -0.13873203 -46.897671
218250000 -0.16060671 -53.368725 -57.430202 38.414188 -57.464039 37.835228 -0.14228532 -46.954544
218375000 -0.16148371 -53.426395 -57.496487 37.767155 -57.385765 38.213497 -0.14080533 -47.034245
218500000 -0.15910262 -53.48851 -57.349468 37.597015 -57.390244 38.010986 -0.13593745 -47.052738
218625000 -0.16670816 -53.543976 -57.318047 37.355877 -57.311012 37.901844 -0.14242975 -47.140999
218750000 -0.1620736 -53.608334 -57.366909 37.825314 -57.318859 37.3027 -0.13818051 -47.175617
218875000 -0.16379526 -53.660988 -57.236629 38.003784 -57.268188 38.238533 -0.13818176 -47.247879
219000000 -0.16171305 -53.727985 -57.327698 37.114643 -57.294178 37.963676 -0.14217104 -47.298164
219125000 -0.16299573 -53.795071 -57.157108 37.747917 -57.24358 37.189423 -0.14078841 -47.335735
219250000 -0.16491406 -53.853779 -57.175663 37.551807 -57.196953 37.014027 -0.14272366 -47.383701
219375000 -0.1626962 -53.919228 -57.311497 37.489628 -57.227081 36.978897 -0.14155403 -47.456844
219500000 -0.16520649 -53.950691 -57.267609 36.990131 -57.166908 36.919189 -0.14085643 -47.493675
219625000 -0.16730845 -54.029411 -57.327881 36.378845 -57.164803 36.925205 -0.1476946 -47.559086
219750000 -0.16767278 -54.099773 -57.268143 36.546799 -57.16626 36.148533 -0.14249967 -47.598186
219875000 -0.16597341 -54.170757 -57.225681 36.910915 -57.31073 37.159477 -0.14395685 -47.659565
220000000 -0.16499867 -54.20776 -57.241459 37.695122 -57.151566 37.293568 -0.14693111 -47.727863
220125000 -0.16807431 -54.291809 -57.182808 36.96542 -57.24905 36.558048 -0.14476317 -47.772327
220250000 -0.16852313 -54.346424 -57.18985 37.233624 -57.07349 37.374657 -0.14514287 -47.84029
220375000 -0.16946195 -54.391903 -57.186646 37.637978 -57.20657 37.470028 -0.14744736 -47.906185
220500000 -0.16688769 -54.465153 -57.119469 37.078892 -57.208984 37.375256 -0.14983504 -47.958992
220625000 -0.16884018 -54.537136 -57.041073 37.019188 -57.086105 37.623436 -0.14691773 -47.994915
220750000 -0.16957237 -54.581188 -57.151035 37.298691 -57.052349 37.08289 -0.1465054 -48.065113
220875000 -0.17336188 -54.638363 -57.020531 37.357227 -57.020454 37.551216 -0.14703532 -48.106304
221000000 -0.16991664 -54.744293 -57.021027 37.555435 -56.924675 36.954834 -0.14854026 -48.144169
221125000 -0.17018965 -54.773079 -56.965137 37.121502 -56.913769 36.935989 -0.15252709 -48.198532
221250000 -0.17143995 -54.832836 -57.024548 36.588211 -56.953545 37.245628 -0.14665453 -48.248978
221375000 -0.16998322 -54.907719 -56.926655 37.517639 -56.905193 36.804901 -0.15083314 -48.337833
221500000 -0.16998526 -54.970787 -56.941753 36.818913 -56.954144 37.501976 -0.14874706 -48.394871
221625000 -0.17172165 -55.038731 -56.88868 37.288231 -56.853634 37.029213 -0.14704959 -48.451172
221750000 -0.17420083 -55.099747 -56.902393 37.122681 -56.763226 36.854576 -0.15249264 -48.502888
221875000 -0.1756994 -55.171097 -56.810535 36.478058 -56.83102 36.225479 -0.15199696 -48.556297
222000000 -0.17464708 -55.217358 -56.732925 36.467468 -56.781933 36.99435 -0.14832798 -48.592213
222125000 -0.17264973 -55.296131 -56.817226 35.863842 -56.870434 35.856754 -0.15566082 -48.665688
222250000 -0.17556761 -55.3592 -56.684704 36.445087 -56.832253 36.133633 -0.15281658 -48.704006
222375000 -0.17430745 -55.408836 -56.683956 35.85923 -56.817406 36.159954 -0.15504833 -48.774021
222500000 -0.17520608 -55.473801 -56.630322 35.57465 -56.720589 35.203712 -0.15211478 -48.833805
222625000 -0.176991 -55.543251 -56.768566 34.729855 -56.890484 35.618416 -0.15301518 -48.893608
222750000 -0.17878203 -55.608562 -56.788952 35.702259 -56.836273 35.533943 -0.15348892 -48.957211
222875000 -0.17464685 -55.689007 -56.67532 35.297977 -56.746647 34.911079 -0.151932 -48.995762
223000000 -0.17887411 -55.728642 -56.743881 36.01894 -56.815617 35.779022 -0.15883824 -49.033325
223125000 -0.18053366 -55.806862 -56.678093 35.383503 -56.75053 34.870674 -0.15371826 -49.124844
223250000 -0.17833284 -55.87767 -56.576782 35.209454 -56.666615 34.857616 -0.15965158 -49.165077
223375000 -0.18027562 -55.925468 -56.634941 34.853344 -56.598515 35.147961 -0.15572743 -49.246159
223500000 -0.17665863 -55.998718 -56.513363 34.071068 -56.660542 34.089371 -0.15522021 -49.302402
223625000 -0.18263745 -56.061134 -56.646503 34.978489 -56.750835 33.588463 -0.15919982 -49.336342
223750000 -0.18091564 -56.128731 -56.875118 33.599483 -56.895271 34.333817 -0.15697786 -49.410187
223875000 -0.18137921 -56.18475 -56.791531 34.571049 -56.690838 34.641838 -0.15518521 -49.477306
224000000 -0.18422511 -56.267178 -56.798923 35.294868 -56.698769 34.897152 -0.15512195 -49.516941
224125000 -0.18248895 -56.313442 -56.711071 34.708599 -56.626698 34.15395 -0.15953627 -49.588184
224250000 -0.18380561 -56.403385 -56.716087 34.982208 -56.681316 34.874866 -0.1588632 -49.665516
224375000 -0.17905661 -56.452934 -56.641792 34.184139 -56.786495 34.7099 -0.15837033 -49.660873
224500000 -0.18506989 -56.519199 -56.678215 35.582272 -56.687916 34.77047 -0.16155352 -49.748478
224625000 -0.18200621 -56.570641 -56.618347 35.373539 -56.562641 34.644367 -0.16339435 -49.805408
224750000 -0.18625455 -56.64809 -56.630302 35.132393 -56.520641 34.955318 -0.15895243 -49.845016
224875000 -0.18391573 -56.711826 -56.651711 34.297638 -56.547054 35.15406 -0.15475258 -49.919334
225000000 -0.18362886 -56.77417 -56.563293 34.33646 -56.683949 34.821388 -0.16167745 -49.987
225125000 -0.18278629 -56.865299 -56.561108 35.384697 -56.655945 34.879787 -0.16079904 -50.042759
225250000 -0.18595047 -56.903934 -56.503475 34.974392 -56.45068 35.1092 -0.15959679 -50.104576
225375000 -0.18867335 -56.960754 -56.559879 34.727375 -56.455353 35.406685 -0.16011706 -50.147251
225500000 -0.1894687 -57.051617 -56.427803 34.046112 -56.404015 34.853325 -0.16227464 -50.222965
225625000 -0.18801056 -57.104389 -56.377296 34.78751 -56.25629 34.200695 -0.16311623 -50.294838
225750000 -0.18765488 -57.172832 -56.306576 34.678875 -56.280575 34.053696 -0.16484711 -50.321468
225875000 -0.19371136 -57.264355 -56.451458 34.202198 -56.307087 33.805378 -0.16443305 -50.39518
226000000 -0.18591312 -57.317753 -56.41148 33.696918 -56.307838 33.814442 -0.16475587 -50.44421
226125000 -0.18884057 -57.378529 -56.434944 34.081936 -56.307011 34.203983 -0.16548619 -50.510464
226250000 -0.1918484 -57.448761 -56.318745 33.194397 -56.367706 34.074799 -0.16373624 -50.561192
226375000 -0.19096336 -57.522209 -56.335262 33.692543 -56.353111 33.880539 -0.16620076 -50.607803
226500000 -0.18819752 -57.593624 -56.482048 33.557705 -56.304768 33.518448 -0.16785032 -50.671883
226625000 -0.19311351 -57.653336 -56.358021 34.112862 -56.297691 34.252941 -0.16730373 -50.750511
226750000 -0.19268039 -57.70784 -56.371597 33.89085 -56.365131 33.883015 -0.1714434 -50.819496
226875000 -0.19176528 -57.779469 -56.333538 33.128159 -56.229637 33.551872 -0.16800712 -50.863632
227000000 -0.19483601 -57.841213 -56.188328 33.836193 -56.297905 33.500305 -0.16955461 -50.904293
227125000 -0.1944413 -57.918468 -56.212624 33.572361 -56.157639 33.563431 -0.16801378 -50.998306
227250000 -0.19340245 -58.014984 -56.243923 33.871689 -56.234188 33.667149 -0.16799614 -51.048885
227375000 -0.19728617 -58.074066 -56.133751 33.633156 -56.321247 33.619854 -0.17140092 -51.122166
227500000 -0.19567037 -58.120689 -56.162933 33.538601 -56.281574 33.554207 -0.16559787 -51.169724
227625000 -0.19648957 -58.209892 -56.296627 33.486767 -56.089359 33.986397 -0.16920504 -51.233467
227750000 -0.19679318 -58.281063 -56.224236 33.522072 -56.0816 33.574474 -0.17245322 -51.296455
227875000 -0.1955988 -58.344467 -56.159161 33.704674 -56.013302 34.176231 -0.16721122 -51.352242
228000000 -0.19982511 -58.402031 -56.08884 33.302887 -55.965149 33.975643 -0.17419578 -51.421013
228125000 -0.1995903 -58.464649 -56.056332 33.421848 -56.073303 33.400894 -0.17405614 -51.46957
228250000 -0.19569592 -58.547985 -55.96516 33.403435 -55.95533 33.151398 -0.17473361 -51.527603
228375000 -0.20112793 -58.626091 -56.038403 32.530354 -55.924679 33.447823 -0.17226954 -51.588127
228500000 -0.2008018 -58.684891 -55.92894 32.711536 -55.965191 33.099442 -0.17189255 -51.629532
228625000 -0.20076083 -58.761219 -55.875721 32.957474 -55.857456 32.676849 -0.172663 -51.726311
228750000 -0.19959934 -58.833298 -55.948524 32.390224 -55.941341 32.302448 -0.1740586 -51.764229
228875000 -0.20088266 -58.875233 -55.979309 32.301464 -55.922295 32.49913 -0.17497241 -51.849747
229000000 -0.2005298 -58.9599 -55.888542 32.024208 -55.877609 32.168972 -0.17547832 -51.931026
229125000 -0.20047045 -59.03793 -55.896057 32.296993 -55.756798 31.871914 -0.17516778 -51.977428
229250000 -0.20605941 -59.106995 -55.775303 31.194872 -55.888577 31.628635 -0.17923611 -52.022095
229375000 -0.20502064 -59.189041 -55.895218 30.673635 -55.898701 31.047985 -0.17400315 -52.085304
229500000 -0.20378038 -59.25304 -56.014931 31.204573 -55.955612 31.413792 -0.17775762 -52.146221
229625000 -0.20823173 -59.323765 -55.986729 31.61062 -55.992935 32.117805 -0.17862979 -52.211826
229750000 -0.20625429 -59.369923 -55.996155 31.569036 -56.05508 31.505789 -0.17867303 -52.28529
229875000 -0.20574367 -59.465572 -55.98621 32.083935 -55.980309 31.340504 -0.18076372 -52.340076
230000000 -0.20687029 -59.531334 -55.87941 31.293365 -55.826717 31.994492 -0.17995214 -52.39917
230125000 -0.20745416 -59.624546 -56.009499 31.945713 -55.855923 31.116055 -0.17721818 -52.472439
230250000 -0.20683156 -59.695438 -55.991367 31.353502 -55.924244 31.94483 -0.1814936 -52.540836
230375000 -0.20927665 -59.753174 -55.942486 31.764963 -55.984535 31.320518 -0.18029942 -52.583931
230500000 -0.21046232 -59.803909 -55.853455 31.234907 -55.964954 31.244184 -0.17892064 -52.673855
230625000 -0.20982315 -59.900604 -55.812328 31.862846 -55.677505 31.739138 -0.18008034 -52.717999
230750000 -0.21144889 -59.940929 -55.748802 31.927317 -55.885353 31.045639 -0.18135236 -52.785324
230875000 -0.20467156 -60.041557 -55.903996 31.662548 -55.83036 31.983643 -0.18399528 -52.831543
231000000 -0.21245143 -60.099148 -55.927605 32.305588 -55.863213 31.765516 -0.18533555 -52.904373
231125000 -0.20956349 -60.183372 -55.723892 31.629784 -55.820313 31.918854 -0.18649642 -52.979847
231250000 -0.21069436 -60.245281 -55.737297 32.205196 -55.778091 32.447712 -0.18544863 -53.044701
231375000 -0.21324131 -60.305645 -55.717247 32.271278 -55.71246 32.084038 -0.18235664 -53.101452
231500000 -0.20970534 -60.388584 -55.510883 31.540398 -55.636616 31.641508 -0.1819834 -53.18
231625000 -0.21073678 -60.466087 -55.644871 31.295517 -55.606934 31.593901 -0.185675 -53.220104
231750000 -0.21549474 -60.526405 -55.540432 31.947172 -55.651527 31.679531 -0.18535054 -53.29047
231875000 -0.2102503 -60.60442 -55.663658 32.014881 -55.508076 32.22971 -0.18757872 -53.341228
232000000 -0.21395719 -60.690727 -55.540161 32.001011 -55.486526 31.950577 -0.184044 -53.434666
232125000 -0.21427518 -60.749603 -55.562172 30.946751 -55.473392 31.721605 -0.1876841 -53.473145
232250000 -0.21695064 -60.823013 -55.549946 30.815762 -55.554192 30.930891 -0.18936151 -53.519985
232375000 -0.21588193 -60.899967 -55.512875 31.141811 -55.466537 31.231993 -0.1924427 -53.646835
232500000 -0.21267967 -60.982414 -55.507511 31.006802 -55.433304 30.815489 -0.18707238 -53.693787
232625000 -0.21363331 -61.027836 -55.510269 30.259756 -55.395523 30.684055 -0.18949039 -53.737988
232750000 -0.21624166 -61.129662 -55.427132 30.879208 -55.371983 30.353392 -0.18793565 -53.81002
232875000 -0.21627979 -61.190346 -55.416981 30.913593 -55.346695 30.725996 -0.19086669 -53.871399
233000000 -0.21573304 -61.279003 -55.384918 30.595427 -55.419022 30.194614 -0.19144389 -53.947453
233125000 -0.21579528 -61.321331 -55.344372 30.246553 -55.435295 30.63121 -0.19080879 -53.991096
233250000 -0.22034176 -61.421844 -55.389572 30.539555 -55.349644 30.535986 -0.19062829 -54.065098
233375000 -0.22230418 -61.50808 -55.397549 30.127323 -55.280186 30.398905 -0.19486755 -54.156284
233500000 -0.22196157 -61.563171 -55.412506 30.705755 -55.397091 30.280661 -0.19300117 -54.198444
233625000 -0.22174172 -61.656105 -55.204391 31.283503 -55.301655 30.18648 -0.19303025 -54.276264
233750000 -0.22093263 -61.711765 -55.284584 30.696585 -55.217232 30.746552 -0.19308762 -54.355148
233875000 -0.2256154 -61.78949 -55.290211 30.470591 -55.171665 29.943571 -0.19245043 -54.409893
234000000 -0.22319493 -61.874508 -55.180882 29.556097 -55.193436 29.660837 -0.19521283 -54.479755
234125000 -0.22600074 -61.957008 -55.185482 29.729368 -55.249123 29.582468 -0.19421984 -54.559505
234250000 -0.2250631 -62.018631 -55.171967 29.602819 -55.154995 29.791338 -0.19805956 -54.61124
234375000 -0.22515717 -62.083485 -55.158878 29.201452 -55.17852 30.275278 -0.19843903 -54.698128
234500000 -0.22611831 -62.182636 -55.143494 29.546555 -55.150276 29.85928 -0.19875258 -54.745632
234625000 -0.23176208 -62.25021 -55.118824 29.536013 -55.080261 29.724833 -0.1968863 -54.79665
234750000 -0.22901791 -62.305733 -55.131084 28.573576 -55.134148 28.966314 -0.19703475 -54.895424
234875000 -0.22825351 -62.399734 -55.053959 28.910196 -55.127472 28.595713 -0.19697864 -54.943096
235000000 -0.22863553 -62.459839 -55.013611 28.629755 -55.020664 28.628387 -0.19799709 -54.992046
235125000 -0.23113462 -62.558392 -55.099579 29.06378 -55.003914 28.808977 -0.19821876 -55.086323
235250000 -0.23103237 -62.645405 -55.047226 28.542912 -55.007076 28.817648 -0.20303831 -55.14402
235375000 -0.22833136 -62.687744 -55.099773 27.738535 -54.949562 28.102335 -0.20080659 -55.212185
235500000 -0.22871295 -62.784302 -55.098843 28.21847 -54.991585 27.166767 -0.20467627 -55.27433
235625000 -0.23080941 -62.848492 -55.109207 27.620159 -55.10574 27.790321 -0.20191011 -55.350243
235750000 -0.23177661 -62.934738 -55.093498 28.241409 -55.046638 27.596355 -0.20433459 -55.40976
235875000 -0.235576 -63.008511 -54.972466 28.480755 -55.000904 26.937391 -0.20231375 -55.485023
236000000 -0.23139484 -63.059196 -55.078953 26.714535 -55.015907 27.289845 -0.20649521 -55.548634
236125000 -0.23252243 -63.17593 -55.020584 27.926123 -55.106976 27.361139 -0.20636867 -55.587936
236250000 -0.23486541 -63.251652 -55.168552 27.508295 -55.124271 27.931368 -0.20337968 -55.714497
236375000 -0.23597285 -63.323059 -55.109623 28.206005 -55.075363 28.36001 -0.20626152 -55.775303
236500000 -0.23480289 -63.415268 -55.031273 27.619047 -55.019428 28.279291 -0.20381583 -55.838905
236625000 -0.23537275 -63.492805 -55.131134 28.037991 -54.98172 28.333878 -0.20693626 -55.911518
236750000 -0.2340866 -63.537048 -55.068367 27.891632 -55.122131 27.885744 -0.20354417 -55.995487
236875000 -0.24022874 -63.650467 -54.956535 28.034332 -55.062363 28.80953 -0.2069 -56.049854
237000000 -0.23661472 -63.719349 -55.097664 28.343193 -55.040482 28.502712 -0.207551 -56.114471
237125000 -0.24041443 -63.807545 -54.971424 29.20064 -54.96307 28.652258 -0.20965879 -56.194042
237250000 -0.23671092 -63.864803 -54.926926 28.309616 -54.882164 28.058405 -0.21549231 -56.263264
237375000 -0.24119519 -63.938938 -54.909313 27.504784 -54.882641 28.175083 -0.20810336 -56.319366
237500000 -0.24197492 -64.015175 -54.838623 28.343683 -54.89389 28.146835 -0.21397775 -56.399342
237625000 -0.24078643 -64.130119 -54.863693 28.290447 -54.868225 27.60738 -0.21730433 -56.458992
237750000 -0.24068208 -64.169121 -54.837975 27.793739 -54.853645 28.059349 -0.21432991 -56.531433
237875000 -0.24127695 -64.262917 -54.830311 28.336401 -54.817692 28.234924 -0.21282171 -56.588062
238000000 -0.24091478 -64.363342 -54.751881 27.864506 -54.742531 28.097204 -0.21588966 -56.676739
238125000 -0.24513265 -64.440437 -54.622204 28.108311 -54.726704 27.764187 -0.21531421 -56.737698
238250000 -0.24710946 -64.495255 -54.737751 27.635271 -54.657314 28.162958 -0.21409163 -56.829338
238375000 -0.24578457 -64.611893 -54.693703 27.575825 -54.638596 27.909353 -0.21789643 -56.885368
238500000 -0.245947 -64.663589 -54.600155 28.236 -54.695065 27.695673 -0.21711884 -56.953224
238625000 -0.24433613 -64.756027 -54.620274 27.666895 -54.563416 27.450047 -0.2181688 -57.060856
238750000 -0.24720973 -64.836952 -54.562119 27.298363 -54.495113 27.736561 -0.21621722 -57.121777
238875000 -0.25131157 -64.91951 -54.478455 26.835066 -54.594345 26.646933 -0.21947764 -57.168369
239000000 -0.24795945 -65.00985 -54.515205 26.878151 -54.499317 27.128683 -0.21675459 -57.275208
239125000 -0.24853574 -65.077095 -54.468006 27.01935 -54.469856 26.808142 -0.21851601 -57.324028
239250000 -0.25340906 -65.15451 -54.411476 25.965727 -54.402702 26.297037 -0.22126783 -57.423233
239375000 -0.25139806 -65.255325 -54.475334 25.728619 -54.436817 26.013315 -0.22137149 -57.482586
239500000 -0.24843045 -65.333427 -54.480911 25.652538 -54.511444 25.960722 -0.22299169 -57.536785
239625000 -0.24895392 -65.411736 -54.558544 26.197264 -54.435368 25.708641 -0.22148751 -57.63755
239750000 -0.25001863 -65.50589 -54.532104 25.880402 -54.543209 26.434135 -0.22055843 -57.687111
239875000 -0.25621954 -65.564728 -54.46537 26.326281 -54.473518 26.699484 -0.22312048 -57.766396
240000000 -0.25165123 -65.671341 -54.444309 26.421463 -54.343033 26.174595 -0.22226593 -57.842686
240125000 -0.25182021 -65.732903 -54.410202 26.150568 -54.396984 26.134382 -0.2210861 -57.88789
240250000 -0.25393906 -65.838745 -54.381531 26.108423 -54.322479 26.316622 -0.22907457 -57.983341
