!Keysight Technologies,E5080A,MY55200989,A.11.70.00
!Date: Tuesday, June 05, 2018 09:33:37
!Correction: S11(Full 2 Port(1,2)) 
!S21(Full 2 Port(1,2)) 
!S12(Full 2 Port(1,2)) 
!S22(Full 2 Port(1,2)) 
!S2P File: Measurements: S11, S21, S12, S22:
# Hz S  dB   R 50
310000000 -1.5340437 -166.91473 -39.066219 -19.044771 -39.015015 -19.115097 -1.7006572 -160.84814
310006250 -1.539281 -166.93507 -38.949799 -18.686356 -38.954453 -18.744343 -1.7004249 -160.87936
310012500 -1.5425726 -166.96594 -38.826225 -17.997839 -38.850304 -18.352762 -1.7030864 -160.90868
310018750 -1.5485132 -166.98999 -38.698406 -17.693428 -38.732304 -17.49964 -1.7034205 -160.93706
310025000 -1.5519609 -167.01718 -38.599304 -17.579802 -38.646881 -17.438616 -1.7054862 -160.96695
310031250 -1.5570579 -167.04022 -38.456791 -16.953838 -38.509407 -17.226072 -1.7084341 -161.00183
310037500 -1.5624945 -167.06242 -38.339771 -16.880762 -38.299137 -16.758265 -1.7082973 -161.02547
310043750 -1.5666219 -167.0874 -38.19096 -16.344669 -38.238064 -16.582491 -1.7119362 -161.05182
310050000 -1.5708914 -167.11093 -38.036488 -16.220652 -38.018177 -16.11426 -1.7131891 -161.08699
310056250 -1.5770741 -167.12572 -37.877884 -16.126421 -37.927139 -16.499933 -1.7154042 -161.10913
310062500 -1.5818683 -167.14603 -37.755623 -15.895162 -37.722008 -16.260017 -1.7171409 -161.12247
310068750 -1.5878068 -167.16068 -37.547203 -15.796102 -37.546768 -16.107576 -1.7191322 -161.15714
310075000 -1.5938921 -167.17812 -37.408165 -15.705688 -37.377682 -15.577343 -1.7208465 -161.18452
310081250 -1.6000227 -167.19182 -37.234283 -15.847077 -37.220436 -15.861028 -1.7230055 -161.20081
310087500 -1.6049527 -167.20137 -37.031654 -15.722855 -37.081947 -16.018675 -1.7244595 -161.23679
310093750 -1.6124879 -167.21278 -36.873547 -16.05209 -36.841427 -15.902588 -1.7261833 -161.25235
310100000 -1.6185182 -167.21457 -36.69257 -16.229311 -36.717239 -16.14072 -1.727846 -161.26849
310106250 -1.6246905 -167.21155 -36.442768 -16.443213 -36.449055 -16.27702 -1.7310396 -161.28915
310112500 -1.6305566 -167.20728 -36.260818 -16.586956 -36.265388 -16.79842 -1.7324193 -161.30762
310118750 -1.6366968 -167.20581 -36.072411 -17.378492 -36.077198 -17.190657 -1.7361778 -161.32365
310125000 -1.643252 -167.19618 -35.877884 -17.71401 -35.870796 -17.585545 -1.7371371 -161.33879
310131250 -1.6487869 -167.1795 -35.640408 -18.493864 -35.693729 -18.492975 -1.7399133 -161.35455
310137500 -1.6542681 -167.16554 -35.456844 -19.06279 -35.448536 -18.905069 -1.7405523 -161.36366
310143750 -1.6591833 -167.14322 -35.253178 -19.925486 -35.25425 -20.023235 -1.7411402 -161.38142
310150000 -1.6646401 -167.11826 -35.050571 -20.849585 -35.029438 -20.734783 -1.7447214 -161.39542
310156250 -1.6679648 -167.09465 -34.869968 -21.86504 -34.83107 -21.714865 -1.7444787 -161.41229
310162500 -1.6718276 -167.06624 -34.702843 -22.738876 -34.69046 -22.963192 -1.7451088 -161.41226
310168750 -1.6736763 -167.03664 -34.518681 -24.006704 -34.498783 -24.152721 -1.7473228 -161.42912
310175000 -1.6746038 -167.00641 -34.387535 -25.120192 -34.352558 -25.090574 -1.7472917 -161.43771
310181250 -1.6766028 -166.97385 -34.249859 -26.659161 -34.205479 -26.533695 -1.7482146 -161.44647
310187500 -1.6776614 -166.93867 -34.092903 -27.78686 -34.07159 -27.67277 -1.7478507 -161.45053
310193750 -1.6774652 -166.90747 -34.008572 -28.860346 -33.967243 -29.205297 -1.7480675 -161.46696
310200000 -1.6761138 -166.88051 -33.920528 -30.579638 -33.877827 -30.421915 -1.7466908 -161.46423
310206250 -1.6770052 -166.85321 -33.784691 -31.669336 -33.759071 -31.668112 -1.7450608 -161.48297
310212500 -1.6753472 -166.82961 -33.686089 -33.176659 -33.686157 -33.239738 -1.7463142 -161.49706
310218750 -1.672208 -166.80829 -33.619499 -34.474194 -33.613628 -34.674225 -1.7444744 -161.50381
310225000 -1.6699784 -166.7807 -33.573078 -35.826031 -33.575336 -35.760685 -1.741129 -161.51843
310231250 -1.6673026 -166.76971 -33.516399 -37.196171 -33.514374 -37.181572 -1.7385927 -161.53909
310237500 -1.6642684 -166.74731 -33.496006 -38.619637 -33.48391 -38.506611 -1.7391553 -161.55743
310243750 -1.661697 -166.73706 -33.444389 -39.87019 -33.431229 -39.91201 -1.7370411 -161.56403
310250000 -1.6592681 -166.74846 -33.38784 -41.239574 -33.383789 -41.083023 -1.7347263 -161.58983
310256250 -1.6544158 -166.74117 -33.391045 -42.385151 -33.387516 -42.368198 -1.7332577 -161.60524
310262500 -1.6525826 -166.73306 -33.376045 -43.647938 -33.373089 -43.624886 -1.7316928 -161.63428
310268750 -1.6491219 -166.73763 -33.351593 -44.861622 -33.396584 -45.026787 -1.7291244 -161.65822
310275000 -1.6474081 -166.73611 -33.368435 -46.21096 -33.373863 -46.016014 -1.72733 -161.67848
310281250 -1.643965 -166.73245 -33.373817 -47.006889 -33.322075 -47.174282 -1.7246821 -161.70613
310287500 -1.6420038 -166.73236 -33.388241 -48.143059 -33.36768 -48.255508 -1.7230127 -161.73705
310293750 -1.6404871 -166.742 -33.359085 -49.264103 -33.404396 -49.127655 -1.722542 -161.76567
310300000 -1.6374203 -166.75189 -33.394871 -50.436359 -33.372715 -50.203201 -1.7200593 -161.78667
310306250 -1.6342161 -166.755 -33.417614 -51.435596 -33.375736 -51.311508 -1.7171396 -161.82207
310312500 -1.6334448 -166.74728 -33.440437 -52.316345 -33.41066 -52.402199 -1.7152516 -161.85202
310318750 -1.631273 -166.75542 -33.465302 -53.142563 -33.436447 -53.391308 -1.7149583 -161.87897
310325000 -1.6276942 -166.75868 -33.450714 -54.43869 -33.450394 -54.161381 -1.7122358 -161.9118
310331250 -1.6269863 -166.76323 -33.486443 -55.369366 -33.441658 -55.516312 -1.7115581 -161.946
310337500 -1.6225564 -166.76167 -33.486988 -56.291275 -33.496616 -56.290173 -1.7095532 -161.97885
310343750 -1.6216053 -166.7661 -33.496159 -57.095039 -33.52047 -56.987583 -1.709232 -162.01569
310350000 -1.618202 -166.76801 -33.503929 -57.871925 -33.499561 -58.067467 -1.7061816 -162.04327
310356250 -1.6157104 -166.76747 -33.511124 -58.97559 -33.538551 -58.874161 -1.7048011 -162.08778
310362500 -1.6116041 -166.77849 -33.572479 -60.048809 -33.533428 -59.92659 -1.7029964 -162.12407
310368750 -1.6090801 -166.77763 -33.592789 -60.605225 -33.578136 -60.725868 -1.7017295 -162.15868
310375000 -1.6057228 -166.77637 -33.602978 -61.628716 -33.593418 -61.626366 -1.7003808 -162.19003
310381250 -1.6027633 -166.77908 -33.608532 -62.37384 -33.637363 -62.450409 -1.6994343 -162.22636
310387500 -1.5980684 -166.78157 -33.650047 -63.385708 -33.691673 -63.482567 -1.6992424 -162.27405
310393750 -1.5934867 -166.78726 -33.715111 -64.413033 -33.691921 -64.0867 -1.6974682 -162.30359
310400000 -1.5894414 -166.80228 -33.742325 -64.893555 -33.729134 -65.258286 -1.696764 -162.33366
310406250 -1.585201 -166.81813 -33.741928 -66.048218 -33.749397 -66.049156 -1.6954396 -162.37532
310412500 -1.581284 -166.82744 -33.798687 -67.015793 -33.773155 -66.816154 -1.6950123 -162.41389
310418750 -1.5766774 -166.84067 -33.851433 -67.505722 -33.791473 -67.671524 -1.693877 -162.45427
310425000 -1.5733436 -166.84418 -33.911293 -68.641273 -33.894398 -68.417374 -1.693119 -162.49638
310431250 -1.5689316 -166.87593 -33.915131 -69.399864 -33.934086 -69.060661 -1.6930833 -162.53839
310437500 -1.5628448 -166.88829 -33.967529 -70.091476 -33.940289 -70.272652 -1.692082 -162.57042
310443750 -1.5594352 -166.91333 -34.011234 -70.895134 -34.005211 -70.840889 -1.6904352 -162.61371
310450000 -1.5545533 -166.92699 -34.07354 -71.730255 -34.068966 -71.650558 -1.6904603 -162.66492
310456250 -1.5512356 -166.93709 -34.10022 -72.506554 -34.107929 -72.359215 -1.6904387 -162.70976
310462500 -1.545797 -166.96518 -34.151833 -73.140732 -34.157383 -73.076225 -1.6911159 -162.74736
310468750 -1.5424944 -166.9966 -34.223412 -73.83268 -34.203079 -73.739159 -1.6895632 -162.78511
310475000 -1.5375488 -167.02107 -34.301064 -74.447784 -34.284939 -74.43026 -1.6895725 -162.82707
310481250 -1.5343024 -167.04974 -34.315372 -75.04538 -34.336098 -75.231194 -1.6906998 -162.87151
310487500 -1.530178 -167.07599 -34.411816 -75.918587 -34.405884 -75.716751 -1.6909838 -162.91988
310493750 -1.5250968 -167.09981 -34.47147 -76.379128 -34.441269 -76.475525 -1.6896694 -162.9631
310500000 -1.521565 -167.13387 -34.515007 -76.787598 -34.499989 -77.139366 -1.6914382 -163.00375
310506250 -1.5178711 -167.15222 -34.573578 -77.785393 -34.57177 -77.50808 -1.6906447 -163.04285
310512500 -1.5148457 -167.18512 -34.631153 -78.20134 -34.637669 -78.056633 -1.690066 -163.0916
310518750 -1.5111514 -167.21378 -34.70293 -78.771049 -34.659496 -78.64489 -1.6916174 -163.12872
310525000 -1.5100374 -167.25217 -34.726238 -79.097672 -34.732193 -79.098061 -1.691959 -163.17036
310531250 -1.5062524 -167.27637 -34.832451 -79.701775 -34.781418 -79.671509 -1.6912322 -163.20932
310537500 -1.5021815 -167.313 -34.850063 -80.046753 -34.841667 -80.219147 -1.6913618 -163.25975
310543750 -1.5009241 -167.33856 -34.895145 -80.728012 -34.896404 -80.757103 -1.6917708 -163.29314
310550000 -1.498248 -167.37157 -34.919975 -81.069679 -34.911201 -80.935883 -1.6926012 -163.34373
310556250 -1.495685 -167.40039 -34.981674 -81.466835 -34.977509 -81.626358 -1.6944309 -163.37952
310562500 -1.4933509 -167.43753 -35.051575 -82.007362 -35.034706 -81.890961 -1.6956122 -163.42931
310568750 -1.4910661 -167.46635 -35.04969 -82.355774 -35.090832 -82.662033 -1.694822 -163.45865
310575000 -1.4887453 -167.50696 -35.150284 -82.80677 -35.136021 -82.698364 -1.6944535 -163.50648
310581250 -1.4867196 -167.53133 -35.153465 -83.307182 -35.164223 -83.421585 -1.6953125 -163.55452
310587500 -1.4852215 -167.57239 -35.188576 -83.940422 -35.1581 -83.844498 -1.6960709 -163.59157
310593750 -1.4838649 -167.60281 -35.252151 -84.266762 -35.225002 -84.201851 -1.6968902 -163.63016
310600000 -1.4803367 -167.64853 -35.265423 -84.518425 -35.252972 -84.415466 -1.6967633 -163.67467
310606250 -1.4799677 -167.67908 -35.272884 -85.029907 -35.309807 -84.958366 -1.6976957 -163.71494
310612500 -1.4769908 -167.7067 -35.34404 -85.238976 -35.314285 -85.458542 -1.7006065 -163.75775
310618750 -1.4762758 -167.73926 -35.400726 -85.835213 -35.368908 -85.830185 -1.7002383 -163.80476
310625000 -1.4739734 -167.77809 -35.396225 -86.360893 -35.399181 -86.450638 -1.7007623 -163.84425
310631250 -1.4721826 -167.81525 -35.451694 -86.769661 -35.419044 -86.67157 -1.702894 -163.88481
310637500 -1.4706753 -167.84637 -35.423634 -87.099297 -35.515266 -86.796867 -1.7047068 -163.93015
310643750 -1.4689928 -167.88028 -35.488155 -87.538162 -35.456535 -87.465385 -1.7069534 -163.96983
310650000 -1.4696825 -167.92546 -35.506046 -87.960297 -35.479195 -87.777473 -1.7072889 -164.02104
310656250 -1.4669985 -167.96793 -35.511066 -88.144058 -35.530018 -88.028145 -1.7093102 -164.05943
310662500 -1.4683639 -167.99721 -35.529678 -88.90271 -35.533344 -88.613403 -1.7109884 -164.104
310668750 -1.4658549 -168.02818 -35.60046 -89.295227 -35.548019 -89.097054 -1.7134925 -164.14757
310675000 -1.4646556 -168.06975 -35.60183 -89.880547 -35.552502 -89.855598 -1.715497 -164.18819
310681250 -1.4631741 -168.10588 -35.609585 -89.970497 -35.588886 -90.229591 -1.7174129 -164.22931
310687500 -1.4637568 -168.15036 -35.646004 -90.559258 -35.604755 -90.582634 -1.7201314 -164.2664
310693750 -1.4637154 -168.19035 -35.645687 -91.030518 -35.618786 -91.349457 -1.7211375 -164.31027
310700000 -1.4621544 -168.21104 -35.682148 -91.939507 -35.665298 -91.613831 -1.7228909 -164.35583
310706250 -1.4610505 -168.25635 -35.647198 -92.168312 -35.668865 -92.030869 -1.7255622 -164.38647
310712500 -1.459787 -168.3036 -35.667862 -92.726578 -35.678032 -92.557388 -1.7288122 -164.42589
310718750 -1.4604727 -168.34596 -35.682701 -93.213333 -35.680756 -93.255409 -1.7323077 -164.46979
310725000 -1.4613219 -168.37297 -35.712032 -93.742935 -35.676895 -93.683922 -1.7327888 -164.52634
310731250 -1.4609082 -168.41856 -35.710182 -94.385918 -35.710621 -94.20459 -1.7365859 -164.54773
310737500 -1.4610274 -168.44919 -35.70879 -94.894943 -35.693924 -94.928917 -1.7394288 -164.58774
310743750 -1.4625798 -168.48282 -35.779373 -95.585899 -35.725471 -95.460945 -1.7428468 -164.63431
310750000 -1.4616338 -168.52563 -35.743187 -96.03788 -35.72747 -96.313919 -1.7462347 -164.67082
310756250 -1.4626561 -168.55132 -35.754192 -96.923401 -35.72744 -96.699608 -1.748431 -164.70047
310762500 -1.4636797 -168.59727 -35.734829 -97.691345 -35.737934 -97.480522 -1.7527519 -164.73915
310768750 -1.4623436 -168.62654 -35.782024 -98.444725 -35.788219 -98.452263 -1.7544163 -164.77538
310775000 -1.4638715 -168.65814 -35.799973 -99.057671 -35.801239 -99.270889 -1.7564073 -164.81445
310781250 -1.4641874 -168.69518 -35.793232 -100.03101 -35.760811 -99.838516 -1.7604227 -164.85059
310787500 -1.4659904 -168.72676 -35.817703 -100.95179 -35.783051 -100.40039 -1.7641084 -164.88162
310793750 -1.4658781 -168.76059 -35.84811 -101.37333 -35.852951 -101.46864 -1.7661827 -164.91682
310800000 -1.4667944 -168.79286 -35.88393 -102.09699 -35.896687 -102.56525 -1.7690073 -164.95085
310806250 -1.4675251 -168.82164 -35.937851 -103.01493 -35.892994 -103.13033 -1.7734923 -164.97862
310812500 -1.4695117 -168.84755 -35.935684 -104.257 -35.935726 -103.76546 -1.7758031 -165.0098
310818750 -1.4704241 -168.87372 -35.989666 -104.991 -35.99469 -104.97467 -1.7784623 -165.04268
310825000 -1.4696534 -168.90045 -36.026127 -106.01617 -35.995136 -105.86404 -1.7827793 -165.07152
310831250 -1.4719341 -168.92876 -36.067585 -106.49738 -36.082165 -106.91714 -1.7854826 -165.09644
310837500 -1.4733406 -168.95486 -36.147106 -107.68725 -36.100754 -107.71329 -1.7891604 -165.13148
310843750 -1.4740499 -168.98251 -36.209053 -108.65568 -36.157543 -108.82082 -1.7916963 -165.16199
310850000 -1.4746119 -169.00235 -36.231964 -109.93159 -36.234211 -109.69537 -1.7950435 -165.18732
310856250 -1.4754221 -169.02003 -36.341393 -111.02284 -36.381866 -111.0705 -1.798032 -165.20981
310862500 -1.4766057 -169.04219 -36.418709 -112.12347 -36.47237 -112.09483 -1.8003666 -165.22594
310868750 -1.4772929 -169.06511 -36.54538 -113.20245 -36.525688 -112.95938 -1.8031406 -165.25415
310875000 -1.4780411 -169.07709 -36.688503 -114.18842 -36.625153 -114.27982 -1.8050463 -165.2645
310881250 -1.4783529 -169.09906 -36.759544 -115.11131 -36.778431 -115.15937 -1.8067337 -165.28474
310887500 -1.4795846 -169.1104 -36.925373 -116.00638 -36.881924 -116.31059 -1.8096273 -165.30421
310893750 -1.4777704 -169.12372 -37.055157 -117.05933 -36.977169 -117.18353 -1.810842 -165.325
310900000 -1.4772103 -169.14404 -37.237774 -117.78508 -37.190205 -117.99704 -1.8122298 -165.3398
310906250 -1.4778619 -169.16245 -37.402721 -118.90005 -37.388351 -119.17435 -1.8121278 -165.36528
310912500 -1.4766439 -169.1779 -37.57209 -120.02583 -37.560719 -119.63647 -1.8145204 -165.38382
310918750 -1.4762222 -169.19046 -37.74332 -120.48323 -37.799259 -120.35665 -1.8161721 -165.40002
310925000 -1.4747372 -169.21094 -37.860893 -120.98417 -37.924992 -121.03397 -1.8162179 -165.42059
310931250 -1.4733407 -169.23135 -38.126118 -121.40495 -38.047203 -121.2244 -1.8162625 -165.44237
310937500 -1.4725971 -169.23579 -38.315777 -121.97524 -38.271973 -122.13474 -1.8161482 -165.46556
310943750 -1.470143 -169.26894 -38.446285 -122.88095 -38.425209 -122.69801 -1.8166748 -165.48524
310950000 -1.4687953 -169.28381 -38.724361 -122.83916 -38.630737 -122.85515 -1.8168457 -165.5116
310956250 -1.4676263 -169.30066 -38.843681 -123.26235 -38.881657 -123.69439 -1.8178532 -165.52791
310962500 -1.4650706 -169.33311 -39.089531 -123.8426 -39.08699 -123.94486 -1.8163235 -165.55917
310968750 -1.4632516 -169.35513 -39.223755 -123.72842 -39.22662 -124.0725 -1.8171078 -165.58521
310975000 -1.4617461 -169.38129 -39.448277 -123.98102 -39.443794 -124.25162 -1.8175144 -165.60751
310981250 -1.4609823 -169.39366 -39.667953 -124.15501 -39.672852 -123.85163 -1.8163887 -165.64005
310987500 -1.4578815 -169.42865 -39.808617 -124.32841 -39.859074 -124.16903 -1.8153231 -165.66028
310993750 -1.4550362 -169.44884 -39.949738 -124.08237 -40.010593 -124.00427 -1.8163974 -165.69789
311000000 -1.4543859 -169.48766 -40.176361 -123.78736 -40.213226 -123.20509 -1.8190694 -165.73314
311006250 -1.452878 -169.5025 -40.387596 -124.26499 -40.414745 -123.64024 -1.8191109 -165.76089
311012500 -1.45096 -169.53362 -40.494133 -123.37651 -40.628731 -123.31326 -1.81814 -165.79633
311018750 -1.4481008 -169.56953 -40.772583 -123.29326 -40.820129 -123.11412 -1.818037 -165.82355
311025000 -1.4465256 -169.60005 -40.89994 -122.60284 -40.917305 -122.99986 -1.8175417 -165.85603
311031250 -1.4457792 -169.63771 -41.102875 -121.96538 -41.07555 -122.22034 -1.8174628 -165.90486
311037500 -1.4434986 -169.66977 -41.164722 -121.73781 -41.27961 -122.04855 -1.816011 -165.92358
311043750 -1.4429688 -169.69913 -41.340786 -121.23547 -41.438671 -121.70866 -1.8164868 -165.96822
311050000 -1.439846 -169.74297 -41.510036 -120.55141 -41.48246 -120.38131 -1.8139611 -165.9895
311056250 -1.4386876 -169.77379 -41.669891 -120.3317 -41.655197 -120.35994 -1.8146238 -166.02983
311062500 -1.4369314 -169.80614 -41.786556 -119.70966 -41.792202 -119.98 -1.8141549 -166.07458
311068750 -1.4356316 -169.84467 -41.85408 -119.22856 -41.870491 -119.37923 -1.8147098 -166.10905
311075000 -1.4348724 -169.86519 -41.957939 -118.42058 -41.948437 -118.60356 -1.8136848 -166.15065
311081250 -1.4332911 -169.9084 -41.998184 -118.09867 -41.994049 -117.70358 -1.8125656 -166.17935
311087500 -1.431607 -169.95195 -42.216267 -117.66746 -42.105045 -117.22547 -1.8119434 -166.22514
311093750 -1.4296613 -169.98413 -42.250896 -116.6275 -42.193008 -116.78944 -1.8122976 -166.27657
311100000 -1.4299415 -170.01575 -42.20409 -116.2477 -42.187618 -116.55266 -1.810921 -166.30708
311106250 -1.4281921 -170.0547 -42.245384 -115.89783 -42.258354 -115.77355 -1.812885 -166.34424
311112500 -1.4262646 -170.09224 -42.373436 -115.05111 -42.451725 -115.09232 -1.812147 -166.39616
311118750 -1.4274795 -170.12466 -42.482269 -114.25871 -42.409302 -114.61111 -1.8122278 -166.43527
311125000 -1.4238713 -170.17007 -42.468925 -113.92795 -42.452522 -114.08161 -1.8114729 -166.49005
311131250 -1.422909 -170.21548 -42.456776 -113.72002 -42.43272 -113.62762 -1.8109996 -166.53358
311137500 -1.421376 -170.24503 -42.52364 -112.77891 -42.491268 -113.34573 -1.8121181 -166.57527
311143750 -1.4221029 -170.27818 -42.588737 -112.16612 -42.512512 -112.12628 -1.8134474 -166.62149
311150000 -1.4207157 -170.31332 -42.556774 -111.77733 -42.489239 -112.19787 -1.8129023 -166.66948
311156250 -1.4218739 -170.34996 -42.61446 -110.91747 -42.564518 -111.11665 -1.8143507 -166.71799
311162500 -1.4199504 -170.38432 -42.660088 -110.78699 -42.607258 -110.97566 -1.8155934 -166.761
311168750 -1.4182894 -170.42502 -42.595306 -110.60983 -42.686592 -110.79472 -1.8165636 -166.81065
311175000 -1.419843 -170.45094 -42.620968 -110.96868 -42.556187 -109.72662 -1.816757 -166.85997
311181250 -1.4186091 -170.49529 -42.621136 -109.81194 -42.638756 -109.75461 -1.8191218 -166.90343
311187500 -1.4188495 -170.53043 -42.595703 -109.21217 -42.659599 -109.56524 -1.819517 -166.95805
311193750 -1.4160408 -170.56422 -42.498905 -108.95589 -42.586178 -109.02614 -1.8208616 -166.9968
311200000 -1.4188727 -170.59326 -42.59539 -108.64715 -42.621304 -108.35014 -1.8233671 -167.05118
311206250 -1.4179572 -170.63884 -42.626328 -108.34414 -42.539135 -108.21388 -1.823891 -167.1015
311212500 -1.4171108 -170.68445 -42.584618 -108.36444 -42.504856 -108.33152 -1.8252004 -167.14336
311218750 -1.416242 -170.70642 -42.519341 -107.63562 -42.536472 -107.97317 -1.8263774 -167.18826
311225000 -1.415892 -170.74136 -42.407082 -107.7737 -42.57542 -107.93383 -1.8282169 -167.24269
311231250 -1.4157487 -170.7809 -42.46582 -107.45083 -42.521984 -107.50797 -1.8306674 -167.28363
311237500 -1.4152322 -170.82248 -42.507309 -107.24979 -42.464588 -107.46128 -1.8327906 -167.33583
311243750 -1.4151914 -170.85788 -42.538231 -107.53393 -42.461224 -106.97665 -1.8358161 -167.38264
311250000 -1.4145525 -170.89616 -42.521427 -106.99577 -42.517712 -107.84888 -1.8372952 -167.43825
311256250 -1.4158208 -170.92542 -42.427135 -106.97243 -42.441296 -107.04983 -1.8405452 -167.48636
311262500 -1.4139059 -170.96017 -42.425476 -107.3349 -42.39003 -107.23553 -1.8447264 -167.53928
