!Keysight Technologies,E5080A,MY55200989,A.11.70.00
!Date: Wednesday, September 26, 2018 11:48:24
!Correction: S11(Full 2 Port(1,2)) 
!S21(Full 2 Port(1,2)) 
!S12(Full 2 Port(1,2)) 
!S22(Full 2 Port(1,2)) 
!S2P File: Measurements: S11, S21, S12, S22:
# Hz S  dB   R 50
100000 0.0085211182 -0.081593141 -100.97831 -17.571898 -100.95417 -17.041399 0.0054753926 -0.060372338
1662437.5 0.00042624955 -0.51711541 -97.13076 25.841099 -102.49554 164.40308 -0.005657441 -0.56178677
3224875 -1.9765655e-005 -0.93079543 -90.611725 -134.79517 -86.853828 164.75652 -9.5376396e-005 -1.0115865
4787312.5 -0.000456657 -1.3988898 -84.956261 -46.307976 -88.699417 35.867172 0.0051967492 -1.4385298
6349750 -0.0017600631 -1.8699598 -83.816124 177.84727 -91.990494 153.28355 0.0027244003 -1.929468
7912187.5 -0.0051929895 -2.287514 -79.618309 72.098274 -77.233551 77.680511 -0.0066648149 -2.4167013
9474625 -0.0066275783 -2.7861817 -80.243301 124.02992 -78.064888 140.23558 -0.0038382921 -2.9134521
11037062.5 0.00063113077 -3.2423928 -85.26825 -154.6866 -84.486748 -154.60912 -0.0027337994 -3.414248
12599500 -0.0049421871 -3.6720643 -80.735367 56.010979 -82.59494 78.128525 -0.0029921846 -3.8653131
14161937.5 -0.0041720509 -4.1590476 -76.856369 119.68498 -78.569336 125.88699 -0.0052135992 -4.3245597
15724375 -0.0082920073 -4.5982671 -74.71859 71.821732 -74.129486 76.331757 -0.0044445167 -4.8219366
17286812.5 -0.00882849 -5.0572729 -80.404152 166.52872 -79.213959 143.5948 -0.0084994789 -5.3125815
18849250 -0.0075463657 -5.4995098 -77.847008 99.423248 -77.284592 111.63448 -0.0086229844 -5.7483983
20411687.5 -0.01169075 -5.9211373 -87.120888 147.70209 -88.312607 131.36736 -0.0087576183 -6.2720413
21974125 -0.0078427168 -6.4254518 -80.961914 63.607922 -80.951385 60.768932 -0.007605643 -6.7393641
23536562.5 -0.0049182647 -6.8565164 -74.336388 87.585716 -74.871841 87.060211 -0.011012517 -7.2037783
25099000 -0.0046709566 -7.3070602 -78.651848 90.869736 -78.4422 95.419342 -0.011224202 -7.6871638
26661437.5 -0.01094578 -7.7892351 -81.618607 74.97525 -83.308746 80.890541 -0.010845155 -8.1826916
28223875 -0.0084613105 -8.2030468 -75.89106 96.249321 -76.138992 105.51366 -0.0095253652 -8.6256714
29786312.5 -0.0097113894 -8.6665888 -82.234909 62.167118 -81.28289 63.196476 -0.0062335921 -9.0957212
31348750 -0.0083714547 -9.1391039 -75.173012 79.706268 -75.775642 73.117195 -0.01200168 -9.5853491
32911187.5 -0.0046458449 -9.5778847 -75.478317 74.394753 -75.387474 76.883797 -0.012912671 -10.041122
34473625 -0.0096479869 -10.054041 -74.616875 75.424835 -75.058228 75.500725 -0.008297151 -10.54215
36036062.5 -0.0093615856 -10.496547 -72.895813 79.018013 -73.801102 76.776413 -0.0080524841 -11.048593
37598500 -0.011130622 -10.977369 -75.370361 102.69118 -75.194733 112.76167 -0.013775659 -11.496138
39160937.5 -0.012777859 -11.394304 -71.123184 73.431122 -71.747261 72.404182 -0.014143392 -11.944936
40723375 -0.011151057 -11.843106 -75.627937 65.761024 -74.67765 70.434402 -0.01493825 -12.44945
42285812.5 -0.01407757 -12.314921 -73.423538 65.164337 -72.140198 69.092705 -0.018232547 -12.920463
43848250 -0.015785262 -12.744071 -72.648125 98.997841 -73.966393 103.96358 -0.014256558 -13.391635
45410687.5 -0.014692505 -13.200006 -73.443916 48.394806 -72.359253 49.023129 -0.021217955 -13.913707
46973125 -0.014666835 -13.634908 -69.69104 70.584259 -70.436615 71.003395 -0.016307762 -14.320315
48535562.5 -0.017342361 -14.082788 -75.095726 113.04828 -75.902 118.61263 -0.019759441 -14.788361
50098000 -0.020322591 -14.565177 -78.572517 70.192749 -79.278465 76.032059 -0.021167481 -15.246564
51660437.5 -0.026722528 -15.039257 -71.101364 -4.6035881 -71.901276 -4.8841844 -0.026068348 -15.700701
53222875 -0.015977297 -15.467167 -72.885628 46.451916 -72.862244 48.026897 -0.017621558 -16.236013
54785312.5 -0.018110277 -15.93888 -68.235023 82.064102 -68.543312 82.030853 -0.021928383 -16.725821
56347750 -0.01699925 -16.376238 -71.706352 59.455452 -71.62413 59.918053 -0.015943352 -17.159473
57910187.5 -0.01624235 -16.836815 -70.263863 76.249069 -70.39576 72.57103 -0.017432937 -17.650681
59472625 -0.016815424 -17.2747 -71.543282 70.047073 -70.700691 67.793892 -0.018112572 -18.117939
61035062.5 -0.018064173 -17.725914 -70.688286 65.827072 -71.022194 65.140884 -0.01782052 -18.598063
62597500 -0.015938982 -18.194494 -71.742836 62.70195 -71.769707 65.569855 -0.021394199 -19.084929
64159937.5 -0.020295374 -18.63851 -73.062881 61.076904 -73.287315 56.888653 -0.02676777 -19.530163
65722375 -0.019710463 -19.082439 -70.982712 60.72263 -71.119484 59.352016 -0.024221731 -20.001276
67284812.5 -0.019477978 -19.559099 -71.453621 70.354568 -71.903549 68.964737 -0.023816751 -20.49633
68847250 -0.020409683 -19.991758 -69.119995 60.862663 -69.618324 60.603779 -0.024894267 -20.94882
70409687.5 -0.021272993 -20.464291 -70.330956 75.206604 -70.405449 73.299408 -0.024528572 -21.438112
71972125 -0.027667811 -20.878374 -71.633133 45.560955 -70.909943 40.788296 -0.028111355 -21.87862
73534562.5 -0.024133902 -21.373318 -66.993484 67.670547 -67.165131 68.242546 -0.033445429 -22.376816
75097000 -0.042599414 -21.77816 -66.12162 49.00658 -66.038116 48.015472 -0.042202812 -22.799248
76659437.5 -0.02350473 -22.251923 -69.690857 61.902298 -69.916687 58.840385 -0.027351959 -23.301893
78221875 -0.029968046 -22.760973 -70.564735 62.056702 -70.782722 61.06205 -0.035156935 -23.806381
79784312.5 -0.021640874 -23.154156 -68.386406 69.860413 -68.444565 69.176758 -0.024563344 -24.259371
81346750 -0.02838316 -23.636631 -70.099594 64.755486 -70.140678 62.191162 -0.030399561 -24.76589
82909187.5 -0.02627562 -24.052336 -69.740784 57.71172 -69.297455 57.30619 -0.029467283 -25.169098
84471625 -0.025410077 -24.503967 -68.909874 64.385612 -69.062546 64.814316 -0.027293395 -25.649418
86034062.5 -0.023053782 -24.951168 -67.674797 62.558296 -67.712517 63.151112 -0.025788628 -26.123709
87596500 -0.023069343 -25.420736 -67.177048 62.078465 -67.020233 63.272236 -0.026949985 -26.613514
89158937.5 -0.022551564 -25.875797 -69.447235 65.483147 -69.583275 65.090508 -0.025862185 -27.09017
90721375 -0.024618061 -26.349281 -68.864784 56.393562 -68.607498 55.974033 -0.027314138 -27.584715
92283812.5 -0.029180499 -26.765013 -67.595192 62.057426 -68.099648 59.830593 -0.032976564 -28.020527
93846250 -0.023995722 -27.236929 -68.072777 60.175545 -67.99324 60.5434 -0.029241754 -28.491682
95408687.5 -0.027680939 -27.690979 -67.036934 67.985985 -66.880142 66.38398 -0.030809313 -28.973618
96971125 -0.026406264 -28.149389 -67.365639 61.940083 -67.502022 62.660061 -0.029553907 -29.461363
98533562.5 -0.030694082 -28.584389 -66.655304 56.349194 -66.671921 56.374565 -0.035858661 -29.912981
100096000 -0.030814221 -29.084961 -67.583832 58.540157 -67.545021 59.783596 -0.041904222 -30.429548
101658437.5 -0.052211773 -29.532078 -66.647377 32.671059 -66.7286 31.537621 -0.049196139 -30.752531
103220875 -0.031430464 -29.945702 -66.470329 67.919853 -66.342003 66.733963 -0.035896666 -31.305992
104783312.5 -0.033736691 -30.463932 -67.305916 51.159595 -67.190895 50.604763 -0.056412268 -31.893278
106345750 -0.029767714 -30.835705 -67.116241 56.945175 -66.968887 56.876076 -0.035097752 -32.252121
107908187.5 -0.034219023 -31.333755 -67.910477 50.126259 -67.641701 50.782406 -0.042081159 -32.775875
109470625 -0.040971007 -31.739067 -66.457413 59.94278 -66.229576 59.714157 -0.04308705 -33.189018
111033062.5 -0.037836079 -32.197346 -69.698936 47.44529 -69.654366 47.848045 -0.044889305 -33.620346
112595500 -0.034745969 -32.622375 -66.596268 53.480469 -66.616592 54.076527 -0.038949937 -34.089031
114157937.5 -0.031344347 -33.079288 -67.621239 56.953777 -67.872215 58.999245 -0.036780782 -34.592773
115720375 -0.033175968 -33.528378 -67.36467 49.448124 -67.114403 49.798054 -0.038392611 -35.044651
117282812.5 -0.032244787 -33.987232 -66.836281 57.38298 -66.649826 58.378223 -0.039161485 -35.5173
118845250 -0.040367242 -34.435619 -66.111031 50.648785 -66.148331 50.730366 -0.047805984 -35.977303
120407687.5 -0.037102506 -34.885319 -65.982506 51.077812 -66.029037 50.565559 -0.043252107 -36.418743
121970125 -0.034663118 -35.345795 -66.817322 52.314625 -66.491386 51.626846 -0.042475957 -36.920528
123532562.5 -0.035829108 -35.804604 -65.862137 53.097145 -65.847588 54.296318 -0.042384245 -37.402676
125095000 -0.039638687 -36.270657 -65.346344 56.246002 -65.402222 54.913555 -0.043770939 -37.884342
126657437.5 -0.04095827 -36.723442 -66.024315 59.757523 -65.76757 57.897198 -0.043731764 -38.368481
128219875 -0.050787441 -37.174717 -65.734482 48.549595 -65.690262 50.218586 -0.057892662 -38.76651
129782312.5 -0.045137752 -37.637707 -66.45504 59.928005 -66.243866 60.172821 -0.051565468 -39.262035
131344750 -0.041845705 -38.068481 -64.712814 39.58675 -64.493095 41.489117 -0.051723279 -39.763233
132907187.5 -0.04620146 -38.532124 -65.702629 52.185452 -65.571907 51.299809 -0.050075699 -40.241543
134469625 -0.043432627 -38.986534 -64.884377 41.598537 -64.888542 42.169743 -0.052217599 -40.710163
136032062.5 -0.046988323 -39.465263 -63.625351 36.919434 -63.635391 37.749237 -0.057032779 -41.172318
137594500 -0.048627056 -39.831905 -66.052498 37.57177 -66.082054 35.69313 -0.056194428 -41.565567
139156937.5 -0.047145229 -40.305428 -64.646042 44.771732 -64.714439 45.941586 -0.053109333 -42.059589
140719375 -0.049070273 -40.718761 -66.176147 51.96212 -66.198097 52.013275 -0.05042354 -42.497906
142281812.5 -0.047028173 -41.204384 -66.575325 50.740078 -66.319267 49.859787 -0.05280422 -42.967968
143844250 -0.047846686 -41.640228 -65.472237 48.060127 -65.788124 48.745678 -0.052388791 -43.432369
145406687.5 -0.047614917 -42.125641 -65.896416 40.148373 -65.813698 39.009335 -0.054866537 -43.953167
146969125 -0.050077859 -42.519249 -65.737907 39.236389 -65.83429 39.418694 -0.056402061 -44.333599
148531562.5 -0.047810897 -43.002045 -64.600304 46.014694 -64.458183 47.932198 -0.056862719 -44.830395
150094000 -0.048002489 -43.462284 -65.899536 39.983578 -65.813957 42.622612 -0.053439286 -45.316429
151656437.5 -0.045712732 -43.936264 -65.691887 46.669945 -65.521515 45.880398 -0.053801347 -45.786701
153218875 -0.052787185 -44.396763 -63.64658 35.769913 -63.542484 37.17849 -0.053999104 -46.260929
154781312.5 -0.05606788 -44.890049 -64.476341 41.497379 -64.530853 41.687702 -0.068679325 -46.743538
156343750 -0.055511244 -45.288658 -64.489471 48.370216 -64.47847 49.318989 -0.064197801 -47.190159
157906187.5 -0.053393912 -45.75528 -64.918221 42.501102 -64.935089 41.545547 -0.061978187 -47.651119
159468625 -0.065163009 -46.234814 -63.887711 45.692093 -63.796791 46.813778 -0.073099911 -48.150837
161031062.5 -0.056773078 -46.649311 -63.068672 37.533386 -63.03878 36.669792 -0.064383037 -48.60067
162593500 -0.066904321 -47.180763 -63.959999 41.821072 -63.753014 41.895672 -0.072996959 -49.105873
164155937.5 -0.064548396 -47.527893 -63.607597 40.665375 -63.45163 40.936718 -0.075638235 -49.494484
165718375 -0.064719513 -48.040688 -64.271515 34.609531 -64.379196 33.792786 -0.080112755 -49.983444
167280812.5 -0.062961765 -48.402309 -63.906158 38.309322 -63.666912 39.226612 -0.070059463 -50.378742
168843250 -0.062837139 -48.929409 -64.416435 41.080326 -64.006897 42.229145 -0.071265019 -50.939724
170405687.5 -0.061784636 -49.276363 -64.415878 42.163647 -64.311394 41.249779 -0.071054891 -51.288601
171968125 -0.061938908 -49.803791 -63.366142 37.888004 -63.403046 38.353725 -0.072979853 -51.832222
173530562.5 -0.068683609 -50.13921 -64.46254 39.775341 -64.428238 36.986706 -0.079401895 -52.200199
175093000 -0.062699825 -50.660221 -64.238762 41.081917 -64.258934 40.433346 -0.072752811 -52.699474
176655437.5 -0.066192746 -51.095436 -64.088921 37.30809 -63.883244 35.591496 -0.069067411 -53.160564
178217875 -0.061580312 -51.578285 -64.525093 32.205635 -64.412628 34.548103 -0.075204246 -53.661518
179780312.5 -0.063422337 -52.064415 -64.021393 37.305939 -63.64592 35.207558 -0.069937155 -54.124691
181342750 -0.066010229 -52.523705 -63.543606 37.850605 -63.265938 36.693752 -0.074428007 -54.624195
182905187.5 -0.069204532 -52.97702 -63.813911 30.946051 -63.606064 29.906404 -0.08201395 -55.030296
184467625 -0.067997538 -53.437275 -63.363754 33.088661 -63.239655 31.782124 -0.072487831 -55.510891
186030062.5 -0.070269682 -53.88829 -64.338058 31.126177 -64.513519 31.933849 -0.079653367 -56.019009
187592500 -0.068226703 -54.369225 -62.972527 42.544674 -62.832008 42.20686 -0.082206443 -56.454666
189154937.5 -0.070674047 -54.823246 -63.602608 38.277134 -63.789841 37.274628 -0.089341484 -57.009201
190717375 -0.078358598 -55.289612 -62.971794 26.917259 -63.051144 26.4317 -0.087518431 -57.424419
192279812.5 -0.088929012 -55.746387 -62.947987 38.163113 -62.904606 36.751228 -0.091740914 -57.86787
193842250 -0.073696107 -56.124496 -62.618576 31.921993 -62.688828 31.072275 -0.079484403 -58.309544
195404687.5 -0.084121436 -56.672077 -62.981758 38.914352 -62.979141 38.286812 -0.097169764 -58.791313
196967125 -0.078004248 -56.991844 -62.920223 35.726494 -62.931934 36.343094 -0.084555157 -59.166897
198529562.5 -0.082440831 -57.516075 -62.988815 26.500805 -63.02401 24.806467 -0.092200339 -59.705368
200092000 -0.088768698 -57.961254 -63.136627 30.602196 -63.22234 29.237209 -0.091196097 -60.143723
201654437.5 -0.07890553 -58.354603 -62.652847 28.338531 -62.373959 28.320436 -0.087282434 -60.566463
203216875 -0.080785058 -58.803249 -63.95409 21.753759 -64.095078 23.469835 -0.09027297 -61.014755
204779312.5 -0.076598786 -59.266216 -63.52264 25.620991 -63.60574 26.873066 -0.085876964 -61.509933
206341750 -0.079666801 -59.714718 -62.987495 27.329845 -62.862888 26.163355 -0.085263394 -61.981281
207904187.5 -0.081113145 -60.209492 -62.529903 26.721943 -62.340931 27.541868 -0.085337266 -62.467709
209466625 -0.085550688 -60.676662 -63.014675 29.663769 -63.13298 29.350136 -0.10130683 -62.881626
211029062.5 -0.082390115 -61.117996 -63.068661 29.81753 -63.143215 29.785103 -0.08558768 -63.368816
212591500 -0.079515621 -61.573051 -63.191917 27.379 -62.826015 27.132624 -0.088476881 -63.873642
214153937.5 -0.078811631 -62.075211 -62.388084 25.031214 -62.586445 24.473352 -0.089751557 -64.356186
215716375 -0.084598377 -62.535767 -62.202187 22.350668 -62.321136 23.606256 -0.096150957 -64.791595
217278812.5 -0.08996398 -63.00864 -62.027107 26.795504 -61.943996 27.443188 -0.095160753 -65.288841
218841250 -0.097811423 -63.426136 -61.416599 18.98439 -61.156223 19.286055 -0.11581777 -65.745384
220403687.5 -0.09201587 -63.876209 -62.707298 23.091433 -62.53297 23.86187 -0.10692567 -66.165054
221966125 -0.096048661 -64.360519 -63.591839 17.635622 -63.537689 17.143475 -0.11263962 -66.690514
223528562.5 -0.099797413 -64.778793 -63.199211 21.203131 -63.106873 21.369095 -0.10925166 -67.122757
225091000 -0.10226326 -65.223259 -62.408848 23.552462 -62.482582 23.254501 -0.11006138 -67.584938
226653437.5 -0.1017186 -65.672844 -63.107422 27.062584 -63.190773 26.944658 -0.11005136 -68.03817
228215875 -0.10447339 -66.087494 -62.007298 22.87248 -61.837151 23.362108 -0.11314038 -68.43618
229778312.5 -0.10365298 -66.59227 -62.589428 18.329239 -62.453392 19.755724 -0.10965901 -68.914101
231340750 -0.10257172 -66.973633 -61.744225 20.123592 -61.615959 20.556034 -0.11265365 -69.337906
232903187.5 -0.09630993 -67.478477 -62.313267 17.2985 -62.277916 18.239042 -0.11036144 -69.790939
234465625 -0.097629562 -67.88961 -61.958225 21.263924 -62.018116 20.947145 -0.113268 -70.284576
236028062.5 -0.097416438 -68.406311 -62.154755 14.7162 -62.459202 14.102071 -0.10767844 -70.810295
237590500 -0.098312005 -68.851898 -61.769562 17.708893 -61.77182 16.623297 -0.1079098 -71.198845
239152937.5 -0.095403694 -69.31575 -62.009403 11.140062 -62.141582 13.25584 -0.10352832 -71.677521
240715375 -0.10033178 -69.817734 -61.950539 18.736288 -61.878387 16.662731 -0.10990273 -72.173706
242277812.5 -0.09616518 -70.296257 -62.536556 19.446451 -62.62701 20.27808 -0.10838079 -72.692566
243840250 -0.099465638 -70.771118 -62.178368 25.532724 -62.090931 23.903673 -0.10972155 -73.16246
245402687.5 -0.10295995 -71.288292 -61.580414 14.679909 -61.429626 16.583035 -0.11485594 -73.740471
246965125 -0.11496317 -71.707306 -61.437214 21.632988 -61.543358 21.477598 -0.11764318 -74.100075
248527562.5 -0.11092008 -72.175179 -61.535995 19.227524 -61.507259 20.273249 -0.12140276 -74.585144
250090000 -0.13017374 -72.69632 -61.720375 16.099096 -61.718708 16.128668 -0.12449186 -75.026421
251652437.5 -0.11688355 -73.074959 -62.189606 12.191011 -62.291435 12.612878 -0.1264345 -75.509636
253214875 -0.12926584 -73.598198 -61.732426 14.14498 -61.763481 14.320265 -0.1415675 -75.907875
254777312.5 -0.12476727 -73.986122 -61.432175 8.7291527 -61.394176 7.9267597 -0.14690672 -76.39106
256339750 -0.13375168 -74.491486 -62.04174 11.466853 -62.033291 11.13373 -0.1436509 -76.84169
257902187.5 -0.12089843 -74.863983 -62.39299 12.68202 -62.586754 12.810764 -0.12934156 -77.298676
259464625 -0.12838274 -75.395126 -63.09721 7.4777584 -63.055717 7.7298951 -0.13893448 -77.75901
261027062.5 -0.12336312 -75.772964 -61.344536 12.294946 -61.447922 12.258297 -0.13055429 -78.187843
262589500 -0.12280238 -76.301437 -62.368145 9.3974371 -62.259956 10.235073 -0.13532966 -78.725769
264151937.5 -0.12940584 -76.723473 -61.250347 15.821007 -61.200268 15.010398 -0.13664146 -79.135307
265714375 -0.1207611 -77.213326 -61.306789 9.6305418 -61.27116 10.459163 -0.12399168 -79.639549
267276812.5 -0.1158551 -77.697556 -61.843102 10.783271 -61.651291 10.659693 -0.12523577 -80.106255
268839250 -0.11599029 -78.19677 -61.839317 11.039203 -61.66396 11.985521 -0.12528177 -80.609543
270401687.5 -0.11926942 -78.681534 -61.593922 11.012535 -61.537067 9.0216722 -0.12191609 -81.13282
271964125 -0.11841889 -79.234283 -62.580658 6.5963149 -62.352196 6.1638079 -0.12409883 -81.628098
273526562.5 -0.12814197 -79.693558 -62.400124 9.5237331 -62.252514 8.2599669 -0.13446227 -82.085991
275089000 -0.12647909 -80.19101 -62.718483 11.772182 -62.669426 13.148692 -0.13917585 -82.607414
276651437.5 -0.13427627 -80.639015 -60.924885 17.613888 -60.642269 18.076416 -0.1431054 -83.056114
278213875 -0.13395754 -81.152092 -61.084099 12.154347 -60.971668 11.352163 -0.13918899 -83.589188
279776312.5 -0.14926241 -81.619179 -61.003632 8.6456146 -61.162323 9.1041622 -0.14806333 -83.916458
281338750 -0.14555624 -82.155991 -60.662365 10.678118 -60.553581 10.879117 -0.14219113 -84.55822
282901187.5 -0.16708525 -82.513557 -60.926853 -0.3980619 -60.783356 -0.46893689 -0.16023727 -84.804337
284463625 -0.15045069 -83.020073 -60.581348 7.8458214 -60.592049 8.2404575 -0.15699749 -85.414963
286026062.5 -0.1627233 -83.543793 -60.928913 -3.0714421 -60.768951 -3.8217039 -0.17063846 -85.767273
287588500 -0.1483918 -83.943008 -61.951855 2.1663034 -61.573742 1.8757414 -0.15114689 -86.325012
289150937.5 -0.15274858 -84.455818 -61.437492 -8.4567013 -61.611496 -8.8985472 -0.16273637 -86.819313
290713375 -0.14610375 -84.948372 -62.603657 -0.15478387 -62.67403 -0.3300378 -0.1490964 -87.333931
292275812.5 -0.14760065 -85.399391 -62.676483 -3.5126193 -62.655594 -2.2506993 -0.15918148 -87.720886
293838250 -0.14496876 -85.888657 -62.511971 4.889483 -62.40538 4.4174604 -0.14646487 -88.266724
295400687.5 -0.14168338 -86.416168 -61.854488 0.0032723341 -61.902149 0.60441041 -0.14976703 -88.779472
296963125 -0.13974096 -86.936058 -62.330624 0.57024521 -62.411232 0.51605958 -0.14178742 -89.251106
298525562.5 -0.14002813 -87.472496 -61.482349 1.9201779 -61.573936 2.6376421 -0.1454047 -89.802979
300088000 -0.14458266 -88.057892 -61.791946 1.453194 -61.702721 1.6279408 -0.16125315 -90.376266
301650437.5 -0.14298411 -88.515495 -61.826157 -1.5260299 -61.874493 -1.4915618 -0.14982784 -90.833061
303212875 -0.15401039 -89.058487 -62.527676 3.0882401 -62.480755 3.0716259 -0.15586136 -91.373299
304775312.5 -0.15775757 -89.573174 -62.169956 1.8809216 -62.126026 3.1821907 -0.1626175 -91.890717
306337750 -0.16273609 -90.086334 -61.893429 2.3845234 -61.943539 2.5491788 -0.16087085 -92.346443
307900187.5 -0.16669013 -90.584961 -62.3806 3.6957245 -62.259441 4.4024811 -0.17192329 -92.949104
