!Keysight Technologies,E5080A,MY55200989,A.11.70.00
!Date: Wednesday, September 26, 2018 11:50:29
!Correction: S11(Full 2 Port(1,2)) 
!S21(Full 2 Port(1,2)) 
!S12(Full 2 Port(1,2)) 
!S22(Full 2 Port(1,2)) 
!S2P File: Measurements: S11, S21, S12, S22:
# Hz S  dB   R 50
376400000 -0.26007265 -118.93807 -61.202126 -21.701887 -61.308712 -23.663719 -0.25331989 -120.28284
376462500 -0.26204741 -118.98837 -61.401409 -22.079884 -61.460117 -21.91791 -0.25811785 -120.34602
376525000 -0.26422051 -119.03513 -61.573322 -23.024206 -61.688423 -22.031181 -0.25999582 -120.36356
376587500 -0.26575083 -119.07752 -61.985214 -21.035601 -62.060505 -21.130316 -0.26000646 -120.43176
376650000 -0.26738662 -119.131 -62.466099 -17.02059 -62.394012 -17.139828 -0.2646448 -120.46184
376712500 -0.27112329 -119.15849 -62.110981 -14.922417 -62.130714 -13.242003 -0.26892665 -120.4898
376775000 -0.26935992 -119.1916 -61.555336 -9.0789738 -61.503387 -10.516582 -0.26960349 -120.48746
376837500 -0.26997507 -119.23545 -60.766731 -12.241779 -60.785412 -13.139304 -0.26740918 -120.51204
376900000 -0.26877794 -119.26643 -60.762459 -15.663258 -60.775497 -16.563688 -0.26634532 -120.5159
376962500 -0.26779181 -119.29628 -60.767044 -14.985922 -60.584568 -15.27824 -0.25980321 -120.53966
377025000 -0.26922262 -119.34334 -60.655811 -16.224398 -60.565346 -15.140494 -0.25556815 -120.58377
377087500 -0.26899609 -119.35969 -60.18523 -17.620928 -60.20187 -17.072973 -0.25181916 -120.63076
377150000 -0.26717082 -119.40265 -60.22578 -19.625174 -60.354557 -19.810843 -0.24781825 -120.68872
377212500 -0.26579058 -119.44568 -60.534813 -20.875641 -60.463898 -20.840113 -0.24762872 -120.74713
377275000 -0.26169077 -119.49045 -60.509945 -18.70937 -60.5527 -18.809227 -0.24793422 -120.80079
377337500 -0.26050365 -119.53976 -60.142429 -20.30904 -60.255783 -20.334362 -0.24354096 -120.8461
377400000 -0.25849226 -119.58044 -60.052959 -20.980738 -60.140675 -21.322433 -0.2433005 -120.91831
377462500 -0.25797275 -119.62341 -60.071507 -23.513016 -60.347046 -22.49119 -0.24338266 -120.97425
377525000 -0.25552431 -119.67404 -60.200993 -23.116486 -60.365757 -23.123121 -0.24284473 -121.01695
377587500 -0.25230092 -119.72521 -60.212128 -23.135975 -60.292103 -23.583361 -0.24401048 -121.06863
377650000 -0.2510069 -119.79559 -60.337296 -24.262304 -60.330658 -24.276632 -0.24295436 -121.11386
377712500 -0.25180468 -119.83876 -60.43494 -23.868193 -60.463974 -23.574457 -0.24723096 -121.17497
377775000 -0.25298193 -119.89706 -60.337521 -24.279194 -60.418941 -24.228708 -0.24595092 -121.21558
377837500 -0.25084388 -119.95844 -60.203106 -26.019747 -60.387718 -24.940742 -0.24763982 -121.26392
377900000 -0.24878173 -119.99391 -60.509617 -25.979918 -60.453407 -26.444778 -0.2471194 -121.32199
377962500 -0.24771093 -120.05317 -60.546928 -24.563492 -60.361893 -24.722429 -0.24989545 -121.3671
378025000 -0.24793297 -120.1006 -60.204357 -25.606655 -60.192902 -25.501062 -0.24951252 -121.39044
378087500 -0.2493064 -120.16843 -60.218884 -27.789001 -60.193321 -27.703159 -0.24764767 -121.43242
378150000 -0.24855517 -120.21994 -60.313828 -27.009378 -60.291481 -26.338432 -0.24755295 -121.46653
378212500 -0.2482142 -120.2741 -60.357059 -27.45525 -60.160503 -27.418781 -0.24418902 -121.52283
378275000 -0.25060847 -120.33598 -60.253353 -26.637226 -60.235504 -27.099371 -0.24609064 -121.56477
378337500 -0.25066146 -120.38491 -60.257187 -27.538803 -60.206837 -28.470451 -0.2440159 -121.61573
378400000 -0.25197002 -120.42908 -60.309772 -29.02199 -60.166271 -28.287075 -0.24211109 -121.66844
378462500 -0.25180909 -120.48206 -60.347237 -28.315058 -60.200069 -29.898853 -0.24239062 -121.71941
378525000 -0.2514697 -120.53306 -60.167305 -29.625605 -60.412815 -29.332483 -0.23993286 -121.77484
378587500 -0.25097951 -120.57567 -60.4422 -30.170668 -60.501808 -29.934509 -0.24317613 -121.83015
378650000 -0.25223413 -120.62473 -60.43914 -30.338348 -60.451733 -29.614662 -0.24280757 -121.88345
378712500 -0.25124905 -120.674 -60.333153 -29.658537 -60.352104 -28.847601 -0.24435797 -121.92506
378775000 -0.25081077 -120.73275 -60.22131 -29.209503 -60.144753 -29.397352 -0.24393661 -121.98518
378837500 -0.2517572 -120.7908 -60.149574 -30.35458 -59.973175 -30.744928 -0.24167241 -122.02885
378900000 -0.25097233 -120.8616 -60.225262 -30.74625 -60.050388 -31.687201 -0.24534671 -122.09959
378962500 -0.25164926 -120.89077 -60.076851 -32.225979 -60.113689 -31.555296 -0.24585335 -122.14171
379025000 -0.25321522 -120.94545 -60.247456 -32.484196 -60.198471 -31.974104 -0.2449172 -122.19402
379087500 -0.2528348 -120.9995 -60.097385 -32.743816 -60.151775 -31.901676 -0.24583423 -122.23394
379150000 -0.25339928 -121.06219 -60.269104 -33.422371 -60.055084 -33.000923 -0.24536552 -122.30199
379212500 -0.25481609 -121.10973 -60.071953 -33.673897 -60.078823 -35.072006 -0.2466266 -122.359
379275000 -0.25591403 -121.16182 -60.22485 -35.364571 -60.131607 -35.043015 -0.24819039 -122.41326
379337500 -0.25666499 -121.2057 -60.20002 -36.37545 -60.116436 -36.490894 -0.25180653 -122.45577
379400000 -0.25675327 -121.24866 -60.311752 -35.998215 -60.29594 -36.658596 -0.25251096 -122.48252
379462500 -0.25666302 -121.30077 -60.382854 -37.647221 -60.345398 -37.047298 -0.24970199 -122.5238
379525000 -0.25728303 -121.35609 -60.50729 -37.096344 -60.410316 -36.902176 -0.2511279 -122.57269
379587500 -0.25754347 -121.40717 -60.556473 -37.465744 -60.619904 -36.348572 -0.25058448 -122.63416
379650000 -0.25737479 -121.45794 -60.769356 -37.182571 -60.4865 -37.714111 -0.25015712 -122.68939
379712500 -0.25551504 -121.52375 -60.726044 -36.94976 -60.534668 -37.245335 -0.25125134 -122.745
379775000 -0.2586017 -121.5871 -60.409649 -35.718143 -60.448029 -36.737663 -0.25361767 -122.79659
379837500 -0.26063362 -121.65152 -60.305149 -37.485004 -60.215851 -36.810024 -0.25587028 -122.82615
379900000 -0.2626051 -121.69962 -60.470642 -36.707077 -60.41399 -37.932293 -0.25490302 -122.86652
379962500 -0.2640017 -121.74496 -60.14996 -37.587185 -60.214394 -38.186081 -0.25402212 -122.89863
380025000 -0.26448777 -121.7792 -60.161823 -39.262543 -60.170517 -39.448685 -0.25366867 -122.96901
380087500 -0.26534048 -121.82364 -60.125298 -40.032185 -60.221581 -40.359917 -0.25299031 -123.01686
380150000 -0.26463005 -121.86278 -60.025158 -40.268322 -60.156784 -40.651657 -0.25311121 -123.07761
380212500 -0.26523933 -121.93 -59.987457 -41.070946 -59.936516 -41.240971 -0.25455984 -123.13629
380275000 -0.26511195 -121.99375 -60.190006 -44.37347 -60.136627 -44.142006 -0.25505278 -123.1869
380337500 -0.265255 -122.03681 -60.246689 -44.30912 -60.223347 -44.69915 -0.25731575 -123.23922
380400000 -0.2650049 -122.10716 -60.236134 -45.954224 -60.506805 -45.45332 -0.25883931 -123.27344
380462500 -0.26642913 -122.14561 -60.442406 -46.033058 -60.257793 -45.629467 -0.25666425 -123.33089
380525000 -0.26926535 -122.21863 -60.419506 -47.667149 -60.329906 -46.854343 -0.25872615 -123.39987
380587500 -0.26773173 -122.25198 -60.684418 -49.056953 -60.521114 -49.583794 -0.26066995 -123.45037
380650000 -0.26846862 -122.31158 -60.989792 -49.185547 -61.121792 -49.080757 -0.26286262 -123.50185
380712500 -0.26925746 -122.37687 -61.000004 -49.759655 -61.024994 -47.940678 -0.26621071 -123.56446
380775000 -0.26889157 -122.42616 -60.96434 -49.386078 -61.048119 -48.922031 -0.26810861 -123.60357
380837500 -0.27097568 -122.49158 -60.978424 -50.862621 -60.918468 -50.013027 -0.2678417 -123.63388
380900000 -0.27286491 -122.5648 -61.223049 -50.460289 -61.395515 -50.241119 -0.26675338 -123.67554
380962500 -0.27714485 -122.61758 -61.357307 -50.772926 -61.291496 -51.47414 -0.26718962 -123.73697
381025000 -0.27834603 -122.67126 -61.242752 -52.991245 -61.242996 -51.626934 -0.26588383 -123.78397
381087500 -0.2834962 -122.72233 -61.353855 -54.316082 -61.568443 -53.695301 -0.26455367 -123.83659
381150000 -0.28694516 -122.74932 -62.094116 -55.122139 -62.242561 -55.537285 -0.2669923 -123.9028
381212500 -0.28548691 -122.80199 -62.305031 -52.006443 -62.284237 -53.911098 -0.27060372 -123.96104
381275000 -0.28261006 -122.86991 -62.584274 -50.133533 -62.364468 -50.184551 -0.27027062 -124.02527
381337500 -0.28714535 -122.92681 -62.41634 -50.008465 -62.053173 -50.412941 -0.27316946 -124.08855
381400000 -0.28919441 -122.98954 -61.985561 -51.692493 -61.969166 -52.350086 -0.2784428 -124.15121
381462500 -0.29493776 -123.04904 -62.566574 -57.486847 -62.660549 -55.802826 -0.28449187 -124.15681
381525000 -0.29860196 -123.06952 -63.071198 -52.958542 -63.07843 -52.680588 -0.27746466 -124.18919
381587500 -0.30212256 -123.10176 -63.056644 -56.804516 -63.001907 -57.090492 -0.27698174 -124.28471
381650000 -0.30160534 -123.13306 -64.214966 -53.039951 -64.300072 -51.400642 -0.2848919 -124.33575
381712500 -0.30224776 -123.1627 -63.927956 -47.81205 -63.737793 -47.740456 -0.28704059 -124.35665
381775000 -0.2995722 -123.21338 -64.057861 -47.485397 -64.194016 -47.477547 -0.28769162 -124.39724
381837500 -0.30029061 -123.24928 -64.429558 -43.803234 -64.18354 -44.039341 -0.28343305 -124.44343
381900000 -0.29968986 -123.29946 -64.238045 -39.730633 -64.086212 -39.464146 -0.28654474 -124.54357
381962500 -0.29770023 -123.34307 -63.547081 -35.954964 -63.550873 -37.253891 -0.29079917 -124.57961
382025000 -0.29797077 -123.40208 -62.84473 -38.101856 -63.000336 -40.068054 -0.30061984 -124.59366
382087500 -0.29835302 -123.46844 -62.991909 -40.22525 -62.881207 -38.501194 -0.29666865 -124.60728
382150000 -0.30065626 -123.52988 -62.816982 -38.812634 -62.80917 -39.250809 -0.29712397 -124.64031
382212500 -0.30344382 -123.57514 -62.358959 -38.698322 -62.442955 -39.40374 -0.29834652 -124.66412
382275000 -0.30245987 -123.61813 -62.701172 -42.860657 -62.449463 -42.15369 -0.29158336 -124.68714
382337500 -0.30264091 -123.66135 -62.720158 -41.076382 -62.741379 -42.481503 -0.28551099 -124.74737
382400000 -0.30137625 -123.70806 -62.28233 -44.54557 -62.278728 -44.189724 -0.28192887 -124.8295
382462500 -0.29901096 -123.75368 -63.128422 -45.245251 -62.972775 -45.747379 -0.28320828 -124.92375
382525000 -0.29977944 -123.80685 -62.913345 -40.84922 -62.890789 -40.531311 -0.28419882 -124.98617
382587500 -0.29720786 -123.87103 -62.374432 -42.145714 -62.549271 -42.854446 -0.28732228 -125.03542
382650000 -0.29694259 -123.91833 -62.572895 -43.846569 -62.757004 -42.921555 -0.28722164 -125.06169
382712500 -0.29379991 -123.98877 -62.772076 -44.442451 -63.056511 -44.081818 -0.2849493 -125.12199
382775000 -0.29198003 -124.04662 -62.979336 -38.256676 -63.082066 -39.43853 -0.28383359 -125.18789
382837500 -0.29031807 -124.13177 -62.158173 -40.590183 -62.256733 -41.663403 -0.28337345 -125.25295
382900000 -0.2891176 -124.20452 -61.93948 -43.196461 -61.96806 -42.869896 -0.2836802 -125.3184
382962500 -0.28757998 -124.27852 -62.472946 -44.299698 -62.346672 -45.831745 -0.28399748 -125.41456
383025000 -0.28742671 -124.3697 -61.991936 -44.922771 -62.187038 -45.477936 -0.28776795 -125.46559
383087500 -0.28937364 -124.45557 -62.166046 -47.768265 -62.090691 -48.089848 -0.28676754 -125.51702
383150000 -0.2920489 -124.5447 -62.405659 -50.972656 -62.575451 -50.288731 -0.28655627 -125.57814
383212500 -0.29596514 -124.62455 -63.036762 -51.13401 -62.93095 -51.139992 -0.2871719 -125.64258
383275000 -0.29953295 -124.68431 -63.350391 -48.073158 -63.415497 -48.426258 -0.28979501 -125.73255
383337500 -0.30152369 -124.76149 -63.436481 -46.144394 -63.444336 -46.964794 -0.2930482 -125.79201
383400000 -0.30676246 -124.82421 -63.167061 -43.744072 -63.360409 -43.11438 -0.2939119 -125.85851
383462500 -0.30858481 -124.90668 -62.485909 -43.975475 -62.548374 -43.936066 -0.2967926 -125.91942
383525000 -0.31306288 -124.96333 -62.719048 -49.033974 -62.599174 -47.291664 -0.29968366 -126.00986
383587500 -0.31562516 -125.01859 -62.83791 -47.950447 -63.171314 -47.585869 -0.30730915 -126.10467
383650000 -0.31602877 -125.0825 -63.327351 -48.423656 -63.001091 -46.516132 -0.31631663 -126.12838
383712500 -0.31515491 -125.17149 -62.30938 -46.423019 -62.392761 -46.837318 -0.31652105 -126.15168
383775000 -0.31926942 -125.28252 -62.989979 -52.014465 -62.602085 -51.651478 -0.31718615 -126.21363
383837500 -0.32638592 -125.379 -63.007286 -54.554085 -62.938046 -53.246853 -0.32029468 -126.2841
383900000 -0.33697811 -125.4629 -63.346306 -54.562557 -63.152626 -53.329788 -0.32543567 -126.33601
383962500 -0.34742653 -125.51462 -64.780479 -60.657612 -64.853279 -58.603535 -0.33002049 -126.39003
384025000 -0.35468239 -125.55302 -64.96994 -43.982082 -65.024513 -45.096436 -0.33385733 -126.44787
384087500 -0.35927403 -125.59399 -64.369652 -41.275776 -64.260147 -41.27887 -0.33722943 -126.46864
384150000 -0.36265042 -125.64125 -63.169724 -43.994122 -63.082359 -43.238026 -0.33392262 -126.50657
384212500 -0.36751407 -125.71236 -62.555653 -51.096447 -62.604805 -49.405693 -0.33307201 -126.59794
384275000 -0.37594751 -125.75964 -63.615906 -55.38253 -63.705647 -54.998871 -0.34095532 -126.7113
384337500 -0.38398966 -125.81766 -64.625229 -55.680828 -64.575867 -53.72868 -0.35097116 -126.74724
384400000 -0.38944659 -125.87361 -64.356598 -52.70047 -64.179474 -53.637554 -0.35692194 -126.78177
384462500 -0.39878955 -125.8987 -65.114624 -51.691689 -65.175209 -50.930359 -0.35959274 -126.82395
384525000 -0.40409312 -125.94444 -64.230087 -51.135208 -64.146034 -51.122257 -0.3611578 -126.86955
384587500 -0.4114019 -126.00486 -65.514404 -60.544579 -65.761566 -61.065697 -0.36284429 -126.94825
384650000 -0.42544988 -126.06923 -67.593346 -53.146145 -67.538399 -53.467976 -0.36808193 -127.05657
384712500 -0.44351122 -126.05637 -67.042717 -42.698647 -66.974632 -43.110321 -0.39024013 -127.20099
384775000 -0.45505592 -125.95548 -67.621773 -35.867023 -67.781075 -33.376774 -0.42963791 -127.04843
384837500 -0.45273256 -125.8531 -65.510841 -37.854561 -65.619263 -37.963249 -0.40427962 -126.89691
384900000 -0.43836743 -125.82384 -67.502541 -41.170277 -67.51387 -41.098614 -0.40277883 -127.00117
384962500 -0.4294039 -125.85716 -67.65815 -14.010488 -67.573662 -14.693776 -0.4083468 -126.96795
385025000 -0.4251748 -125.89898 -64.246193 -21.466791 -64.050819 -21.48278 -0.39988211 -126.91837
385087500 -0.42263365 -125.92944 -64.93502 -28.923693 -65.204132 -29.29459 -0.38302737 -126.95535
385150000 -0.41497371 -125.97234 -64.811371 -22.340479 -64.75293 -23.93759 -0.37247893 -127.07195
385212500 -0.41111103 -126.02746 -63.837193 -25.116528 -63.801109 -26.325623 -0.37525681 -127.22514
385275000 -0.41038796 -126.09769 -64.272865 -29.378092 -64.512009 -29.25691 -0.38661861 -127.35368
385337500 -0.41065916 -126.14107 -64.09201 -25.254433 -63.920967 -26.474485 -0.40505549 -127.35426
385400000 -0.40761408 -126.16969 -64.718712 -23.603823 -64.89019 -24.024794 -0.41094992 -127.29798
385462500 -0.40609652 -126.21921 -64.162201 -11.550324 -64.153122 -12.939783 -0.40849614 -127.25121
385525000 -0.40034354 -126.27755 -61.925179 -15.37155 -62.008942 -16.331421 -0.40252882 -127.24215
385587500 -0.39883649 -126.3334 -61.392967 -24.232363 -61.26363 -25.177631 -0.38453031 -127.22031
385650000 -0.39780027 -126.3517 -62.076576 -37.123814 -62.13525 -37.313126 -0.36149436 -127.36275
385712500 -0.38907644 -126.41111 -63.905651 -32.701302 -63.737118 -32.348221 -0.36256701 -127.5594
385775000 -0.38215387 -126.46317 -64.22551 -28.329966 -64.263626 -27.863039 -0.37561184 -127.69254
385837500 -0.37580383 -126.54715 -63.589828 -17.326023 -63.31406 -17.458391 -0.39096615 -127.73199
385900000 -0.36778408 -126.63831 -62.449642 -16.412041 -62.126461 -16.041449 -0.3986761 -127.66315
385962500 -0.36233172 -126.74241 -61.970245 -21.25625 -62.047741 -21.581219 -0.38761696 -127.6358
386025000 -0.36069071 -126.85305 -62.423573 -19.885956 -62.369957 -20.257679 -0.37568176 -127.70484
386087500 -0.36096898 -126.98399 -62.14101 -13.876426 -62.199791 -14.675114 -0.36776245 -127.78146
386150000 -0.35994774 -127.09972 -60.073742 -13.095166 -60.012238 -13.577511 -0.36203855 -127.88641
386212500 -0.36635172 -127.22791 -59.493004 -21.563387 -59.395496 -21.73687 -0.35757095 -127.99744
386275000 -0.37288499 -127.29007 -59.497307 -27.385359 -59.522148 -27.437916 -0.35977578 -128.12914
386337500 -0.37079957 -127.35452 -59.910233 -27.983776 -59.849861 -28.604595 -0.36340964 -128.23624
386400000 -0.37113601 -127.47685 -59.426273 -25.813789 -59.581799 -25.577511 -0.36513177 -128.35426
386462500 -0.37323183 -127.59235 -59.386765 -31.979195 -59.332615 -31.294722 -0.37998977 -128.491
386525000 -0.38125244 -127.7123 -59.189583 -26.847746 -59.212498 -26.417767 -0.39146414 -128.49364
386587500 -0.38710931 -127.78598 -57.897575 -31.276762 -57.914063 -30.647257 -0.39252108 -128.54021
386650000 -0.39099613 -127.86941 -57.579823 -39.830544 -57.65572 -39.069038 -0.39871034 -128.61479
386712500 -0.39452615 -127.98077 -58.198009 -43.111156 -58.39109 -43.57254 -0.40424871 -128.63768
386775000 -0.40161988 -128.06772 -58.601585 -46.264469 -58.603367 -45.45166 -0.40281615 -128.67087
386837500 -0.40734851 -128.14087 -58.629131 -45.6348 -58.707859 -45.056107 -0.39617956 -128.71057
386900000 -0.40922734 -128.25592 -58.774258 -48.365185 -58.702927 -47.648491 -0.39202282 -128.82256
386962500 -0.41309172 -128.35883 -59.044067 -45.659622 -59.05444 -45.585701 -0.3979027 -128.9418
387025000 -0.42310867 -128.48534 -58.280476 -46.862522 -58.337944 -46.541943 -0.40192884 -128.993
387087500 -0.43545154 -128.58905 -58.280251 -51.910812 -58.318451 -52.360695 -0.40178823 -129.10577
387150000 -0.44524068 -128.67198 -58.456833 -52.691895 -58.419353 -52.920044 -0.41106462 -129.19115
387212500 -0.46280283 -128.76216 -58.24567 -56.733162 -58.423923 -56.655151 -0.41407427 -129.23064
387275000 -0.47194704 -128.80595 -59.024342 -59.475109 -59.048531 -59.740974 -0.40330589 -129.31932
387337500 -0.4776004 -128.86795 -59.072277 -53.138657 -58.990715 -51.948284 -0.40081277 -129.53575
387400000 -0.48360679 -128.98476 -57.977951 -59.123436 -57.873379 -59.037453 -0.42367747 -129.76093
387462500 -0.4964495 -129.14012 -58.813496 -61.213112 -58.784771 -61.267746 -0.45743567 -129.78456
387525000 -0.52238184 -129.2442 -57.744106 -63.32011 -57.837105 -63.339664 -0.4594276 -129.72787
387587500 -0.54927397 -129.27374 -58.37159 -72.310799 -58.519291 -72.514931 -0.45955035 -129.85625
387650000 -0.56654418 -129.27939 -59.298424 -70.762505 -59.100967 -70.077896 -0.47365978 -129.97415
387712500 -0.5900858 -129.28883 -58.918629 -75.315659 -58.867805 -75.36335 -0.48918146 -130.04153
387775000 -0.60254318 -129.26517 -59.906433 -75.430656 -59.857346 -75.656143 -0.50142765 -130.10742
387837500 -0.61413801 -129.26878 -59.966591 -73.788895 -59.838257 -73.607025 -0.51554215 -130.19592
387900000 -0.63183463 -129.35156 -59.301537 -73.283409 -59.245148 -73.941895 -0.53276831 -130.2787
387962500 -0.67112434 -129.32823 -59.843479 -84.614182 -59.736828 -84.334465 -0.55862343 -130.38499
388025000 -0.70447022 -129.10724 -60.028912 -83.21328 -60.039448 -82.363152 -0.60388213 -130.46327
388087500 -0.70358396 -128.81425 -62.077801 -77.050453 -61.969791 -79.332535 -0.65918672 -130.19836
388150000 -0.68243212 -128.69365 -58.47501 -82.206596 -58.705643 -82.276474 -0.63555986 -129.84465
388212500 -0.66791779 -128.66774 -60.709042 -112.0024 -60.926514 -112.17059 -0.63023937 -129.8983
388275000 -0.66402668 -128.64987 -66.05793 -71.611923 -65.974426 -73.053711 -0.62640327 -129.77393
388337500 -0.65604573 -128.62068 -61.035851 -77.553787 -60.984951 -76.369164 -0.61607343 -129.74489
388400000 -0.6442951 -128.64182 -61.565842 -92.812683 -61.475525 -94.428589 -0.60686338 -129.7787
388462500 -0.6429978 -128.60309 -64.43811 -111.71008 -64.381584 -109.70958 -0.60078639 -129.88142
388525000 -0.63669133 -128.62021 -66.233009 -71.274918 -65.843201 -72.176414 -0.60505259 -129.91376
388587500 -0.63847697 -128.62321 -63.441116 -82.869034 -63.484749 -82.65406 -0.6160059 -130.01334
388650000 -0.63507891 -128.5354 -65.831085 -87.461517 -65.985207 -86.129791 -0.64347637 -129.96889
388712500 -0.6180408 -128.47397 -66.924561 -85.987328 -66.740654 -86.377678 -0.65642703 -129.79732
388775000 -0.59353393 -128.45969 -67.316795 -53.945637 -67.29155 -53.315247 -0.64255148 -129.70087
