!Keysight Technologies,E5080A,MY55200989,A.11.70.00
!Date: Wednesday, May 15, 2019 11:39:58
!Correction: S11(Full 2 Port(1,2)) 
!S21(Full 2 Port(1,2)) 
!S12(Full 2 Port(1,2)) 
!S22(Full 2 Port(1,2)) 
!S2P File: Measurements: S11, S21, S12, S22:
# Hz S  dB   R 50
384420000 -0.22226602 -166.70932 -74.380318 28.174892 -74.390671 8.4695511 -0.15549326 -164.54826
384482500 -0.22022337 -166.73715 -74.198425 29.21661 -72.059616 -1.0001049 -0.15066886 -164.58136
384545000 -0.23144865 -166.84073 -75.920982 31.683765 -73.463776 13.335442 -0.15353785 -164.619
384607500 -0.23091553 -166.82375 -72.693268 20.836863 -79.104988 40.858849 -0.1519943 -164.61525
384670000 -0.22718064 -166.89752 -76.294899 -2.4231925 -73.481163 38.629028 -0.15345444 -164.66017
384732500 -0.23760448 -166.96623 -74.609306 14.813656 -75.29071 29.557863 -0.15247534 -164.66859
384795000 -0.22286703 -166.98965 -75.937729 13.430226 -84.086967 61.048141 -0.15319628 -164.71104
384857500 -0.22825828 -167.02136 -75.971649 -5.6882186 -75.406944 31.830297 -0.15180777 -164.71536
384920000 -0.22877865 -167.09496 -74.014465 26.473354 -78.076797 20.11821 -0.15749054 -164.75533
384982500 -0.22435389 -167.07817 -75.059517 34.783447 -77.187431 16.514116 -0.15822363 -164.77435
385045000 -0.23079364 -167.08548 -76.502968 34.824249 -76.186623 25.626886 -0.15169583 -164.82707
385107500 -0.22266223 -167.11627 -77.44194 26.924036 -81.062065 36.358116 -0.15630555 -164.8564
385170000 -0.2292753 -167.25012 -74.856186 52.203709 -71.100517 3.4384661 -0.15435939 -164.85493
385232500 -0.22943558 -167.27861 -75.580116 16.518442 -76.536392 22.878878 -0.1553476 -164.90338
385295000 -0.23163055 -167.37346 -73.346329 37.090469 -73.387817 27.872007 -0.15849826 -164.92445
385357500 -0.23029312 -167.41498 -74.477531 40.320602 -76.833374 8.1076508 -0.15436935 -164.95303
385420000 -0.23790905 -167.41891 -72.250679 37.819168 -77.69413 23.377733 -0.15323588 -165.00684
385482500 -0.24241212 -167.51674 -73.895103 15.898587 -74.07666 24.950216 -0.16202569 -164.98999
385545000 -0.22608539 -167.51395 -75.385178 8.1452188 -76.494469 26.347282 -0.16318145 -165.07832
385607500 -0.23712514 -167.58958 -74.469704 30.294376 -74.472672 24.610258 -0.16369945 -165.0838
385670000 -0.23249334 -167.66225 -72.825882 4.6486573 -74.423523 21.823389 -0.15662305 -165.14212
385732500 -0.23422341 -167.68716 -74.456604 16.090788 -76.189743 19.255291 -0.15961619 -165.14699
385795000 -0.24179161 -167.73137 -76.560356 18.955885 -75.611046 11.813107 -0.16202787 -165.16261
385857500 -0.2441255 -167.90636 -74.603088 37.923206 -74.442673 9.2947769 -0.16235204 -165.17674
385920000 -0.23170975 -167.86108 -74.935066 32.341244 -74.838982 24.104605 -0.1578192 -165.19666
385982500 -0.2458545 -167.81097 -74.251564 46.911961 -75.286934 32.637886 -0.16574712 -165.25745
386045000 -0.24035248 -167.85541 -73.052795 18.049267 -74.487907 2.7826891 -0.15846717 -165.28201
386107500 -0.22919643 -168.03404 -77.098389 27.814526 -78.50386 32.620586 -0.15718584 -165.29535
386170000 -0.24070168 -167.98337 -74.077721 35.510452 -76.316414 32.734245 -0.16798265 -165.35069
386232500 -0.24307521 -168.00266 -72.636856 27.860979 -73.094292 3.9992282 -0.16551536 -165.40358
386295000 -0.24261849 -168.19102 -74.639084 -2.363502 -75.706909 3.7074583 -0.16766274 -165.4281
386357500 -0.24624319 -168.17122 -73.23703 24.793695 -72.727295 33.067135 -0.16599125 -165.4503
386420000 -0.2398643 -168.25859 -76.798676 15.061985 -73.596725 43.006248 -0.16330799 -165.46565
386482500 -0.23898458 -168.25702 -71.876312 21.149542 -74.099442 16.03661 -0.1683232 -165.48837
386545000 -0.24949034 -168.29492 -74.338905 20.311859 -81.309097 9.8357 -0.16585058 -165.5103
386607500 -0.24650462 -168.32841 -78.056213 22.466553 -77.633163 -8.8478155 -0.16837174 -165.56097
386670000 -0.23008183 -168.4294 -77.657959 -10.726876 -76.919212 39.816704 -0.17126583 -165.59807
386732500 -0.24538688 -168.44286 -73.872589 34.600838 -77.473595 50.110184 -0.17102851 -165.64642
386795000 -0.24232338 -168.55243 -81.978615 84.690117 -76.943893 53.098602 -0.16635221 -165.64748
386857500 -0.23640426 -168.5538 -75.721306 47.291836 -76.10067 31.606544 -0.1727913 -165.67957
386920000 -0.24734099 -168.57886 -72.931778 69.349312 -74.895332 34.641174 -0.16571379 -165.70895
386982500 -0.25375363 -168.69077 -74.360252 12.010986 -76.917206 48.57542 -0.16887161 -165.71729
387045000 -0.24755955 -168.6489 -75.513847 37.138645 -76.997574 68.653816 -0.16416225 -165.75459
387107500 -0.24051847 -168.71733 -74.80941 27.941771 -74.649414 35.351898 -0.17144634 -165.80771
387170000 -0.25088161 -168.75311 -76.851929 25.358425 -76.115379 36.467342 -0.16619475 -165.81419
387232500 -0.25539228 -168.79605 -75.273537 39.004925 -71.728844 15.22217 -0.16841643 -165.84526
387295000 -0.24980588 -168.87685 -71.398994 31.586725 -74.920059 38.660725 -0.16914672 -165.88704
387357500 -0.24350314 -168.86775 -70.735817 15.1767 -73.83374 52.227623 -0.17448406 -165.87204
387420000 -0.2431525 -168.96169 -75.303139 13.369409 -74.584694 18.07416 -0.16931054 -165.97932
387482500 -0.25133872 -168.9341 -77.934692 -1.9357609 -77.776909 25.474817 -0.17296259 -165.98906
387545000 -0.25796592 -169.0233 -72.22036 30.20904 -74.151566 28.035473 -0.17082737 -166.00337
387607500 -0.24810007 -169.01274 -75.1343 30.614746 -72.439445 40.44817 -0.17389366 -166.03635
387670000 -0.24651136 -169.1869 -76.02906 50.602909 -77.685471 30.843588 -0.16691044 -166.06003
387732500 -0.26651797 -169.15698 -76.548378 23.582439 -70.47821 34.079056 -0.17675094 -166.11688
387795000 -0.24663548 -169.31148 -72.669945 25.119446 -73.510384 49.996216 -0.17757253 -166.12817
387857500 -0.24201821 -169.32262 -72.788025 4.1891775 -74.946503 22.168159 -0.17443067 -166.15784
387920000 -0.25684714 -169.29486 -74.862312 26.463154 -77.417297 33.903572 -0.17130013 -166.18994
387982500 -0.25741196 -169.38197 -75.471886 11.212352 -73.247459 32.894318 -0.17096382 -166.25479
388045000 -0.25751945 -169.45233 -77.058998 43.209759 -75.870758 20.463255 -0.17669807 -166.2747
388107500 -0.26510477 -169.45937 -75.372772 33.2836 -79.261955 13.594081 -0.17515208 -166.26625
388170000 -0.26095203 -169.6066 -79.335922 36.004757 -75.655144 14.868441 -0.17476484 -166.35023
388232500 -0.25868955 -169.62437 -73.812485 -5.7221847 -72.709053 59.61702 -0.17321643 -166.39117
388295000 -0.26162633 -169.63335 -82.956749 13.985293 -75.379036 28.155745 -0.17532356 -166.39735
388357500 -0.26671138 -169.69684 -78.283592 21.336706 -75.38015 7.6488376 -0.17304146 -166.37408
388420000 -0.25376949 -169.69583 -76.620178 16.00816 -74.011864 33.992294 -0.17642181 -166.45547
388482500 -0.25763443 -169.77299 -72.690125 23.618217 -78.215683 42.169601 -0.17877591 -166.46916
388545000 -0.26302975 -169.86449 -78.660667 31.796238 -76.681328 35.213562 -0.17509086 -166.50214
388607500 -0.26402321 -169.92613 -73.43074 18.135033 -78.725388 15.499372 -0.18349452 -166.54755
388670000 -0.26581788 -169.95415 -73.7659 17.998549 -73.422699 34.170837 -0.18135081 -166.53473
388732500 -0.26094314 -170.02373 -75.97258 22.824167 -74.32338 21.025185 -0.17860694 -166.61719
388795000 -0.26743746 -170.02818 -73.735321 27.941074 -73.834717 32.601189 -0.18548095 -166.63107
388857500 -0.26470163 -170.10742 -74.9422 15.982289 -73.711082 48.641754 -0.18659779 -166.68863
388920000 -0.26721612 -170.23167 -71.463676 43.262241 -72.771484 15.324622 -0.18705536 -166.75076
388982500 -0.26161674 -170.16006 -73.042152 23.783182 -71.413422 11.219082 -0.17474678 -166.7496
389045000 -0.27539906 -170.22371 -70.830421 31.28907 -75.386345 34.197105 -0.18586531 -166.81693
389107500 -0.27092913 -170.30032 -73.224403 20.982944 -72.910095 27.513811 -0.18644767 -166.76041
389170000 -0.2654703 -170.41599 -75.014809 31.738173 -71.072571 25.255444 -0.1765638 -166.84108
389232500 -0.26314244 -170.42664 -72.940666 25.413229 -73.362801 29.676929 -0.18171425 -166.86659
389295000 -0.27935097 -170.45827 -72.136322 31.884256 -72.78376 25.263256 -0.18446742 -166.86067
389357500 -0.27571827 -170.49765 -74.529007 46.378696 -72.751213 66.26889 -0.18392122 -166.9762
389420000 -0.26669228 -170.55539 -74.05191 42.068325 -68.967857 24.967411 -0.18322313 -166.98688
389482500 -0.26828817 -170.61856 -72.076256 35.740807 -75.991531 41.389477 -0.1856619 -166.99841
389545000 -0.27053833 -170.70621 -70.066597 51.993393 -75.410973 31.965628 -0.18899681 -167.05286
389607500 -0.264083 -170.75772 -71.095276 29.066401 -71.380692 20.720585 -0.18941152 -167.07954
389670000 -0.266523 -170.73332 -74.762802 32.858952 -75.440689 21.016003 -0.18620646 -167.12067
389732500 -0.2778402 -170.90587 -71.836548 22.60121 -72.030754 27.174524 -0.18589143 -167.14673
389795000 -0.26735425 -170.90865 -73.534126 44.221668 -73.938927 40.862411 -0.1839096 -167.15802
389857500 -0.27325872 -170.85858 -72.598686 37.447884 -74.635292 25.889278 -0.18902628 -167.22583
389920000 -0.27007362 -170.97565 -72.284256 41.658718 -72.365273 22.72756 -0.18628544 -167.24022
389982500 -0.25829208 -171.0181 -72.272079 35.305752 -74.011833 42.122383 -0.19161072 -167.2872
390045000 -0.27447417 -171.11595 -74.698936 52.814686 -73.057205 22.814245 -0.19137609 -167.28461
390107500 -0.27515945 -171.14757 -75.685577 38.159458 -70.99987 16.453028 -0.19016203 -167.34235
390170000 -0.27072629 -171.15935 -72.21048 42.978939 -71.405792 40.129189 -0.18600088 -167.35854
390232500 -0.27205005 -171.19023 -74.177689 28.355627 -74.192444 28.231972 -0.19566272 -167.46608
390295000 -0.29054561 -171.37895 -78.046677 34.14283 -72.412277 36.881035 -0.19157112 -167.42233
390357500 -0.27701905 -171.3896 -74.588348 34.991985 -73.60096 27.732683 -0.19288422 -167.47926
390420000 -0.28636914 -171.37772 -78.462936 35.825775 -70.861099 44.753319 -0.19537146 -167.52565
390482500 -0.27729049 -171.60033 -76.317795 60.321327 -76.702919 48.154266 -0.18884893 -167.54877
390545000 -0.2752552 -171.603 -74.883087 26.498474 -75.407578 49.179527 -0.19798167 -167.56575
390607500 -0.28284165 -171.66125 -74.304008 52.859249 -80.610939 50.383461 -0.19840555 -167.62733
390670000 -0.27556705 -171.64233 -74.673119 26.589624 -75.330574 19.267605 -0.19210289 -167.62343
390732500 -0.28783399 -171.76103 -75.181473 18.014894 -75.457016 25.094885 -0.19680829 -167.66107
390795000 -0.27757365 -171.76834 -72.155632 24.189598 -73.219765 46.794231 -0.20086046 -167.75381
390857500 -0.29023561 -171.78809 -70.280685 25.64957 -73.691132 52.343983 -0.20190151 -167.7298
390920000 -0.28606355 -171.84854 -75.000191 34.184402 -71.727875 30.364681 -0.1998657 -167.80669
390982500 -0.2938017 -171.88268 -71.976593 36.234634 -74.953377 47.063084 -0.19969749 -167.8261
391045000 -0.2980772 -171.93561 -74.152382 34.573421 -72.258644 57.343433 -0.20378308 -167.88423
391107500 -0.29241276 -172.06212 -73.898643 40.427845 -75.379402 28.880394 -0.19609149 -167.91275
391170000 -0.29637003 -172.14738 -72.20163 52.373489 -71.838684 25.777298 -0.1991926 -167.84996
391232500 -0.29351276 -172.09087 -69.411079 41.634064 -70.663559 43.479435 -0.19482093 -167.9753
391295000 -0.29858065 -172.21059 -70.955887 29.373049 -71.723259 42.547859 -0.20414492 -168.00937
391357500 -0.28965303 -172.16982 -73.168465 10.985171 -71.683075 25.54874 -0.20767997 -168.04291
391420000 -0.30600354 -172.31877 -73.662247 8.1075306 -70.62117 26.836487 -0.20467889 -168.09993
391482500 -0.28740308 -172.25909 -76.074257 30.439531 -73.558899 39.145504 -0.20653915 -168.14989
391545000 -0.29530156 -172.43211 -72.816055 35.874287 -73.733963 36.523083 -0.20268601 -168.12874
391607500 -0.29969126 -172.46092 -73.204773 31.324467 -73.623291 46.383053 -0.20662221 -168.1328
391670000 -0.29095569 -172.55959 -78.664444 3.3427961 -76.457664 35.77129 -0.20030034 -168.20552
391732500 -0.29996938 -172.58896 -73.271683 14.099265 -74.449997 39.522114 -0.20751794 -168.28423
391795000 -0.28933552 -172.57848 -71.09697 27.14526 -68.939522 30.738314 -0.21187259 -168.33488
391857500 -0.29156947 -172.6812 -75.258301 37.601437 -69.060356 34.898781 -0.19680725 -168.36343
391920000 -0.30167869 -172.7653 -71.615494 40.219513 -73.051735 52.580097 -0.21785289 -168.39278
391982500 -0.29262254 -172.79768 -72.534149 50.016258 -74.482697 13.055913 -0.20745377 -168.38324
392045000 -0.304001 -172.85638 -71.871002 18.35957 -72.641212 44.486187 -0.20749913 -168.42307
392107500 -0.29428256 -172.98434 -78.691666 56.866825 -71.241203 39.537918 -0.21311919 -168.4567
392170000 -0.282161 -172.94125 -72.443848 22.399879 -73.249443 34.657837 -0.20107064 -168.45026
392232500 -0.31633827 -172.97287 -75.145348 37.381283 -73.616264 37.034355 -0.21633326 -168.56313
392295000 -0.29537982 -173.07716 -72.037148 37.452808 -73.279831 36.462467 -0.21202666 -168.5531
392357500 -0.29267702 -173.05989 -74.685936 56.135323 -76.568382 56.943314 -0.21560623 -168.63252
392420000 -0.3084766 -173.127 -77.745483 13.601459 -72.403778 32.803272 -0.20316003 -168.63393
392482500 -0.30946347 -173.23297 -72.093536 34.002563 -70.628395 29.422115 -0.20939787 -168.6588
392545000 -0.29156819 -173.3551 -72.357056 24.676649 -71.568787 46.7603 -0.21169102 -168.79459
392607500 -0.29603606 -173.34335 -74.972321 56.661934 -70.425232 22.008259 -0.21270023 -168.71748
392670000 -0.29777935 -173.50995 -72.083061 34.357384 -69.502411 39.642582 -0.21369475 -168.78993
392732500 -0.30807173 -173.54625 -71.871254 52.090405 -69.641479 37.930435 -0.20919394 -168.89209
392795000 -0.31147751 -173.54553 -73.042587 32.290916 -77.150673 44.494968 -0.20770866 -168.85971
392857500 -0.29994252 -173.67598 -71.995178 25.308867 -73.59758 28.812511 -0.2058223 -168.91307
392920000 -0.306629 -173.72736 -72.959709 55.81691 -71.701706 43.17363 -0.21368358 -168.93997
392982500 -0.30152172 -173.82976 -73.032455 28.134356 -73.358398 48.928455 -0.22381394 -168.99254
393045000 -0.30792797 -173.73363 -73.356812 31.307005 -72.618729 24.738514 -0.21758379 -169.00282
393107500 -0.31714609 -173.83804 -71.057419 37.304203 -73.462349 43.403561 -0.21491486 -169.06972
393170000 -0.30744022 -173.8651 -73.174591 38.64378 -71.695618 35.112492 -0.2213995 -169.07948
393232500 -0.31202197 -173.91309 -70.127434 45.803001 -72.808327 37.108189 -0.22023888 -169.1664
393295000 -0.31877679 -173.99731 -73.433891 26.598154 -75.262634 43.190315 -0.21606205 -169.14706
393357500 -0.31874621 -174.08763 -75.436737 14.758793 -73.68074 19.130083 -0.21512191 -169.18399
393420000 -0.31506136 -174.192 -74.800209 3.0388663 -72.179474 36.265461 -0.2102343 -169.23389
393482500 -0.3188273 -174.31314 -71.604225 28.120094 -70.859276 42.272701 -0.21747723 -169.28282
393545000 -0.30996093 -174.33165 -74.91877 31.713535 -73.086617 33.301212 -0.22062373 -169.29988
393607500 -0.31803629 -174.38953 -76.345215 36.895012 -72.818932 30.428066 -0.21367446 -169.3456
393670000 -0.31494609 -174.39592 -69.977196 45.391949 -73.724541 38.136074 -0.22238852 -169.42693
393732500 -0.33086956 -174.42192 -78.022903 49.907131 -72.670006 15.787885 -0.21852075 -169.46152
393795000 -0.32723638 -174.55659 -74.808243 82.922745 -72.153259 37.535683 -0.21838538 -169.54121
393857500 -0.32123545 -174.63043 -75.654701 27.960712 -70.830421 41.036644 -0.21425332 -169.48466
393920000 -0.31941968 -174.66592 -74.379623 47.708637 -73.610329 31.772247 -0.21902065 -169.56337
393982500 -0.32937768 -174.62506 -73.519089 43.036362 -71.320007 45.503437 -0.22905043 -169.60461
394045000 -0.34170088 -174.65666 -72.179565 47.33609 -72.293671 48.04472 -0.22689535 -169.64453
394107500 -0.32847553 -174.7639 -70.711014 34.090069 -69.648849 28.083033 -0.230405 -169.67409
394170000 -0.32776305 -174.85921 -69.610016 48.805332 -77.931198 71.970001 -0.22280575 -169.74597
394232500 -0.32018164 -174.92824 -70.280884 33.960754 -72.004852 36.709229 -0.22226445 -169.78326
394295000 -0.33758673 -174.96545 -70.068321 17.540691 -70.384544 60.110188 -0.22922455 -169.77538
394357500 -0.323284 -175.16057 -73.4888 32.851376 -70.075928 33.926514 -0.23721002 -169.83571
394420000 -0.32573307 -175.20535 -72.874756 40.809273 -71.465324 28.010012 -0.22766007 -169.85034
394482500 -0.32440817 -175.16866 -69.796188 35.487286 -68.618958 66.596268 -0.22707669 -169.9301
394545000 -0.33890492 -175.27357 -69.971077 45.950382 -69.466118 52.507156 -0.23430619 -169.94022
394607500 -0.33368638 -175.34233 -70.189789 48.462357 -72.366394 64.459221 -0.22208759 -170.04544
394670000 -0.33294636 -175.26395 -69.434242 40.854561 -71.68222 42.504845 -0.2225562 -170.00305
394732500 -0.32951197 -175.52998 -76.411964 53.747421 -73.379341 46.250286 -0.24085981 -170.0555
394795000 -0.33572507 -175.46388 -70.249184 40.608074 -69.473808 62.800381 -0.23331922 -170.12833
394857500 -0.32464179 -175.55728 -73.762245 33.884403 -68.571129 34.700916 -0.22702743 -170.16566
394920000 -0.3326793 -175.56496 -70.148338 36.758507 -69.825272 30.686142 -0.23414046 -170.189
394982500 -0.32292056 -175.73915 -71.54409 63.081135 -71.499207 35.786911 -0.23406081 -170.26999
395045000 -0.339977 -175.85907 -76.479279 34.183136 -68.894592 52.128723 -0.23659034 -170.25108
395107500 -0.3529231 -175.87825 -75.325195 44.322407 -70.473534 39.043415 -0.23495872 -170.35684
395170000 -0.34461817 -175.95604 -70.324051 23.845615 -73.831161 46.032143 -0.23397245 -170.3687
395232500 -0.34762859 -175.90868 -68.878441 24.976957 -70.692528 35.686665 -0.22882555 -170.39066
395295000 -0.34883702 -176.0343 -69.38588 67.811508 -71.648064 41.973698 -0.24206579 -170.41862
395357500 -0.335197 -176.01479 -71.528259 39.617306 -69.932426 64.624672 -0.24179482 -170.50659
395420000 -0.33083385 -176.245 -70.974129 40.572365 -69.07489 36.592464 -0.24293338 -170.50911
395482500 -0.33340639 -176.28796 -69.76474 24.437168 -69.677643 35.944923 -0.23582362 -170.63747
395545000 -0.34841394 -176.31947 -69.98893 34.485813 -71.695221 55.0951 -0.24661155 -170.60341
395607500 -0.35352454 -176.45627 -68.79274 60.268791 -68.753014 44.813938 -0.24162753 -170.69405
395670000 -0.3520225 -176.46916 -71.514198 25.496464 -70.827484 37.607613 -0.23714834 -170.64478
395732500 -0.34853682 -176.49864 -75.498421 31.006283 -75.647835 49.590012 -0.245896 -170.65199
395795000 -0.34442535 -176.47189 -70.786888 63.86261 -70.149704 43.320908 -0.23703916 -170.7999
395857500 -0.34003597 -176.57132 -69.224701 46.510853 -69.432465 30.94173 -0.24638847 -170.80688
395920000 -0.34431133 -176.7735 -71.959663 49.887482 -67.495026 49.266041 -0.24649332 -170.8456
395982500 -0.35076618 -176.6962 -69.826653 42.56287 -67.85865 54.78598 -0.2415937 -170.95343
396045000 -0.34612048 -176.75487 -70.080147 44.642399 -69.747643 71.754417 -0.24903655 -170.89893
396107500 -0.34040454 -176.88522 -70.866028 35.874935 -68.113907 53.700138 -0.23845957 -170.90495
396170000 -0.3484534 -177.08092 -72.97509 23.877121 -70.073418 41.477325 -0.24571538 -170.9978
396232500 -0.35574386 -177.13734 -71.607803 30.495821 -71.077232 40.71336 -0.25324446 -171.03983
396295000 -0.36257008 -176.9913 -74.79438 42.363338 -69.811562 42.256092 -0.24110512 -171.09816
396357500 -0.35763431 -177.27379 -69.520851 42.252022 -69.915649 41.431156 -0.23737602 -171.20511
396420000 -0.33573291 -177.15915 -70.512283 43.278492 -69.707901 43.75061 -0.25438395 -171.18396
396482500 -0.35587206 -177.29231 -69.456589 39.130989 -70.913322 62.398716 -0.25386164 -171.25412
396545000 -0.37906626 -177.33133 -69.757111 35.01469 -69.5466 46.188679 -0.24042621 -171.30434
396607500 -0.35555744 -177.43585 -67.193687 45.744301 -68.295731 52.858315 -0.24678832 -171.3295
396670000 -0.3706626 -177.52031 -68.863464 29.184628 -70.453011 35.227165 -0.25564697 -171.40187
396732500 -0.37343374 -177.70352 -67.775757 51.083176 -68.585686 21.329803 -0.25622788 -171.38484
396795000 -0.3743262 -177.70485 -69.408279 17.956783 -69.226669 45.423962 -0.24590676 -171.42191
396857500 -0.37206265 -177.71779 -67.887634 44.080204 -72.30262 50.468849 -0.26305294 -171.49876
396920000 -0.36104468 -177.90263 -68.748726 51.479481 -70.872742 38.396671 -0.25333518 -171.56534
396982500 -0.36392677 -177.95514 -69.745064 44.308395 -69.337334 38.375458 -0.26705867 -171.56529
397045000 -0.36842066 -177.83632 -69.64061 22.564089 -68.665871 38.493279 -0.25472489 -171.5885
