!Keysight Technologies,E5080A,MY55200989,A.11.70.00
!Date: Wednesday, May 15, 2019 11:36:08
!Correction: S11(Full 2 Port(1,2)) 
!S21(Full 2 Port(1,2)) 
!S12(Full 2 Port(1,2)) 
!S22(Full 2 Port(1,2)) 
!S2P File: Measurements: S11, S21, S12, S22:
# Hz S  dB   R 50
431920000 -3.4194684 35.168121 -22.905043 -171.56245 -22.764801 -171.54156 -5.8925447 53.9258
431923125 -3.4352665 36.588905 -23.026785 -171.81123 -22.996965 -171.67484 -6.0494576 52.948467
431926250 -3.3859212 35.929081 -23.092407 -172.43387 -23.142033 -172.47301 -6.1924944 52.246349
431929375 -3.2875261 36.288605 -23.120564 -172.1857 -23.172741 -172.21956 -6.1445336 52.496399
431932500 -3.3663404 34.697456 -23.490562 -173.73781 -23.27898 -173.28406 -6.378921 52.618427
431935625 -3.4630203 35.758278 -23.393353 -173.07451 -23.405458 -172.46092 -6.0709662 52.119637
431938750 -3.3772557 35.896248 -23.506739 -172.88597 -23.612658 -173.31395 -6.2740321 52.825783
431941875 -3.4047289 36.311649 -23.538836 -174.09341 -23.743271 -173.89059 -6.2358832 51.328083
431945000 -3.348398 35.448208 -23.762825 -174.23773 -23.747015 -174.21495 -6.2669835 50.968002
431948125 -3.4555907 35.756596 -23.792784 -174.54999 -23.76034 -174.04716 -6.1564012 50.579559
431951250 -3.353368 34.361523 -23.880838 -175.87502 -23.794064 -175.92438 -6.0747805 49.533398
431954375 -3.4105237 35.951511 -23.954191 -175.21884 -23.960852 -174.18745 -5.8803401 50.250736
431957500 -3.5261831 34.951126 -24.067045 -175.30373 -24.110767 -175.84454 -6.0834088 50.99342
431960625 -3.4697444 34.887169 -24.306728 -176.70819 -24.206089 -176.09862 -6.2877369 49.753586
431963750 -3.193243 34.238331 -24.288843 -176.56279 -24.225512 -175.75037 -6.2378058 49.864349
431966875 -3.3728044 34.430618 -24.360979 -176.85902 -24.408747 -176.51477 -6.1589584 49.590389
431970000 -3.3230271 34.15163 -24.481741 -177.61374 -24.406059 -176.67702 -6.0881357 49.489136
431973125 -3.409615 34.101101 -24.450001 -176.10936 -24.493919 -176.57234 -6.0179067 50.92601
431976250 -3.3777056 32.709106 -24.565926 -176.30516 -24.544886 -176.79726 -6.1182904 52.048492
431979375 -3.4365664 34.389725 -24.644575 -176.61432 -24.663408 -176.74431 -5.8889894 49.994888
431982500 -3.3403218 34.122524 -24.883074 -176.65588 -24.850433 -177.26323 -6.2816143 48.43034
431985625 -3.3501251 34.115791 -24.944221 -177.17998 -24.868204 -178.18909 -6.0477653 49.389923
431988750 -3.2336519 33.906654 -25.052763 -178.23846 -24.961731 -177.38681 -6.037971 48.347649
431991875 -3.3816938 34.78561 -25.0179 -177.08107 -25.107803 -178.10271 -6.046433 48.523132
431995000 -3.3536599 33.12402 -25.160318 -178.89195 -25.105993 -178.42119 -5.8951654 48.606056
431998125 -3.3351774 34.14016 -25.157248 -177.90196 -25.165968 -177.75238 -5.9433379 49.229038
432001250 -3.2737119 34.338505 -25.383902 -177.38826 -25.328804 -178.07898 -6.1818871 49.015739
432004375 -3.1904469 34.010921 -25.246021 -178.09229 -25.390627 -178.99197 -6.1360273 47.192768
432007500 -3.2412338 33.561466 -25.359339 -179.05685 -25.49375 -178.65196 -6.0696678 47.625916
432010625 -3.1829119 32.387829 -25.721811 -179.07002 -25.648973 -178.51425 -6.2016568 47.639397
432013750 -3.2188277 33.579357 -25.603497 -178.2233 -25.508539 -178.4864 -5.9697223 48.341339
432016875 -3.2338634 32.670864 -25.760008 -179.20531 -25.764418 -178.64708 -6.0734568 47.982426
432020000 -3.2647092 32.94508 -25.823425 -178.50887 -25.874369 -179.2838 -6.0598841 46.018909
432023125 -3.2964952 32.960625 -26.111752 -179.69359 -25.950676 -179.64009 -6.1889706 46.026989
432026250 -3.1193862 32.252224 -26.055994 -178.6223 -25.87079 -178.79594 -5.9481378 48.600132
432029375 -3.1323783 32.710369 -26.09409 179.26468 -26.107012 179.99536 -6.2124047 45.853725
432032500 -3.1690469 33.404018 -26.175817 -179.35162 -26.113045 -179.14775 -5.9082537 46.009922
432035625 -3.2319837 32.043434 -26.182827 179.92293 -26.180483 179.85643 -5.9524074 45.508125
432038750 -3.3375666 33.251713 -26.230635 -179.48505 -26.229069 -179.67387 -5.6611128 45.800999
432041875 -3.2385416 32.074978 -26.321959 -179.57527 -26.345613 179.65729 -5.7685456 46.600853
432045000 -3.2607007 32.294373 -26.456688 -179.34221 -26.435095 179.88872 -5.7896476 46.455551
432048125 -3.3219454 32.677803 -26.547056 -179.49338 -26.661304 -178.96072 -5.91011 46.270157
432051250 -3.3491156 32.167507 -26.716619 179.04553 -26.728031 179.08809 -5.8847957 46.307316
432054375 -3.2779112 31.107134 -26.89946 -179.75525 -26.782001 -179.39926 -5.8144236 47.010887
432057500 -3.0378134 31.662025 -26.913332 -179.97939 -26.798126 179.46678 -6.037405 45.339676
432060625 -3.0556839 32.083237 -26.900955 179.5209 -27.015234 179.53386 -5.8679767 44.246208
432063750 -3.2575779 30.298845 -27.008926 178.75314 -26.880886 178.2758 -5.6885509 43.618988
432066875 -3.1294954 30.216099 -26.948662 178.20737 -27.049683 179.66476 -5.5549245 44.313099
432070000 -3.3603642 30.74762 -27.360155 178.75916 -27.31226 179.03304 -5.9881687 44.685299
432073125 -3.3763578 30.621992 -27.498075 178.47755 -27.389582 -179.46118 -5.9556813 44.371212
432076250 -3.3717484 31.423334 -27.329824 -179.61696 -27.315283 179.9679 -5.8767138 46.303444
432079375 -3.3032115 29.393194 -27.51647 178.94843 -27.473505 178.82401 -5.8526325 44.664593
432082500 -3.1488583 29.5874 -27.545349 178.62868 -27.463413 179.56923 -5.5904427 45.19368
432085625 -3.1459017 31.182175 -27.666922 179.22505 -27.543766 -179.88185 -5.8670959 44.305355
432088750 -3.1305292 30.286118 -27.983917 178.64096 -27.718729 178.89299 -6.0114079 45.0229
432091875 -3.1944711 30.140526 -27.834087 179.04817 -27.640955 178.82552 -5.7536349 43.017014
432095000 -3.1766093 31.213247 -27.907227 178.75523 -27.76679 179.38266 -5.6139083 41.489281
432098125 -3.1476505 30.611023 -27.994001 178.63065 -27.76944 179.35349 -5.6585512 42.936756
432101250 -3.0965712 30.422104 -27.941612 179.80077 -27.99168 -179.43716 -5.8083324 44.382393
432104375 -3.0930209 30.333147 -28.293961 179.40474 -28.003351 178.34 -5.8330226 43.590679
432107500 -3.0847058 29.341396 -28.363861 178.55492 -28.269302 179.34628 -6.0033956 42.840794
432110625 -3.1387217 28.809988 -28.441078 179.52548 -28.443537 178.53368 -5.8736982 42.516338
432113750 -3.1026828 29.414835 -28.394373 179.71596 -28.223173 179.19368 -5.8516264 42.831287
432116875 -3.1910262 29.800369 -28.34635 177.67267 -28.459019 177.44226 -5.7207823 40.467869
432120000 -3.2365668 29.565826 -28.504316 179.61009 -28.534645 179.43771 -5.7084665 42.154327
432123125 -3.2781527 30.35594 -28.744137 179.99202 -28.702391 179.77615 -6.0878959 43.057297
432126250 -3.1425254 29.465611 -28.725065 -179.99608 -28.776604 179.28835 -6.1330853 42.72224
432129375 -3.1629634 28.777735 -28.877861 178.82956 -28.771898 178.84224 -5.8128071 42.154766
432132500 -3.2235317 28.441761 -28.813782 177.58386 -28.698483 179.02029 -5.5243101 40.461014
432135625 -3.1702905 27.492393 -28.982943 177.65131 -28.943129 179.05342 -5.7252989 40.32848
432138750 -3.2913742 28.558048 -29.181593 -179.58702 -29.200365 179.85991 -5.7946768 41.173214
432141875 -3.1806991 28.709988 -29.348717 179.81352 -29.216286 179.64793 -5.8396745 41.430653
432145000 -3.2262216 28.730497 -29.228109 -179.49846 -29.256302 178.73825 -5.9064336 42.455959
432148125 -3.151221 27.472845 -29.267593 178.8376 -29.538971 -179.40536 -5.8882766 40.455734
432151250 -3.1400793 26.715656 -29.430822 179.20386 -29.459003 179.20302 -5.8829021 40.326267
432154375 -3.1621456 27.38154 -29.715824 -178.90645 -29.564514 179.9234 -5.9259033 40.763123
432157500 -3.1058092 28.057392 -29.485907 178.22148 -29.532537 -179.01729 -5.8743525 39.542435
432160625 -3.14483 28.68907 -29.739544 -178.27083 -29.67807 178.77525 -6.0962586 38.785042
432163750 -3.1385655 27.806858 -29.834557 -179.79625 -29.448446 -178.845 -5.5856218 40.43552
432166875 -3.0947537 27.671238 -29.785198 -179.89626 -29.803629 -179.47923 -5.6321979 40.012291
432170000 -3.1157424 26.917761 -29.937004 -178.87529 -29.841898 -178.77022 -5.7695107 40.513504
432173125 -2.9099591 26.486959 -29.804058 -179.56271 -29.90041 -179.99756 -5.6110826 39.38792
432176250 -3.0853233 26.142477 -30.252993 -177.19446 -30.174597 -179.8119 -5.8569131 38.117889
432179375 -3.087034 25.179663 -30.294603 179.23746 -30.086773 179.46504 -5.7705369 37.758133
432182500 -3.3848174 26.554522 -30.321661 -178.97212 -30.286663 -178.52472 -5.7511992 38.364338
432185625 -3.1019402 25.95042 -30.158333 -178.651 -30.18252 -178.77458 -5.5157275 37.74548
432188750 -3.1314313 26.515398 -30.715488 -179.20909 -30.666315 -179.24036 -5.9141645 37.874611
432191875 -3.0744722 26.653833 -30.428671 -178.02582 -30.538883 -178.12242 -5.8468375 38.242622
432195000 -3.0461719 26.249004 -30.665354 -177.52995 -30.483206 -177.61905 -6.0450244 36.885349
432198125 -3.0179925 26.660725 -30.788395 -178.20674 -30.731283 -177.72639 -5.8880129 37.835819
432201250 -3.0663657 26.529005 -30.896275 -178.14018 -30.6434 179.85263 -5.8148761 34.763687
432204375 -3.0154757 26.257277 -30.745333 -178.3772 -30.815376 -177.75453 -6.0593538 35.14875
432207500 -3.0922458 25.757452 -31.274052 -177.38878 -30.88241 -176.77608 -5.8392186 36.174274
432210625 -3.128782 25.522184 -30.907831 -176.91197 -30.934713 -177.67249 -5.8134203 36.268734
432213750 -3.085484 24.877441 -30.971924 -177.46611 -30.899265 -177.54114 -5.7062626 36.382492
432216875 -2.9869833 24.533049 -31.237022 -176.33066 -30.937141 -176.6144 -6.0228429 37.648022
432220000 -3.2050676 25.071533 -31.131176 -174.09338 -31.181816 -174.95573 -5.8695321 38.93129
432223125 -2.9440966 24.103643 -31.298401 -176.02884 -31.163141 -176.85623 -5.9138045 37.407883
432226250 -3.0635326 24.387218 -31.128565 -175.48587 -30.999617 -176.18713 -5.6010747 36.749146
432229375 -2.9407499 24.098824 -31.197643 -175.04863 -31.242069 -176.41081 -5.6958113 35.471066
432232500 -3.0185039 24.68169 -31.355301 -176.38017 -31.744646 -174.75485 -5.793406 35.838314
432235625 -3.1884558 24.027321 -31.391537 -174.92265 -31.46031 -176.16229 -5.8982239 34.125015
432238750 -3.0367048 24.707644 -31.486927 -175.86055 -31.453932 -175.4724 -6.0706878 33.613998
432241875 -3.092896 24.38006 -31.705235 -174.60164 -31.701685 -173.92599 -6.0629578 33.165607
432245000 -3.0006895 25.074629 -31.690994 -174.04565 -31.496096 -174.99062 -5.7566137 34.785202
432248125 -3.0450153 23.213345 -31.583946 -175.88873 -31.53875 -174.6487 -5.7643518 34.548035
432251250 -3.0169978 24.063137 -31.652287 -174.19473 -31.747124 -173.09929 -5.8773313 34.203854
432254375 -2.928334 23.844303 -31.582008 -174.01318 -31.59309 -173.31932 -5.7983475 34.227764
432257500 -3.0596848 24.187914 -31.702114 -174.80887 -31.992081 -174.90996 -5.9515433 30.237251
432260625 -2.9285207 23.23012 -31.715483 -173.64043 -31.710028 -172.75215 -5.9747577 31.161806
432263750 -2.9477775 23.083561 -31.79364 -173.42107 -31.842455 -170.88632 -5.615479 33.179672
432266875 -3.0919652 21.853436 -31.68807 -173.48427 -31.795328 -173.63818 -5.5319204 30.994675
432270000 -2.9831135 23.033899 -31.579916 -170.88628 -31.844669 -172.07083 -5.775238 32.096973
432273125 -3.0576868 22.432011 -31.904366 -172.54099 -31.904709 -172.42223 -5.8456511 31.875349
432276250 -3.156352 22.782343 -31.894381 -172.70549 -32.000103 -171.92259 -5.9844804 32.054276
432279375 -2.9425957 22.574251 -32.034725 -169.43402 -31.979746 -171.45187 -6.0338345 30.713169
432282500 -2.9245348 22.336227 -32.353352 -171.44496 -31.923122 -171.28468 -6.0924106 30.573324
432285625 -2.8570976 22.105427 -31.80748 -171.1165 -32.188129 -171.28603 -6.0516586 31.859735
432288750 -3.0665126 22.401733 -32.022079 -169.59129 -32.176323 -170.3056 -6.0476899 32.014771
432291875 -3.1664693 21.337736 -32.16748 -171.62457 -31.819475 -170.34601 -5.7684412 30.732471
432295000 -2.9440451 21.293238 -31.793842 -170.36049 -32.124405 -172.55475 -5.8916245 30.497324
432298125 -3.0629511 21.783686 -32.083401 -169.84129 -32.14603 -170.87413 -6.1188736 29.329882
432301250 -3.1042418 21.642675 -31.940466 -172.28761 -32.082039 -172.42004 -6.0577598 29.768383
432304375 -2.9901688 20.769175 -31.894047 -171.49373 -31.909706 -169.00143 -6.2442632 30.90523
432307500 -2.9204988 21.493401 -31.983509 -169.70219 -31.919529 -170.27632 -6.3837714 30.028364
432310625 -3.0800834 21.901783 -32.035126 -169.22307 -32.122078 -169.89711 -6.157486 31.776983
432313750 -3.132091 20.327747 -31.946974 -170.01076 -32.08622 -167.9151 -6.0052876 31.165737
432316875 -3.0416286 20.706373 -31.92939 -169.6319 -31.905329 -169.69781 -5.9423928 28.379051
432320000 -3.0382617 20.7558 -32.047012 -169.31679 -32.175758 -169.85991 -5.9832439 28.989294
432323125 -3.095911 20.700314 -31.802074 -168.61475 -31.639383 -170.07506 -6.0679955 28.782623
432326250 -3.2563047 19.81851 -32.157574 -170.28653 -32.042606 -170.34238 -6.2812567 28.750046
432329375 -3.3275235 19.566704 -31.84042 -169.90767 -32.026913 -168.60713 -6.2701898 30.869152
432332500 -2.9997878 19.656025 -31.680655 -169.21919 -31.577692 -170.42117 -6.0391707 29.854334
432335625 -3.0488915 19.535046 -31.975687 -169.26643 -32.115288 -169.45515 -6.0969834 30.079582
432338750 -2.9876533 19.096819 -32.058498 -170.24049 -31.823009 -170.37129 -6.223474 29.309608
432341875 -3.1041644 19.353848 -32.031223 -170.63063 -32.078651 -169.67133 -6.2131953 28.370703
432345000 -3.206568 19.695843 -31.680647 -169.67615 -31.830416 -170.0873 -6.2072015 30.018023
432348125 -3.165005 19.697685 -31.983694 -170.32495 -31.883455 -169.49809 -6.3713078 29.525723
432351250 -3.0832973 19.599844 -31.73181 -170.17586 -31.74769 -171.1176 -5.9950385 29.401762
432354375 -3.0990896 17.886562 -31.661543 -169.78064 -31.787779 -169.30295 -6.0741391 29.937027
432357500 -3.0331426 18.48135 -31.624733 -172.25832 -31.766907 -171.33289 -6.1274099 28.868622
432360625 -3.0416028 19.182148 -31.789116 -172.45186 -31.942995 -171.95967 -6.1415768 28.993586
432363750 -3.1701927 19.057941 -31.82896 -173.77809 -31.70466 -174.4483 -6.1750202 25.534979
432366875 -3.12604 18.802315 -31.951715 -171.76036 -31.757217 -173.37326 -6.3348918 25.561489
432370000 -2.9401817 17.523546 -31.780733 -173.61938 -31.392841 -174.21663 -6.2783623 25.98934
432373125 -3.1089408 17.177837 -31.714916 -174.16513 -31.875269 -174.33563 -6.1985488 24.50942
432376250 -3.1419632 16.806299 -31.782921 -175.36778 -31.660543 -173.70822 -6.1559238 26.305387
432379375 -3.0508544 17.489866 -31.666746 -174.81451 -31.918707 -174.73216 -6.5990605 25.320528
432382500 -3.0842004 16.840303 -31.599386 -174.1143 -31.495129 -173.45802 -6.3991961 27.919203
432385625 -3.1848862 16.901649 -31.467693 -172.02217 -31.635973 -174.78119 -6.4148307 28.697256
432388750 -3.2323694 17.320375 -31.65177 -175.72748 -31.665279 -175.71027 -6.2543764 26.151335
432391875 -3.1432173 16.500813 -31.539812 -178.24269 -31.579861 -177.12733 -6.270884 25.290863
432395000 -3.1865952 15.847797 -31.585018 -177.7841 -31.605715 -176.13101 -6.2749386 26.582151
432398125 -3.2111099 16.768999 -31.402092 -177.61697 -31.390078 -176.6787 -6.3623481 27.895605
432401250 -3.210609 15.632117 -31.853376 -178.9695 -31.760607 -178.16046 -6.3453369 25.796268
432404375 -3.1695743 15.774444 -31.381395 -179.01793 -31.584406 179.39995 -6.046113 24.876976
432407500 -3.1077399 14.416883 -31.238003 177.83638 -31.378962 178.80556 -6.0546937 26.585398
432410625 -3.2018342 14.946848 -31.383158 178.1981 -31.407656 178.69705 -6.1597438 25.841335
432413750 -3.1088533 15.303206 -31.387772 177.42645 -31.719812 178.87149 -6.2192206 26.771608
432416875 -3.1404848 15.288382 -31.763201 178.54247 -31.371746 176.18761 -6.5199947 26.892536
432420000 -3.0292721 14.574335 -31.384289 175.53238 -31.666014 176.59265 -6.4691863 26.036667
432423125 -3.0964324 15.021261 -31.579384 175.56352 -31.553984 173.0443 -6.5409255 27.257618
432426250 -3.2556798 14.199957 -31.628939 173.92072 -31.699089 175.33888 -6.286314 26.758789
432429375 -3.1741459 14.012444 -31.7204 174.5952 -31.570597 175.49854 -6.4344649 27.024952
432432500 -3.1578979 13.588746 -31.575684 172.47838 -31.718773 172.02895 -6.4296918 26.711874
432435625 -3.1678987 13.400084 -31.527227 171.0134 -31.741188 170.75546 -6.3686929 25.238302
432438750 -3.1988788 12.88273 -31.721985 170.19203 -31.781713 171.44777 -6.3888903 26.308023
432441875 -3.0384121 13.009597 -31.866287 169.08594 -31.674021 169.06573 -6.6338153 26.350704
432445000 -3.0843306 13.362083 -31.521965 170.60107 -31.758053 167.61383 -6.6878991 27.483738
432448125 -3.065002 12.91982 -31.69825 166.31804 -31.889248 167.67532 -6.6079798 26.421255
432451250 -3.0815451 12.836036 -31.467634 166.39662 -31.600952 163.71719 -6.1925445 25.234423
432454375 -3.1145527 12.776987 -31.779394 165.20061 -31.720604 165.54991 -6.3379016 26.953756
432457500 -3.1611395 12.356595 -31.836016 163.25809 -31.952991 163.84674 -6.3637562 26.53862
432460625 -3.0114076 11.767509 -31.885767 161.9397 -32.014908 161.81477 -6.5046024 27.025438
432463750 -2.9470661 11.426557 -31.783369 160.98734 -32.034885 159.63638 -6.3618836 23.718353
432466875 -3.0471478 10.921268 -31.697325 158.80162 -31.794104 159.13437 -6.2420087 24.111521
432470000 -3.2079725 10.369349 -32.219936 159.85408 -32.006905 159.72566 -6.450213 26.319134
432473125 -3.1751349 11.470998 -32.055813 157.293 -31.957811 157.47943 -6.2318096 26.108471
432476250 -3.016185 10.484229 -32.139935 155.57803 -31.902624 157.36942 -5.9262552 24.746557
432479375 -3.0754068 10.379982 -32.029774 155.05247 -32.242638 154.90166 -6.1625118 25.603968
432482500 -3.0171995 10.0884 -32.21489 156.03371 -32.102448 154.83783 -6.1920595 26.177486
432485625 -3.1263244 10.335626 -32.263672 151.08138 -32.348396 154.91289 -6.2429042 24.437656
432488750 -3.1605248 10.208031 -32.252243 151.06721 -32.469307 151.83636 -6.2395105 24.447567
432491875 -3.2186925 9.2182426 -32.380272 149.54459 -32.600189 149.78607 -6.1251502 24.738737
432495000 -3.1026001 9.0920897 -32.41811 148.45644 -32.195412 147.68471 -6.2565422 24.333544
432498125 -3.0895548 8.3099432 -32.273174 148.52267 -32.42448 146.99535 -5.9856997 24.707493
432501250 -2.995271 9.5055799 -32.514534 147.39201 -32.085052 146.97484 -5.9477458 25.569618
432504375 -3.0434599 8.5081291 -32.36969 145.81845 -32.387474 144.73758 -5.8756323 25.746805
432507500 -3.1158254 8.7712135 -32.463711 144.21101 -32.414558 143.69077 -6.1206636 23.743486
432510625 -3.1400168 7.2098079 -32.491638 142.15579 -32.585743 141.32851 -6.1140366 23.194767
432513750 -3.2345269 7.5160213 -32.951809 141.11324 -32.658401 141.37061 -5.9499478 23.306589
432516875 -3.1633887 6.3138418 -32.59774 138.97873 -32.90387 139.03444 -5.6718845 21.146503
432520000 -2.9765556 8.0838137 -32.359776 137.37215 -32.548218 138.50807 -5.9769034 21.877535
432523125 -3.1372497 6.3281837 -32.543999 137.74004 -32.683521 135.38701 -5.995553 23.944984
432526250 -3.1544797 6.4193683 -32.7756 137.27524 -32.667847 135.12454 -5.9030561 22.119299
432529375 -3.1716435 6.8159075 -32.880493 135.81824 -32.747253 135.29504 -5.973597 22.222857
432532500 -3.283515 5.4134169 -32.79438 133.37416 -32.709606 132.84772 -5.8269391 22.603672
432535625 -3.2619164 5.4025478 -32.775822 132.5312 -32.897575 132.23055 -5.9332328 23.199917
432538750 -3.1180587 4.5330753 -32.838314 133.53282 -33.069477 132.65338 -6.2680383 23.300764
432541875 -3.1324408 5.0275922 -32.791039 129.97021 -33.017639 129.82425 -6.2005353 23.920763
432545000 -3.2082217 4.547956 -32.736645 129.56636 -32.842781 128.08484 -6.0475302 21.245016
432548125 -3.2120616 4.1306586 -32.619564 125.75883 -32.617672 125.75349 -5.6976299 20.040701
432551250 -3.3827739 3.4617307 -33.222538 126.99566 -32.778214 125.35281 -5.9436197 21.05798
432554375 -3.3453338 3.48631 -32.884293 124.8932 -32.865261 124.81749 -6.1054158 21.712917
432557500 -3.3819175 3.0513034 -32.852627 122.82436 -32.737434 124.27968 -5.8636274 21.927908
432560625 -3.3983269 2.8396244 -32.542351 123.89819 -32.758839 122.24507 -5.7890458 21.347052
432563750 -3.3479266 2.5791624 -32.759693 121.09572 -32.624382 122.79716 -5.8275857 20.048698
432566875 -3.2528605 1.2085335 -32.514492 118.70232 -32.410805 118.56031 -5.7283268 20.338081
432570000 -3.1744971 0.025737211 -32.815933 117.81532 -32.675835 116.69785 -5.7914672 19.631575
