# Hz S RI R 50
474500000	-0.688667167728656	-0.652389619187805	-8.0164348083854E-05	-1.40074234196073E-04			-7.86214383313611E-05	-1.51126086247717E-04	-0.851452038244948	-0.397078211732519
474531250	-0.68830243620841	-0.651647375730654	-7.7922505651821E-05	-1.63962291982446E-04			-8.4436091984129E-05	-1.63965383768815E-04	-0.851274520736941	-0.396570945692263
474562500	-0.690391472122113	-0.651602929268272	-5.52967325954009E-05	-1.60860716893772E-04			-4.65490482135012E-05	-1.67359062685418E-04	-0.850586202460511	-0.398872989766307
474593750	-0.690649387559481	-0.652325788878673	-8.26377580468219E-05	-1.58391635921076E-04			-5.50332454050181E-05	-1.56726843231694E-04	-0.851264358436673	-0.396880862306887
474625000	-0.691849460860268	-0.651805669944777	-4.38030131240862E-05	-1.38198625506064E-04			-5.80134708732027E-05	-1.44519416403171E-04	-0.8536499429964	-0.395219724978818
474656250	-0.690171050133027	-0.652747727200064	-2.5856482232849E-05	-1.55029043804197E-04			-3.222683010508E-05	-1.6235998166307E-04	-0.851241848952914	-0.398396705271514
474687500	-0.691946163050048	-0.651795304671541	-4.89041764174185E-05	-1.47308821356832E-04			-4.55019556437938E-05	-1.4862367261325E-04	-0.850369306959199	-0.39741896036376
474718750	-0.691377322064724	-0.651731798766842	-3.09520026081569E-05	-1.56476216693189E-04			-3.98639589790628E-05	-1.64539350531511E-04	-0.850028504577715	-0.396592214821778
474750000	-0.691824804664118	-0.65148099996803	-1.24663323817311E-05	-1.78193968379594E-04			-3.43404507395258E-05	-1.62742094507724E-04	-0.851795909857238	-0.396119433808079
474781250	-0.693428268938079	-0.651629864919767	1.96055053847886E-06	-1.40861095962557E-04			-1.90909561969032E-05	-1.57939218047021E-04	-0.85180784026665	-0.395275605441183
474812500	-0.692097351382144	-0.650590739935718	-4.39590071293568E-06	-1.46718046241131E-04			2.30720114832519E-05	-1.71931774815581E-04	-0.853766052342869	-0.39424447482834
474843750	-0.691203451570581	-0.650661717001801	-1.98464092837944E-05	-1.67072925239035E-04			-6.7544899971684E-06	-1.65555835663664E-04	-0.850431871652143	-0.397231834515404
474875000	-0.692198310398112	-0.651350027543566	9.96796883496764E-06	-1.71676128800596E-04			4.010263356012E-06	-1.85862639047595E-04	-0.853613578328062	-0.393979116624349
474906250	-0.690427411586957	-0.650193721704632	6.14946380335512E-06	-1.9443268017347E-04			3.33136116543754E-07	-1.93054598096653E-04	-0.851563497620284	-0.396367068766133
474937500	-0.691755910925013	-0.650084870958811	3.1357873462695E-05	-1.72594302306092E-04			1.74108820395124E-05	-1.73014544556159E-04	-0.850788328143707	-0.396609019679902
474968750	-0.691246943009287	-0.649107940130363	4.09354803960318E-05	-1.72248406306045E-04			2.51481075551929E-05	-2.12985810356477E-04	-0.852279887223583	-0.39479363752334
475000000	-0.691894786791962	-0.650664094140746	2.84081616525375E-05	-2.00544223135666E-04			5.93936071320856E-07	-1.96297155258669E-04	-0.853757826920822	-0.395237290442743
475031250	-0.693013940473361	-0.647378685769787	2.31612121622987E-05	-2.0623790013723E-04			3.04955278704891E-05	-2.09437940439837E-04	-0.852558025132079	-0.39419885071101
475062500	-0.692031487240349	-0.650614135105828	1.03745053618445E-05	-2.30465448322092E-04			2.90121793751166E-05	-2.11048596616211E-04	-0.852457717122816	-0.39467548987166
475093750	-0.691248572698989	-0.6500860735872	3.58634298942383E-05	-2.09614916623565E-04			1.87354997426711E-05	-1.98634362849315E-04	-0.851697713494929	-0.395293734404644
475125000	-0.693697991719544	-0.64817552123239	4.59831768181356E-05	-2.44711463899159E-04			2.46181935773453E-05	-2.24653879895249E-04	-0.853078453931941	-0.392926524192796
475156250	-0.691194434635424	-0.648137649202325	3.74153116775443E-05	-2.34480329916931E-04			5.72045760089414E-06	-2.04437790443916E-04	-0.851615040225582	-0.394015791913445
475187500	-0.694273836190071	-0.647771408233366	4.65444570785162E-05	-2.31813465851971E-04			1.16057781042991E-05	-2.43112417678137E-04	-0.853516656847924	-0.394245581101705
475218750	-0.691758436524876	-0.648866662450713	3.37374057508722E-05	-2.33214213300601E-04			9.63596444163344E-06	-2.30833419808607E-04	-0.854154488816562	-0.392056045538767
475250000	-0.695225457855527	-0.649944214783359	1.78384083712738E-05	-2.23769847428439E-04			2.96148039019038E-05	-2.37225796777623E-04	-0.853399395920766	-0.39235026233341
475281250	-0.691915439772044	-0.650156945945042	1.23499762957726E-05	-2.5463451723264E-04			1.50004918301812E-06	-2.58446065904523E-04	-0.852156460255105	-0.394190465370534
475312500	-0.691626879697537	-0.648244659877002	2.72927079328871E-05	-2.57429598616188E-04			2.53298680806406E-05	-2.43273739746708E-04	-0.852752868418549	-0.393603457653988
475343750	-0.69416146697486	-0.649108250648963	1.27836019484905E-05	-2.82504342777416E-04			-1.04147038549629E-05	-2.37133423733395E-04	-0.852367908464349	-0.392496589454717
475375000	-0.694542478468173	-0.64805137883914	6.72654499053751E-06	-2.65751993057461E-04			1.73860824394741E-05	-2.52348626464182E-04	-0.853720916504762	-0.391432692952521
475406250	-0.6931279860201	-0.648755606417607	1.79337520740216E-05	-2.5353471776773E-04			3.00994043079093E-05	-2.56520046259238E-04	-0.855070118071366	-0.39112054207856
475437500	-0.694050693752483	-0.649023059155288	-9.15924166286928E-07	-2.68342358087319E-04			6.6161068676612E-06	-2.65372499918422E-04	-0.854236010657946	-0.39103376138959
475468750	-0.692480046097192	-0.648080910113451	1.20390197464755E-05	-2.53970314337494E-04			1.86072352673109E-06	-2.62517017134624E-04	-0.853752002511959	-0.392182869944059
475500000	-0.691372035439493	-0.648191793250379	2.37857924432242E-05	-2.54196846645002E-04			3.10470920627105E-05	-2.60440646072231E-04	-0.851329628059156	-0.392581149210308
475531250	-0.691745198516724	-0.64825454355941	9.08340528537489E-06	-2.547823940329E-04			-1.92140898136042E-05	-2.39238705568088E-04	-0.853311784720985	-0.391307785576568
475562500	-0.69484640622649	-0.649272884300721	1.68991753756184E-05	-2.53982548549772E-04			1.12597474185805E-05	-2.47713630164036E-04	-0.850872645559912	-0.393850581362922
475593750	-0.694221111920545	-0.64864508452151	-1.28209941203791E-05	-2.69168940532193E-04			-6.62889048379923E-06	-2.73758307702357E-04	-0.853603935688059	-0.390396121220293
475625000	-0.693308018137187	-0.648424051039579	1.38831372489411E-05	-2.69450297529107E-04			-7.03528289727E-06	-2.69052209351228E-04	-0.855492260808906	-0.389464079523871
475656250	-0.694042356434832	-0.647062479476532	1.31292667410301E-06	-2.59723211046779E-04			-2.89715196005907E-05	-2.62032641302199E-04	-0.853524634272825	-0.391237944917296
475687500	-0.695549419452309	-0.648373416829578	-1.15054138259765E-05	-2.62493127570876E-04			-1.37347155290696E-05	-2.65707769488377E-04	-0.853555308476883	-0.391336545966977
475718750	-0.696040487015692	-0.648808286148759	-1.04163816111584E-05	-2.88629951953203E-04			-1.46676211910107E-06	-2.90241095702741E-04	-0.854106278086015	-0.390330496944715
475750000	-0.69388966788768	-0.647492904595818	-6.81197154771695E-06	-2.5674907479354E-04			-2.06389273137574E-05	-2.92345663021852E-04	-0.854361667233901	-0.391195577469468
475781250	-0.694395205726443	-0.646008594450605	-5.21644491011211E-06	-2.794425122705E-04			-2.43346546972152E-05	-2.52216148701869E-04	-0.854160093669223	-0.390355022104397
475812500	-0.695758762414596	-0.648416823556364	-1.73749492078842E-05	-2.9290919859063E-04			-4.06075921228537E-05	-2.77069701225061E-04	-0.852674186392496	-0.390739839552362
475843750	-0.694194415659601	-0.646870227780733	-1.53248438978252E-05	-2.62470277187776E-04			2.10541038741247E-06	-2.71376371821422E-04	-0.854924086584444	-0.390807052673156
475875000	-0.698349772228142	-0.646104084569247	-1.55918217558935E-05	-2.95813171041035E-04			-5.86143201013062E-06	-2.8358392151165E-04	-0.854317745138085	-0.390595311201086
475906250	-0.694054554108071	-0.647280755807957	-4.34716163963629E-05	-2.89916138004775E-04			-7.30619846289051E-06	-2.93233218649752E-04	-0.854484733194446	-0.389644309044277
475937500	-0.69525222816786	-0.647629089493427	-3.54006915615973E-05	-2.78836860780788E-04			-1.22493301133801E-05	-2.72275396924751E-04	-0.853104089088117	-0.389739581053687
475968750	-0.696299035589918	-0.646414201754005	-3.00902834947615E-05	-2.70687127309321E-04			-1.40294675835529E-05	-2.82142251369318E-04	-0.854321444670342	-0.388525435005121
476000000	-0.694928546065294	-0.648375177987622	-4.17366991152242E-05	-2.63585100388762E-04			-3.2059166982191E-05	-2.70579121862034E-04	-0.854400768599143	-0.389193470759616
476031250	-0.696462230406706	-0.646583513138734	-3.857188536812E-05	-2.77523663566103E-04			-2.65997960815353E-05	-2.88319008242965E-04	-0.855739537281415	-0.388358224682851
476062500	-0.694979305183536	-0.647228723809865	-3.57118679458584E-05	-2.84776183749091E-04			-4.27718998443608E-05	-2.78846473599268E-04	-0.85758468346006	-0.387483182218085
476093750	-0.69614665906971	-0.64620100193345	-3.63452608428889E-05	-2.93128667695523E-04			-4.42760377432943E-05	-2.63687347984217E-04	-0.853584779101651	-0.389072542519224
476125000	-0.697273039432476	-0.645642408010722	-5.31184547447924E-05	-2.85647237378577E-04			-3.70857916304286E-05	-2.71824564608953E-04	-0.856841536909102	-0.38773196660109
476156250	-0.696454805295604	-0.646995684580681	-5.2757876442238E-05	-2.81766880141457E-04			-3.36507628439208E-05	-2.88015527097791E-04	-0.856281551209228	-0.388092312157536
476187500	-0.695687007444311	-0.647728220466274	-5.78388893210663E-05	-2.96023288197455E-04			-4.55572537887032E-05	-2.74809945005609E-04	-0.852702233711213	-0.387772267253434
476218750	-0.697731027565695	-0.645624125696947	-5.27922752990061E-05	-2.73033679615066E-04			-1.00102284323662E-05	-2.70194114039943E-04	-0.852808270364283	-0.389618161207541
476250000	-0.695912620913074	-0.645274786235463	-5.86138026184938E-05	-2.89583961525833E-04			-5.67061122058981E-05	-2.8315530270308E-04	-0.854539287113777	-0.388613743924151
476281250	-0.696445459212253	-0.645041072592517	-9.05152383994643E-05	-2.76742714943096E-04			-7.22275807417281E-05	-2.69663515949232E-04	-0.856696872076199	-0.386987881515315
476312500	-0.695376397811447	-0.645889180399815	-5.88802013313744E-05	-2.66402287377494E-04			-6.85502448269186E-05	-2.68518246296014E-04	-0.852958329659393	-0.388843058219977
476343750	-0.697514648056969	-0.644441600614052	-5.04682955344978E-05	-2.63990817903676E-04			-6.61365548755127E-05	-2.79221280034033E-04	-0.855504522409149	-0.386767318376982
476375000	-0.696786971504903	-0.644927281361877	-8.56994387382204E-05	-2.8535987271201E-04			-7.88758497132936E-05	-2.6313182113398E-04	-0.853896211658468	-0.38755226206276
476406250	-0.69954027198335	-0.64432213160667	-7.27420596779099E-05	-2.85963876382123E-04			-7.61699029522898E-05	-2.72718739561186E-04	-0.854302555095333	-0.386444756849652
476437500	-0.696431485407231	-0.645764166613346	-8.34587167953405E-05	-2.57401419099322E-04			-8.96033745719602E-05	-2.69893509640979E-04	-0.8561803226227	-0.386130113876153
476468750	-0.696301567574313	-0.64453639772566	-6.77983067688349E-05	-2.73693113304215E-04			-8.22583252423393E-05	-2.65202822772612E-04	-0.855343218415718	-0.386850797356673
476500000	-0.698976949533533	-0.645065427537153	-6.32836513459521E-05	-2.66549137260944E-04			-7.4939603632549E-05	-2.47874095949986E-04	-0.856885305444022	-0.386655059055926
476531250	-0.698629078515806	-0.644391573670348	-9.49393647449958E-05	-2.65683677935334E-04			-8.84616062393277E-05	-2.56700338638594E-04	-0.854905852035981	-0.387487262098662
476562500	-0.699894718364769	-0.645024246061932	-1.01493794850576E-04	-2.45507355481186E-04			-7.99716539227122E-05	-2.77864166069931E-04	-0.85687960648447	-0.386993472077122
476593750	-0.697661986212826	-0.643075658263986	-9.94498067238733E-05	-2.45092611208032E-04			-1.05736428757791E-04	-2.6410617047059E-04	-0.855544177228864	-0.385515380164706
476625000	-0.696373468818033	-0.643031255503912	-8.98111833982321E-05	-2.1447337409323E-04			-1.0379679441913E-04	-2.48091898214538E-04	-0.857460262293445	-0.385976602105407
476656250	-0.696742601693382	-0.643617327201171	-1.22347452267639E-04	-2.44280087306872E-04			-1.12034285106558E-04	-2.37096988418107E-04	-0.856308895879315	-0.385692662203486
476687500	-0.696832377912311	-0.643886301575228	-1.15939174839562E-04	-2.26431770496571E-04			-1.09029082588236E-04	-2.36932803216263E-04	-0.856641514664439	-0.385905943169264
476718750	-0.699157840236707	-0.644671609203408	-1.13829652423275E-04	-2.32267186381353E-04			-1.03059881246471E-04	-2.02226019534843E-04	-0.856233552399103	-0.386432082219382
476750000	-0.700235328192477	-0.643563533231751	-1.08690146821819E-04	-1.92087150114476E-04			-1.09956559106881E-04	-2.18132519044797E-04	-0.857212868184609	-0.385689521205693
476781250	-0.697582015792369	-0.641005384343926	-1.09829936896541E-04	-2.18835662281381E-04			-1.14032355411906E-04	-2.14317692108279E-04	-0.855557678821927	-0.385916733118807
476812500	-0.696901455028634	-0.644120199349234	-1.10617836991661E-04	-2.08742286470729E-04			-1.03736806577415E-04	-1.82104512816539E-04	-0.855895347501184	-0.384356235118415
476843750	-0.69876963318074	-0.643212050884049	-1.01795850387152E-04	-1.84828523381249E-04			-1.09072545699421E-04	-1.96944497307983E-04	-0.857001944210035	-0.383893117480419
476875000	-0.699543729247899	-0.643171365524942	-1.21162385155125E-04	-1.92184168045422E-04			-1.04543309404358E-04	-1.89225572105184E-04	-0.857820423891111	-0.385687383040792
476906250	-0.700490494217908	-0.642089296841494	-1.08153508364623E-04	-1.59462526141934E-04			-8.5513011397509E-05	-1.79615040410199E-04	-0.856129650687554	-0.383948474585908
476937500	-0.69868419592806	-0.641041847582323	-1.10958052891512E-04	-1.90904727598737E-04			-1.01019782725322E-04	-1.64584205153122E-04	-0.856109731437316	-0.3861460799433
476968750	-0.699621414799935	-0.643292216301777	-9.66246481357349E-05	-1.55653783218612E-04			-1.00738672271165E-04	-1.44917657028516E-04	-0.856758815064259	-0.384306221155011
477000000	-0.695728245010589	-0.64200827404222	-9.73200978367254E-05	-1.5195809791065E-04			-7.4704722750257E-05	-1.41328559932305E-04	-0.856316370218201	-0.383479015269657
477031250	-0.700548057787074	-0.643579554457788	-8.12340202097663E-05	-1.36123865536537E-04			-8.96826293888377E-05	-1.37235976117959E-04	-0.856335231772086	-0.384747297182094
477062500	-0.699135608412738	-0.642125885783906	-7.45266823472544E-05	-1.35348999080505E-04			-9.04563986602219E-05	-1.43258808650928E-04	-0.856525198342575	-0.382880779745822
477093750	-0.700123207238421	-0.641564631329928	-6.4787084731803E-05	-1.62851825219127E-04			-5.74561033693231E-05	-1.29125238969471E-04	-0.858279696513428	-0.383587109411237
477125000	-0.703653944440466	-0.642881351322904	-6.19429195380133E-05	-1.2642514486613E-04			-7.38542007478154E-05	-1.3266072606829E-04	-0.856591901681154	-0.38358401650757
477156250	-0.701393423673222	-0.642577469428604	-2.99573850618672E-05	-1.15551299840116E-04			-6.1397650820006E-05	-1.34142487473828E-04	-0.855955694374995	-0.385719098069236
477187500	-0.699315448636653	-0.641343621039543	-3.2836416874771E-05	-1.22600366527106E-04			-3.34237147499411E-05	-1.14053431631736E-04	-0.854769484797109	-0.383837327003088
477218750	-0.700797635604103	-0.641252938611212	-4.19257287665931E-05	-1.28255806465108E-04			-1.34621299865806E-05	-1.24511269985765E-04	-0.858953736497786	-0.383054148757725
477250000	-0.700447100168353	-0.641876711930519	-1.32495291938554E-05	-1.17304462503957E-04			2.19867165290659E-05	-1.16239964093557E-04	-0.856309505312584	-0.383300386933701
477281250	-0.699950572668128	-0.640779926453377	-1.45397011013087E-05	-9.74035384210577E-05			2.93664031935642E-06	-1.23988736867757E-04	-0.858338998792934	-0.383247288057888
477312500	-0.70211645233018	-0.641826977019765	1.71676326558628E-05	-1.04694871367997E-04			-1.35304235691998E-05	-1.24002026262614E-04	-0.857379246822797	-0.38138989133512
477343750	-0.701780336072232	-0.642442072254612	2.16953762818775E-05	-1.00046274197962E-04			2.19389989405391E-05	-1.30124745781628E-04	-0.856110383379966	-0.383272551555735
477375000	-0.700732881552907	-0.640264137881809	2.27192569863075E-05	-1.09060905276783E-04			3.35039508669278E-05	-1.13301374410282E-04	-0.854116777635378	-0.383524495454723
477406250	-0.700654037798384	-0.640104352998946	4.48209908575985E-05	-1.08535483639111E-04			2.77457935844394E-05	-1.33858327794189E-04	-0.855181506372054	-0.381981299537896
477437500	-0.699762628279168	-0.640614740799684	7.91023553853039E-05	-1.11807879130317E-04			6.977469606618E-05	-1.08077053505075E-04	-0.857874205318829	-0.381421134517475
477468750	-0.700205141490353	-0.640190289315133	7.04545409292401E-05	-1.10182223210811E-04			6.3108172617354E-05	-1.23605923754943E-04	-0.857097748410265	-0.382138227054488
477500000	-0.702239793658434	-0.639356779047608	6.26452907712023E-05	-1.4617322172964E-04			9.3499942341985E-05	-1.12897042253523E-04	-0.856625977379029	-0.381711754578873
477531250	-0.701195415315163	-0.640226614537294	9.98188195410977E-05	-1.4627238793692E-04			8.00098949301861E-05	-1.26275762998924E-04	-0.859928083562969	-0.381340228911669
477562500	-0.701524789262472	-0.641895855375751	1.06783715152437E-04	-1.30558540615092E-04			1.10322660528365E-04	-1.59826927831757E-04	-0.85753695732047	-0.381154740388118
477593750	-0.700267242677979	-0.640323002217818	1.07209533690595E-04	-1.76466940940994E-04			1.10316129361712E-04	-1.54505634365081E-04	-0.858368850910677	-0.381610382182017
477625000	-0.699506851167305	-0.638592930377509	1.05540244863303E-04	-1.86800371528526E-04			1.096559237646E-04	-1.70607470608553E-04	-0.857615571069345	-0.381834550605442
477656250	-0.700380936749959	-0.64055749280917	1.23483232716403E-04	-1.72475830402702E-04			1.30606814240466E-04	-1.90553671198817E-04	-0.858915938065641	-0.381259671631288
477687500	-0.700200767684364	-0.639580202550987	1.17290006452385E-04	-1.90682036562515E-04			1.12534451117066E-04	-2.11364264734071E-04	-0.857362810428062	-0.38011001454211
477718750	-0.701475017780302	-0.640325736092007	1.17132800922255E-04	-2.15909153103984E-04			1.14761863664621E-04	-2.10294902972851E-04	-0.859878084165601	-0.381873255868687
477750000	-0.701607909804946	-0.638619017835752	1.38073174287805E-04	-2.10279999893253E-04			1.45111206917208E-04	-2.26200386322355E-04	-0.85808230932223	-0.381691716077523
477781250	-0.701367657861998	-0.63964882914417	1.47911401524159E-04	-2.27949394014971E-04			1.08355218105447E-04	-2.2072581366987E-04	-0.85807048593989	-0.381018860772315
477812500	-0.702676586063462	-0.637744400698525	1.3553833114692E-04	-2.29195584823626E-04			1.47346595242689E-04	-2.47507346822129E-04	-0.85886796607285	-0.380859977549968
477843750	-0.700955001368964	-0.639434564886757	1.42732625872749E-04	-2.61244392441573E-04			1.41750416790934E-04	-2.54390079670512E-04	-0.858544015724044	-0.379247110456419
477875000	-0.699849504778491	-0.639702335387253	1.45837793351243E-04	-2.72555391027745E-04			1.32591832617267E-04	-2.75475465315247E-04	-0.857117577323987	-0.379332914128291
477906250	-0.703060580222994	-0.637255841243234	1.21348269632215E-04	-2.8875087471097E-04			1.1997526798437E-04	-3.07194113538796E-04	-0.859676096582035	-0.378791046221221
477937500	-0.700081140722876	-0.63927688946185	1.20916125267003E-04	-2.9480974842433E-04			1.25559069388878E-04	-3.02349085685855E-04	-0.859777305939369	-0.378647948988896
477968750	-0.700985531210082	-0.638081330847572	1.36936929351951E-04	-3.33309358368041E-04			1.13723244919623E-04	-3.15390558577977E-04	-0.860217918945975	-0.378126591334846
478000000	-0.702699357593355	-0.637250735205409	1.30063217310961E-04	-3.02046450646093E-04			1.08767853711226E-04	-3.21386352490516E-04	-0.858515894513132	-0.380031011517061
478031250	-0.700920135301524	-0.63646346749043	1.4289983245276E-04	-3.19868381976228E-04			1.03331090584011E-04	-3.29647016298238E-04	-0.857317449028722	-0.379427163734942
