# Hz S RI R 50
1442500000	-0.160725362566529	-0.943096903403228	5.20969290000933E-02	2.20362667847379E-02			5.14251586062267E-02	2.00333520696828E-02	-0.145649372756985	-0.919998050315701
1443000000	-0.16126136640944	-0.941929701090441	5.19719505956243E-02	2.21546243105045E-02			5.12742261110485E-02	2.01816725016706E-02	-0.146204650308908	-0.919893455965361
1443500000	-0.160781865646902	-0.94248540428508	5.22167479398907E-02	2.21351887216931E-02			5.14288026699823E-02	2.01507010103072E-02	-0.147047489765299	-0.919766333601575
1444000000	-0.161965653675775	-0.942334987416912	5.21649407484912E-02	2.21363690452002E-02			5.13503832473107E-02	2.01811757930973E-02	-0.147364617040171	-0.91922139784106
1444500000	-0.162734381270944	-0.942389784761538	5.23839847767895E-02	2.21297852563527E-02			5.14638513909187E-02	2.01578614250704E-02	-0.146965337527566	-0.919893118750305
1445000000	-0.164292221719157	-0.94211399067087	5.24080644622685E-02	2.19398032822161E-02			5.14485186554445E-02	1.99709157236896E-02	-0.148373786909087	-0.920240953202257
1445500000	-0.164262693890976	-0.941640414533755	5.23616258254891E-02	0.021901695868308			5.13805428652796E-02	1.99263704063992E-02	-0.149236671108765	-0.919980403927011
1446000000	-0.165616490718562	-0.941570153151731	5.23970756960727E-02	2.17893151278563E-02			5.13290041101885E-02	1.98578927266293E-02	-0.150026778901077	-0.92025427025949
1446500000	-0.166189755713604	-0.941097415647251	5.23806917788263E-02	2.17267618009009E-02			0.051250638383903	1.98254551258474E-02	-0.150571384596843	-0.920307459696337
1447000000	-0.166522185350896	-0.940702716045981	0.052355429431505	2.16575059828178E-02			5.11892472184398E-02	1.97566180938286E-02	-0.151462881796443	-0.920251287339326
1447500000	-0.16725188041427	-0.940399246487625	5.23716674138185E-02	2.16409257619254E-02			5.11683438615332E-02	1.97274456231181E-02	-0.152161526769044	-0.919780781150891
1448000000	-0.167803657596538	-0.940428411569088	5.23842536863666E-02	2.15752779196928E-02			5.11097784379498E-02	1.96635230569475E-02	-0.152937883068885	-0.919741438757212
1448500000	-0.168706883441506	-0.940160236104653	5.23925887968951E-02	0.021494191588186			5.10306747490189E-02	1.96238301710057E-02	-0.153843043385642	-0.919853667949888
1449000000	-0.169168703742309	-0.939492792648435	5.24020383613199E-02	2.14097506417407E-02			5.10139437407458E-02	1.95750695542575E-02	-0.154633607030889	-0.919363029244511
1449500000	-0.169424157152765	-0.939588905238136	5.23628749435721E-02	2.13509722018094E-02			5.09493024075706E-02	1.95252853089655E-02	-0.154990183269264	-0.919583429091511
1450000000	-0.170034287854569	-0.939320923229756	5.23915056932987E-02	2.12701124051408E-02			5.08769552103392E-02	1.95072411472319E-02	-0.156130425155175	-0.919466963746495
1450500000	-0.170564603584497	-0.939062470439692	5.23643719951008E-02	2.12313816750899E-02			0.050808659324656	1.94162969340665E-02	-0.156717318540833	-0.918977717112536
1451000000	-0.171277897894381	-0.939352866185307	5.23335411450203E-02	0.021145986232283			5.07491710740317E-02	1.93755620204223E-02	-0.157772558356294	-0.919077508195331
1451500000	-0.171582087224333	-0.938873667446356	5.23171114801947E-02	2.10769012276309E-02			5.06478698094784E-02	0.019337744387298	-0.158788121614273	-0.918826678545455
1452000000	-0.172226091087908	-0.939720447939308	5.23074006925906E-02	2.10612605363379E-02			5.05647033396108E-02	1.93028139120344E-02	-0.159197086360112	-0.918728610233812
1452500000	-0.172963449066842	-0.939183501050446	5.22495222359516E-02	2.09980131256169E-02			5.04906297175477E-02	1.92989050459945E-02	-0.159962266810268	-0.918377629737453
1453000000	-0.173214605606331	-0.938897910135639	5.21729560981742E-02	2.09491118541348E-02			5.04292135899609E-02	1.93106814924616E-02	-0.1609025000493	-0.918098174877739
1453500000	-0.173876346913539	-0.939105936578667	5.21889119556303E-02	2.09572010950012E-02			5.03607272225254E-02	1.93118669346604E-02	-0.161344207789952	-0.918051626122701
1454000000	-0.174871688917564	-0.938908415938134	5.22024162240998E-02	2.09248327251243E-02			5.03083294801787E-02	1.92875691642136E-02	-0.162050119804658	-0.917730884862183
1454500000	-0.175404056244371	-0.939368719513344	5.21872133901578E-02	2.08796843416296E-02			5.02474618166008E-02	1.92712009759361E-02	-0.162579980272558	-0.917360284686872
1455000000	-0.1760335053183	-0.939008970921449	5.21623876428424E-02	0.020850844628877			5.02466995600926E-02	1.92623802319486E-02	-0.163736942354153	-0.917308182939199
1455500000	-0.177161650733054	-0.939433830252274	5.21864653521596E-02	2.07741928087258E-02			5.01490136505428E-02	1.92431679373162E-02	-0.164229747654974	-0.916693427122683
1456000000	-0.177885822827515	-0.93888925299703	5.21436707891818E-02	2.07083531117307E-02			5.01169482745828E-02	1.92158175585371E-02	-0.164960507377197	-0.917409466559842
1456500000	-0.178884899841689	-0.938919366328284	0.052161207018779	2.06905987603557E-02			5.00100431565183E-02	1.91999711202416E-02	-0.165335976712001	-0.916345163918903
1457000000	-0.179854653693305	-0.939012652313748	5.21516923121623E-02	2.06054386005976E-02			4.99777238694547E-02	1.92004355286372E-02	-0.16617225522743	-0.916302722660992
1457500000	-0.180542712822966	-0.938441879916852	5.21024708951383E-02	2.05536451336772E-02			4.99277215585322E-02	1.92009995260443E-02	-0.166969837526036	-0.916542120695445
1458000000	-0.181878145802538	-0.938770608959268	5.20781126783407E-02	2.05077709252983E-02			4.98337338919669E-02	1.91938691931031E-02	-0.167619847128271	-0.916197878737731
1458500000	-0.182514235666523	-0.938149538104052	5.20503088930042E-02	2.04899442754418E-02			4.98100491959664E-02	1.92037165077262E-02	-0.16843319793118	-0.916279789117136
1459000000	-0.183269048207716	-0.93777503752637	5.20520302320166E-02	2.04763648878758E-02			4.97590947101411E-02	1.91784143826022E-02	-0.169485263682616	-0.916026633532728
1459500000	-0.18466371304653	-0.937954906026089	5.20691010212829E-02	2.04018119688845E-02			4.96592966481754E-02	1.91856049128579E-02	-0.169734083598401	-0.91589809594972
1460000000	-0.185359726780698	-0.93756112244924	5.20346160584336E-02	0.020371242170058			4.96684968348835E-02	1.92078553697742E-02	-0.17039283411046	-0.915781379684069
1460500000	-0.186225955529628	-0.93727715719484	5.20768911912165E-02	0.020341465355653			4.95948279123105E-02	1.92021863414711E-02	-0.171414982961302	-0.915570642652663
1461000000	-0.186478827258391	-0.937191638320254	5.20062861274151E-02	0.020293797030868			4.95548448432848E-02	1.91805266920269E-02	-0.172341672815988	-0.914846854816427
1461500000	-0.187485878028039	-0.936633026612705	5.20283852689871E-02	0.020248187977366			4.95027894548619E-02	1.92062175183392E-02	-0.172733969918036	-0.914887785605556
1462000000	-0.188228411318467	-0.93613608409911	5.19910352781152E-02	2.02247324713411E-02			4.94764796904493E-02	1.92164332753557E-02	-0.173400996816502	-0.914511960658902
1462500000	-0.188879862416509	-0.935378200289095	5.19682943377908E-02	2.01577880679288E-02			4.94256179676077E-02	1.92291321830675E-02	-0.173940608902826	-0.914444968245291
1463000000	-0.189549078675533	-0.935489407727698	5.20284907548153E-02	2.01345153164136E-02			4.93857041115741E-02	1.92212043694161E-02	-0.174622356035552	-0.914307327175284
1463500000	-0.190301113696187	-0.934594925581299	5.19822551027198E-02	2.00802876149929E-02			4.93806306895432E-02	1.92257514528041E-02	-0.175412841611417	-0.914257402789124
1464000000	-0.190681785938471	-0.934661854495205	5.19658641206967E-02	2.00092898934502E-02			4.93229455589843E-02	1.91961958047216E-02	-0.176165705305154	-0.913667215660142
1464500000	-0.19122139323827	-0.934541675958548	5.19602790434078E-02	1.99879313559008E-02			4.92735531957824E-02	0.019178508585804	-0.176733124275948	-0.913832492171219
1465000000	-0.191827841988223	-0.934316789957387	0.051952590514072	1.99001417806843E-02			0.049236199339989	1.91980556163014E-02	-0.177936464317498	-0.913271709230705
1465500000	-0.192701368978827	-0.934371340044252	5.19382634073737E-02	1.98642340563322E-02			4.91929391438272E-02	1.91765039842441E-02	-0.178138704785066	-0.912863477670241
1466000000	-0.193023755779046	-0.93372542248733	0.051876725746881	1.98131897311023E-02			4.91379306415927E-02	1.91993470050361E-02	-0.178904684867451	-0.913022574988731
1466500000	-0.193180487696366	-0.933561439910281	5.18419334413233E-02	0.01978130156516			4.91217678174941E-02	1.91818493429524E-02	-0.179605505172144	-0.913028134456487
1467000000	-0.194023423948933	-0.933717235270229	5.18722789383809E-02	0.019728198024839			4.90957762292205E-02	1.91980540612185E-02	-0.180295392828915	-0.912300383097554
1467500000	-0.195031468329403	-0.933556804139892	5.18479285143462E-02	1.96372803368289E-02			4.90267465692264E-02	1.91637817269906E-02	-0.181161511081678	-0.912254479186237
1468000000	-0.1952362188576	-0.933139442503827	5.18240776531016E-02	1.96246581392813E-02			4.89808972550037E-02	1.91861886736496E-02	-0.181660844145264	-0.912159508128476
1468500000	-0.195694964858739	-0.933073888644415	5.17800491627095E-02	1.96041731866715E-02			4.89381526502716E-02	1.91827730244186E-02	-0.182589561529046	-0.911666350623697
1469000000	-0.196562617719755	-0.932934423024339	0.051759440927976	1.95260312845892E-02			4.89110247774924E-02	1.91788078111961E-02	-0.183340195110436	-0.91121144921994
1469500000	-0.19704151920568	-0.933136430593321	5.17234423084051E-02	1.94707103140021E-02			4.88324998294979E-02	1.91856123755109E-02	-0.184031210249871	-0.911022695816637
1470000000	-0.197674439837244	-0.9328730488207	5.16761347883342E-02	1.94445787829083E-02			0.048787863154668	0.019174870530417	-0.184591931334466	-0.910780500775061
1470500000	-0.198341935306324	-0.93336541923418	5.16699338008376E-02	1.93764742720191E-02			4.87571968751625E-02	1.92136808274538E-02	-0.185172740933553	-0.911134506314351
1471000000	-0.19921120492265	-0.933074311737237	5.16446659734821E-02	0.019332783996653			4.87023043638399E-02	1.92326298751436E-02	-0.185624559951757	-0.910299962007897
1471500000	-0.19997456679242	-0.933240023652474	5.16142788307089E-02	0.019310439313185			4.86730008671437E-02	1.92251324398808E-02	-0.186416473505656	-0.910336785823661
1472000000	-0.200849475489477	-0.93300648700229	5.15590266550409E-02	1.92422516997925E-02			4.86450797763543E-02	1.92503035600083E-02	-0.186824423334487	-0.910341005641823
1472500000	-0.201540970268496	-0.933049083836172	0.05154958302303	1.92136755273368E-02			4.85734767070574E-02	0.019261842933954	-0.187530136073819	-0.909716861225458
1473000000	-0.202521190651356	-0.93320572064119	5.15307020613635E-02	1.91789782202743E-02			4.85399366285306E-02	1.92959794908997E-02	-0.187679307012367	-0.909856573321871
1473500000	-0.203825058720795	-0.932642988205153	5.14652871546972E-02	1.91485308139698E-02			4.84873506407811E-02	1.93188771436124E-02	-0.188840485966293	-0.909268973005852
1474000000	-0.204452372357277	-0.932257176190547	5.14221663035431E-02	1.91288806149292E-02			4.84496048093355E-02	1.93529314922709E-02	-0.188926118511016	-0.909470353604823
1474500000	-0.205516200402604	-0.932555327830132	5.13818172031205E-02	1.90981960395801E-02			4.83979095040967E-02	1.93555126777843E-02	-0.190056418012683	-0.909453100919726
1475000000	-0.206100818753512	-0.932227444632243	5.13324027382717E-02	1.90950448630159E-02			4.83759643039533E-02	1.93780275818553E-02	-0.190712212686024	-0.908954892452182
1475500000	-0.207016827385625	-0.931715249220078	5.13059775160967E-02	1.90363984301757E-02			0.048377091254391	1.94550298381013E-02	-0.191583035611722	-0.909344093377154
1476000000	-0.208003347563584	-0.931758543740729	5.13050489340598E-02	1.90350794766169E-02			4.83026339100461E-02	1.94709282189027E-02	-0.191768537740482	-0.908895598082315
1476500000	-0.208760093332374	-0.931552204837098	5.12799602273426E-02	1.90205011907968E-02			4.82886100273678E-02	1.94839185207978E-02	-0.193049704015636	-0.909027838789979
1477000000	-0.209924722252586	-0.9311780932886	5.12586899311749E-02	1.89700361656794E-02			4.82814737598525E-02	1.95548346431738E-02	-0.193418756767245	-0.909048697293119
1477500000	-0.210822118882712	-0.930771108486231	5.12363742396784E-02	1.89690588131618E-02			4.82479439141621E-02	1.95576561379966E-02	-0.194733965006113	-0.908518053127865
1478000000	-0.211747849508415	-0.930157751860187	5.11923981272131E-02	0.018941190991804			4.82586033964243E-02	1.95730585273806E-02	-0.195410007580034	-0.908477495091576
1478500000	-0.212227148880644	-0.930269797016056	5.12110738546374E-02	1.89285026218814E-02			4.82809720745907E-02	1.96044776975199E-02	-0.19639479656545	-0.908326997840771
1479000000	-0.2131333479682	-0.929689215542855	5.12144443287675E-02	1.88720433921947E-02			0.048258966939433	1.96576792580193E-02	-0.197184777546422	-0.908127994294994
1479500000	-0.213810338223588	-0.929360161035396	5.11723722955914E-02	1.88347447701856E-02			4.82687743699928E-02	1.96763686188547E-02	-0.197865291259399	-0.907465747916704
1480000000	-0.214486850803652	-0.928915687283563	5.11735752787759E-02	1.88281365986783E-02			4.82524685824078E-02	1.97224268768752E-02	-0.19849382817908	-0.907688884034001
1480500000	-0.215469190205243	-0.928290635079961	5.11701471908394E-02	1.87768368860246E-02			4.82387490489654E-02	1.97060374148646E-02	-0.19934213786102	-0.907594980009253
1481000000	-0.216242429753385	-0.928266822779132	5.11627924090135E-02	1.87411820445898E-02			4.82377785569232E-02	1.97695979338847E-02	-0.20064034785797	-0.906852048127068
1481500000	-0.21708688333075	-0.927623849836708	5.11554244483405E-02	1.86927280579212E-02			4.82887048854236E-02	1.97812405648383E-02	-0.201188100777286	-0.90668068807037
1482000000	-0.217845304835647	-0.927099501702351	5.11638922151931E-02	1.86954028698695E-02			4.82959400284336E-02	0.019813151151124	-0.202480768730644	-0.906647921541762
1482500000	-0.218725407849383	-0.926607982136835	5.12354141249005E-02	1.86406677899122E-02			4.83689431330838E-02	1.97712828862093E-02	-0.204223961972427	-0.905099469463724
1483000000	-0.220121089286312	-0.925752477982924	0.051207598366112	1.82147735682771E-02			4.83833495206933E-02	1.94446865260594E-02	-0.203762306215794	-0.89778155019614
1483500000	-0.2220460840576	-0.921573549942879	5.10493697447548E-02	1.83054192587841E-02			0.048237122616128	1.96049803513854E-02	-0.200384704021964	-0.904958986244721
1484000000	-0.215975675873679	-0.925399002836543	5.07496604188388E-02	1.84846288117444E-02			4.80043170532691E-02	1.98284965243266E-02	-0.202857855294645	-0.905450710759991
1484500000	-0.218206252462582	-0.926092991601913	5.08412127955614E-02	1.84878349617581E-02			4.80842796330489E-02	1.97956467989029E-02	-0.203780159736521	-0.904071960234544
1485000000	-0.219524248545437	-0.925794349900493	5.07517444405576E-02	1.84414274037182E-02			4.80530319320138E-02	1.98434478730342E-02	-0.202856772870053	-0.904294712459738
1485500000	-0.218812730634422	-0.924129221771918	5.07382881458085E-02	1.83879634281092E-02			4.80776697139199E-02	1.98720672305246E-02	-0.204400967860581	-0.90555653803716
1486000000	-0.220455704674353	-0.926186309186189	0.050771869138061	0.01842145837966			4.80777650352897E-02	1.99784886748113E-02	-0.205836715384646	-0.904700437611913
1486500000	-0.221506147963351	-0.926226779169421	5.07836038966645E-02	1.84139316431775E-02			0.048115247747029	1.99846073107712E-02	-0.206671877716478	-0.904534935128245
1487000000	-0.222138618200262	-0.926083292451974	5.07167816243998E-02	1.83833055458585E-02			4.81245284373355E-02	2.00081363481299E-02	-0.207154899714967	-0.904441622994203
1487500000	-0.223233304988136	-0.925911675178631	5.07359739075518E-02	1.83468859569236E-02			4.81494222165327E-02	1.99813142716476E-02	-0.208696824752206	-0.903743924196156
1488000000	-0.223965662996003	-0.925869239101757	5.06901111845001E-02	1.83107796886066E-02			0.048142436258637	2.00025893870932E-02	-0.20860704514402	-0.903527153315737
1488500000	-0.224292423342749	-0.925138777716318	5.06074425483575E-02	1.82482978716494E-02			4.81166479198979E-02	2.00463015729409E-02	-0.209520605693275	-0.903979406223531
1489000000	-0.225687594474436	-0.925686073831711	5.05747537414731E-02	1.82510384666723E-02			4.81188551436938E-02	2.01015291651545E-02	-0.210098626416945	-0.903083859674354
1489500000	-0.226537175968001	-0.925523194948706	5.06420634265972E-02	1.82559030053622E-02			4.81917169975268E-02	2.01289710342699E-02	-0.210802289820943	-0.902925111598159
1490000000	-0.227664219153146	-0.92550424579291	5.06037748208335E-02	1.82371680455626E-02			4.81945637943869E-02	2.01389826062743E-02	-0.212060634153036	-0.902959253237265
1490500000	-0.228471858339535	-0.925230802732767	0.050626117123101	0.01821775992277			4.82605288524188E-02	2.01398347409362E-02	-0.212909290313488	-0.902556760236589
1491000000	-0.230029668992922	-0.924542610446755	5.07615429837938E-02	1.81663332834167E-02			4.84452787915849E-02	2.01400882660419E-02	-0.213912294607741	-0.901727738960326
1491500000	-0.230558661752808	-0.924189239407297	5.03102863258664E-02	1.75571472612302E-02			4.80535038660653E-02	1.95472841746375E-02	-0.21444184422499	-0.900920138051892
1492000000	-0.232371382602065	-0.923547074577775	5.02606560250056E-02	0.017849235033041			4.80465502648373E-02	1.98743149393877E-02	-0.213808275880913	-0.897332282451849
1492500000	-0.232590059898781	-0.917546151278316	5.01962515408987E-02	1.77414271153897E-02			4.80359319421284E-02	1.98720535643002E-02	-0.212974026544909	-0.901776583491754
1493000000	-0.229481610787523	-0.924460215913143	5.00651228187427E-02	1.81278665252817E-02			4.78859507336882E-02	2.02334775718744E-02	-0.214606356724565	-0.901846510112476
1493500000	-0.232103913287877	-0.924415982536939	4.99740880320375E-02	1.80000287658556E-02			4.78600217724669E-02	2.01610833901362E-02	-0.215277727284694	-0.901744847922538
1494000000	-0.233668589165665	-0.923758029249445	5.00261573666934E-02	1.82414147029198E-02			4.79395675720583E-02	2.03774345896284E-02	-0.216223990358654	-0.901794431764351
1494500000	-0.234625761598994	-0.923506484904555	5.00564100563101E-02	1.82161765218759E-02			4.80267933030231E-02	2.04693256211874E-02	-0.217182615876505	-0.901372481370136
1495000000	-0.235839496654946	-0.923287561089174	5.00661655731351E-02	1.82662613451708E-02			4.80961936389702E-02	2.04979658486236E-02	-0.218319842469061	-0.90138669503257
1495500000	-0.236784268233139	-0.922431330826018	5.00610133068573E-02	1.82575848180394E-02			4.81398434476204E-02	2.05640389651433E-02	-0.218997100286903	-0.901133912197863
1496000000	-0.237752463796601	-0.922145630612825	5.00794035765382E-02	1.82425912187948E-02			4.82139873359139E-02	2.05759448260464E-02	-0.220115823147301	-0.900454112370724
1496500000	-0.238335128856322	-0.921482093177675	5.01338481269425E-02	1.82144404804298E-02			4.83174810391555E-02	2.05640809357265E-02	-0.220702313520324	-0.900682858550463
1497000000	-0.23941241462932	-0.921048605072855	0.050078619796862	1.82072288295511E-02			4.82768818751476E-02	2.06355213557462E-02	-0.221171182037198	-0.899896337886084
1497500000	-0.240023288549287	-0.920634707908797	5.01215148778703E-02	1.82179753359745E-02			4.83548352535547E-02	2.06491362392755E-02	-0.222077204634842	-0.899941514198384
1498000000	-0.240359149129523	-0.920540668915014	5.01037563781561E-02	1.82223165871713E-02			4.84294667062907E-02	2.06909643986443E-02	-0.223066752639528	-0.900051861846607
1498500000	-0.240807066756025	-0.920096297039118	5.01343589174627E-02	1.82464739731983E-02			4.85022896204824E-02	2.06849906812186E-02	-0.223758432240028	-0.899678582253874
1499000000	-0.241509677134439	-0.919166105541403	5.01307888129028E-02	1.81975498022568E-02			4.85868335679619E-02	2.07342893257193E-02	-0.224433456061204	-0.899632794226231
1499500000	-0.242355105539768	-0.919148435979296	5.01966202582947E-02	1.81759690817274E-02			4.86694081386431E-02	2.07230380865877E-02	-0.225588772979198	-0.899575129989918
1500000000	-0.242807931451131	-0.919038363125456	5.02356479916945E-02	1.81575928356587E-02			4.87634540337176E-02	2.07380001385284E-02	-0.226319381026675	-0.899200495841827
