!sf1186b-2, demo1,narrow,bn,7/20/05
# HZ S RI R 50
1559670016     -0.2667236      0.0697784     -0.4294739     -0.2088623     -0.3807983     -0.2118225     -0.2259979      0.2311707
1559689728     -0.2668152      0.0693359     -0.4315186     -0.2075195     -0.3822937     -0.2108459     -0.2261963      0.2312012
1559709440     -0.2667084      0.0686493     -0.4328308     -0.2058716     -0.3839722     -0.2095337     -0.2261658      0.2318573
1559729024     -0.2671051      0.0686035     -0.4345398     -0.2048645     -0.3852539     -0.2085266     -0.2249298      0.2318115
1559748736     -0.2681122      0.0681305     -0.4365845     -0.2037659     -0.3875122     -0.2076111     -0.2255402      0.2320404
1559768448     -0.2683563      0.0678406     -0.4385376     -0.2023010     -0.3888245     -0.2064819     -0.2251129      0.2317963
1559788160     -0.2682648      0.0676422     -0.4403381     -0.2015686     -0.3901062     -0.2060852     -0.2245789      0.2323761
1559807872     -0.2687073      0.0672913     -0.4415894     -0.1999207     -0.3914185     -0.2048340     -0.2248840      0.2324219
1559827456     -0.2691193      0.0678253     -0.4437561     -0.1986389     -0.3933716     -0.2034302     -0.2238770      0.2330322
1559847168     -0.2698059      0.0674591     -0.4454956     -0.1970520     -0.3946228     -0.2022400     -0.2232819      0.2328949
1559866880     -0.2696991      0.0666504     -0.4471741     -0.1964111     -0.3964539     -0.2017517     -0.2233429      0.2326660
1559886592     -0.2702637      0.0666199     -0.4489746     -0.1952515     -0.3983154     -0.2001648     -0.2230835      0.2322998
1559906304     -0.2710571      0.0664520     -0.4505310     -0.1934509     -0.3992004     -0.1995239     -0.2227020      0.2326508
1559926016     -0.2714844      0.0666199     -0.4521179     -0.1918640     -0.4017029     -0.1983643     -0.2220612      0.2332001
1559945600     -0.2719574      0.0659790     -0.4538574     -0.1909180     -0.4020386     -0.1973267     -0.2221527      0.2337952
1559965312     -0.2720490      0.0660706     -0.4552307     -0.1896973     -0.4038696     -0.1962585     -0.2218781      0.2334137
1559985024     -0.2723236      0.0657806     -0.4570007     -0.1881714     -0.4060364     -0.1949768     -0.2213593      0.2330780
1560004736     -0.2731018      0.0654449     -0.4587402     -0.1865540     -0.4071350     -0.1942749     -0.2208862      0.2337341
1560024448     -0.2738037      0.0656433     -0.4606018     -0.1854248     -0.4088745     -0.1933594     -0.2208557      0.2338257
1560044032     -0.2743073      0.0655365     -0.4624023     -0.1840820     -0.4100952     -0.1920166     -0.2202530      0.2338867
1560063744     -0.2746124      0.0654907     -0.4639282     -0.1831970     -0.4120483     -0.1906128     -0.2200470      0.2341537
1560083456     -0.2755890      0.0656281     -0.4652710     -0.1813354     -0.4134827     -0.1899414     -0.2194672      0.2341385
1560103168     -0.2758636      0.0646973     -0.4677734     -0.1803894     -0.4148254     -0.1886292     -0.2193375      0.2344437
1560122880     -0.2757874      0.0651855     -0.4689331     -0.1780701     -0.4159546     -0.1877136     -0.2194366      0.2340927
1560142464     -0.2768250      0.0651245     -0.4705505     -0.1770325     -0.4178772     -0.1870422     -0.2184448      0.2343369
1560162176     -0.2775421      0.0652008     -0.4718018     -0.1754150     -0.4193115     -0.1856995     -0.2186050      0.2341766
1560181888     -0.2776489      0.0649719     -0.4739990     -0.1738281     -0.4205627     -0.1842346     -0.2189636      0.2341156
1560201600     -0.2777252      0.0649261     -0.4758301     -0.1722412     -0.4219666     -0.1828613     -0.2182465      0.2345352
1560221312     -0.2784576      0.0646515     -0.4774475     -0.1710815     -0.4241943     -0.1821289     -0.2175980      0.2345734
1560240896     -0.2790375      0.0650330     -0.4786682     -0.1695251     -0.4250488     -0.1804504     -0.2172241      0.2345123
1560260608     -0.2796631      0.0652313     -0.4806213     -0.1676331     -0.4273376     -0.1794739     -0.2168884      0.2352066
1560280320     -0.2798309      0.0651855     -0.4822388     -0.1660461     -0.4283752     -0.1785278     -0.2166214      0.2353897
1560300032     -0.2800140      0.0653992     -0.4838867     -0.1647644     -0.4297485     -0.1770935     -0.2165375      0.2357483
1560319744     -0.2802277      0.0650177     -0.4856873     -0.1629028     -0.4315796     -0.1755371     -0.2160110      0.2351913
1560339328     -0.2811890      0.0655365     -0.4867859     -0.1620789     -0.4330750     -0.1746216     -0.2159653      0.2352829
1560359040     -0.2815399      0.0652924     -0.4891052     -0.1603699     -0.4341125     -0.1730042     -0.2155762      0.2352219
1560378752     -0.2815247      0.0654602     -0.4904175     -0.1588440     -0.4361267     -0.1719055     -0.2146301      0.2348404
1560398464     -0.2825317      0.0658722     -0.4919128     -0.1569824     -0.4372864     -0.1709900     -0.2146301      0.2353897
1560418176     -0.2827148      0.0655670     -0.4928894     -0.1547546     -0.4387207     -0.1695251     -0.2144699      0.2353287
1560437888     -0.2821503      0.0657349     -0.4953918     -0.1536255     -0.4404602     -0.1685181     -0.2135086      0.2353210
1560457472     -0.2834625      0.0658264     -0.4963684     -0.1519165     -0.4416199     -0.1670532     -0.2131424      0.2350235
1560477184     -0.2835541      0.0659027     -0.4981995     -0.1504517     -0.4434814     -0.1662598     -0.2129974      0.2361526
1560496896     -0.2838898      0.0659637     -0.5005188     -0.1482239     -0.4455872     -0.1640625     -0.2124634      0.2354813
1560516608     -0.2843628      0.0658722     -0.5018921     -0.1471863     -0.4467773     -0.1622925     -0.2119827      0.2354736
1560536320     -0.2847900      0.0662689     -0.5030212     -0.1448059     -0.4480286     -0.1617432     -0.2117844      0.2353897
1560555904     -0.2845612      0.0664825     -0.5041504     -0.1428528     -0.4493408     -0.1600952     -0.2106705      0.2358932
1560575616     -0.2851410      0.0661926     -0.5062256     -0.1410522     -0.4512329     -0.1590576     -0.2111511      0.2358780
1560595328     -0.2852020      0.0667877     -0.5072021     -0.1397705     -0.4529724     -0.1571655     -0.2105942      0.2359848
1560615040     -0.2859497      0.0669098     -0.5094299     -0.1376038     -0.4539795     -0.1559753     -0.2102814      0.2358932
1560634752     -0.2860718      0.0666656     -0.5107117     -0.1352539     -0.4553528     -0.1545410     -0.2100677      0.2358017
1560654336     -0.2861176      0.0671387     -0.5118103     -0.1339417     -0.4567871     -0.1528625     -0.2095337      0.2363052
1560674048     -0.2869873      0.0673981     -0.5136108     -0.1319885     -0.4583435     -0.1509094     -0.2087250      0.2365570
1560693760     -0.2875366      0.0671844     -0.5149841     -0.1304321     -0.4597473     -0.1504211     -0.2084961      0.2361526
1560713472     -0.2874146      0.0670319     -0.5169373     -0.1283875     -0.4608765     -0.1478882     -0.2080994      0.2356949
1560733184     -0.2876892      0.0677490     -0.5181885     -0.1266785     -0.4627686     -0.1468201     -0.2080383      0.2362823
1560752768     -0.2878113      0.0685577     -0.5193176     -0.1243286     -0.4638672     -0.1453857     -0.2069855      0.2362595
1560772480     -0.2884674      0.0682983     -0.5205078     -0.1225586     -0.4649963     -0.1434631     -0.2073593      0.2361069
1560792192     -0.2887115      0.0687103     -0.5225220     -0.1208191     -0.4665527     -0.1428528     -0.2063141      0.2364426
1560811904     -0.2886200      0.0690155     -0.5232849     -0.1188354     -0.4671021     -0.1406860     -0.2059402      0.2362747
1560831616     -0.2890625      0.0691833     -0.5249329     -0.1171875     -0.4693604     -0.1396790     -0.2055435      0.2366486
1560851328     -0.2891693      0.0689240     -0.5258179     -0.1149597     -0.4709473     -0.1380310     -0.2050858      0.2365189
1560870912     -0.2892303      0.0693207     -0.5277100     -0.1129761     -0.4718628     -0.1357117     -0.2046661      0.2369385
1560890624     -0.2896881      0.0698090     -0.5289001     -0.1113586     -0.4732666     -0.1347656     -0.2039871      0.2364044
1560910336     -0.2897186      0.0693054     -0.5309753     -0.1089172     -0.4748840     -0.1325073     -0.2035522      0.2368698
1560930048     -0.2904510      0.0698242     -0.5317078     -0.1072693     -0.4761353     -0.1312561     -0.2034378      0.2361526
1560949760     -0.2906036      0.0700684     -0.5332031     -0.1050110     -0.4774780     -0.1295471     -0.2031479      0.2359848
1560969344     -0.2906189      0.0704803     -0.5342407     -0.1027527     -0.4788513     -0.1286926     -0.2023926      0.2363815
1560989056     -0.2903748      0.0704041     -0.5354309     -0.1008606     -0.4799500     -0.1271973     -0.2019043      0.2367249
1561008768     -0.2914429      0.0708160     -0.5366211     -0.0990601     -0.4808350     -0.1254272     -0.2018127      0.2359924
1561028480     -0.2909393      0.0713501     -0.5382996     -0.0968018     -0.4824219     -0.1235046     -0.2010727      0.2361755
1561048192     -0.2912598      0.0713348     -0.5391541     -0.0949097     -0.4836731     -0.1219788     -0.2002335      0.2362671
1561067776     -0.2920532      0.0718231     -0.5404663     -0.0930481     -0.4849243     -0.1200256     -0.2011642      0.2362289
1561087488     -0.2921753      0.0722809     -0.5416870     -0.0908203     -0.4861755     -0.1184387     -0.1999817      0.2359238
1561107200     -0.2921295      0.0720978     -0.5426636     -0.0885620     -0.4873352     -0.1169128     -0.1997681      0.2360535
1561126912     -0.2920837      0.0725708     -0.5442505     -0.0866394     -0.4886475     -0.1149597     -0.1991043      0.2357101
1561146624     -0.2924500      0.0733032     -0.5445862     -0.0852356     -0.4897461     -0.1134949     -0.1988068      0.2361221
1561166208     -0.2925873      0.0733948     -0.5462036     -0.0829773     -0.4911194     -0.1116638     -0.1979370      0.2355423
1561185920     -0.2929382      0.0736542     -0.5478516     -0.0803528     -0.4924316     -0.1101379     -0.1980743      0.2354584
1561205632     -0.2926331      0.0732880     -0.5487366     -0.0787354     -0.4933472     -0.1086731     -0.1973190      0.2357941
1561225344     -0.2934265      0.0740356     -0.5495605     -0.0763245     -0.4946289     -0.1060181     -0.1969376      0.2360382
1561245056     -0.2929230      0.0739746     -0.5506287     -0.0745544     -0.4954529     -0.1046448     -0.1967926      0.2357178
1561264640     -0.2928925      0.0741425     -0.5516663     -0.0723267     -0.4971313     -0.1034546     -0.1952591      0.2357254
1561284352     -0.2938385      0.0751038     -0.5533752     -0.0700684     -0.4985046     -0.1020508     -0.1954041      0.2355118
1561304064     -0.2932587      0.0743561     -0.5539856     -0.0678711     -0.4990234     -0.0999756     -0.1944885      0.2359619
1561323776     -0.2941742      0.0752106     -0.5552063     -0.0654602     -0.5009460     -0.0984192     -0.1940231      0.2353745
1561343488     -0.2939453      0.0756683     -0.5560608     -0.0635986     -0.5013123     -0.0965881     -0.1935577      0.2354584
1561363200     -0.2934875      0.0765228     -0.5570068     -0.0608826     -0.5031128     -0.0949097     -0.1931686      0.2347794
1561382784     -0.2936859      0.0767517     -0.5581970     -0.0590210     -0.5037537     -0.0924072     -0.1923904      0.2356033
1561402496     -0.2942352      0.0770416     -0.5591736     -0.0568848     -0.5058899     -0.0911255     -0.1919937      0.2353592
1561422208     -0.2938843      0.0771637     -0.5604553     -0.0546570     -0.5061951     -0.0892944     -0.1907959      0.2362823
1561441920     -0.2941437      0.0774536     -0.5615234     -0.0526123     -0.5079346     -0.0878296     -0.1912231      0.2355652
1561461632     -0.2942505      0.0774689     -0.5625305     -0.0500793     -0.5081482     -0.0858765     -0.1909637      0.2349625
1561481216     -0.2939911      0.0780334     -0.5629272     -0.0480957     -0.5097961     -0.0838318     -0.1903839      0.2358475
1561500928     -0.2940521      0.0783844     -0.5644836     -0.0458679     -0.5108948     -0.0823059     -0.1900558      0.2350464
1561520640     -0.2941284      0.0788879     -0.5654907     -0.0440369     -0.5117493     -0.0806885     -0.1891632      0.2354660
1561540352     -0.2942657      0.0790100     -0.5662231     -0.0416870     -0.5130005     -0.0786438     -0.1893005      0.2350235
1561560064     -0.2941437      0.0791168     -0.5680847     -0.0396729     -0.5139771     -0.0773010     -0.1878738      0.2353287
1561579648     -0.2938995      0.0797424     -0.5680847     -0.0373535     -0.5147705     -0.0751343     -0.1882324      0.2349548
1561599360     -0.2938385      0.0802765     -0.5692444     -0.0345764     -0.5156860     -0.0734863     -0.1873245      0.2351837
1561619072     -0.2940674      0.0803528     -0.5704041     -0.0329895     -0.5176697     -0.0715027     -0.1865234      0.2350769
1561638784     -0.2938232      0.0804291     -0.5707397     -0.0305481     -0.5180969     -0.0692444     -0.1866226      0.2349701
1561658496     -0.2944031      0.0807343     -0.5717163     -0.0282593     -0.5195618     -0.0675964     -0.1855698      0.2342453
1561678080     -0.2944183      0.0809326     -0.5735168     -0.0262146     -0.5202026     -0.0658264     -0.1854553      0.2349548
1561697792     -0.2940979      0.0819092     -0.5731812     -0.0240173     -0.5214233     -0.0639343     -0.1843796      0.2345505
1561717504     -0.2941742      0.0817566     -0.5744324     -0.0209961     -0.5227051     -0.0621643     -0.1838837      0.2346268
1561737216     -0.2936249      0.0824280     -0.5754089     -0.0194397     -0.5234680     -0.0604553     -0.1836014      0.2341995
1561756928     -0.2942963      0.0820465     -0.5757141     -0.0164490     -0.5241699     -0.0579529     -0.1832428      0.2350616
1561776640     -0.2939758      0.0832520     -0.5769043     -0.0151367     -0.5255127     -0.0560608     -0.1826630      0.2346573
1561796224     -0.2944489      0.0830383     -0.5775452     -0.0126648     -0.5263367     -0.0547485     -0.1821136      0.2344971
1561815936     -0.2941437      0.0834198     -0.5781250     -0.0102234     -0.5272827     -0.0528259     -0.1815338      0.2343750
1561835648     -0.2938538      0.0843658     -0.5791016     -0.0080261     -0.5286560     -0.0504761     -0.1811371      0.2348862
1561855360     -0.2936401      0.0847015     -0.5794983     -0.0057983     -0.5294495     -0.0484009     -0.1809158      0.2343521
1561875072     -0.2939148      0.0847931     -0.5805969     -0.0037537     -0.5306091     -0.0465393     -0.1802139      0.2341003
1561894656     -0.2940521      0.0849457     -0.5811768     -0.0017090     -0.5312500     -0.0451965     -0.1799393      0.2341537
1561914368     -0.2934418      0.0852661     -0.5820618      0.0012512     -0.5324707     -0.0435791     -0.1787338      0.2337494
1561934080     -0.2932434      0.0856934     -0.5828247      0.0030518     -0.5329285     -0.0411072     -0.1780243      0.2342148
1561953792     -0.2935028      0.0852051     -0.5831299      0.0061646     -0.5338440     -0.0394287     -0.1778870      0.2340546
1561973504     -0.2926025      0.0861053     -0.5835571      0.0081482     -0.5341797     -0.0376587     -0.1771317      0.2342072
1561993088     -0.2928467      0.0864410     -0.5850830      0.0107422     -0.5361938     -0.0353394     -0.1765060      0.2338486
1562012800     -0.2931366      0.0870819     -0.5859070      0.0126038     -0.5365906     -0.0338745     -0.1758804      0.2338181
1562032512     -0.2923279      0.0871887     -0.5860291      0.0151672     -0.5377197     -0.0317688     -0.1760178      0.2336578
1562052224     -0.2926025      0.0871887     -0.5869446      0.0173950     -0.5383911     -0.0299377     -0.1746979      0.2337570
1562071936     -0.2926483      0.0880127     -0.5880737      0.0197449     -0.5398560     -0.0275269     -0.1740646      0.2333069
1562091520     -0.2920990      0.0876617     -0.5881958      0.0222168     -0.5404663     -0.0254517     -0.1731873      0.2334290
1562111232     -0.2922363      0.0888977     -0.5890808      0.0242920     -0.5412598     -0.0235901     -0.1728363      0.2332535
1562130944     -0.2917786      0.0885620     -0.5892029      0.0268860     -0.5419617     -0.0218201     -0.1722183      0.2335587
1562150656     -0.2915192      0.0894165     -0.5897217      0.0293884     -0.5425415     -0.0201416     -0.1716003      0.2337036
1562170368     -0.2914124      0.0899048     -0.5903625      0.0319214     -0.5434265     -0.0178833     -0.1716919      0.2331772
1562190080     -0.2916260      0.0897675     -0.5909424      0.0337219     -0.5444031     -0.0161438     -0.1703110      0.2324905
1562209664     -0.2913818      0.0903168     -0.5920105      0.0359802     -0.5450134     -0.0137329     -0.1699829      0.2331085
1562229376     -0.2909393      0.0907593     -0.5921631      0.0382996     -0.5461731     -0.0119019     -0.1693649      0.2329178
1562249088     -0.2910461      0.0910034     -0.5928955      0.0405884     -0.5459290     -0.0101013     -0.1692886      0.2322464
1562268800     -0.2903442      0.0915070     -0.5933838      0.0427551     -0.5476379     -0.0081177     -0.1679382      0.2326889
1562288512     -0.2907257      0.0921021     -0.5936584      0.0454102     -0.5484924     -0.0057983     -0.1673050      0.2319336
1562308096     -0.2903595      0.0920105     -0.5945129      0.0476685     -0.5494385     -0.0041504     -0.1669159      0.2321625
1562327808     -0.2901611      0.0922546     -0.5949402      0.0502625     -0.5498657     -0.0017395     -0.1661224      0.2310791
1562347520     -0.2897339      0.0926361     -0.5955505      0.0519104     -0.5509033      0.0005188     -0.1658096      0.2319412
1562367232     -0.2894287      0.0928650     -0.5957031      0.0550232     -0.5516968      0.0022278     -0.1650848      0.2318039
1562386944     -0.2897644      0.0927277     -0.5965576      0.0570374     -0.5526733      0.0041504     -0.1645126      0.2311325
1562406528     -0.2893982      0.0933838     -0.5964355      0.0593262     -0.5534973      0.0065002     -0.1638565      0.2312088
1562426240     -0.2890930      0.0937958     -0.5976868      0.0615845     -0.5534668      0.0081177     -0.1630478      0.2314072
1562445952     -0.2886658      0.0941467     -0.5973511      0.0645752     -0.5545044      0.0100708     -0.1621323      0.2310028
1562465664     -0.2888794      0.0951233     -0.5977478      0.0661621     -0.5552368      0.0124817     -0.1626892      0.2308502
1562485376     -0.2885437      0.0950317     -0.5982056      0.0690918     -0.5560303      0.0145874     -0.1618042      0.2312393
1562504960     -0.2881775      0.0944824     -0.5982666      0.0706787     -0.5563965      0.0166016     -0.1606216      0.2304611
1562524672     -0.2877350      0.0954590     -0.5990601      0.0736084     -0.5573120      0.0184937     -0.1597900      0.2305603
1562544384     -0.2875671      0.0959930     -0.5996399      0.0755920     -0.5588074      0.0206909     -0.1590347      0.2303772
1562564096     -0.2870483      0.0959320     -0.5997314      0.0786438     -0.5588684      0.0227966     -0.1586533      0.2300110
1562583808     -0.2862854      0.0963135     -0.6004639      0.0805359     -0.5589294      0.0247803     -0.1582260      0.2299194
1562603392     -0.2864380      0.0968170     -0.6003113      0.0832825     -0.5601807      0.0266113     -0.1573792      0.2295990
1562623104     -0.2863312      0.0972290     -0.6013489      0.0849304     -0.5605164      0.0291443     -0.1568680      0.2296982
1562642816     -0.2861328      0.0973206     -0.6007080      0.0881958     -0.5615540      0.0309143     -0.1560135      0.2292404
