# Hz S RI R 50
1425420000	-0.872125847696733	7.03410341581754E-03	6.27931586023538E-03	4.54294570539333E-03			6.25594164178529E-03	4.55070857705027E-03	-0.714893594913347	0.56302110821767
1425607500	-0.872654363621628	7.97898968226214E-03	6.26504042011388E-03	4.58531183505958E-03			6.31065984098418E-03	4.59194455974274E-03	-0.714451506805946	0.565251808040461
1425795000	-0.87260669299696	8.49492973973939E-03	6.27629790973756E-03	4.60651630547451E-03			6.28732378976563E-03	4.58599992725194E-03	-0.714004561553471	0.56438580140282
1425982500	-0.872513585655675	0.009456481138832	6.30086318963488E-03	4.62778326366251E-03			6.30108008594205E-03	4.59795439164637E-03	-0.713675799272663	0.564551902305443
1426170000	-0.872333229512804	9.79644364826176E-03	6.32182249631539E-03	4.59909262456506E-03			6.32485945216335E-03	4.59894213322049E-03	-0.712851487820135	0.564972829878745
1426357500	-0.871803535890687	9.51079271425678E-03	6.29555457830577E-03	4.66581645412944E-03			6.29499851931583E-03	4.61044078602808E-03	-0.712148604430538	0.56488245690153
1426545000	-0.871851264310092	1.11580157860839E-02	6.32975032004243E-03	4.67410013215045E-03			6.32461197852257E-03	4.67335856308017E-03	-0.711797887630712	0.565278443826286
1426732500	-0.870723400897089	1.14451063840676E-02	6.34718648998557E-03	4.65198625260893E-03			6.33327017279204E-03	4.65335308652439E-03	-0.711717237785734	0.563958222363561
1426920000	-0.871437767031184	1.22558232004663E-02	6.3636438755102E-03	4.68598723947455E-03			6.39476146311316E-03	4.68338892800254E-03	-0.711670875181583	0.565199660931474
1427107500	-0.872133530689873	1.27364423512315E-02	6.39176034522404E-03	4.70981122877967E-03			6.39700907739036E-03	4.68153985606321E-03	-0.711077678672565	0.565619956182386
1427295000	-0.871218000519477	1.29084437885356E-02	6.37207362711874E-03	4.68408427058715E-03			6.36956852470856E-03	4.6962288510558E-03	-0.711447823763466	0.566245159965152
1427482500	-0.87168870494338	1.45161288624158E-02	6.41666638555858E-03	4.72725471813786E-03			6.40568664808312E-03	4.68235133560623E-03	-0.710778713073261	0.566614593776404
1427670000	-0.871601269020705	1.45832939759047E-02	6.43036755402475E-03	4.72480041974479E-03			6.43423466980842E-03	4.72388729615965E-03	-0.709756459294546	0.566385654781772
1427857500	-0.871583012226973	1.53805812558878E-02	6.41769730630048E-03	4.70402687378494E-03			6.38637724685761E-03	4.72193984816247E-03	-0.709846954776727	0.566442072646756
1428045000	-0.871386860812448	1.55878761176504E-02	6.43231681673224E-03	4.74948752544078E-03			6.43957785525208E-03	4.73289848419583E-03	-0.71011462930454	0.567408454097153
1428232500	-0.870371928045903	1.58766523844124E-02	6.44847133515326E-03	4.74578570883454E-03			6.43708803879927E-03	4.72788709831851E-03	-0.709031928895195	0.567110101585381
1428420000	-0.870783969371715	1.68090030830261E-02	6.47356935377969E-03	4.75590538515445E-03			6.45925943243458E-03	4.72445719368877E-03	-0.708732514667021	0.56796234054535
1428607500	-0.871122976785805	1.72027578058003E-02	6.48525574065615E-03	4.75027341582818E-03			6.49814447047994E-03	4.77485562026008E-03	-0.709651725252474	0.567996161154338
1428795000	-0.870815996884398	1.75952414165397E-02	6.49116998316711E-03	4.74775930255499E-03			6.47949309489332E-03	4.7560690372773E-03	-0.709860782175509	0.568261892917718
1428982500	-0.871012465829363	1.84222417022852E-02	6.48411522297994E-03	4.7573636805141E-03			6.50140178466911E-03	4.7564451601559E-03	-0.708931288498223	0.569636131195511
1429170000	-0.870544605849392	1.94473362845208E-02	0.006498118846981	4.79867826328636E-03			6.49914685616917E-03	4.78292935471398E-03	-0.70895775156242	0.569834585168587
1429357500	-0.871312369031921	1.96475680826157E-02	6.53978047486472E-03	4.77917360851342E-03			6.52359492398937E-03	4.75085927663129E-03	-0.707467714836155	0.569956537972283
1429545000	-0.870747521330599	2.02972322812074E-02	6.53850249611075E-03	4.78411511383903E-03			6.5263944937123E-03	4.76269041214017E-03	-0.708423393616167	0.570780877337802
1429732500	-0.871084943073295	2.08415417704736E-02	6.53772066202439E-03	4.76971670039388E-03			6.54760728022778E-03	4.79504944472093E-03	-0.70889167696311	0.571361802582782
1429920000	-0.870641505521212	0.021181669450914	6.54351561370906E-03	4.81238294906508E-03			6.55818513808494E-03	4.81107574357808E-03	-0.707998285179799	0.57160345193416
1430107500	-0.871073795775866	2.20174131095796E-02	6.5442367144541E-03	4.7920085138146E-03			6.57340072757031E-03	4.80278329370078E-03	-0.70807134040802	0.573243812337969
1430295000	-0.870406962741502	2.22636427627456E-02	6.52884462851549E-03	4.8077066069684E-03			6.53509155994926E-03	4.75514128089182E-03	-0.706193951922825	0.573594014468308
1430482500	-0.870691591022165	2.37276683137685E-02	6.54097071036245E-03	4.81928861788325E-03			6.55729011152081E-03	4.82902429796405E-03	-0.70772521585715	0.573321406067097
1430670000	-0.870864188672577	2.40361044576907E-02	6.54111413367524E-03	4.8514137533239E-03			6.5565071986317E-03	4.82140811093514E-03	-0.706421804461473	0.574818358935667
1430857500	-0.871256703885447	2.50569099892164E-02	6.56475610763667E-03	4.84427856177723E-03			6.57745203965278E-03	4.84602199343655E-03	-0.705767150933047	0.575771025262854
1431045000	-0.870228742497531	2.55175002303889E-02	6.56919326920986E-03	4.84785291446479E-03			6.57675841247007E-03	4.84990908106707E-03	-0.706034812657147	0.575664639704815
1431232500	-0.871538539960917	2.59978610874895E-02	6.55892647597441E-03	4.87974819066141E-03			6.55167950921313E-03	4.87442326382158E-03	-0.705839335195906	0.576272840530188
1431420000	-0.87092590486833	2.64064722588205E-02	6.55957446484906E-03	4.89559236872091E-03			6.52158219527289E-03	4.91680619281597E-03	-0.705735720242085	0.577033144910294
1431607500	-0.870454336780685	2.74269172322505E-02	6.59772727004868E-03	4.90081441732053E-03			6.58316505309774E-03	4.92617071717262E-03	-0.704766448464131	0.578117953264381
1431795000	-0.870989419940844	2.81588416994397E-02	6.58342751468942E-03	4.92848118510199E-03			6.6242971838396E-03	4.89197380258192E-03	-0.704657845959764	0.578988088607977
1431982500	-0.870936115394667	2.89232765619045E-02	6.60363681627103E-03	4.95113455622734E-03			6.61411413143125E-03	4.93306919316354E-03	-0.704403009577637	0.578394445220917
1432170000	-0.870210309836582	3.00331133328069E-02	6.62512856966522E-03	4.95164447578647E-03			6.63540549045746E-03	4.95027492824307E-03	-0.703443693841395	0.579820272346509
1432357500	-0.870963773431795	0.029950900345786	6.62661121221243E-03	4.97160397569826E-03			6.62574366718826E-03	4.97784090361143E-03	-0.703517259114197	0.581182844929155
1432545000	-0.870222188593005	3.18923055579959E-02	6.66851931157755E-03	4.96811211193336E-03			6.63612174884203E-03	4.98377734555668E-03	-0.702871108211964	0.581102049010306
1432732500	-0.870477557976124	3.19839758555862E-02	6.65454566238729E-03	5.01111821872756E-03			6.63704934430486E-03	5.00372800777887E-03	-0.703322234155677	0.581887626134791
1432920000	-0.871247846588294	3.28345748167494E-02	6.66359400546746E-03	5.02277581823801E-03			6.68828869224022E-03	4.99347035372505E-03	-0.702249161453506	0.58289580831389
1433107500	-0.87091319911207	3.35415482496066E-02	6.66478900120248E-03	5.03101970890346E-03			6.64040281399751E-03	4.99321008451374E-03	-0.702071518583338	0.582623782237694
1433295000	-0.870480346447983	3.50803843754326E-02	6.71359386598056E-03	5.03873909137899E-03			6.68077068015322E-03	5.0485158575201E-03	-0.701258791335366	0.585514781500404
1433482500	-0.870544371811266	3.47743904342847E-02	6.7245418418246E-03	5.06245280668997E-03			6.69458082787455E-03	5.08189054171172E-03	-0.701497261209064	0.585213971949236
1433670000	-0.869937122525358	3.61468906063068E-02	6.71050036754626E-03	5.07612234249474E-03			6.71216680689576E-03	5.05950410570548E-03	-0.700768384598424	0.585756299142104
1433857500	-0.870359956178775	3.68930158197552E-02	6.72514306813342E-03	5.06353913138289E-03			6.72040022772338E-03	5.04897620880429E-03	-0.700270541389409	0.585988199918119
1434045000	-0.87016943177567	3.80196974765675E-02	6.71349711792148E-03	5.1009588173889E-03			6.74524416973154E-03	5.10183942039619E-03	-0.699174733807472	0.58807814160528
1434232500	-0.8698625128351	3.83151277565681E-02	6.75011227853041E-03	5.11108981619404E-03			6.73268486950338E-03	5.11235343272146E-03	-0.697876830342295	0.587645419967411
1434420000	-0.870686916197425	3.92865041385171E-02	6.77427487928982E-03	5.10393614294057E-03			6.74797026308668E-03	5.10943349678217E-03	-0.698576739733467	0.588018910701542
1434607500	-0.869551299973963	3.99436185255431E-02	6.76203131591968E-03	5.14555328800736E-03			6.75665203995557E-03	5.13967690135004E-03	-0.697837929847969	0.588872109076501
1434795000	-0.869766246027199	4.04104668482405E-02	6.75599232024449E-03	5.14440242679648E-03			6.78092926542483E-03	5.11883397506954E-03	-0.698168869794164	0.589429297411553
1434982500	-0.869472960446616	4.14728123005123E-02	6.7982965046612E-03	5.14085236835491E-03			6.79076118830006E-03	5.14276085421962E-03	-0.697551147256652	0.590990102912458
1435170000	-0.870400556401789	4.19563949718253E-02	6.82161547757522E-03	5.17496254344928E-03			6.80534480617894E-03	5.16821755596262E-03	-0.69540526100586	0.590959420873831
1435357500	-0.870354980626311	4.36440867520917E-02	6.81750957836421E-03	5.19429614235568E-03			6.81398325013173E-03	5.17013924783973E-03	-0.6955724415878	0.592220899989053
1435545000	-0.870351265652157	4.39468808009148E-02	6.83564855405318E-03	5.23342815907281E-03			6.85369448960377E-03	5.17964300221538E-03	-0.694650620547136	0.592701190613554
1435732500	-0.869235705815198	4.50529190486541E-02	6.86561673426093E-03	5.22333082644544E-03			6.83592512941629E-03	5.18363447939584E-03	-0.694267750516478	0.593925474142258
1435920000	-0.868516325249859	4.59033685641323E-02	6.83058140291003E-03	5.22605831399452E-03			6.83924470893733E-03	5.24664717873909E-03	-0.694511780097947	0.593737697543332
1436107500	-0.86900787230213	4.63377254702801E-02	6.88149663935294E-03	5.25692973793575E-03			6.85477591544118E-03	5.22970897294434E-03	-0.693723554586659	0.595081074017379
1436295000	-0.867714551131834	4.69621804150388E-02	6.88341649222819E-03	5.24356437518462E-03			6.86407728013529E-03	5.24465364893236E-03	-0.694245605734834	0.594559335304052
1436482500	-0.868678688565813	4.75107622816887E-02	6.90386442164969E-03	5.23574023813941E-03			6.91402757877022E-03	5.24170420713174E-03	-0.692630570509185	0.596505173671256
1436670000	-0.86680935143914	4.83251235204319E-02	6.91316553540077E-03	5.24100788834047E-03			6.92324028862617E-03	5.24094637286148E-03	-0.691305538247808	0.596702053721858
1436857500	-0.8676613412498	4.90269308398695E-02	6.94545953657207E-03	5.24374761792482E-03			6.93325045476844E-03	5.25940170691349E-03	-0.689825411021511	0.598869750306485
1437045000	-0.867823876898562	4.86562037251366E-02	6.94711278498671E-03	5.26738693240733E-03			6.92875756720157E-03	5.25952362533454E-03	-0.690944722582649	0.597695921992743
1437232500	-0.866662053177139	5.03372415448974E-02	6.96108866350567E-03	5.2785981174545E-03			6.93933023301798E-03	5.24196319297263E-03	-0.688934722140627	0.59947588091006
1437420000	-0.867048436416466	5.09792799614985E-02	6.97021027015505E-03	5.30918269067352E-03			6.9899269872195E-03	5.26646411371844E-03	-0.689347597433289	0.59985476491136
1437607500	-0.866752745177302	5.18374035812402E-02	6.97657453366359E-03	5.28356275044631E-03			6.96813793626849E-03	5.25613316174658E-03	-0.688999473094342	0.600126037734776
1437795000	-0.866563287482754	5.20573926229824E-02	6.9836068761338E-03	5.29989539669369E-03			6.96535797763903E-03	5.2516719694244E-03	-0.688109669902461	0.600071162993737
1437982500	-0.866077380752915	5.25091902786326E-02	6.99699969031064E-03	5.28527880372673E-03			6.98923987745753E-03	5.30005142131356E-03	-0.6858975716111	0.601259460594773
1438170000	-0.865853855791567	5.35088470487708E-02	7.00983113574508E-03	5.30940316565546E-03			6.99449931776154E-03	5.2872873844761E-03	-0.686413160496675	0.602923299185373
1438357500	-0.866598708614227	5.31724178809237E-02	7.00993917455833E-03	5.32424555134331E-03			6.99471318672222E-03	5.29768934635402E-03	-0.68580542186282	0.602762221687264
1438545000	-0.867237135982155	5.35678287031333E-02	7.02500243493906E-03	5.3412176568702E-03			6.98378886612286E-03	5.30208330519712E-03	-0.685721270953648	0.602716936450841
1438732500	-0.866418995658882	0.05458111840319	7.00256240905253E-03	5.33143465123627E-03			6.99934512516162E-03	5.28854465693813E-03	-0.684137521858193	0.605592959896465
1438920000	-0.866763582960063	5.53540418965548E-02	7.03669747370895E-03	5.35163218558295E-03			7.01824708347146E-03	5.36210536049265E-03	-0.684594397220028	0.605263939144012
1439107500	-0.866096929539283	5.58610730785792E-02	7.06086696473098E-03	5.34796518534813E-03			7.05349159582133E-03	5.36178836714148E-03	-0.682781414740806	0.605281281092146
1439295000	-0.866485662328197	0.056711572488963	7.03937973812603E-03	5.37237201574232E-03			7.06074646042046E-03	5.35677243218827E-03	-0.682088707060461	0.605619499029135
1439482500	-0.865970197660504	5.83018565621474E-02	7.02946807224635E-03	5.36921514157838E-03			7.04126562007508E-03	5.36648120871347E-03	-0.681558763620837	0.605706014908086
1439670000	-0.865179505184195	5.85335711129671E-02	7.0511219360013E-03	5.39695148892243E-03			7.02185988829265E-03	5.40285523939458E-03	-0.681248865080649	0.607169826451392
1439857500	-0.86593910552979	5.88893629418777E-02	7.07099623339999E-03	5.43110896518994E-03			7.06780312673366E-03	5.41447458803059E-03	-0.681073005856177	0.607897776176798
1440045000	-0.866042409666518	0.059758015916392	7.03691495092872E-03	5.46875349207071E-03			7.06472090771765E-03	5.43913654396831E-03	-0.680129074682	0.608146168837397
1440232500	-0.865696844252675	6.10849615093779E-02	7.09560522968617E-03	5.45042058641275E-03			7.07678559847441E-03	5.43399235528588E-03	-0.677985969228405	0.608048364153114
1440420000	-0.865178519616683	6.17394216516437E-02	7.09465730692332E-03	5.43117556251838E-03			7.09143629042304E-03	5.42299202923175E-03	-0.678373947664119	0.609597566181321
1440607500	-0.866611684510577	6.26784599623978E-02	7.09097717458998E-03	5.48028868604955E-03			7.0659047069313E-03	5.46572749554093E-03	-0.677305638747029	0.609036269792987
1440795000	-0.866134271437721	6.17955132661496E-02	7.08504576631614E-03	5.49859594605547E-03			7.0825676465556E-03	5.50380423690592E-03	-0.676778218283113	0.610288854106236
1440982500	-0.865380383604705	0.063381725254502	7.10898598646571E-03	5.53902470296172E-03			7.1358545349856E-03	5.47872981986108E-03	-0.674922716820676	0.611531048612775
1441170000	-0.864674172211539	6.46296648830825E-02	7.13824467861511E-03	5.50154908679491E-03			7.15171489845572E-03	5.48451719974908E-03	-0.673857884294715	0.611151184705234
1441357500	-0.86536834563258	6.51387873987558E-02	7.11135810017453E-03	5.53315093548314E-03			7.13768257260746E-03	5.50532481617261E-03	-0.67421585308187	0.612414918073455
1441545000	-0.864690600309698	6.55590477854062E-02	7.12545404070603E-03	5.55225212554707E-03			7.12704142286418E-03	5.51311524778463E-03	-0.672376061485988	0.612187408528637
1441732500	-0.865285425375244	6.68707771478565E-02	7.15349130850116E-03	5.55307077090153E-03			7.17313231813577E-03	5.55732035547092E-03	-0.672660535535295	0.612150138893521
1441920000	-0.864469241724379	6.73478766469543E-02	7.19642673500575E-03	5.55967162674634E-03			7.17458600464545E-03	5.57138141626264E-03	-0.672668354881323	0.612674328916261
1442107500	-0.865074562692473	6.84695604978959E-02	7.17401979037089E-03	5.57413231069295E-03			7.15925099744958E-03	5.55153353464322E-03	-0.671324322130131	0.612777528915116
1442295000	-0.865214318426251	6.84875104688679E-02	7.16850388089081E-03	5.58495153842842E-03			7.18328469209922E-03	5.56201707779772E-03	-0.670545133378059	0.613765784641214
1442482500	-0.865100066059846	6.88031703091634E-02	7.17855182525901E-03	5.61517390851436E-03			7.16226962876557E-03	5.59410076398072E-03	-0.669492631254002	0.614223845541398
1442670000	-0.863988293187626	0.070460069885688	7.16579593914748E-03	5.60480626321718E-03			7.18619173728085E-03	5.60910217847972E-03	-0.6685270613859	0.61504129741257
1442857500	-0.865296226885528	7.16048989206158E-02	7.20558482777803E-03	5.62240113471668E-03			7.18606079164114E-03	5.65476080334866E-03	-0.668956620658986	0.615901360213745
1443045000	-0.863966381018321	7.08738711041087E-02	7.20865627121403E-03	5.66832255868093E-03			7.22134055076785E-03	5.6656157156918E-03	-0.669182454155866	0.616102241074618
1443232500	-0.865134587141759	0.072054930766157	7.21371937181094E-03	5.65356614360339E-03			7.24140971703861E-03	5.64778847036912E-03	-0.666669915582994	0.617051510441296
1443420000	-0.863346945210999	7.36532653727409E-02	7.20293053341378E-03	5.69940409019341E-03			7.18605578854638E-03	5.64899347742517E-03	-0.664883837726375	0.616036089351295
1443607500	-0.864293556679331	7.42898126611397E-02	7.20798914054084E-03	5.70397852512751E-03			7.18482870087732E-03	5.70155452788874E-03	-0.665559514955956	0.61608279853701
1443795000	-0.86434934709358	7.46782218378216E-02	7.23521327998932E-03	5.7605156550153E-03			7.22333644810245E-03	5.70893458964433E-03	-0.664531770423333	0.615911135812334
1443982500	-0.86463562632119	7.53613075601313E-02	7.25034430177255E-03	5.76951393446205E-03			7.2493275446097E-03	5.73526508679812E-03	-0.664583482192047	0.618270407561336
1444170000	-0.86518284836593	7.51227932132734E-02	7.27808482914211E-03	5.79191553113216E-03			7.22908900536291E-03	5.7599482624545E-03	-0.66391687668018	0.618326925645926
1444357500	-0.86360639606919	7.74682427248606E-02	7.26032053422631E-03	5.79409437177558E-03			7.3020046683396E-03	5.76906505964196E-03	-0.662809425015287	0.619471874384513
1444545000	-0.863706362203005	7.83414869323866E-02	7.28226308014391E-03	5.78570994417524E-03			7.29587058624979E-03	5.76056297405969E-03	-0.661456161764529	0.61834964414891
1444732500	-0.864280092766335	7.88010553505804E-02	7.30935983188715E-03	5.83535449500288E-03			7.28260850882679E-03	5.80658743527994E-03	-0.66108274373779	0.620127196189926
1444920000	-0.863486310128052	7.99591398727923E-02	7.34117906853735E-03	5.81013924600311E-03			7.31114115395785E-03	5.81822224127214E-03	-0.661326314911796	0.619867537461668
1445107500	-0.863843362493105	8.05987979051618E-02	7.32463262897862E-03	5.82117123614217E-03			7.3278814982381E-03	5.81495252669551E-03	-0.65953507594749	0.619737217309814
1445295000	-0.863267976388449	0.08037035741107	7.33779362031314E-03	5.88170826759631E-03			7.33169173359921E-03	5.85622346720647E-03	-0.658385463485642	0.619608491611769
1445482500	-0.863250924052431	8.11200835723218E-02	7.39706543462816E-03	5.90401138594297E-03			7.37416488744457E-03	5.86881260233826E-03	-0.65864288406896	0.620458652414482
1445670000	-0.863092104481088	8.28275174042536E-02	7.36125188615455E-03	5.90827593144628E-03			7.32766576231183E-03	5.88353896515476E-03	-0.657307458941213	0.619826480610838
1445857500	-0.863038648300925	8.39837620628843E-02	7.39666620226868E-03	5.90693778739039E-03			7.37436039072906E-03	5.89979582380187E-03	-0.656979126712217	0.619957657517164
1446045000	-0.862451485146771	8.41999293739745E-02	7.37691112442034E-03	5.95051132621835E-03			7.42315661292877E-03	5.92431590364132E-03	-0.656791069114877	0.620299094436824
1446232500	-0.86255372678304	8.52340578906417E-02	7.42153494549345E-03	5.93927964645466E-03			7.3944030107474E-03	5.92890868362286E-03	-0.655396740540075	0.619904278693364
1446420000	-0.862244633527407	8.69529056672145E-02	7.44459113572035E-03	5.94877238894052E-03			7.41286098886163E-03	5.93075081345247E-03	-0.656283442109791	0.621362445517929
1446607500	-0.862164993734351	8.70389547851815E-02	7.42618150487629E-03	5.99659186568752E-03			7.45588952510019E-03	6.01086511547969E-03	-0.65588610424821	0.62073828428237
1446795000	-0.860727955410678	0.088555523486112	7.45213250402455E-03	5.99041967867126E-03			7.44848016637129E-03	5.99099315858753E-03	-0.655148115380754	0.620437897216545
