# Hz S RI R 50
300000	1.00373128819209	3.10219774308222E-04	-5.31594873784507E-06	-2.79701656683255E-05			-1.42798663297193E-05	5.40738760518335E-06	1.00172624932943	-6.3759946039068E-04
2174812.5	0.999418736652051	-5.21702766796757E-03	1.7594670491893E-05	7.1878479035026E-05			1.00037831023704E-05	6.455223046879E-05	1.00104397122995	-6.32151016882495E-03
4049625	1.00041769402511	-9.02294576928418E-03	-1.13425905060637E-05	1.09746338369906E-04			2.06168865706022E-06	1.27792815620149E-04	0.999853035786431	-1.26349286200101E-02
5924437.5	0.999426558534103	-1.32988482601051E-02	-2.71691534452316E-05	2.07999465051789E-04			-2.7087634891559E-05	1.71811564857414E-04	0.999255413806935	-0.017911368249119
7799250	1.00002958540584	-1.74999786883445E-02	-8.46304392481715E-05	1.43158292134447E-04			-1.0207818914785E-04	1.31722347762394E-04	0.99977061989928	-2.42306999351634E-02
9674062.5	0.99815851912347	-2.19982570785044E-02	5.81266502382446E-05	3.08425422282561E-04			3.30478605221177E-05	3.34249181880299E-04	0.998843577304455	-2.90788922069493E-02
11548875	0.99895771595051	-2.61561006496012E-02	5.34000856766205E-05	4.35262333234606E-04			5.91620096247458E-05	4.63917033062688E-04	0.998158613377335	-3.65223773153157E-02
13423687.5	0.998863715947073	-3.03122602448534E-02	-8.11464614469536E-06	3.41677435524944E-04			-2.12968459102253E-05	3.63348879759277E-04	0.999435711085501	-0.043718964054423
15298500	0.999269687824277	-3.37981174265024E-02	7.63716010937915E-05	5.34242840334556E-04			8.1056056013984E-05	5.19535819408851E-04	0.996922180793308	-4.92932198256811E-02
17173312.5	1.00001608785962	-3.77855447790541E-02	3.20748352633513E-05	5.79632327391952E-04			6.47583763142679E-05	5.45044222772447E-04	0.996583320273723	-5.40828137277689E-02
19048125	0.999488508408942	-4.19531678531031E-02	2.04948884811961E-04	5.95792595206374E-04			2.06915778798683E-04	6.1585967481722E-04	0.995325191902568	-6.07911632889089E-02
20922937.5	0.998284322054103	-4.56396117157122E-02	2.45833122352639E-04	6.39898755201194E-04			1.93728076487632E-04	6.53931603931253E-04	0.996503449797331	-6.60406517065679E-02
22797750	0.996264505422921	-5.05458143640046E-02	3.87256457527863E-05	7.47805960220856E-04			1.83843302505782E-05	7.29022775191739E-04	0.995470360386594	-7.15124442077128E-02
24672562.5	0.996395996715743	-5.42679146797627E-02	1.56864170343221E-05	8.99991873251691E-04			1.30370359084292E-05	8.87024597012669E-04	0.994134106625723	-0.07636237246447
26547375	0.996577956187603	-5.85728738702209E-02	1.05572678336018E-04	8.83637935565453E-04			6.75798939637411E-05	8.89067138805928E-04	0.994795356609554	-8.11726899726083E-02
28422187.5	0.996951801553261	-6.29647133376575E-02	1.25558171088114E-04	9.68482383491047E-04			1.07952014833198E-04	9.56994962177013E-04	0.995586423617306	-9.04545334811363E-02
30297000	0.996771702394978	-0.066273285904988	1.32120090410431E-04	9.43687098492467E-04			8.75911963505135E-05	9.57450164154971E-04	0.995511966417677	-0.09080305745529
32171812.5	0.995592763831064	-7.11802763009393E-02	8.54980409990102E-05	1.07623091160671E-03			5.3370861349549E-05	1.0815170016824E-03	0.991830728743227	-9.74432867291263E-02
34046625	0.996762862659327	-7.45457351063943E-02	2.94573012037165E-05	1.0831877647359E-03			6.28665511394111E-05	1.11462556146502E-03	0.991194431450152	-0.106370857228688
35921437.5	0.995240950088461	-8.00178205134562E-02	1.30822453491767E-04	1.08023973540051E-03			1.18687657917731E-04	1.09998573519306E-03	0.990281888411703	-0.115151698079859
37796250	0.994009231397648	-8.33763331611372E-02	1.72105977514781E-04	1.23049019963711E-03			1.82781152551123E-04	1.20800343917133E-03	0.990199137986167	-0.118215545931213
39671062.5	0.996646123482778	-8.62773023332552E-02	1.47475718834093E-04	1.22818465879337E-03			1.62666726622568E-04	1.20156111161089E-03	0.990133272032677	-0.122379399271247
41545875	0.992968577470652	-9.23340217456366E-02	1.6887596345158E-04	1.30303078222351E-03			1.79622818353909E-04	1.3117811056842E-03	0.98982126467484	-0.129938785719891
43420687.5	0.995290452493512	-9.42220913710067E-02	1.28501499918014E-04	1.43677351564715E-03			1.38138529873193E-04	1.40035194470834E-03	0.988349566476669	-0.133962644679139
45295500	0.990630779648624	-0.101808687730357	1.53154275349828E-04	1.45378925710773E-03			1.9673145280781E-04	1.46177752867126E-03	0.988422136467811	-0.143494168338718
47170312.5	0.992359648250615	-0.102356390763844	2.02701916599667E-04	1.58978522818985E-03			1.87019466159342E-04	0.001539882834166	0.987406844685364	-0.14805534114398
49045125	0.994084465343404	-0.106874035998568	2.92093098969876E-04	1.58165952769147E-03			2.71815035109461E-04	1.59587893877878E-03	0.98348716689504	-0.152700069472892
50919937.5	0.993682327383979	-0.110643122077914	2.59531366410437E-04	1.65060949569695E-03			2.38343699711665E-04	1.63744908072677E-03	0.985699056191906	-0.15707220412097
52794750	0.989679790260583	-0.116719427212487	2.3540780747132E-04	1.76254686861126E-03			2.2510288712085E-04	1.74871885669881E-03	0.98243686268607	-0.163253031358704
54669562.5	0.988469958354273	-0.119883480669731	2.71596774402109E-04	1.76607750981749E-03			0.000254401283746	1.77117554065511E-03	0.983135494528522	-0.168402440113097
56544375	0.98885120775065	-0.12545920310412	1.69282757056058E-04	1.89290813861746E-03			1.57793252404539E-04	1.87960806877244E-03	0.984115434119223	-0.175999036207537
58419187.5	0.98828578419331	-0.12920849805407	3.6155100025363E-04	1.74093624324453E-03			3.61934089063447E-04	1.74653861889429E-03	0.97925504353827	-0.17859768633962
60294000	0.987607913680986	-0.133915247825036	2.32691946684751E-04	1.87086699263378E-03			2.3707843672215E-04	1.87893091336349E-03	0.980191297788008	-0.186618236090705
62168812.5	0.986822163722251	-0.137592004874506	3.36322918519736E-04	1.9486608907809E-03			3.34698900460053E-04	1.94176199267966E-03	0.976816676954791	-0.194543162266143
64043625	0.986558404134934	-0.141577171615289	4.72339686950255E-04	1.87154040715004E-03			4.98511898076349E-04	1.85296833365817E-03	0.976949249159271	-0.197535495179669
65918437.5	0.986811111557929	-0.142948710717725	3.87640177656382E-04	1.9449016949696E-03			3.85979935550986E-04	1.95555988530934E-03	0.978025083658402	-0.205261001333421
67793250	0.986429454377347	-0.148185445650084	3.96773664367853E-04	2.17157110341002E-03			3.98737563037755E-04	2.1701492784032E-03	0.975313220284818	-0.20791170729176
69668062.5	0.985988579482536	-0.153540252871983	4.39554562041318E-04	2.17028614576187E-03			4.350169846771E-04	2.16656309952557E-03	0.972977353719308	-0.216198787918492
71542875	0.985879360825446	-0.156769026805531	3.70887769736441E-04	2.23688468664771E-03			3.84022076507985E-04	2.24874105863875E-03	0.970285310447143	-0.221410470061981
73417687.5	0.984216978085482	-0.15874533368323	3.51060990816443E-04	2.28890396117837E-03			3.75832032576141E-04	2.28191598215506E-03	0.969618307411089	-0.226831753970772
75292500	0.983231134575206	-0.166063226470896	4.17671970859817E-04	2.23779732793389E-03			4.2414499595053E-04	2.23489652421677E-03	0.967828471306675	-0.231343451468029
77167312.5	0.983073234368592	-0.168367752036356	5.61805216434255E-04	2.44823963605512E-03			5.48267039070092E-04	2.45154003391368E-03	0.966020485788508	-0.237436536313867
79042125	0.98234500002288	-0.172582128888098	5.48784082422855E-04	2.49659409657404E-03			5.77784123569467E-04	2.49353316104657E-03	0.965945401596738	-0.243193683177132
80916937.5	0.981425288170479	-0.178556535022513	5.74895716859093E-04	2.54699695458394E-03			5.66954177045267E-04	2.54925037831721E-03	0.964121231139566	-0.248652112161747
82791750	0.980664562668613	-0.179278911734885	5.92247882125183E-04	2.40685874095609E-03			6.16605489281412E-04	2.41609351834315E-03	0.961799335056973	-0.254889778927344
84666562.5	0.978901353851045	-0.181976545276974	5.71222616308902E-04	2.64949551020661E-03			5.97157564521089E-04	2.64163403235107E-03	0.961043826585951	-0.259711858065865
86541375	0.980743278437955	-0.187835201116951	6.61909972029354E-04	2.68591061634313E-03			6.55301996524541E-04	2.6889931292459E-03	0.959917647818974	-0.265462502884155
88416187.5	0.977949219937894	-0.190680783968162	6.99528724942388E-04	2.77942531190196E-03			7.2298312222581E-04	2.80835821533017E-03	0.957605430512693	-0.271386418160491
90291000	0.978309660224351	-0.195240122511677	6.42508785767511E-04	2.76365558551893E-03			6.00453692756717E-04	2.75406824962482E-03	0.955269024615325	-0.27710364970615
92165812.5	0.976552433366397	-0.198894064545396	7.44371197100496E-04	2.74238317181794E-03			7.57841061713054E-04	2.71263576563507E-03	0.953302203450042	-0.282872255060993
94040625	0.975808777703447	-0.203066550337884	7.99027801750193E-04	2.78866963723536E-03			7.94165712401161E-04	2.81283509242904E-03	0.952535911740177	-0.287195314540894
95915437.5	0.974734711815624	-0.207388140171891	6.95044220371006E-04	3.02450946215902E-03			7.21425646038122E-04	2.99345832636495E-03	0.951237161412079	-0.29284353478045
97790250	0.973660080945085	-0.211361362348706	7.72385617625258E-04	3.03402460020682E-03			7.7903968709901E-04	3.04496838828342E-03	0.94946798914747	-0.299270249889418
99665062.5	0.972815474667836	-0.215664837641219	8.05558855258981E-04	3.03993631972941E-03			7.89010283352628E-04	3.02780688319353E-03	0.94764259798006	-0.304805033530322
101539875	0.972245648993621	-0.218915164160712	8.42848718165035E-04	2.98493985917012E-03			8.48655676528977E-04	3.00069720693733E-03	0.944690396202448	-0.309524383207756
103414687.5	0.970629643708719	-0.222573054823255	9.54729934402047E-04	3.17398218188277E-03			9.38153580313144E-04	3.15320229036178E-03	0.942130500877067	-0.314407751767806
105289500	0.9699414654174	-0.226355441560846	8.88376102377976E-04	3.18560001055404E-03			8.69635340878302E-04	3.19369540929783E-03	0.942479465092173	-0.321173693288312
107164312.5	0.969668412920239	-0.23024290852585	8.67033778437758E-04	3.23432432519949E-03			9.04354829038039E-04	3.23829323889482E-03	0.940073694455914	-0.326217971811732
109039125	0.96820183201584	-0.234775986833822	1.01642392818479E-03	3.28686043817393E-03			1.02613453821252E-03	3.3186776304341E-03	0.936917568429485	-0.331997163100959
110913937.5	0.967042353953001	-0.238187115976533	9.68344040327872E-04	3.35250216915875E-03			9.64540014136627E-04	3.35743595065537E-03	0.934951110635537	-0.336546022888521
112788750	0.96618505092956	-0.241809350686298	9.88010162710658E-04	3.39312265739689E-03			9.97243843881367E-04	3.42504587312594E-03	0.932837253353478	-0.343225453385456
114663562.5	0.965089249790007	-0.246126489149885	1.10143350555885E-03	3.48540841017934E-03			1.09978040832785E-03	3.51293747890474E-03	0.932548978757333	-0.348425229188545
116538375	0.963404557844166	-0.250843728343601	1.03711536542596E-03	3.4767490174093E-03			1.04657234447377E-03	3.4445517030631E-03	0.927086402471531	-0.353159306843053
118413187.5	0.961429754902535	-0.254399262576435	1.17735045611014E-03	3.50900790661451E-03			1.18370068424797E-03	3.5481547955486E-03	0.925650549277171	-0.35894747802822
120288000	0.961431268578116	-0.258663147839515	1.1422875150313E-03	3.64600740889949E-03			1.15504341736785E-03	3.65136417735427E-03	0.924910711892932	-0.362896733857975
122162812.5	0.961015485182694	-0.262364424403281	1.18247874620605E-03	0.003638057656263			1.19511693250868E-03	3.64925224489988E-03	0.922845234283248	-0.367985273200518
124037625	0.960433491616809	-0.265901156164671	1.34959942483848E-03	3.72090343195485E-03			1.35632865494322E-03	3.73481919793039E-03	0.919260401351423	-0.374580008441208
125912437.5	0.957876721829348	-0.269605848066031	1.28193664867659E-03	3.78752065980368E-03			1.2891811994288E-03	3.7965310071756E-03	0.917526330983641	-0.379318523917993
127787250	0.957379995461024	-0.273676953529261	1.27060653648884E-03	3.79769491964256E-03			1.26620305985494E-03	3.81612430309337E-03	0.916733142608624	-0.385338764799325
129662062.5	0.95450034873628	-0.276799384574784	1.38376056006282E-03	3.8534418989951E-03			1.40063212374064E-03	3.8594651704634E-03	0.912796387445877	-0.390582495498643
131536875	0.955102590973746	-0.280953116576992	1.42122090218538E-03	3.86140292842267E-03			1.40813689468899E-03	3.87676249559911E-03	0.911081806105459	-0.39560623727814
133411687.5	0.951366548373172	-0.284855568318481	1.47097086292837E-03	3.86897338061977E-03			1.48179714587256E-03	3.87007844803843E-03	0.907383146876535	-0.40215877424205
135286500	0.953332030307412	-0.289860843749975	1.45916227250064E-03	4.01460468619762E-03			1.47489245858214E-03	3.97406020510217E-03	0.905275944200266	-0.406004570976619
137161312.5	0.951455546584987	-0.292647217324888	1.56803924041451E-03	3.93722676225742E-03			1.5859813949772E-03	3.9425533652183E-03	0.903219049434767	-0.410931669163266
139036125	0.95156652472138	-0.296161283772035	1.54859024287131E-03	4.04779360848328E-03			1.5497629276629E-03	4.04912971824023E-03	0.901231104487512	-0.416881080682501
140910937.5	0.948979335854438	-0.300759196790006	1.63369099346625E-03	4.11412384505713E-03			1.64083777935464E-03	4.11073225786013E-03	0.89992780324627	-0.422916870584612
142785750	0.946065903117526	-0.304167229800495	1.58571959303297E-03	4.1214057939247E-03			1.59848714330844E-03	4.13353332219957E-03	0.893544545090719	-0.428473217612227
144660562.5	0.947074867321506	-0.308228166529302	1.66746784347878E-03	4.11401085574944E-03			1.66476529058201E-03	4.09328673847548E-03	0.894749235479838	-0.432248519077784
146535375	0.945044627311602	-0.311254722520437	1.69238712027606E-03	4.2745905146857E-03			1.6862874247847E-03	4.22857605219624E-03	0.889280078952487	-0.435838048581973
148410187.5	0.944219163494051	-0.317853420962972	1.71225131910022E-03	4.24226567986605E-03			1.7032914941394E-03	4.21623471359147E-03	0.886846575590708	-0.441943771805996
150285000	0.940894996383914	-0.320490407425085	1.77920152608485E-03	4.24915721001666E-03			1.81748262490458E-03	4.2266378230774E-03	0.884082312113425	-0.447346602343127
152159812.5	0.93918989280777	-0.325089402234401	1.84675105453079E-03	4.29923936016391E-03			1.86962190937773E-03	4.2903441076402E-03	0.883701585908663	-0.453456208488486
154034625	0.939119595619223	-0.327889607660111	1.80091603271919E-03	4.38882831606891E-03			1.8448910081056E-03	4.38347612276106E-03	0.880340245508292	-0.460090171198878
155909437.5	0.93838382017583	-0.329490519954536	1.90288615069284E-03	4.43339953608811E-03			1.89783727637409E-03	4.43862829532229E-03	0.877913845107973	-0.463197635752663
157784250	0.936120792637074	-0.33528331471503	1.88985233445199E-03	4.48430531668997E-03			1.90342906576785E-03	4.49816670196056E-03	0.874035350800487	-0.466155295834259
159659062.5	0.936253756512777	-0.339624866981872	1.98891474776922E-03	4.46143602475279E-03			1.96794169950089E-03	4.50500712652191E-03	0.872803812966863	-0.471685661220535
161533875	0.933563548301124	-0.344905946080869	2.0047237180626E-03	4.58852103640955E-03			2.00945143801705E-03	4.57723041444919E-03	0.870142584635406	-0.478612806333136
163408687.5	0.932574281112884	-0.347943195048124	2.06255524731847E-03	4.62746333465431E-03			2.04421442258994E-03	4.62543535754215E-03	0.866744638614956	-0.482027122683386
165283500	0.92990871961179	-0.348292316324975	2.09480074845297E-03	4.67666124563073E-03			2.11353839540052E-03	4.69458720172077E-03	0.861810777798431	-0.486622956402874
167158312.5	0.930207594676804	-0.354172502683836	2.15418648839875E-03	4.73003715118181E-03			2.17008471884937E-03	4.71030707614608E-03	0.860862671307706	-0.491390020546759
169033125	0.927957680262396	-0.358070735189958	2.21452775702445E-03	4.78539395139707E-03			2.23517475010735E-03	4.7605735345407E-03	0.856113112471833	-0.497428907738562
170907937.5	0.92685840718977	-0.360523642490923	2.16575936862356E-03	4.82231501268908E-03			2.1826406332113E-03	4.80955271760297E-03	0.852457635857316	-0.503023850213357
172782750	0.925129210237976	-0.363543930753716	2.32434242545729E-03	4.79893504932946E-03			2.34159383700187E-03	4.80950560267163E-03	0.849916557251861	-0.50830087653389
174657562.5	0.923186607282258	-0.369185232125696	2.36525350123902E-03	4.85099858803205E-03			2.36806867408289E-03	4.84907451914028E-03	0.848590512936665	-0.510491545632947
176532375	0.921835748427021	-0.371637952935296	2.44852452321863E-03	4.87913810608085E-03			2.43723004111885E-03	4.88704347643894E-03	0.845520567288113	-0.516185466660828
178407187.5	0.920559533830762	-0.375551979704729	2.43967714865443E-03	4.91025283512105E-03			2.47100585755032E-03	4.88157044087709E-03	0.840957697978259	-0.52191140321748
180282000	0.919150795550939	-0.380690569988821	2.52968740377992E-03	4.85908479711433E-03			2.52829943328498E-03	4.89807245309066E-03	0.839795617382784	-0.524898176848325
182156812.5	0.916918544488477	-0.384179448590027	2.52875210290858E-03	4.97625730848779E-03			2.55900951660494E-03	4.96118765209592E-03	0.835235868123065	-0.530979290910998
184031625	0.916607799482247	-0.386647974435096	2.57987514276736E-03	4.9537922685663E-03			2.60295470369691E-03	4.96283212674915E-03	0.832258178345905	-0.535506393066866
185906437.5	0.915606858670087	-0.389188982426078	2.6851396682131E-03	4.97676246708652E-03			2.66463535171576E-03	4.96935176205027E-03	0.83040053247313	-0.539158237597314
187781250	0.911454964785817	-0.393581592876672	2.68942619650782E-03	5.07573291658535E-03			2.69775632166497E-03	5.07718742505675E-03	0.825472431302156	-0.544936793230584
189656062.5	0.910412778164924	-0.396416748005352	2.72924721473974E-03	5.06327725460873E-03			2.74410809630982E-03	5.08825948347888E-03	0.822235169512156	-0.550071264944086
191530875	0.907475472603703	-0.40139357954906	2.75062795430252E-03	5.11160353537313E-03			2.76395635904237E-03	5.10164180837775E-03	0.81905884776423	-0.554000365496032
193405687.5	0.90832245564867	-0.405557448993066	2.80422775435509E-03	5.14661249794834E-03			2.78683047421878E-03	5.13922542232871E-03	0.815851785744374	-0.557684097488909
195280500	0.905172082972717	-0.409020436814658	2.85963005249285E-03	5.12128390078988E-03			2.86964863830726E-03	5.1345917707476E-03	0.813243579103901	-0.563159591951006
197155312.5	0.903210291106982	-0.411377400429808	2.9685809839894E-03	5.21376290312925E-03			2.96633851705929E-03	5.2188183100414E-03	0.809447631792651	-0.567623945981655
199030125	0.902864271287411	-0.41537256759632	2.95817252650132E-03	5.24742650236989E-03			2.97083149773694E-03	5.27407759706908E-03	0.806697872841704	-0.572191962129447
200904937.5	0.90017993687452	-0.419205702653493	3.03712604242765E-03	5.2800926799607E-03			3.07086274670474E-03	5.27154879444426E-03	0.802427551053061	-0.576595774714761
202779750	0.898872337914	-0.422114048456313	3.04631674616013E-03	5.36165743582544E-03			3.09126266729135E-03	5.33209599973824E-03	0.799025270054887	-0.580917920523323
204654562.5	0.896833875346184	-0.42640899353929	3.13324634359803E-03	5.30560214262769E-03			3.12928376960735E-03	5.31965167229965E-03	0.796256910404589	-0.585258330394151
206529375	0.89529937352255	-0.429531530691044	3.16482878962602E-03	5.35664635476109E-03			3.17564546284007E-03	5.35422804026671E-03	0.791737393831824	-0.590047381213874
208404187.5	0.893381901041492	-0.433590562108978	3.20118116859662E-03	5.40635147566753E-03			3.21459344795168E-03	5.38341507133274E-03	0.789521970711566	-0.595121048597893
210279000	0.891010194865437	-0.436662172058137	3.31497621798541E-03	5.44884189485515E-03			3.29938446662289E-03	5.44317935535821E-03	0.786837550536751	-0.59767469168824
212153812.5	0.890352901936241	-0.440292402211503	3.34637939650526E-03	5.45919146819231E-03			3.36818176847628E-03	5.44787535666578E-03	0.782475706778062	-0.602482914791768
214028625	0.887481627579651	-0.443522055659143	3.34194267262487E-03	5.45981525424072E-03			3.3971623101171E-03	5.49824765006265E-03	0.777955683676818	-0.607784724163676
215903437.5	0.886327629203741	-0.447430012192798	3.42345938542932E-03	5.48882186118138E-03			3.46636386110194E-03	5.50452709557003E-03	0.774668016741424	-0.611980851290472
217778250	0.884423331968381	-0.451121808198987	3.44059474119559E-03	5.5384116644137E-03			3.45819018905551E-03	5.53042288157845E-03	0.771277158863148	-0.616776000124153
