# Hz S RI R 50
324000000	0.331081033223262	-0.574055280061771	0.630857886762757	0.345600766750746	1.19585936537364E-03	1.90709880727896E-03	-5.08217213182753E-04	2.00195002011261E-03
			0.629895559358181	0.342578613567003	0.334518005693722	-0.572719966258054	-4.99599450013127E-04	1.88964185337804E-03	-2.28490984276795E-04	5.69978252741408E-04
			1.17700065417925E-03	1.90472543315955E-03	-5.55738522737603E-04	2.00855741501519E-03	0.329968150705774	-0.582247674440465	0.623239211160303	0.359158699903311
			-4.96109786028737E-04	1.90792621085982E-03	-2.13377593448095E-04	5.7204530524809E-04	0.625012098062194	0.357407247690283	0.3379988257359	-0.57731362785407
324125000	0.331197848247395	-0.573008458980364	0.631598650572853	0.345454836272213	1.15580704468621E-03	0.00195043685663	-4.4108599612422E-04	2.00973154057108E-03
			0.628675581135888	0.343033177288321	0.334460710731934	-0.57271348921938	-4.71432390691283E-04	1.85543322125128E-03	-2.71287366042123E-04	5.74574370392864E-04
			1.14715203668446E-03	1.94633004541741E-03	-4.78773105121099E-04	1.97320967675104E-03	0.329251104380241	-0.582318319292318	0.624444827070978	0.359279515697965
			-4.31294445341467E-04	1.91528183043883E-03	-2.93311248553522E-04	5.93354534174031E-04	0.625847867175823	0.357075120294766	0.337624713309268	-0.577433920553314
324250000	0.330281393864634	-0.573115840834343	0.629523331259211	0.346392752403128	1.11084178292552E-03	1.99412210556094E-03	-3.99937797608164E-04	1.96806628767202E-03
			0.630175718009609	0.342066874746738	0.334171637646219	-0.572986677309918	-4.2644139108722E-04	1.81457960045322E-03	-3.32934677032684E-04	6.26038328165259E-04
			1.12225792908367E-03	1.99836009402564E-03	-4.39032739276275E-04	1.94003497895565E-03	0.329196152908535	-0.582640326511271	0.623936698461832	0.359615689699737
			-3.76053944892846E-04	1.86642313911294E-03	-3.56125158550173E-04	6.20944481705216E-04	0.626026422917789	0.358452219093907	0.337257503510522	-0.577105934709199
324375000	0.331014221387686	-0.573427866637938	0.632757331000674	0.343965529918814	1.09335571148587E-03	2.04292538085241E-03	-3.77764740716449E-04	1.91829781737664E-03
			0.628686313022517	0.342414460412044	0.333609679225543	-0.572841948846353	-3.87084333475451E-04	1.75865310370581E-03	-3.7811628257634E-04	6.48082060566374E-04
			1.07236007912093E-03	2.06966194420536E-03	-3.94682393455663E-04	1.88523200407988E-03	0.328326850020398	-0.582318782372456	0.626274553276704	0.359204587142337
			-3.91275643318982E-04	1.84862093855506E-03	-3.75343180336932E-04	6.65617392321512E-04	0.625274699830986	0.357946819295069	0.337709990848686	-0.577091111907704
324500000	0.330593419850319	-0.57207339781419	0.631477416735056	0.344542765880149	1.08723824522505E-03	2.12256861788273E-03	-3.29675849957142E-04	1.87266621809736E-03
			0.630208297248169	0.341212229029596	0.333855826033595	-0.571932266843958	-3.89501827949779E-04	1.67894135782454E-03	-4.11865178078768E-04	7.09927418140652E-04
			1.07979746944907E-03	2.12649100252242E-03	-3.88709717214673E-04	1.80817351503122E-03	0.328677177660205	-0.582091405824362	0.624732286817061	0.359079983542987
			-3.61076661578177E-04	1.76101676457901E-03	-4.04769124497168E-04	7.13693820617891E-04	0.625231133886104	0.357958607629157	0.336204738894321	-0.576832636984641
324625000	0.330777407823032	-0.5728962405514	0.632116787428814	0.344926831468097	1.12896714095551E-03	2.1692158682665E-03	-3.6940409820751E-04	1.82636762902444E-03
			0.630809163256218	0.342125086025375	0.334001713792249	-0.572901676313234	-3.884985261808E-04	1.64872460829652E-03	-3.85670090653552E-04	7.70480292469843E-04
			1.10253094770881E-03	2.17740233640417E-03	-4.10996886991154E-04	1.75319316481962E-03	0.328034067939522	-0.581757973018884	0.624717853607865	0.35874341133306
			-3.71429108201294E-04	1.73478818714004E-03	-4.06711165912836E-04	7.99479086332103E-04	0.625817187847356	0.359100789824857	0.336749901075969	-0.57691071593588
324750000	0.329766318979694	-0.572730388407931	0.631452631141727	0.344152615302235	1.14315138031221E-03	2.20024014831174E-03	-4.07619788764321E-04	1.79189853315003E-03
			0.630317048229661	0.341373605156718	0.333273301676748	-0.572259195893108	-4.28265046894637E-04	1.5924004910388E-03	-3.65024803872228E-04	8.03195693636406E-04
			1.14087226054121E-03	2.22030329869704E-03	-4.2315636987605E-04	1.73609460571212E-03	0.327339714192895	-0.582470362048692	0.625699944425907	0.358713073042609
			-3.9477175374843E-04	1.67016964023511E-03	-3.78182510834592E-04	8.47941089259052E-04	0.625960004655644	0.357975173971295	0.336474103174544	-0.577476014672395
324875000	0.33001292942155	-0.573310884437436	0.631657863963343	0.344999260296021	1.1669749756751E-03	2.21106825754921E-03	-4.16939345055252E-04	1.7485268832171E-03
			0.62973811071412	0.340966419796916	0.333423487300497	-0.572120507885387	-5.09264486157074E-04	1.60949075459456E-03	-3.38764405092757E-04	8.33771002669087E-04
			1.18885534516117E-03	2.20616762685395E-03	-4.63474144988721E-04	1.70537114051804E-03	0.328237205320748	-0.58198393394054	0.626835299145779	0.359430617030978
			-4.30156872967269E-04	1.6493832087626E-03	-3.33451409919422E-04	8.54766327403672E-04	0.626434451824054	0.358614556670046	0.336440012678681	-0.576886154350248
325000000	0.330309969662622	-0.571928688473305	0.631486986619629	0.343948359534723	1.20197441563583E-03	2.21532950850519E-03	-4.5167888549501E-04	1.75368152002301E-03
			0.630452039488069	0.34184658029945	0.333476350842617	-0.571762542235309	-4.78889766542557E-04	1.56882856285281E-03	-3.31205784680133E-04	8.45271618566953E-04
			1.2256277050695E-03	2.22078534699155E-03	-4.55032988736039E-04	1.71379933210759E-03	0.328164706701564	-0.581840340442125	0.624515819920106	0.35867616400648
			-4.57665136623637E-04	1.65407658151866E-03	-3.31465012814775E-04	8.47477193541883E-04	0.627483605735632	0.357177366662049	0.335387730535166	-0.576209958496622
325125000	0.330485286630425	-0.573036295368544	0.633069974182646	0.345235945076601	1.21426861377345E-03	2.21548435150473E-03	-4.74880409196627E-04	1.77459207448633E-03
			0.632230614541865	0.34141636839032	0.332944368292505	-0.571984469143508	-4.79898594063509E-04	1.56680207820377E-03	-3.21513061759102E-04	8.46919019799706E-04
			1.2311576284812E-03	2.2380787585785E-03	-4.74625503207504E-04	1.67735094195945E-03	0.325943414447172	-0.582303119363559	0.626348795653262	0.358550112689815
			-4.76538181329381E-04	1.67258915461189E-03	-3.30075658845643E-04	8.65949006840797E-04	0.62651604715762	0.356055012796389	0.335391245679445	-0.577223648088413
325250000	0.329837343688073	-0.57226703126236	0.633042943691199	0.343468308252906	1.24113969597835E-03	2.2378293515008E-03	-4.58858365869466E-04	1.74748914608632E-03
			0.629617460949445	0.341520578260538	0.332888869858684	-0.571598752707208	-5.17064459285547E-04	1.53909074375134E-03	-3.15180027516389E-04	8.92663515018294E-04
			1.25956354264552E-03	2.24014068139905E-03	-5.10188222745042E-04	1.67618459297839E-03	0.326832094161811	-0.581926889304994	0.626067900299445	0.358846178273222
			-4.95888925225903E-04	1.64297004242556E-03	-3.56612653190783E-04	9.14315195109299E-04	0.626444023424242	0.357011201472215	0.334906638845121	-0.575936930125865
325375000	0.329733532644516	-0.571991023559076	0.633693050088872	0.344180730416879	1.29187348812486E-03	2.24448551013512E-03	-5.21963434931231E-04	1.7184590729423E-03
			0.631196444724063	0.340976220590682	0.332548569571691	-0.571730277914908	-5.526232504843E-04	1.54210163113667E-03	-2.90308148615776E-04	8.94051854704795E-04
			1.28709208988333E-03	2.22372442618018E-03	-5.46566460949304E-04	1.64137201254424E-03	0.326696325424663	-0.581834223346081	0.627173344004053	0.357835984614108
			-5.22174385341318E-04	1.60703220698983E-03	-2.8805187554729E-04	9.20281653566459E-04	0.627922517696988	0.358412909935845	0.3353196515518	-0.576899283815325
325500000	0.329126892512326	-0.57253084191057	0.6322226150373	0.342991362934496	1.32238136066601E-03	2.21424821742054E-03	-5.43052638328618E-04	1.72472416192853E-03
			0.63067801873734	0.341867006576187	0.332531441651711	-0.57208739707677	-5.73702837881888E-04	1.53746564557118E-03	-2.70513879929506E-04	9.13843325164362E-04
			1.29913285695293E-03	2.22802538206839E-03	-5.55352509836201E-04	1.65896186087354E-03	0.325235961602378	-0.581162834892999	0.627647797768871	0.357528219382647
			-5.34497991130672E-04	1.61207101039533E-03	-2.85297884145623E-04	9.29069312077224E-04	0.629026697207706	0.355679791059113	0.334304308236584	-0.576606580812192
325625000	0.329707469208448	-0.572409624833754	0.632392916922734	0.342389853579878	1.35780250863873E-03	2.21786274464723E-03	-5.75407926725099E-04	1.7309759782542E-03
			0.631012346309987	0.340740588238105	0.331821596139283	-0.572146139073263	-6.00438515937601E-04	1.52434414084472E-03	-2.32155683536472E-04	9.2892217881448E-04
			1.3547597648048E-03	2.22914085736895E-03	-5.9679263067934E-04	1.65389562292008E-03	0.325382911202742	-0.581403860027042	0.627729988136158	0.357836605100028
			-6.13149717668859E-04	1.5813879353005E-03	-2.24617363836047E-04	9.60041829229103E-04	0.628225565629182	0.356759551127444	0.334406116414023	-0.576756364161106
325750000	0.328119953752774	-0.572475880013484	0.634503799374492	0.343251921167708	1.37166641216816E-03	2.19122476067495E-03	-6.20942930600929E-04	1.76651848105334E-03
			0.631943333733011	0.340579890424776	0.33243481774184	-0.571568817916819	-6.68587025123501E-04	1.56105028069281E-03	-1.95763987735603E-04	9.38720877215901E-04
			1.40513649125803E-03	2.19950054622422E-03	-6.41003592133613E-04	1.67579339439519E-03	0.325685172674557	-0.581175463025752	0.626910731520693	0.357728700682492
			-6.62777901254556E-04	1.66732883745236E-03	-1.53364310857535E-04	9.44687360301804E-04	0.628450132976933	0.355836991935797	0.333651256224253	-0.575909324916498
325875000	0.328887570583196	-0.572681044702124	0.632900494444123	0.342343401670959	1.38444588592266E-03	2.17120512654634E-03	-6.60852931676182E-04	1.79751734475875E-03
			0.632927211673605	0.34096526564183	0.332427690533841	-0.571962981848882	-6.58976698378388E-04	1.57642984641864E-03	-1.40544850391125E-04	9.05761414357697E-04
			1.43523582293273E-03	2.16286635899097E-03	-6.70397816922793E-04	1.68239061912963E-03	0.325243666560406	-0.581343933335059	0.628126480013297	0.357386310371821
			-6.54341323501613E-04	1.69918474891683E-03	-1.60600493635451E-04	9.0903816979227E-04	0.628340212729125	0.356905590257767	0.333447791013067	-0.575987212228629
326000000	0.327828644096904	-0.572151732996522	0.632202149779024	0.342204054610092	1.42697847142068E-03	2.1136417660663E-03	-6.72292278182859E-04	1.83563632713858E-03
			0.632097437069379	0.341089791367926	0.331154618714753	-0.572018045908648	-6.98994829768812E-04	1.63102887732759E-03	-1.04277557089011E-04	8.69142238649747E-04
			1.44505274492228E-03	2.13491961051006E-03	-6.96413993947756E-04	1.73308107493632E-03	0.325415991032571	-0.581048342630268	0.627919601927618	0.357743206376583
			-6.60721564560317E-04	1.75306875944355E-03	-1.12065589556999E-04	8.91420483952893E-04	0.62933445753289	0.357120446215813	0.333242282964089	-0.57602391369919
326125000	0.328380171473677	-0.572212886374045	0.633493855914313	0.343290872394709	1.40424953459428E-03	2.07649407201049E-03	-6.73875820371566E-04	1.87783538294929E-03
			0.632630216534248	0.341272039168903	0.33133149743707	-0.571132887136925	-7.26583037980248E-04	1.69379878882535E-03	-8.45065452398224E-05	7.92835166388322E-04
			1.42078966306658E-03	2.08355658781365E-03	-6.89536264553202E-04	1.76977893277683E-03	0.324104856585429	-0.581604342932361	0.628551202144954	0.356648655608782
			-6.94407100110013E-04	1.80448010766184E-03	-1.0409615891088E-04	8.27370034392882E-04	0.62858720245901	0.356396901650244	0.332804277922257	-0.57681392591364
326250000	0.328612646246052	-0.572192343917554	0.634457021500653	0.342492442217112	1.40177203142791E-03	2.01688955848039E-03	-6.56331256170945E-04	1.94611874785887E-03
			0.633803443025491	0.340814314714394	0.330504502449875	-0.571961746757715	-6.8627060660395E-04	1.73082909762331E-03	-1.19708892357855E-04	7.64892759658977E-04
			1.39784757217203E-03	2.01716962740879E-03	-6.81250053634177E-04	1.8237876652436E-03	0.32406428299334	-0.581977175264784	0.628156955314725	0.358077168809521
			-6.38247199144692E-04	1.86599724452643E-03	-1.30039260962713E-04	7.90039412273544E-04	0.629825010348774	0.355460763148875	0.332433446380763	-0.576347691863252
326375000	0.328716837460506	-0.572171454097663	0.633129104006986	0.34370330021855	1.3471415517303E-03	2.00710220661976E-03	-6.06438784393056E-04	1.94359055607889E-03
			0.632018997552314	0.340839379570385	0.330910995556822	-0.57192290520145	-6.38858862067093E-04	1.73533904211461E-03	-1.66930846328795E-04	7.54436271168489E-04
			1.32825257580409E-03	2.00846226185758E-03	-6.56212566893823E-04	1.85778263031554E-03	0.324059214593775	-0.581295911126118	0.627857470982862	0.357076564148027
			-5.80890777249897E-04	1.86171837381661E-03	-2.00347869185044E-04	7.53717206952537E-04	0.629504070603699	0.35595830614875	0.331599837579686	-0.575523454220593
326500000	0.327291286994486	-0.571667375608637	0.63489773787677	0.34305294549624	1.32762582734421E-03	2.00624724274092E-03	-5.73112258636344E-04	1.95067942397043E-03
			0.632866455119281	0.340749050556289	0.331335028799307	-0.571497929695305	-6.35785578990928E-04	1.72961461035144E-03	-1.70859333243135E-04	7.54438619309134E-04
			1.31564144595934E-03	1.99529359796677E-03	-6.42999453382319E-04	1.85212438981076E-03	0.323921360833055	-0.581165482876207	0.62962969103611	0.35626806332035
			-5.71072412969776E-04	1.85793862135172E-03	-1.77837152423734E-04	7.75022029697139E-04	0.630223393677869	0.357349874085881	0.33200863405399	-0.576550390937282
326625000	0.327775543234172	-0.572410826767743	0.63427716849344	0.342877471771199	1.30338373109776E-03	1.98782481564282E-03	-5.61611615399348E-04	1.96029921872616E-03
			0.632887510155923	0.339405307319401	0.330636520495383	-0.57181835300024	-6.1689926067731E-04	1.75930410132822E-03	-1.94439491429945E-04	7.55591888102795E-04
			1.31664502955413E-03	1.98880002850868E-03	-6.33627375467154E-04	1.85926182506084E-03	0.322997548783719	-0.581130032283196	0.631611337250696	0.355576189912327
			-5.65159446582072E-04	1.85697134382724E-03	-2.01875831355647E-04	7.79942732158059E-04	0.631123323972509	0.355410045414429	0.331882086208463	-0.575519088800655
326750000	0.327251670623	-0.571817091304936	0.633629421854795	0.342855649836716	1.28302629438058E-03	1.97939199624099E-03	-5.54986028032266E-04	1.95436352557138E-03
			0.634105188739736	0.338457158376168	0.32960238881073	-0.571552111335962	-5.82639247816086E-04	1.76919657770525E-03	-1.87063679792829E-04	7.40631458221824E-04
			1.28072742316642E-03	1.98363100901094E-03	-6.06068773631704E-04	1.88181632170384E-03	0.323473783528751	-0.581251889597387	0.629868226075818	0.354719960627362
			-5.60412894598264E-04	1.85587686913376E-03	-1.98658838700696E-04	7.63602539226816E-04	0.631510745492367	0.354744338471425	0.331354534074475	-0.576227262322983
326875000	0.326924037021643	-0.572559032706926	0.633471894407115	0.342962767148533	1.23581579273766E-03	2.0107192546239E-03	-5.46798446756813E-04	1.9543645456512E-03
			0.634255464864087	0.33980512271537	0.329973633695831	-0.571847743854324	-6.09504652186785E-04	1.75039256145451E-03	-1.99131762387583E-04	7.31011571975851E-04
			0.001253238789878	2.0107190265417E-03	-6.0287635520955E-04	1.87038802744006E-03	0.322944098001934	-0.58111671245843	0.63143257931401	0.356266528902852
			-5.35207914481382E-04	1.84774571703542E-03	-2.17114612357209E-04	7.7354325212158E-04	0.631864796632794	0.355908581758394	0.331583163664322	-0.576022731381825
327000000	0.32571412645148	-0.572108972521293	0.634410949977451	0.343095368867671	1.24975742219746E-03	1.98530632396524E-03	-5.45313579421873E-04	1.99628803229576E-03
			0.632898061192225	0.337610950169396	0.329430516015783	-0.5714973795145	-5.82808797861363E-04	1.77300626991437E-03	-2.03686541158727E-04	6.97144032390494E-04
			1.26805749684528E-03	1.98811602422134E-03	-6.06474291539301E-04	1.88292231438672E-03	0.32259491597529	-0.580695087969334	0.62973788425049	0.357130400197196
			-5.22282612707178E-04	1.89523688547124E-03	-1.9916946544853E-04	7.2388665833792E-04	0.631723880892009	0.355144972446281	0.331155497853553	-0.575849637777617
327125000	0.326685357160697	-0.572346830166488	0.636273645029925	0.342966816395876	1.19662114254671E-03	1.96788678843728E-03	-4.81499942273682E-04	1.99981753914706E-03
			0.635332703495134	0.340525259812505	0.3289945133263	-0.571810084679662	-5.51025147929542E-04	1.78777201440696E-03	-2.24375363264506E-04	6.88409161161907E-04
			1.20303717249107E-03	1.97799699991151E-03	-5.43796742924245E-04	1.92504217056359E-03	0.322212373427106	-0.579969713699022	0.630458169757894	0.355762514600423
			-4.80870144450271E-04	1.90855991284778E-03	-2.52122911771838E-04	6.8900276604791E-04	0.629981948641656	0.356341522251284	0.330803601149522	-0.575453272761606
327250000	0.325819854268231	-0.572359037686917	0.635658191235555	0.342922576304658	1.17891017292462E-03	1.98746846885147E-03	-4.32025655179861E-04	1.97024636157057E-03
			0.635786660624945	0.338759637860971	0.329026484058605	-0.571927809201334	-4.93127543052801E-04	1.78481096580584E-03	-2.60295306138798E-04	6.67618672227528E-04
			1.18871643624338E-03	1.98320439741683E-03	-4.92723968004241E-04	1.90587542959549E-03	0.321810463791425	-0.580303223921534	0.630812646472844	0.355572174428885
			-4.51410806327358E-04	1.90244709896926E-03	-2.95138776773811E-04	6.79563064171084E-04	0.632118467000324	0.355231542217996	0.329826980087908	-0.576016670855446
327375000	0.325612352146486	-0.572322540474696	0.636484110120326	0.34136468260171	1.14091952204768E-03	2.01625835713315E-03	-3.92056005983696E-04	1.98724348837125E-03
			0.635216320047097	0.338865563490478	0.328449027307449	-0.57167762471605	-4.36953248965699E-04	1.77387635018778E-03	-3.51479256135776E-04	6.93158230685612E-04
			1.13952601490892E-03	2.01952922813642E-03	-4.47773185122345E-04	1.91064603364394E-03	0.322272577987665	-0.580159749474832	0.629906327667822	0.355899291579674
			-3.99631878050144E-04	1.88140371839501E-03	-3.25715521927974E-04	7.06643619025458E-04	0.632132521341603	0.355585313802906	0.330176352958868	-0.575409038975351
327500000	0.324634877228461	-0.572326473541405	0.635521184980008	0.341107222355422	1.12359215086762E-03	2.06100239807532E-03	-3.67873780795743E-04	1.92096407627298E-03
			0.636308429008097	0.338544484910978	0.327559568690076	-0.572246430404537	-4.29803089745691E-04	1.71600347123591E-03	-3.89418682944383E-04	7.41226877287679E-04
			1.12782177467949E-03	2.05824005467435E-03	-4.08544238874386E-04	1.86426650386431E-03	0.321501846223332	-0.580256978969462	0.631402942261917	0.356338122717378
			-3.77037640923678E-04	1.8260303424001E-03	-3.77782908475065E-04	7.54391313087191E-04	0.632055392728237	0.355324793907379	0.329789439050811	-0.575279763983998
327625000	0.325033284605336	-0.572403310609551	0.636740608089463	0.342923234735	1.12358217362454E-03	2.08947881051244E-03	-3.73778261796401E-04	1.89691654031761E-03
			0.637180434674934	0.339279696196405	0.32788091137071	-0.571527739920353	-4.09364527259351E-04	1.71180320215298E-03	-3.70646095885235E-04	7.30790725938968E-04
			1.10791811200827E-03	2.0816955095595E-03	-4.1338816749297E-04	1.80396112875257E-03	0.321122642396452	-0.580601729188758	0.632767786429866	0.354776218061567
			-3.69173944998338E-04	1.78897593983777E-03	-3.75382608407589E-04	7.84828923751689E-04	0.632853465521992	0.354016652377367	0.329624982367852	-0.575971205585702
327750000	0.324320963028102	-0.57223732112174	0.636619634417535	0.342513424218522	1.09388430329672E-03	2.12817144771925E-03	-3.52118566820604E-04	1.87812913538111E-03
			0.636899226941603	0.339515877946824	0.327425160873195	-0.571811790548532	-4.0771532344453E-04	1.63764330263397E-03	-4.02122048851414E-04	7.9883661185401E-04
			1.0950372983296E-03	2.12469465594806E-03	-3.96398835884154E-04	1.79589302816021E-03	0.321463570111073	-0.581095639833549	0.631991394981335	0.35628182559827
