# Hz S RI R 50

25000000, 9.865023e-001, -1.488049e-001, 1.312423e-004, -1.633512e-004, 1.353627e-004, -1.581965e-004, 9.825320e-001, -1.579195e-001
25062500, 9.863309e-001, -1.491862e-001, 6.435722e-005, -1.036552e-004, 5.798647e-005, -1.108104e-004, 9.824266e-001, -1.581733e-001
25125000, 9.861966e-001, -1.497500e-001, 1.133775e-004, -6.270747e-005, 1.135726e-004, -6.379585e-005, 9.823753e-001, -1.584587e-001
25187500, 9.860882e-001, -1.500567e-001, 1.330800e-004, -9.532277e-005, 1.408160e-004, -9.647954e-005, 9.823402e-001, -1.589362e-001
25250000, 9.859654e-001, -1.504206e-001, 1.502149e-004, -1.080680e-004, 1.426908e-004, -1.067499e-004, 9.824258e-001, -1.594241e-001
25312500, 9.859874e-001, -1.508173e-001, 1.413746e-004, -1.474259e-004, 1.412584e-004, -1.508291e-004, 9.824250e-001, -1.600943e-001
25375000, 9.858514e-001, -1.512653e-001, 1.206891e-004, -1.476205e-004, 1.208164e-004, -1.356741e-004, 9.821947e-001, -1.608206e-001
25437500, 9.858548e-001, -1.517352e-001, 1.131807e-004, -1.211207e-004, 1.310898e-004, -1.236656e-004, 9.817700e-001, -1.612604e-001
25500000, 9.856183e-001, -1.520942e-001, 1.675423e-004, -1.249750e-004, 1.724180e-004, -1.241609e-004, 9.814702e-001, -1.616093e-001
25562500, 9.854319e-001, -1.525828e-001, 2.229136e-004, -1.802968e-004, 2.287805e-004, -1.867994e-004, 9.812656e-001, -1.619737e-001
25625000, 9.852639e-001, -1.531137e-001, 2.009483e-004, -3.130593e-004, 2.027953e-004, -3.203269e-004, 9.809981e-001, -1.625970e-001
25687500, 9.848978e-001, -1.535106e-001, 3.498769e-005, -3.940625e-004, 3.940109e-005, -3.939944e-004, 9.803217e-001, -1.632210e-001
25750000, 9.845401e-001, -1.535943e-001, -1.265175e-004, -2.953771e-004, -1.243211e-004, -2.894297e-004, 9.794548e-001, -1.632188e-001
25812500, 9.842552e-001, -1.536178e-001, -1.765999e-004, -7.207902e-005, -1.747747e-004, -8.151181e-005, 9.787964e-001, -1.625837e-001
25875000, 9.842972e-001, -1.536595e-001, 7.690348e-005, 1.081372e-004, 8.802615e-005, 1.030667e-004, 9.791477e-001, -1.620022e-001
25937500, 9.843807e-001, -1.538428e-001, 3.316320e-004, -1.277417e-004, 3.273628e-004, -1.340573e-004, 9.795362e-001, -1.620179e-001
26000000, 9.844255e-001, -1.540919e-001, 1.357939e-004, -3.542209e-004, 1.287408e-004, -3.625794e-004, 9.799643e-001, -1.619340e-001
26062500, 9.845331e-001, -1.542129e-001, 1.483774e-005, -2.244103e-004, 8.910163e-006, -2.263916e-004, 9.807611e-001, -1.624900e-001
26125000, 9.846321e-001, -1.547450e-001, 3.632027e-005, -2.228419e-004, 3.938902e-005, -2.273205e-004, 9.810684e-001, -1.631440e-001
26187500, 9.846902e-001, -1.550618e-001, 6.586847e-005, -1.693902e-004, 5.600671e-005, -1.780701e-004, 9.811517e-001, -1.639597e-001
26250000, 9.847395e-001, -1.555750e-001, 3.710370e-005, -2.077323e-004, 4.104014e-005, -2.066175e-004, 9.810116e-001, -1.645946e-001
26312500, 9.845900e-001, -1.559734e-001, 8.135278e-005, -1.251653e-004, 7.930717e-005, -1.226837e-004, 9.808732e-001, -1.650470e-001
26375000, 9.845404e-001, -1.563737e-001, 1.407774e-004, -1.847757e-004, 1.416507e-004, -1.903034e-004, 9.808117e-001, -1.655070e-001
26437500, 9.843777e-001, -1.568919e-001, 1.852639e-004, -1.866150e-004, 1.925071e-004, -1.856157e-004, 9.807834e-001, -1.660201e-001
26500000, 9.843218e-001, -1.570803e-001, 2.508355e-004, -3.124913e-004, 2.563303e-004, -3.114363e-004, 9.805369e-001, -1.665406e-001
26562500, 9.843425e-001, -1.575336e-001, 1.623594e-004, -4.505258e-004, 1.681330e-004, -4.521714e-004, 9.803652e-001, -1.668802e-001
26625000, 9.841747e-001, -1.578109e-001, 5.674806e-005, -4.533467e-004, 4.984482e-005, -4.494046e-004, 9.802331e-001, -1.672196e-001
26687500, 9.840450e-001, -1.581246e-001, 2.709046e-005, -5.144987e-004, 2.547406e-005, -5.111972e-004, 9.801692e-001, -1.677231e-001
26750000, 9.840397e-001, -1.583094e-001, -1.495651e-004, -5.235365e-004, -1.459369e-004, -5.201901e-004, 9.800209e-001, -1.680292e-001
26812500, 9.842084e-001, -1.586321e-001, -2.390045e-004, -3.825292e-004, -2.386883e-004, -3.929303e-004, 9.799466e-001, -1.682970e-001
26875000, 9.842594e-001, -1.591952e-001, -1.925221e-004, -3.300940e-004, -1.897347e-004, -3.384374e-004, 9.801333e-001, -1.687998e-001
26937500, 9.841119e-001, -1.595751e-001, -2.542906e-004, -3.261852e-004, -2.559876e-004, -3.290033e-004, 9.798523e-001, -1.693741e-001
27000000, 9.841056e-001, -1.599412e-001, -2.607864e-004, -2.503865e-004, -2.607251e-004, -2.515890e-004, 9.797244e-001, -1.695204e-001
27062500, 9.840232e-001, -1.602429e-001, -2.769146e-004, -2.193633e-004, -2.783449e-004, -2.260079e-004, 9.797171e-001, -1.698848e-001
27125000, 9.839673e-001, -1.606127e-001, -2.803618e-004, -1.334168e-004, -2.715272e-004, -1.331235e-004, 9.794869e-001, -1.703017e-001
27187500, 9.840459e-001, -1.609952e-001, -2.415881e-004, -9.420686e-005, -2.432651e-004, -9.701504e-005, 9.794168e-001, -1.706074e-001
27250000, 9.839212e-001, -1.614737e-001, -2.195406e-004, -6.450305e-005, -2.187558e-004, -6.485162e-005, 9.794703e-001, -1.710482e-001
27312500, 9.839358e-001, -1.618552e-001, -1.863779e-004, -3.896504e-005, -1.852982e-004, -4.117342e-005, 9.792074e-001, -1.713266e-001
27375000, 9.838450e-001, -1.624245e-001, -1.996794e-004, 1.953553e-005, -1.926669e-004, 1.515566e-005, 9.792396e-001, -1.715424e-001
27437500, 9.835388e-001, -1.626489e-001, -4.971311e-005, 7.266738e-005, -4.676839e-005, 6.652910e-005, 9.792691e-001, -1.719111e-001
27500000, 9.835951e-001, -1.629016e-001, -1.142645e-005, -6.141228e-005, -7.153835e-006, -6.815872e-005, 9.792596e-001, -1.723209e-001
27562500, 9.835982e-001, -1.632559e-001, -7.808995e-005, -5.558736e-005, -8.765375e-005, -5.501088e-005, 9.791648e-001, -1.725878e-001
27625000, 9.836552e-001, -1.636375e-001, -4.104376e-005, -2.741419e-005, -3.558605e-005, -2.719270e-005, 9.793906e-001, -1.728501e-001
27687500, 9.836375e-001, -1.640763e-001, -4.435299e-005, -5.056595e-005, -4.432364e-005, -4.751870e-005, 9.795233e-001, -1.734643e-001
27750000, 9.834850e-001, -1.645574e-001, -2.817746e-005, -2.905394e-005, -3.370211e-005, -2.852840e-005, 9.795443e-001, -1.740054e-001
27812500, 9.834253e-001, -1.649141e-001, -2.035131e-005, -5.221400e-005, -1.638783e-005, -4.623577e-005, 9.794387e-001, -1.746086e-001
27875000, 9.834104e-001, -1.653684e-001, -4.110020e-005, -4.134272e-005, -3.004516e-005, -4.496583e-005, 9.793594e-001, -1.750118e-001
27937500, 9.832843e-001, -1.658154e-001, -1.823942e-005, 6.324816e-006, -2.056482e-005, 3.653893e-006, 9.793564e-001, -1.755617e-001
28000000, 9.830447e-001, -1.660763e-001, 5.126312e-005, 1.516457e-005, 4.645634e-005, 1.292541e-005, 9.790448e-001, -1.762403e-001
28062500, 9.830060e-001, -1.665362e-001, 8.556983e-005, -2.825767e-005, 7.910992e-005, -2.634801e-005, 9.788836e-001, -1.766358e-001
28125000, 9.828998e-001, -1.668086e-001, 8.057227e-005, -4.689093e-005, 8.549055e-005, -4.080112e-005, 9.785136e-001, -1.769211e-001
28187500, 9.828732e-001, -1.669989e-001, 9.004440e-005, -4.278466e-005, 9.863126e-005, -4.058062e-005, 9.784921e-001, -1.771771e-001
28250000, 9.828371e-001, -1.674582e-001, 1.559992e-004, -4.268389e-005, 1.511298e-004, -4.313248e-005, 9.785434e-001, -1.775792e-001
28312500, 9.828003e-001, -1.677836e-001, 1.844959e-004, -1.271152e-004, 1.948121e-004, -1.335116e-004, 9.784595e-001, -1.780214e-001
28375000, 9.828269e-001, -1.682121e-001, 1.614296e-004, -1.678707e-004, 1.514343e-004, -1.603697e-004, 9.783062e-001, -1.783893e-001
28437500, 9.827713e-001, -1.685596e-001, 1.748321e-004, -1.716877e-004, 1.737903e-004, -1.737152e-004, 9.781740e-001, -1.787247e-001
28500000, 9.827673e-001, -1.689951e-001, 1.803747e-004, -2.515454e-004, 1.826228e-004, -2.466500e-004, 9.782305e-001, -1.791339e-001
28562500, 9.826728e-001, -1.694742e-001, 1.370787e-004, -2.815247e-004, 1.550177e-004, -2.888251e-004, 9.780686e-001, -1.796769e-001
28625000, 9.826340e-001, -1.699395e-001, 1.199305e-004, -3.441933e-004, 1.242411e-004, -3.528864e-004, 9.779402e-001, -1.800257e-001
28687500, 9.824876e-001, -1.703754e-001, 1.370497e-005, -3.870515e-004, 1.121535e-005, -4.007350e-004, 9.777562e-001, -1.804981e-001
28750000, 9.822867e-001, -1.706819e-001, -6.438605e-005, -3.491131e-004, -6.822085e-005, -3.543286e-004, 9.777241e-001, -1.808030e-001
28812500, 9.822529e-001, -1.711240e-001, -1.252895e-004, -3.028963e-004, -1.246126e-004, -3.050692e-004, 9.776881e-001, -1.813291e-001
28875000, 9.822525e-001, -1.713169e-001, -1.463169e-004, -2.351505e-004, -1.469247e-004, -2.355166e-004, 9.774029e-001, -1.818206e-001
28937500, 9.821787e-001, -1.718774e-001, -1.474748e-004, -1.579878e-004, -1.506046e-004, -1.623317e-004, 9.770870e-001, -1.821211e-001
29000000, 9.819044e-001, -1.722867e-001, -1.250091e-004, -7.744320e-005, -1.242786e-004, -8.385318e-005, 9.769311e-001, -1.823021e-001
29062500, 9.817228e-001, -1.725524e-001, -5.711437e-006, -7.917776e-006, 2.593367e-006, -6.624022e-006, 9.768335e-001, -1.824522e-001
29125000, 9.817014e-001, -1.727795e-001, 1.754006e-004, -7.079338e-005, 1.773512e-004, -7.814116e-005, 9.769335e-001, -1.825696e-001
29187500, 9.817217e-001, -1.731578e-001, 2.032010e-004, -2.920160e-004, 2.067551e-004, -2.913470e-004, 9.770374e-001, -1.828450e-001
29250000, 9.816254e-001, -1.734913e-001, 4.583490e-005, -4.065018e-004, 4.062268e-005, -3.982031e-004, 9.773251e-001, -1.832668e-001
29312500, 9.816371e-001, -1.737758e-001, -6.668346e-005, -3.586538e-004, -6.750724e-005, -3.522504e-004, 9.773063e-001, -1.839160e-001
29375000, 9.816653e-001, -1.741782e-001, -1.064131e-004, -2.985212e-004, -1.059678e-004, -2.997175e-004, 9.772745e-001, -1.844417e-001
29437500, 9.816127e-001, -1.747054e-001, -8.174149e-005, -2.774990e-004, -8.575255e-005, -2.847328e-004, 9.772165e-001, -1.848489e-001
29500000, 9.814300e-001, -1.751336e-001, -1.411661e-004, -2.956121e-004, -1.533262e-004, -2.984517e-004, 9.771056e-001, -1.853559e-001
29562500, 9.813782e-001, -1.754415e-001, -1.910325e-004, -2.166867e-004, -1.912697e-004, -2.235150e-004, 9.770900e-001, -1.857447e-001
29625000, 9.814080e-001, -1.758518e-001, -1.461748e-004, -1.451182e-004, -1.443035e-004, -1.465746e-004, 9.770420e-001, -1.862425e-001
29687500, 9.814864e-001, -1.762789e-001, -7.917836e-005, -1.637601e-004, -7.645753e-005, -1.569258e-004, 9.770618e-001, -1.867364e-001
29750000, 9.814426e-001, -1.767449e-001, -7.836942e-005, -2.222859e-004, -7.163367e-005, -2.240265e-004, 9.769574e-001, -1.874561e-001
29812500, 9.813641e-001, -1.772735e-001, -1.256672e-004, -2.303312e-004, -1.296219e-004, -2.383122e-004, 9.767476e-001, -1.879605e-001
29875000, 9.811903e-001, -1.778209e-001, -1.462184e-004, -2.290357e-004, -1.521324e-004, -2.200743e-004, 9.766115e-001, -1.883879e-001
29937500, 9.810500e-001, -1.782525e-001, -1.922147e-004, -1.773563e-004, -1.898495e-004, -1.729247e-004, 9.763705e-001, -1.888531e-001
30000000, 9.808741e-001, -1.786359e-001, -1.479455e-004, -1.526247e-004, -1.632120e-004, -1.587126e-004, 9.764747e-001, -1.893128e-001
30062500, 9.807594e-001, -1.789864e-001, -1.844873e-004, -1.912602e-004, -1.795276e-004, -1.826418e-004, 9.761825e-001, -1.900040e-001
30125000, 9.805692e-001, -1.795239e-001, -2.504849e-004, -1.276744e-004, -2.431022e-004, -1.255335e-004, 9.758808e-001, -1.906458e-001
30187500, 9.804603e-001, -1.799864e-001, -2.468115e-004, -5.913628e-005, -2.494934e-004, -5.718233e-005, 9.755260e-001, -1.910738e-001
30250000, 9.802144e-001, -1.803369e-001, -1.954535e-004, 5.348609e-005, -1.900247e-004, 4.443136e-005, 9.751576e-001, -1.914185e-001
30312500, 9.801005e-001, -1.807982e-001, -5.618077e-005, 2.846792e-005, -6.026142e-005, 3.228527e-005, 9.750506e-001, -1.916346e-001
30375000, 9.797948e-001, -1.813385e-001, -7.750049e-005, -5.296284e-005, -8.068397e-005, -5.888079e-005, 9.748760e-001, -1.923147e-001
30437500, 9.794195e-001, -1.818107e-001, -8.909688e-005, -5.353820e-006, -9.367801e-005, -4.690109e-006, 9.744722e-001, -1.927814e-001
30500000, 9.789512e-001, -1.821557e-001, -2.890843e-005, -1.977786e-005, -3.886022e-005, -2.408351e-005, 9.741361e-001, -1.931609e-001
30562500, 9.785447e-001, -1.823228e-001, -4.851219e-005, -4.605804e-005, -4.960640e-005, -4.437311e-005, 9.737489e-001, -1.937706e-001
30625000, 9.782082e-001, -1.823161e-001, -7.316525e-005, -4.837803e-006, -7.620910e-005, 2.642926e-008, 9.729345e-001, -1.942868e-001
30687500, 9.778786e-001, -1.823596e-001, 2.237613e-005, 7.143177e-005, 3.046267e-005, 7.172814e-005, 9.718624e-001, -1.942847e-001
30750000, 9.778668e-001, -1.820454e-001, 1.436290e-004, -8.414495e-005, 1.485622e-004, -8.869882e-005, 9.711736e-001, -1.933663e-001
30812500, 9.783125e-001, -1.820695e-001, 6.323069e-005, -1.430433e-004, 6.413017e-005, -1.508863e-004, 9.715502e-001, -1.925578e-001
30875000, 9.785626e-001, -1.826500e-001, 1.283398e-005, -2.793612e-004, 1.278275e-005, -2.811656e-004, 9.719502e-001, -1.924837e-001
30937500, 9.785115e-001, -1.832457e-001, -2.490562e-004, -2.176737e-004, -2.483408e-004, -2.226033e-004, 9.723746e-001, -1.924021e-001
31000000, 9.781236e-001, -1.836532e-001, -2.596378e-004, 9.715198e-005, -2.640912e-004, 9.526304e-005, 9.727649e-001, -1.925957e-001
31062500, 9.777695e-001, -1.837823e-001, -7.992007e-005, 1.554179e-004, -7.433616e-005, 1.597284e-004, 9.731998e-001, -1.926189e-001
31125000, 9.777011e-001, -1.835868e-001, 1.027928e-004, 1.661236e-004, 1.001876e-004, 1.711104e-004, 9.737726e-001, -1.930960e-001
31187500, 9.779955e-001, -1.835112e-001, 1.572314e-004, 3.000553e-005, 1.596558e-004, 2.337209e-005, 9.741683e-001, -1.937439e-001
31250000, 9.783717e-001, -1.838915e-001, 1.993120e-004, -1.172578e-005, 1.968598e-004, -1.698190e-005, 9.741749e-001, -1.944809e-001
31312500, 9.786035e-001, -1.843867e-001, 1.693904e-004, -1.509462e-004, 1.711342e-004, -1.471709e-004, 9.742036e-001, -1.949801e-001
31375000, 9.784861e-001, -1.849386e-001, 6.348783e-005, -1.566098e-004, 6.559101e-005, -1.567845e-004, 9.742360e-001, -1.955117e-001
31437500, 9.782419e-001, -1.852107e-001, 4.395782e-005, -2.174940e-005, 4.015477e-005, -1.872245e-005, 9.743217e-001, -1.959210e-001
31500000, 9.785274e-001, -1.853775e-001, 2.078597e-004, -6.823986e-005, 2.158214e-004, -7.418435e-005, 9.744888e-001, -1.964239e-001
31562500, 9.787102e-001, -1.858341e-001, 1.849698e-004, -2.175216e-004, 1.879701e-004, -2.106606e-004, 9.744395e-001, -1.969844e-001
31625000, 9.786601e-001, -1.863349e-001, 4.496325e-005, -2.211417e-004, 4.276634e-005, -2.257856e-004, 9.744127e-001, -1.975237e-001
31687500, 9.786614e-001, -1.866895e-001, 1.012292e-005, -1.078123e-004, 3.131438e-006, -1.160258e-004, 9.744461e-001, -1.980702e-001
31750000, 9.787162e-001, -1.870613e-001, 1.079755e-004, -3.206566e-005, 1.091814e-004, -2.295688e-005, 9.745853e-001, -1.986239e-001
31812500, 9.787135e-001, -1.876400e-001, 2.601525e-004, -7.967060e-005, 2.600638e-004, -7.652293e-005, 9.744188e-001, -1.994482e-001
31875000, 9.786267e-001, -1.879487e-001, 3.031266e-004, -2.908129e-004, 3.001496e-004, -2.901522e-004, 9.740825e-001, -1.997702e-001
31937500, 9.786180e-001, -1.884118e-001, 1.700441e-004, -3.776526e-004, 1.676841e-004, -3.769330e-004, 9.741162e-001, -2.000341e-001
32000000, 9.785627e-001, -1.887987e-001, 9.098498e-005, -3.974465e-004, 9.571446e-005, -4.021168e-004, 9.743052e-001, -2.006576e-001
32062500, 9.784145e-001, -1.893049e-001, -2.000462e-005, -4.251758e-004, -2.009804e-005, -4.268649e-004, 9.743675e-001, -2.014556e-001
32125000, 9.783547e-001, -1.895537e-001, -1.043068e-004, -3.255182e-004, -1.078109e-004, -3.305492e-004, 9.740861e-001, -2.023058e-001
32187500, 9.783454e-001, -1.899963e-001, -9.763793e-005, -2.823070e-004, -9.723236e-005, -2.871295e-004, 9.736687e-001, -2.029094e-001
32250000, 9.784564e-001, -1.904092e-001, -1.305729e-004, -2.593725e-004, -1.275405e-004, -2.663069e-004, 9.731775e-001, -2.032181e-001
32312500, 9.784612e-001, -1.908930e-001, -1.344943e-004, -1.975696e-004, -1.356231e-004, -2.048328e-004, 9.728787e-001, -2.033023e-001
32375000, 9.784240e-001, -1.914513e-001, -1.286757e-004, -1.957714e-004, -1.266287e-004, -1.887153e-004, 9.729472e-001, -2.035554e-001
32437500, 9.782790e-001, -1.918816e-001, -1.695103e-004, -1.407217e-004, -1.734882e-004, -1.363522e-004, 9.730344e-001, -2.038713e-001
32500000, 9.781200e-001, -1.923496e-001, -1.060371e-004, -1.505973e-005, -1.020577e-004, -2.294844e-005, 9.731408e-001, -2.045631e-001
32562500, 9.777746e-001, -1.927840e-001, -6.775819e-007, -3.800545e-005, -5.460038e-006, -3.874768e-005, 9.730192e-001, -2.051353e-001
32625000, 9.777122e-001, -1.930387e-001, 4.856259e-005, -6.570624e-005, 4.904539e-005, -6.697608e-005, 9.728173e-001, -2.057768e-001
32687500, 9.775761e-001, -1.932949e-001, 6.218129e-005, -1.662549e-004, 6.816568e-005, -1.665104e-004, 9.726484e-001, -2.061633e-001
32750000, 9.775824e-001, -1.936344e-001, -1.071049e-005, -1.757657e-004, -3.429964e-008, -1.710266e-004, 9.726452e-001, -2.067722e-001
32812500, 9.776039e-001, -1.939968e-001, -2.077496e-005, -1.286807e-004, -2.454549e-005, -1.278893e-004, 9.722913e-001, -2.074355e-001
32875000, 9.776562e-001, -1.944367e-001, 1.259781e-005, -1.162338e-004, 1.801035e-005, -1.160161e-004, 9.718892e-001, -2.078254e-001
32937500, 9.775500e-001, -1.947969e-001, 1.788210e-005, -1.380862e-004, 3.709545e-005, -1.344433e-004, 9.718323e-001, -2.081318e-001
33000000, 9.775457e-001, -1.953139e-001, -2.772953e-006, -1.017000e-004, -9.293015e-006, -1.098719e-004, 9.717233e-001, -2.087607e-001
33062500, 9.773740e-001, -1.958215e-001, 4.978273e-005, -4.333205e-005, 4.746045e-005, -3.562826e-005, 9.713051e-001, -2.092939e-001
33125000, 9.774337e-001, -1.961537e-001, 1.743366e-004, -6.117092e-005, 1.743501e-004, -6.511646e-005, 9.710164e-001, -2.096693e-001
33187500, 9.773106e-001, -1.967664e-001, 2.195883e-004, -1.529410e-004, 2.174319e-004, -1.658552e-004, 9.706993e-001, -2.101978e-001
33250000, 9.770325e-001, -1.973168e-001, 2.266225e-004, -2.495993e-004, 2.298956e-004, -2.426346e-004, 9.701832e-001, -2.106354e-001
33312500, 9.768463e-001, -1.976930e-001, 2.013182e-004, -3.369211e-004, 2.119802e-004, -3.509396e-004, 9.697098e-001, -2.107713e-001
33375000, 9.766190e-001, -1.981468e-001, 1.164233e-004, -4.326511e-004, 1.201361e-004, -4.288107e-004, 9.694041e-001, -2.108894e-001
33437500, 9.764748e-001, -1.982431e-001, 3.530688e-005, -4.411805e-004, 3.580145e-005, -4.433809e-004, 9.691610e-001, -2.108784e-001
33500000, 9.762489e-001, -1.985261e-001, -6.018696e-005, -4.604234e-004, -6.261209e-005, -4.573399e-004, 9.691586e-001, -2.109037e-001
33562500, 9.762129e-001, -1.986764e-001, -1.565215e-004, -4.083405e-004, -1.547024e-004, -4.195628e-004, 9.693587e-001, -2.112076e-001
33625000, 9.763617e-001, -1.990495e-001, -2.257668e-004, -3.385507e-004, -2.211716e-004, -3.421350e-004, 9.692285e-001, -2.116654e-001
33687500, 9.764620e-001, -1.995053e-001, -2.592281e-004, -2.392673e-004, -2.588983e-004, -2.391803e-004, 9.688835e-001, -2.119262e-001
33750000, 9.763330e-001, -1.999060e-001, -2.299905e-004, -1.330195e-004, -2.292347e-004, -1.347032e-004, 9.687128e-001, -2.119007e-001
33812500, 9.762336e-001, -2.005159e-001, -1.385444e-004, -8.588025e-005, -1.374695e-004, -7.786331e-005, 9.691044e-001, -2.120067e-001
33875000, 9.761043e-001, -2.009418e-001, -5.739159e-005, -9.057149e-005, -6.597049e-005, -8.715466e-005, 9.694605e-001, -2.123405e-001
33937500, 9.760715e-001, -2.013610e-001, -5.259261e-005, -1.434851e-004, -5.416907e-005, -1.482495e-004, 9.695231e-001, -2.129886e-001
34000000, 9.758130e-001, -2.017408e-001, -4.545395e-005, -1.142590e-004, -4.254973e-005, -1.124134e-004, 9.695818e-001, -2.135603e-001
34062500, 9.758127e-001, -2.021344e-001, -4.092171e-006, -1.292535e-004, -1.006216e-006, -1.334217e-004, 9.695722e-001, -2.142413e-001
34125000, 9.756413e-001, -2.025565e-001, 3.552398e-006, -1.767148e-004, -8.214296e-007, -1.852563e-004, 9.692010e-001, -2.146802e-001
34187500, 9.754992e-001, -2.029827e-001, 2.594836e-005, -2.164932e-004, 1.919726e-005, -2.143640e-004, 9.691713e-001, -2.151108e-001
34250000, 9.752061e-001, -2.032950e-001, -3.693678e-005, -2.838974e-004, -3.325853e-005, -2.881065e-004, 9.691881e-001, -2.156436e-001
