!sf1186b-2, demo1,wide,bn,7/20/05
# HZ S RI R 50
1443120000     -0.8123779     -0.5594482     -0.0004051      0.0022428     -0.0003476      0.0027099     -0.8332520     -0.4777832
1443285376     -0.8133545     -0.5590820     -0.0003927      0.0022604     -0.0003769      0.0026531     -0.8354492     -0.4775391
1443450752     -0.8134766     -0.5579834     -0.0004408      0.0022304     -0.0004206      0.0026417     -0.8348389     -0.4770508
1443616128     -0.8128662     -0.5578613     -0.0004263      0.0022583     -0.0004344      0.0026023     -0.8355713     -0.4757080
1443781504     -0.8142090     -0.5571289     -0.0004699      0.0022421     -0.0004663      0.0026212     -0.8364258     -0.4755859
1443946880     -0.8145752     -0.5562744     -0.0004241      0.0021877     -0.0004284      0.0026498     -0.8365479     -0.4750977
1444112256     -0.8156738     -0.5566406     -0.0004573      0.0021477     -0.0004346      0.0026460     -0.8374023     -0.4744873
1444277632     -0.8156738     -0.5551758     -0.0004587      0.0021858     -0.0004411      0.0026414     -0.8371582     -0.4742432
1444443008     -0.8156738     -0.5548096     -0.0004587      0.0021863     -0.0004187      0.0025818     -0.8374023     -0.4731445
1444608384     -0.8164063     -0.5545654     -0.0004904      0.0021522     -0.0004306      0.0025823     -0.8386230     -0.4714355
1444773760     -0.8160400     -0.5538330     -0.0005002      0.0021722     -0.0004241      0.0025473     -0.8383789     -0.4707031
1444939136     -0.8177490     -0.5523682     -0.0004716      0.0021780     -0.0005229      0.0025434     -0.8381348     -0.4705811
1445104512     -0.8173828     -0.5522461     -0.0004766      0.0021491     -0.0004556      0.0026004     -0.8395996     -0.4698486
1445269888     -0.8176270     -0.5510254     -0.0005009      0.0021601     -0.0004451      0.0025334     -0.8399658     -0.4691162
1445435264     -0.8178711     -0.5507813     -0.0004925      0.0021164     -0.0004826      0.0025821     -0.8393555     -0.4699707
1445600640     -0.8183594     -0.5502930     -0.0005289      0.0021359     -0.0004613      0.0025101     -0.8389893     -0.4693604
1445766016     -0.8184814     -0.5490723     -0.0005562      0.0021555     -0.0005071      0.0025423     -0.8398438     -0.4678955
1445931392     -0.8181152     -0.5490723     -0.0005133      0.0021342     -0.0005023      0.0025332     -0.8403320     -0.4672852
1446096768     -0.8188477     -0.5480957     -0.0005234      0.0021137     -0.0004647      0.0025315     -0.8392334     -0.4663086
1446262144     -0.8182373     -0.5489502     -0.0005064      0.0021148     -0.0004869      0.0025096     -0.8411865     -0.4659424
1446427520     -0.8189697     -0.5476074     -0.0005058      0.0020516     -0.0005360      0.0025001     -0.8404541     -0.4649658
1446592896     -0.8199463     -0.5471191     -0.0005314      0.0020894     -0.0005362      0.0024610     -0.8405762     -0.4649658
1446758272     -0.8184814     -0.5465088     -0.0005877      0.0020839     -0.0004885      0.0024738     -0.8413086     -0.4643555
1446923648     -0.8188477     -0.5457764     -0.0005187      0.0020769     -0.0005527      0.0024965     -0.8415527     -0.4644775
1447089024     -0.8201904     -0.5456543     -0.0005856      0.0020756     -0.0005496      0.0024233     -0.8408203     -0.4631348
1447254400     -0.8204346     -0.5456543     -0.0005764      0.0020807     -0.0005889      0.0024340     -0.8421631     -0.4626465
1447419776     -0.8203125     -0.5458984     -0.0005956      0.0020380     -0.0005801      0.0024476     -0.8421631     -0.4630127
1447585152     -0.8215332     -0.5446777     -0.0005844      0.0020777     -0.0005107      0.0024672     -0.8426514     -0.4621582
1447750528     -0.8216553     -0.5444336     -0.0006075      0.0020570     -0.0005574      0.0024741     -0.8433838     -0.4625244
1447915904     -0.8228760     -0.5443115     -0.0006381      0.0020596     -0.0005963      0.0024927     -0.8442383     -0.4606934
1448081280     -0.8227539     -0.5439453     -0.0006090      0.0020548     -0.0005953      0.0024655     -0.8446045     -0.4608154
1448246656     -0.8227539     -0.5434570     -0.0006927      0.0020264     -0.0006385      0.0024333     -0.8448486     -0.4603271
1448412032     -0.8232422     -0.5433350     -0.0007198      0.0020545     -0.0006752      0.0024335     -0.8442383     -0.4588623
1448577408     -0.8237305     -0.5421143     -0.0006623      0.0020559     -0.0006373      0.0024796     -0.8454590     -0.4586182
1448742784     -0.8243408     -0.5417480     -0.0006628      0.0020761     -0.0006223      0.0024681     -0.8463135     -0.4583740
1448908160     -0.8244629     -0.5417480     -0.0006254      0.0020605     -0.0006454      0.0024893     -0.8466797     -0.4573975
1449073536     -0.8247070     -0.5402832     -0.0007043      0.0020509     -0.0006723      0.0024555     -0.8459473     -0.4570313
1449238912     -0.8259277     -0.5395508     -0.0006908      0.0020562     -0.0006325      0.0024631     -0.8477783     -0.4561768
1449404288     -0.8261719     -0.5393066     -0.0006886      0.0020661     -0.0006430      0.0024364     -0.8464355     -0.4550781
1449569664     -0.8265381     -0.5393066     -0.0006952      0.0020310     -0.0006251      0.0024586     -0.8476563     -0.4545898
1449735040     -0.8266602     -0.5383301     -0.0007149      0.0020578     -0.0006449      0.0024648     -0.8468018     -0.4541016
1449900416     -0.8269043     -0.5377197     -0.0006950      0.0020730     -0.0006499      0.0024807     -0.8486328     -0.4533691
1450065792     -0.8269043     -0.5371094     -0.0007254      0.0020571     -0.0006437      0.0024633     -0.8481445     -0.4530029
1450231168     -0.8273926     -0.5367432     -0.0006733      0.0020695     -0.0006700      0.0024590     -0.8479004     -0.4515381
1450396544     -0.8284912     -0.5354004     -0.0007453      0.0020831     -0.0006502      0.0024700     -0.8498535     -0.4516602
1450561920     -0.8292236     -0.5358887     -0.0007166      0.0020566     -0.0006335      0.0024641     -0.8496094     -0.4519043
1450727296     -0.8297119     -0.5355225     -0.0006948      0.0020223     -0.0006952      0.0024545     -0.8492432     -0.4509277
1450892672     -0.8299561     -0.5347900     -0.0006983      0.0020760     -0.0006723      0.0024841     -0.8514404     -0.4498291
1451058048     -0.8310547     -0.5339355     -0.0007241      0.0020685     -0.0006504      0.0024352     -0.8502197     -0.4492188
1451223424     -0.8303223     -0.5332031     -0.0007230      0.0020729     -0.0006495      0.0024593     -0.8510742     -0.4488525
1451388800     -0.8317871     -0.5318604     -0.0006647      0.0020477     -0.0006301      0.0024390     -0.8511963     -0.4473877
1451554176     -0.8308105     -0.5317383     -0.0006566      0.0020467     -0.0006354      0.0024619     -0.8515625     -0.4476318
1451719552     -0.8317261     -0.5306396     -0.0007373      0.0020561     -0.0006322      0.0024354     -0.8520508     -0.4468994
1451884928     -0.8329468     -0.5302124     -0.0006953      0.0020102     -0.0006019      0.0024601     -0.8529053     -0.4460449
1452050304     -0.8329468     -0.5300293     -0.0007154      0.0020293     -0.0006754      0.0024128     -0.8532104     -0.4454956
1452215680     -0.8327637     -0.5290527     -0.0006725      0.0020423     -0.0006381      0.0024378     -0.8529053     -0.4438477
1452381056     -0.8328247     -0.5288696     -0.0006857      0.0020113     -0.0006050      0.0024436     -0.8535156     -0.4436646
1452546432     -0.8341064     -0.5285645     -0.0006570      0.0020341     -0.0005598      0.0024132     -0.8543701     -0.4435425
1452711808     -0.8356934     -0.5277100     -0.0006728      0.0019943     -0.0005991      0.0023832     -0.8543701     -0.4414063
1452877184     -0.8354492     -0.5273438     -0.0006640      0.0020046     -0.0006113      0.0023385     -0.8547363     -0.4414063
1453042560     -0.8353271     -0.5261230     -0.0007113      0.0019848     -0.0006528      0.0023985     -0.8552856     -0.4406738
1453207936     -0.8357544     -0.5256958     -0.0006608      0.0019814     -0.0006267      0.0023768     -0.8551636     -0.4406128
1453373312     -0.8360596     -0.5247192     -0.0007254      0.0019814     -0.0005487      0.0023936     -0.8546143     -0.4397888
1453538688     -0.8361816     -0.5240479     -0.0007409      0.0019833     -0.0006272      0.0023633     -0.8558960     -0.4384460
1453703936     -0.8372192     -0.5233765     -0.0007086      0.0019451     -0.0005785      0.0023161     -0.8565674     -0.4375000
1453869312     -0.8372192     -0.5238037     -0.0006984      0.0019674     -0.0006013      0.0023007     -0.8562317     -0.4381714
1454034688     -0.8377075     -0.5221558     -0.0007005      0.0019261     -0.0005664      0.0023686     -0.8572083     -0.4371948
1454200064     -0.8379517     -0.5209351     -0.0007067      0.0019631     -0.0005859      0.0023377     -0.8578491     -0.4358215
1454365440     -0.8384399     -0.5204468     -0.0007459      0.0019385     -0.0006511      0.0022504     -0.8573914     -0.4349365
1454530816     -0.8384399     -0.5196533     -0.0006731      0.0019061     -0.0006135      0.0023223     -0.8582458     -0.4344788
1454696192     -0.8392334     -0.5198364     -0.0007242      0.0019592     -0.0006338      0.0022378     -0.8585815     -0.4328918
1454861568     -0.8399658     -0.5180664     -0.0007192      0.0019061     -0.0006161      0.0022831     -0.8584900     -0.4333496
1455026944     -0.8404541     -0.5177612     -0.0006829      0.0019509     -0.0006350      0.0023341     -0.8598022     -0.4313660
1455192320     -0.8408813     -0.5173950     -0.0007151      0.0018526     -0.0006196      0.0022696     -0.8589783     -0.4304199
1455357696     -0.8405762     -0.5157471     -0.0007415      0.0018839     -0.0006056      0.0022587     -0.8589783     -0.4309082
1455523072     -0.8414917     -0.5156860     -0.0007213      0.0018626     -0.0006374      0.0022624     -0.8602905     -0.4292603
1455688448     -0.8423462     -0.5150146     -0.0007020      0.0018833     -0.0006244      0.0022390     -0.8615723     -0.4283447
1455853824     -0.8417358     -0.5137939     -0.0006896      0.0018438     -0.0006256      0.0021710     -0.8616638     -0.4281006
1456019200     -0.8417358     -0.5130615     -0.0007017      0.0018525     -0.0005871      0.0021724     -0.8624878     -0.4262390
1456184576     -0.8424683     -0.5124512     -0.0007132      0.0018352     -0.0006297      0.0021905     -0.8619690     -0.4248352
1456349952     -0.8427124     -0.5114136     -0.0007111      0.0018027     -0.0006431      0.0021827     -0.8624878     -0.4243774
1456515328     -0.8436890     -0.5112305     -0.0007217      0.0018117     -0.0006250      0.0021892     -0.8619385     -0.4245300
1456680704     -0.8428955     -0.5108643     -0.0007267      0.0017981     -0.0006859      0.0021368     -0.8635559     -0.4226685
1456846080     -0.8428955     -0.5092773     -0.0007393      0.0017998     -0.0006344      0.0021045     -0.8630676     -0.4211121
1457011456     -0.8433838     -0.5083618     -0.0007530      0.0017620     -0.0006505      0.0021399     -0.8635254     -0.4214783
1457176832     -0.8443604     -0.5075073     -0.0007685      0.0017453     -0.0006548      0.0021520     -0.8617554     -0.4207764
1457342208     -0.8452148     -0.5067749     -0.0007813      0.0017999     -0.0006618      0.0021151     -0.8631592     -0.4188538
1457507584     -0.8445435     -0.5063477     -0.0007663      0.0017747     -0.0006793      0.0021125     -0.8646240     -0.4184265
1457672960     -0.8452148     -0.5054932     -0.0008030      0.0017676     -0.0006726      0.0021294     -0.8642883     -0.4181519
1457838336     -0.8452148     -0.5041504     -0.0008093      0.0017490     -0.0006744      0.0021000     -0.8638611     -0.4174805
1458003712     -0.8453979     -0.5043335     -0.0007883      0.0016813     -0.0006893      0.0020667     -0.8642578     -0.4167480
1458169088     -0.8456421     -0.5026245     -0.0008185      0.0017434     -0.0006887      0.0021372     -0.8639526     -0.4146118
1458334464     -0.8453979     -0.5015259     -0.0007617      0.0016827     -0.0007207      0.0020807     -0.8660889     -0.4139099
1458499840     -0.8459473     -0.5008545     -0.0007776      0.0017129     -0.0007285      0.0021117     -0.8657532     -0.4137878
1458665216     -0.8468628     -0.5006104     -0.0008051      0.0017241     -0.0007039      0.0021391     -0.8645325     -0.4123535
1458830592     -0.8458862     -0.5003052     -0.0007453      0.0016795     -0.0006860      0.0020838     -0.8648987     -0.4114990
1458995968     -0.8474121     -0.4984131     -0.0007905      0.0017343     -0.0007392      0.0020376     -0.8650818     -0.4111023
1459161344     -0.8469849     -0.4985352     -0.0008328      0.0016949     -0.0007358      0.0020860     -0.8645020     -0.4106445
1459326720     -0.8470459     -0.4981689     -0.0008358      0.0017264     -0.0007228      0.0020530     -0.8651733     -0.4095764
1459492096     -0.8473511     -0.4967651     -0.0008454      0.0016736     -0.0006925      0.0020427     -0.8648376     -0.4087524
1459657472     -0.8478394     -0.4960327     -0.0008553      0.0016751     -0.0007007      0.0020097     -0.8649292     -0.4083862
1459822848     -0.8469238     -0.4948730     -0.0008761      0.0016766     -0.0007077      0.0020671     -0.8657837     -0.4074707
1459988224     -0.8482666     -0.4943848     -0.0008547      0.0016785     -0.0007585      0.0020286     -0.8652344     -0.4071960
1460153600     -0.8473511     -0.4935303     -0.0008186      0.0016736     -0.0007536      0.0019758     -0.8654175     -0.4053345
1460318976     -0.8478394     -0.4929199     -0.0008583      0.0016860     -0.0007151      0.0020261     -0.8656921     -0.4047852
1460484352     -0.8489380     -0.4930420     -0.0008156      0.0016524     -0.0006744      0.0019999     -0.8659668     -0.4039307
1460649728     -0.8483887     -0.4917603     -0.0008457      0.0017019     -0.0007312      0.0020429     -0.8656616     -0.4021301
1460815104     -0.8488770     -0.4912720     -0.0008913      0.0016586     -0.0007463      0.0020365     -0.8655090     -0.4014893
1460980480     -0.8501587     -0.4896851     -0.0008672      0.0016603     -0.0007288      0.0020616     -0.8657227     -0.4013062
1461145856     -0.8494873     -0.4897461     -0.0008429      0.0016702     -0.0007054      0.0020059     -0.8669434     -0.4003296
1461311232     -0.8494873     -0.4887695     -0.0008364      0.0016810     -0.0007420      0.0019747     -0.8657532     -0.3992615
1461476608     -0.8494873     -0.4874878     -0.0008953      0.0016207     -0.0007684      0.0019624     -0.8664246     -0.3996582
1461641984     -0.8495483     -0.4868774     -0.0008733      0.0016507     -0.0007473      0.0019850     -0.8661194     -0.3980408
1461807360     -0.8496704     -0.4871216     -0.0008801      0.0016037     -0.0008090      0.0019398     -0.8666687     -0.3969116
1461972736     -0.8513794     -0.4862061     -0.0008814      0.0015892     -0.0007766      0.0019256     -0.8658447     -0.3959045
1462138112     -0.8510742     -0.4850464     -0.0008879      0.0016006     -0.0007686      0.0019512     -0.8679199     -0.3953247
1462303488     -0.8507690     -0.4838257     -0.0008810      0.0016091     -0.0007796      0.0019427     -0.8679810     -0.3942261
1462468864     -0.8511963     -0.4827271     -0.0008829      0.0016252     -0.0007207      0.0019481     -0.8682861     -0.3938293
1462634240     -0.8518677     -0.4822998     -0.0009270      0.0016287     -0.0007458      0.0019475     -0.8679199     -0.3934937
1462799616     -0.8523560     -0.4808960     -0.0008857      0.0015881     -0.0007892      0.0019237     -0.8682861     -0.3919678
1462964992     -0.8517456     -0.4804688     -0.0009350      0.0015806     -0.0007682      0.0019572     -0.8679810     -0.3916321
1463130368     -0.8525391     -0.4796753     -0.0009007      0.0015399     -0.0007970      0.0019316     -0.8675537     -0.3887634
1463295744     -0.8529053     -0.4785767     -0.0008866      0.0015160     -0.0008067      0.0019046     -0.8677063     -0.3890381
1463461120     -0.8518066     -0.4769287     -0.0008898      0.0015598     -0.0007561      0.0019267     -0.8689575     -0.3883362
1463626496     -0.8526611     -0.4757080     -0.0008945      0.0015579     -0.0007808      0.0018322     -0.8677673     -0.3871155
1463791872     -0.8526001     -0.4764404     -0.0009403      0.0015349     -0.0008537      0.0018693     -0.8691406     -0.3868713
1463957248     -0.8521729     -0.4746704     -0.0008925      0.0015443     -0.0007588      0.0018855     -0.8686523     -0.3855286
1464122624     -0.8527832     -0.4744873     -0.0009215      0.0015752     -0.0007938      0.0018504     -0.8681641     -0.3844604
1464288000     -0.8529663     -0.4732666     -0.0009134      0.0015119     -0.0007722      0.0018556     -0.8691711     -0.3836670
1464453376     -0.8527222     -0.4722290     -0.0009254      0.0015536     -0.0007384      0.0019186     -0.8682251     -0.3830566
1464618752     -0.8528442     -0.4713135     -0.0009166      0.0014457     -0.0007582      0.0018826     -0.8685608     -0.3809204
1464784128     -0.8536987     -0.4706421     -0.0009001      0.0014567     -0.0007703      0.0018564     -0.8685303     -0.3801575
1464949504     -0.8528442     -0.4695435     -0.0009153      0.0015575     -0.0008073      0.0018163     -0.8683777     -0.3798218
1465114880     -0.8530273     -0.4686584     -0.0009109      0.0015507     -0.0008019      0.0018181     -0.8680420     -0.3789673
1465280256     -0.8534241     -0.4684448     -0.0008761      0.0015445     -0.0008247      0.0018575     -0.8679504     -0.3784485
1465445632     -0.8526306     -0.4675598     -0.0008665      0.0014623     -0.0007744      0.0018860     -0.8674011     -0.3757629
1465611008     -0.8511963     -0.4662476     -0.0008991      0.0014670     -0.0008082      0.0018372     -0.8670959     -0.3744812
1465776384     -0.8518982     -0.4659729     -0.0008874      0.0014852     -0.0006457      0.0018029     -0.8670654     -0.3747864
1465941760     -0.8516541     -0.4657593     -0.0008948      0.0015112     -0.0007411      0.0017565     -0.8676758     -0.3735352
1466107136     -0.8523560     -0.4641113     -0.0008941      0.0015091     -0.0007163      0.0017920     -0.8655701     -0.3735046
1466272512     -0.8523560     -0.4644775     -0.0008287      0.0014750     -0.0006747      0.0017754     -0.8663025     -0.3726807
1466437888     -0.8518982     -0.4638062     -0.0008653      0.0014017     -0.0007008      0.0017907     -0.8642578     -0.3726501
1466603264     -0.8518982     -0.4630127     -0.0008472      0.0013802     -0.0007442      0.0017289     -0.8649292     -0.3705444
1466768640     -0.8523560     -0.4627686     -0.0009041      0.0013710     -0.0007535      0.0017062     -0.8655090     -0.3726501
1466934016     -0.8518982     -0.4624634     -0.0008184      0.0014158     -0.0007544      0.0015935     -0.8647156     -0.3707886
1467099392     -0.8521118     -0.4621277     -0.0008548      0.0013528     -0.0007346      0.0016772     -0.8650208     -0.3708496
1467264768     -0.8524780     -0.4606018     -0.0008506      0.0013581     -0.0007440      0.0016370     -0.8652649     -0.3708801
1467430144     -0.8527527     -0.4602661     -0.0008608      0.0013241     -0.0007424      0.0016240     -0.8645935     -0.3707275
1467595520     -0.8519897     -0.4601746     -0.0009261      0.0012745     -0.0007728      0.0016357     -0.8642273     -0.3701477
1467760896     -0.8525696     -0.4584656     -0.0008750      0.0013037     -0.0007567      0.0016010     -0.8656616     -0.3693848
1467926272     -0.8541870     -0.4590149     -0.0008959      0.0012830     -0.0007541      0.0016253     -0.8654785     -0.3688354
1468091648     -0.8544006     -0.4579468     -0.0008826      0.0012541     -0.0007841      0.0015378     -0.8656616     -0.3692322
