!Agilent Technologies,E5071C,MY46104097,A.08.12
!Date: Thu Apr 20 13:38:49 2017
!Data & Calibration Information:
!Freq	S11:SOLT2(ON)	S21:SOLT2(ON)	S12:SOLT2(ON)	S22:SOLT2(ON)
# Hz S RI R 50
10000000	1.003688e+000	-1.553492e-002	2.379421e-004	2.486816e-003	-7.072659e-004	2.209684e-003	9.929619e-001	-1.549449e-002
12618750	1.000804e+000	-1.874945e-002	9.725467e-005	3.439298e-003	3.861592e-004	5.300648e-004	9.999619e-001	-1.199339e-002
15237500	9.972143e-001	-1.690059e-002	-1.864103e-004	1.736086e-003	1.917707e-004	1.526348e-003	9.955062e-001	-1.667307e-002
17856250	9.988694e-001	-1.969593e-002	-5.858423e-005	2.386154e-003	6.077622e-004	1.100289e-003	9.960039e-001	-2.961891e-002
20475000	9.987128e-001	-2.819722e-002	6.242141e-004	2.502910e-003	-6.765133e-004	3.772601e-003	9.917832e-001	-2.842202e-002
23093750	1.001173e+000	-2.959061e-002	2.025803e-004	3.346282e-003	6.157899e-004	2.550200e-003	9.949941e-001	-2.523244e-002
25712500	1.004803e+000	-2.903942e-002	-1.762389e-004	2.993564e-003	8.230069e-004	3.434623e-003	9.977075e-001	-3.354244e-002
28331250	9.994235e-001	-3.668707e-002	1.517268e-004	3.161425e-003	1.045813e-003	3.749524e-003	9.934841e-001	-3.433244e-002
30950000	9.943879e-001	-4.326423e-002	5.586776e-004	4.895427e-003	3.782974e-004	3.317016e-003	9.963555e-001	-3.831208e-002
33568750	1.001538e+000	-3.750357e-002	9.274952e-004	4.714055e-003	5.082793e-004	4.089567e-003	9.996083e-001	-4.177605e-002
36187500	1.001972e+000	-4.322243e-002	-9.270659e-005	4.558399e-003	2.185341e-004	4.404651e-003	9.937184e-001	-5.385947e-002
38806250	1.002393e+000	-4.312118e-002	7.657455e-004	5.561961e-003	1.791645e-004	5.312674e-003	9.939685e-001	-4.731754e-002
41425000	9.997954e-001	-5.646864e-002	1.322330e-003	5.227748e-003	8.048691e-004	6.052230e-003	9.993831e-001	-5.290842e-002
44043750	1.003164e+000	-5.483404e-002	9.729184e-004	6.992930e-003	1.898028e-003	7.063835e-003	9.960844e-001	-5.463166e-002
46662500	1.003382e+000	-5.756432e-002	3.345367e-004	6.238056e-003	-1.176621e-004	7.335786e-003	9.951112e-001	-6.207562e-002
49281250	9.970703e-001	-6.226941e-002	-8.462369e-005	6.228607e-003	1.281751e-003	6.685148e-003	1.003169e+000	-5.789607e-002
51900000	9.980601e-001	-6.543018e-002	1.401092e-003	7.271132e-003	-3.522551e-004	6.335342e-003	9.979578e-001	-6.429372e-002
54518750	9.962093e-001	-6.130329e-002	-5.033451e-004	7.199944e-003	1.266295e-004	7.518240e-003	9.901889e-001	-6.549112e-002
57137500	9.949311e-001	-6.712446e-002	1.180963e-003	7.224036e-003	-1.364518e-004	8.403343e-003	1.001529e+000	-6.564088e-002
59756250	9.959865e-001	-7.220166e-002	-5.375809e-004	9.128332e-003	9.938542e-004	7.912246e-003	9.927982e-001	-7.286238e-002
62375000	9.940370e-001	-7.479550e-002	2.365324e-003	8.429233e-003	2.863337e-005	8.741167e-003	9.983606e-001	-7.676406e-002
64993750	9.959152e-001	-7.762736e-002	8.006989e-004	8.768422e-003	9.793314e-004	9.112317e-003	9.937282e-001	-7.851270e-002
67612500	9.972849e-001	-8.470980e-002	2.501749e-004	8.841090e-003	4.531393e-005	8.062109e-003	9.952321e-001	-8.249140e-002
70231250	9.944135e-001	-8.519988e-002	4.787537e-004	9.995903e-003	1.615092e-003	9.376475e-003	9.980701e-001	-8.675462e-002
72850000	9.990829e-001	-9.326052e-002	2.180303e-004	9.502127e-003	7.202141e-004	9.223969e-003	9.953307e-001	-9.137062e-002
75468750	9.923772e-001	-9.065232e-002	1.083848e-003	1.147345e-002	3.137486e-005	9.653581e-003	9.941354e-001	-9.066939e-002
78087500	9.979130e-001	-9.529126e-002	3.742822e-004	1.089726e-002	-6.763948e-004	1.045792e-002	9.946152e-001	-9.250921e-002
80706250	9.917419e-001	-9.597286e-002	1.998544e-004	1.112182e-002	-1.473360e-004	1.200460e-002	9.955966e-001	-1.005475e-001
83325000	9.941075e-001	-1.042922e-001	7.206568e-004	1.003099e-002	1.733462e-003	1.121378e-002	9.970472e-001	-1.024548e-001
85943750	9.884390e-001	-1.042106e-001	1.512409e-003	1.151573e-002	1.119761e-003	1.224510e-002	9.911651e-001	-1.069364e-001
88562500	9.946758e-001	-1.062197e-001	9.998664e-004	1.206592e-002	1.156316e-003	1.196522e-002	9.945607e-001	-1.041172e-001
91181250	9.933222e-001	-1.032116e-001	1.207369e-003	1.152156e-002	1.063352e-003	1.242590e-002	9.939120e-001	-1.076182e-001
93800000	9.958405e-001	-1.058231e-001	1.672738e-003	1.117806e-002	9.446529e-004	1.192770e-002	9.940855e-001	-1.111785e-001
96418750	9.903875e-001	-1.174125e-001	1.759853e-003	1.225885e-002	8.192529e-004	1.351780e-002	9.867795e-001	-1.179708e-001
99037500	9.928697e-001	-1.147087e-001	-1.482038e-004	1.301344e-002	1.292921e-003	1.430164e-002	9.908018e-001	-1.243458e-001
101656250	9.899739e-001	-1.218712e-001	1.644696e-003	1.343038e-002	1.850234e-003	1.438534e-002	9.925900e-001	-1.195549e-001
104275000	9.886758e-001	-1.259533e-001	9.444333e-004	1.422604e-002	1.670563e-003	1.380822e-002	9.939239e-001	-1.262887e-001
106893750	9.899900e-001	-1.326258e-001	2.461767e-003	1.403372e-002	1.022621e-003	1.391849e-002	9.864615e-001	-1.337171e-001
109512500	9.899720e-001	-1.286372e-001	1.425009e-003	1.534727e-002	2.565816e-003	1.603497e-002	9.923427e-001	-1.344180e-001
112131250	9.894428e-001	-1.329798e-001	2.404252e-004	1.521001e-002	1.864503e-003	1.508987e-002	9.904683e-001	-1.371535e-001
114750000	9.826032e-001	-1.375543e-001	1.632764e-003	1.599346e-002	1.619857e-003	1.526296e-002	9.833348e-001	-1.441755e-001
117368750	9.882175e-001	-1.421102e-001	6.747328e-004	1.494977e-002	1.794057e-003	1.565728e-002	9.863120e-001	-1.430443e-001
119987500	9.900444e-001	-1.457422e-001	2.607386e-003	1.635614e-002	1.794852e-003	1.528569e-002	9.873821e-001	-1.452865e-001
122606250	9.913104e-001	-1.469775e-001	1.002194e-003	1.680846e-002	1.651541e-003	1.632460e-002	9.887181e-001	-1.485004e-001
125225000	9.779294e-001	-1.496458e-001	1.733155e-003	1.779597e-002	1.193485e-003	1.634163e-002	9.912398e-001	-1.543100e-001
127843750	9.959169e-001	-1.601939e-001	2.285262e-003	1.738884e-002	2.471865e-003	1.693598e-002	9.787313e-001	-1.620642e-001
130462500	9.832054e-001	-1.579792e-001	1.715916e-003	1.771160e-002	2.070740e-003	1.814263e-002	9.893598e-001	-1.645765e-001
133081250	9.893606e-001	-1.551685e-001	1.670025e-003	1.761408e-002	1.486377e-003	1.793390e-002	9.845313e-001	-1.592245e-001
135700000	9.909804e-001	-1.553373e-001	9.522927e-004	1.829167e-002	3.518147e-003	1.889391e-002	9.878092e-001	-1.717926e-001
138318750	9.866248e-001	-1.707617e-001	2.315116e-003	1.846915e-002	2.945553e-003	1.996930e-002	9.811032e-001	-1.726254e-001
140937500	9.926044e-001	-1.646359e-001	2.751154e-003	1.850736e-002	2.395588e-003	1.940613e-002	9.860746e-001	-1.706876e-001
143556250	9.845809e-001	-1.732867e-001	1.104809e-003	1.850588e-002	2.333455e-003	1.901279e-002	9.799898e-001	-1.731690e-001
146175000	9.785926e-001	-1.720546e-001	3.093676e-003	1.906806e-002	3.441475e-003	1.988718e-002	9.828179e-001	-1.692482e-001
148793750	9.840374e-001	-1.819750e-001	2.676436e-003	1.941390e-002	3.426933e-003	2.026845e-002	9.749826e-001	-1.794757e-001
151412500	9.834154e-001	-1.784225e-001	2.861732e-003	1.920055e-002	2.396627e-003	1.923319e-002	9.726951e-001	-1.847836e-001
154031250	9.877914e-001	-1.763886e-001	1.999301e-003	2.034246e-002	3.316703e-003	2.065617e-002	9.816094e-001	-1.883566e-001
156650000	9.794521e-001	-1.871257e-001	3.024775e-003	2.027872e-002	2.812430e-003	2.055806e-002	9.811819e-001	-1.901734e-001
159268750	9.809016e-001	-1.931474e-001	2.293620e-003	2.131629e-002	3.136840e-003	2.136830e-002	9.797564e-001	-1.902806e-001
161887500	9.799719e-001	-1.980106e-001	2.656395e-003	2.104278e-002	2.790151e-003	2.136272e-002	9.757229e-001	-1.903045e-001
164506250	9.743971e-001	-1.902837e-001	3.438398e-003	2.183784e-002	2.882684e-003	2.281386e-002	9.779571e-001	-2.016000e-001
167125000	9.778724e-001	-2.032874e-001	2.469237e-003	2.207335e-002	2.421405e-003	2.274778e-002	9.737686e-001	-2.021515e-001
169743750	9.772678e-001	-1.931836e-001	2.858083e-003	2.298218e-002	2.890250e-003	2.007832e-002	9.739261e-001	-2.132125e-001
172362500	9.844562e-001	-1.993400e-001	3.530842e-003	2.241712e-002	3.396135e-003	2.320465e-002	9.757505e-001	-2.040489e-001
174981250	9.734210e-001	-2.029792e-001	3.110590e-003	2.406793e-002	4.418540e-003	2.275938e-002	9.728793e-001	-2.089303e-001
177600000	9.771102e-001	-2.163001e-001	3.977643e-003	2.300136e-002	4.005017e-003	2.382445e-002	9.763774e-001	-2.156428e-001
180218750	9.806752e-001	-2.140083e-001	3.703673e-003	2.225251e-002	3.734895e-003	2.301594e-002	9.624493e-001	-2.191906e-001
182837500	9.714190e-001	-2.162096e-001	3.573215e-003	2.335647e-002	3.576381e-003	2.418534e-002	9.726651e-001	-2.239901e-001
185456250	9.685183e-001	-2.225279e-001	4.371132e-003	2.401239e-002	3.514422e-003	2.499529e-002	9.714497e-001	-2.235783e-001
188075000	9.752639e-001	-2.233695e-001	4.494038e-003	2.400476e-002	5.144847e-003	2.531504e-002	9.682253e-001	-2.311486e-001
190693750	9.786099e-001	-2.258995e-001	5.457972e-003	2.476452e-002	3.945661e-003	2.436680e-002	9.739326e-001	-2.284881e-001
193312500	9.692104e-001	-2.352586e-001	3.918381e-003	2.526196e-002	4.109691e-003	2.534079e-002	9.734396e-001	-2.278941e-001
195931250	9.691062e-001	-2.328817e-001	4.719594e-003	2.543718e-002	3.956870e-003	2.576221e-002	9.674873e-001	-2.393213e-001
198550000	9.689620e-001	-2.427364e-001	4.955057e-003	2.670564e-002	4.645560e-003	2.590860e-002	9.653827e-001	-2.407854e-001
201168750	9.688509e-001	-2.313526e-001	4.092758e-003	2.599901e-002	4.898742e-003	2.572072e-002	9.676968e-001	-2.395493e-001
203787500	9.722623e-001	-2.411636e-001	4.424525e-003	2.712804e-002	3.992111e-003	2.718328e-002	9.714922e-001	-2.458521e-001
206406250	9.681335e-001	-2.459790e-001	5.487242e-003	2.717073e-002	4.630479e-003	2.689020e-002	9.620944e-001	-2.439449e-001
209025000	9.687533e-001	-2.475958e-001	4.500122e-003	2.832708e-002	5.133256e-003	2.817778e-002	9.676155e-001	-2.499321e-001
211643750	9.557802e-001	-2.519756e-001	5.131016e-003	2.790013e-002	5.205907e-003	2.756292e-002	9.643430e-001	-2.517104e-001
214262500	9.706916e-001	-2.606775e-001	5.342773e-003	2.878514e-002	5.651518e-003	2.785564e-002	9.625872e-001	-2.609686e-001
216881250	9.651270e-001	-2.565042e-001	5.101899e-003	2.789248e-002	4.245848e-003	2.891061e-002	9.630288e-001	-2.591581e-001
219500000	9.604329e-001	-2.561554e-001	5.495666e-003	2.785217e-002	6.284054e-003	2.946986e-002	9.626055e-001	-2.626558e-001
222118750	9.628514e-001	-2.619439e-001	6.197175e-003	2.897740e-002	6.699099e-003	2.903672e-002	9.614756e-001	-2.659449e-001
224737500	9.590577e-001	-2.651438e-001	6.743892e-003	2.998053e-002	4.636663e-003	3.016814e-002	9.563729e-001	-2.734479e-001
227356250	9.593821e-001	-2.648777e-001	5.486123e-003	2.987095e-002	5.312165e-003	3.096439e-002	9.572587e-001	-2.754460e-001
229975000	9.585804e-001	-2.744047e-001	5.389118e-003	2.993744e-002	6.991766e-003	2.994983e-002	9.596651e-001	-2.759136e-001
232593750	9.582021e-001	-2.745822e-001	5.551297e-003	3.050465e-002	7.242696e-003	3.068610e-002	9.592184e-001	-2.775856e-001
235212500	9.593996e-001	-2.755523e-001	6.230720e-003	2.970535e-002	6.995035e-003	3.186610e-002	9.536814e-001	-2.795516e-001
237831250	9.556226e-001	-2.761409e-001	5.924855e-003	2.940117e-002	7.327892e-003	3.117691e-002	9.529387e-001	-2.822191e-001
240450000	9.568703e-001	-2.821466e-001	6.850282e-003	3.203886e-002	5.132694e-003	3.153840e-002	9.561002e-001	-2.870761e-001
243068750	9.551198e-001	-2.853426e-001	5.735969e-003	3.238528e-002	8.322646e-003	3.390220e-002	9.540298e-001	-2.931681e-001
245687500	9.552885e-001	-2.876980e-001	6.612006e-003	3.144796e-002	6.755265e-003	3.277046e-002	9.541803e-001	-2.880222e-001
248306250	9.496098e-001	-2.961949e-001	7.081524e-003	3.311904e-002	6.430450e-003	3.156887e-002	9.506360e-001	-2.950009e-001
250925000	9.544527e-001	-2.923281e-001	8.259193e-003	3.294118e-002	6.911984e-003	3.272469e-002	9.501334e-001	-2.980443e-001
253543750	9.534456e-001	-2.974196e-001	6.751832e-003	3.303575e-002	7.866522e-003	3.310439e-002	9.429948e-001	-3.068478e-001
256162500	9.496879e-001	-3.076630e-001	6.955299e-003	3.275495e-002	8.217806e-003	3.368521e-002	9.454973e-001	-3.069054e-001
258781250	9.471801e-001	-3.029125e-001	7.461505e-003	3.269260e-002	6.979269e-003	3.345719e-002	9.491662e-001	-3.116540e-001
261400000	9.439739e-001	-3.093180e-001	7.237012e-003	3.384012e-002	8.804975e-003	3.278859e-002	9.415748e-001	-3.119517e-001
264018750	9.393858e-001	-3.112723e-001	8.108262e-003	3.376870e-002	7.836788e-003	3.325325e-002	9.420920e-001	-3.123731e-001
266637500	9.469363e-001	-3.106351e-001	7.547009e-003	3.310502e-002	7.755858e-003	3.465533e-002	9.432228e-001	-3.177353e-001
269256250	9.388452e-001	-3.137279e-001	9.120304e-003	3.438354e-002	8.395456e-003	3.468915e-002	9.477339e-001	-3.212882e-001
271875000	9.366562e-001	-3.175926e-001	8.173427e-003	3.555853e-002	8.337281e-003	3.346525e-002	9.385527e-001	-3.199933e-001
274493750	9.448303e-001	-3.283556e-001	8.489085e-003	3.438335e-002	8.518419e-003	3.643606e-002	9.434014e-001	-3.246264e-001
277112500	9.485523e-001	-3.170687e-001	6.150251e-003	3.519373e-002	9.971192e-003	3.617810e-002	9.390680e-001	-3.317700e-001
279731250	9.389179e-001	-3.238038e-001	8.828763e-003	3.450851e-002	9.573271e-003	3.623074e-002	9.329647e-001	-3.315462e-001
282350000	9.395326e-001	-3.253497e-001	7.606020e-003	3.642185e-002	9.783189e-003	3.553889e-002	9.339556e-001	-3.321256e-001
284968750	9.390008e-001	-3.353895e-001	9.596943e-003	3.698114e-002	1.070465e-002	3.685576e-002	9.390021e-001	-3.437152e-001
287587500	9.403586e-001	-3.307484e-001	9.298859e-003	3.620684e-002	9.936111e-003	3.626727e-002	9.283643e-001	-3.390154e-001
290206250	9.274412e-001	-3.378899e-001	8.633093e-003	3.547272e-002	8.707467e-003	3.646875e-002	9.321827e-001	-3.394503e-001
292825000	9.317293e-001	-3.453893e-001	1.079072e-002	3.785326e-002	9.873381e-003	3.660321e-002	9.317323e-001	-3.419994e-001
295443750	9.328855e-001	-3.347275e-001	9.399775e-003	3.844696e-002	1.014995e-002	3.744992e-002	9.374878e-001	-3.530391e-001
298062500	9.289975e-001	-3.465820e-001	9.433835e-003	3.788768e-002	1.017432e-002	3.755340e-002	9.323828e-001	-3.523708e-001
300681250	9.390454e-001	-3.548658e-001	1.031501e-002	3.822793e-002	1.032045e-002	3.843352e-002	9.290720e-001	-3.539754e-001
303300000	9.275932e-001	-3.499437e-001	1.021213e-002	3.824544e-002	1.066875e-002	3.887315e-002	9.226733e-001	-3.567041e-001
305918750	9.308501e-001	-3.501313e-001	1.005005e-002	3.858421e-002	1.121677e-002	3.930864e-002	9.274747e-001	-3.703144e-001
308537500	9.283697e-001	-3.566109e-001	9.717360e-003	3.930377e-002	9.972822e-003	3.910115e-002	9.285868e-001	-3.691393e-001
311156250	9.278250e-001	-3.646862e-001	1.060938e-002	3.894870e-002	1.174866e-002	3.877476e-002	9.294065e-001	-3.658016e-001
313775000	9.208163e-001	-3.564307e-001	9.896818e-003	3.917005e-002	1.097107e-002	3.890292e-002	9.203205e-001	-3.651415e-001
316393750	9.230784e-001	-3.555314e-001	9.757046e-003	3.902401e-002	1.279751e-002	3.964543e-002	9.121158e-001	-3.776769e-001
319012500	9.217337e-001	-3.588675e-001	1.070015e-002	3.955750e-002	1.115695e-002	4.094852e-002	9.170477e-001	-3.802118e-001
321631250	9.276223e-001	-3.711570e-001	1.093850e-002	4.019795e-002	1.053212e-002	3.928935e-002	9.182074e-001	-3.689473e-001
324250000	9.237047e-001	-3.748663e-001	1.203591e-002	3.971133e-002	1.214881e-002	4.112448e-002	9.137210e-001	-3.899730e-001
326868750	9.171115e-001	-3.852086e-001	1.202840e-002	4.145063e-002	1.281184e-002	4.100463e-002	9.027388e-001	-3.832616e-001
329487500	9.182720e-001	-3.783596e-001	1.130561e-002	4.033785e-002	1.246582e-002	4.151206e-002	9.122558e-001	-3.978420e-001
332106250	9.142349e-001	-3.779219e-001	1.144961e-002	4.162975e-002	1.067402e-002	4.033840e-002	9.108434e-001	-3.959884e-001
334725000	9.195651e-001	-3.878854e-001	1.197432e-002	4.167938e-002	1.226122e-002	4.101317e-002	9.187344e-001	-3.836092e-001
337343750	9.081487e-001	-3.942024e-001	1.072403e-002	4.116320e-002	1.276515e-002	4.300117e-002	9.174755e-001	-3.936875e-001
339962500	9.132258e-001	-3.891025e-001	1.243780e-002	4.275811e-002	1.235919e-002	4.136617e-002	9.064005e-001	-3.993717e-001
342581250	9.076638e-001	-4.038791e-001	1.240883e-002	4.235519e-002	1.189381e-002	4.322104e-002	9.043372e-001	-4.033366e-001
345200000	9.170706e-001	-4.009755e-001	1.379345e-002	4.263250e-002	1.286504e-002	4.389898e-002	9.053459e-001	-4.113703e-001
347818750	9.082038e-001	-3.964220e-001	1.306359e-002	4.301706e-002	1.318777e-002	4.260718e-002	8.914064e-001	-4.064580e-001
350437500	9.171701e-001	-4.030473e-001	1.288024e-002	4.443789e-002	1.373713e-002	4.306266e-002	9.025929e-001	-4.068637e-001
353056250	9.099029e-001	-4.098250e-001	1.298503e-002	4.375186e-002	1.347981e-002	4.399611e-002	9.113830e-001	-4.106093e-001
355675000	9.014133e-001	-4.131401e-001	1.264256e-002	4.456874e-002	1.291473e-002	4.453516e-002	8.943912e-001	-4.183006e-001
358293750	9.029052e-001	-4.062914e-001	1.426778e-002	4.412977e-002	1.341146e-002	4.376503e-002	8.991893e-001	-4.209153e-001
360912500	9.027265e-001	-4.136792e-001	1.423253e-002	4.459624e-002	1.331595e-002	4.518981e-002	8.968271e-001	-4.160131e-001
363531250	9.035571e-001	-4.144679e-001	1.326537e-002	4.501115e-002	1.484543e-002	4.497986e-002	8.938096e-001	-4.277048e-001
366150000	8.948783e-001	-4.284660e-001	1.403304e-002	4.645090e-002	1.451808e-002	4.625796e-002	8.984139e-001	-4.298617e-001
368768750	8.987191e-001	-4.192072e-001	1.517137e-002	4.585199e-002	1.428967e-002	4.536971e-002	8.917551e-001	-4.276311e-001
371387500	8.921702e-001	-4.286027e-001	1.444554e-002	4.518273e-002	1.605807e-002	4.715085e-002	9.022471e-001	-4.343123e-001
374006250	8.979948e-001	-4.334392e-001	1.475409e-002	4.657373e-002	1.452195e-002	4.672378e-002	8.949005e-001	-4.398369e-001
376625000	8.930601e-001	-4.356043e-001	1.515399e-002	4.710634e-002	1.628955e-002	4.708918e-002	8.879147e-001	-4.427965e-001
379243750	8.889606e-001	-4.341291e-001	1.542280e-002	4.582731e-002	1.574855e-002	4.749877e-002	8.881744e-001	-4.414434e-001
381862500	8.878077e-001	-4.366578e-001	1.489730e-002	4.691342e-002	1.720183e-002	4.681859e-002	8.849660e-001	-4.390799e-001
384481250	8.864545e-001	-4.389325e-001	1.597337e-002	4.734015e-002	1.503664e-002	4.680783e-002	8.781804e-001	-4.425837e-001
387100000	8.953052e-001	-4.404900e-001	1.571600e-002	4.811246e-002	1.602316e-002	4.854697e-002	8.804936e-001	-4.469575e-001
389718750	8.822993e-001	-4.467233e-001	1.590542e-002	4.790500e-002	1.638705e-002	4.910216e-002	8.833498e-001	-4.474621e-001
392337500	8.835599e-001	-4.457981e-001	1.786759e-002	4.778984e-002	1.691761e-002	4.892234e-002	8.789951e-001	-4.533284e-001
394956250	8.752638e-001	-4.466415e-001	1.652681e-002	4.924734e-002	1.670106e-002	4.908120e-002	8.788873e-001	-4.548120e-001
397575000	8.850891e-001	-4.535899e-001	1.745440e-002	4.972125e-002	1.702690e-002	4.870155e-002	8.716323e-001	-4.616371e-001
400193750	8.787285e-001	-4.536545e-001	1.591089e-002	4.883406e-002	1.824478e-002	4.911699e-002	8.718709e-001	-4.593002e-001
402812500	8.768327e-001	-4.601091e-001	1.791435e-002	4.924777e-002	1.698898e-002	4.812697e-002	8.720312e-001	-4.622902e-001
405431250	8.773499e-001	-4.571124e-001	1.832966e-002	4.910135e-002	1.790549e-002	4.931213e-002	8.680984e-001	-4.651805e-001
408050000	8.743767e-001	-4.650133e-001	1.897022e-002	4.863942e-002	1.842540e-002	5.069539e-002	8.699948e-001	-4.714612e-001
410668750	8.730832e-001	-4.675058e-001	1.800210e-002	4.981600e-002	1.853330e-002	4.952479e-002	8.695174e-001	-4.712504e-001
413287500	8.660556e-001	-4.688059e-001	1.839883e-002	4.923531e-002	1.954489e-002	5.077374e-002	8.619423e-001	-4.765004e-001
415906250	8.708279e-001	-4.723472e-001	1.747416e-002	4.971760e-002	1.939025e-002	5.134293e-002	8.647342e-001	-4.775950e-001
418525000	8.678674e-001	-4.760645e-001	1.853892e-002	4.998916e-002	1.997741e-002	5.076799e-002	8.615468e-001	-4.833762e-001
421143750	8.654473e-001	-4.763080e-001	1.940849e-002	5.053767e-002	2.004324e-002	5.073088e-002	8.634868e-001	-4.822654e-001
423762500	8.651230e-001	-4.825399e-001	1.761757e-002	5.122394e-002	2.049482e-002	5.151064e-002	8.558984e-001	-4.858433e-001
