!Agilent Technologies,E5071C,MY46104097,A.08.12
!Date: Thu Apr 20 13:38:42 2017
!Data & Calibration Information:
!Freq	S11:SOLT2(ON)	S21:SOLT2(ON)	S12:SOLT2(ON)	S22:SOLT2(ON)
# Hz S RI R 50
2032000000	-6.944174e-001	-5.350056e-001	8.399132e-002	8.804105e-004	8.096179e-002	1.508314e-003	-6.791908e-001	-5.440702e-001
2033000000	-7.015631e-001	-5.434505e-001	8.320238e-002	1.506079e-003	8.039298e-002	1.233289e-003	-6.885481e-001	-5.573351e-001
2034000000	-7.017257e-001	-5.318953e-001	8.291811e-002	1.511832e-003	7.968100e-002	8.252448e-004	-6.808782e-001	-5.468864e-001
2035000000	-6.999517e-001	-5.377893e-001	8.344911e-002	9.408532e-004	7.912072e-002	1.712575e-003	-6.890460e-001	-5.444622e-001
2036000000	-7.021422e-001	-5.269787e-001	8.338073e-002	3.047242e-004	7.821350e-002	2.458211e-003	-6.905283e-001	-5.385028e-001
2037000000	-7.024773e-001	-5.388446e-001	8.446246e-002	2.162268e-003	7.872664e-002	2.203092e-003	-6.916568e-001	-5.402121e-001
2038000000	-6.992042e-001	-5.367497e-001	8.399703e-002	3.073125e-003	7.967536e-002	3.307841e-003	-6.996958e-001	-5.375349e-001
2039000000	-7.092401e-001	-5.342747e-001	8.223877e-002	2.534500e-003	7.788619e-002	2.082906e-003	-6.937012e-001	-5.410623e-001
2040000000	-7.046482e-001	-5.203951e-001	8.235542e-002	-2.997003e-004	7.842454e-002	2.139013e-003	-6.934874e-001	-5.451108e-001
2041000000	-7.056522e-001	-5.281503e-001	8.188586e-002	1.462517e-003	7.829682e-002	1.907801e-003	-6.958538e-001	-5.350254e-001
2042000000	-7.124165e-001	-5.315410e-001	8.188822e-002	2.056177e-003	7.798458e-002	9.896138e-004	-7.070234e-001	-5.341476e-001
2043000000	-7.119341e-001	-5.342553e-001	8.244341e-002	1.552321e-003	7.830109e-002	1.880761e-003	-6.900280e-001	-5.276855e-001
2044000000	-7.132090e-001	-5.161959e-001	8.099798e-002	1.114674e-003	7.736129e-002	2.371202e-003	-7.000387e-001	-5.424772e-001
2045000000	-7.059801e-001	-5.215832e-001	8.102685e-002	2.913394e-003	7.755859e-002	2.620552e-003	-6.886648e-001	-5.292390e-001
2046000000	-7.162103e-001	-5.338473e-001	8.223741e-002	2.187291e-003	7.711190e-002	9.861037e-004	-7.121670e-001	-5.342968e-001
2047000000	-7.126357e-001	-5.207578e-001	7.997061e-002	1.718831e-003	7.805888e-002	1.403112e-003	-7.076030e-001	-5.284916e-001
2048000000	-7.069064e-001	-5.119942e-001	8.101001e-002	2.493331e-003	7.648363e-002	2.319399e-003	-6.968558e-001	-5.308569e-001
2049000000	-7.324708e-001	-5.108819e-001	7.937387e-002	2.181683e-004	7.605848e-002	2.298363e-003	-6.995833e-001	-5.229822e-001
2050000000	-7.140412e-001	-5.216615e-001	7.939403e-002	2.225094e-003	7.668456e-002	2.320593e-003	-7.003010e-001	-5.256269e-001
2051000000	-7.135878e-001	-5.098731e-001	7.929563e-002	2.099651e-003	7.770311e-002	4.199363e-003	-7.011604e-001	-5.246438e-001
2052000000	-7.050294e-001	-5.144254e-001	7.964938e-002	2.427893e-003	7.713508e-002	3.182667e-003	-7.093770e-001	-5.283105e-001
2053000000	-7.129419e-001	-5.080408e-001	7.925363e-002	2.487643e-003	7.786092e-002	8.992559e-004	-7.164264e-001	-5.303396e-001
2054000000	-7.187936e-001	-5.155532e-001	7.978846e-002	3.210067e-003	7.647377e-002	2.981661e-003	-7.157214e-001	-5.217335e-001
2055000000	-7.103820e-001	-5.090844e-001	7.957261e-002	3.278981e-003	7.625454e-002	2.846964e-003	-7.079281e-001	-5.253373e-001
2056000000	-7.215279e-001	-5.100418e-001	7.901268e-002	2.792101e-003	7.580865e-002	2.733588e-003	-7.061955e-001	-5.145436e-001
2057000000	-7.145075e-001	-5.102605e-001	7.930184e-002	3.634913e-003	7.646192e-002	1.371949e-003	-7.129719e-001	-5.186485e-001
2058000000	-7.081276e-001	-4.957738e-001	7.888830e-002	2.852527e-003	7.562060e-002	3.145001e-003	-7.104546e-001	-5.191266e-001
2059000000	-7.218553e-001	-5.099050e-001	7.854138e-002	3.470388e-003	7.603184e-002	2.801124e-003	-7.103205e-001	-5.070396e-001
2060000000	-7.202793e-001	-5.068848e-001	7.845924e-002	3.825461e-003	7.489420e-002	2.450411e-003	-7.143899e-001	-4.977254e-001
2061000000	-7.261784e-001	-4.914974e-001	8.001955e-002	2.423507e-003	7.597648e-002	3.087673e-003	-7.163754e-001	-5.156520e-001
2062000000	-7.358521e-001	-5.004977e-001	7.812867e-002	3.145444e-003	7.518071e-002	3.379737e-003	-7.181104e-001	-5.120625e-001
2063000000	-7.248359e-001	-4.982100e-001	7.858470e-002	3.604815e-003	7.519513e-002	4.063332e-003	-7.143215e-001	-5.079885e-001
2064000000	-7.237629e-001	-4.941658e-001	7.875842e-002	3.467083e-003	7.554790e-002	2.258307e-003	-7.223229e-001	-5.071154e-001
2065000000	-7.310590e-001	-4.861027e-001	7.846760e-002	2.700116e-003	7.492170e-002	3.787783e-003	-7.158822e-001	-4.989374e-001
2066000000	-7.301924e-001	-4.834900e-001	7.759880e-002	2.192367e-003	7.695208e-002	4.312842e-003	-7.202038e-001	-5.095472e-001
2067000000	-7.355848e-001	-4.754327e-001	7.790977e-002	3.111847e-003	7.545614e-002	4.061606e-003	-7.176144e-001	-5.036659e-001
2068000000	-7.344098e-001	-4.904290e-001	7.782634e-002	4.074133e-003	7.592422e-002	2.690535e-003	-7.287012e-001	-5.054836e-001
2069000000	-7.403087e-001	-4.935625e-001	7.877461e-002	3.544394e-003	7.478498e-002	3.192003e-003	-7.232764e-001	-5.002850e-001
2070000000	-7.416441e-001	-4.760151e-001	7.776115e-002	2.322022e-003	7.471158e-002	2.510106e-003	-7.195618e-001	-4.965213e-001
2071000000	-7.443663e-001	-4.784005e-001	7.720245e-002	3.051964e-003	7.512652e-002	2.978620e-003	-7.273652e-001	-4.984928e-001
2072000000	-7.337774e-001	-4.738895e-001	7.716212e-002	2.768379e-003	7.522836e-002	2.012059e-003	-7.250179e-001	-5.034689e-001
2073000000	-7.456200e-001	-4.714907e-001	7.750734e-002	2.099751e-003	7.459920e-002	2.555426e-003	-7.321177e-001	-4.910832e-001
2074000000	-7.476089e-001	-4.727685e-001	7.734342e-002	1.307670e-003	7.525055e-002	3.569970e-003	-7.340768e-001	-4.908559e-001
2075000000	-7.388101e-001	-4.775624e-001	7.821017e-002	1.690987e-003	7.507100e-002	4.089553e-003	-7.292399e-001	-5.044524e-001
2076000000	-7.383745e-001	-4.642871e-001	7.783567e-002	2.060014e-003	7.403663e-002	2.055610e-003	-7.384573e-001	-4.920156e-001
2077000000	-7.388315e-001	-4.552893e-001	7.662660e-002	2.865824e-003	7.533102e-002	2.692230e-003	-7.372741e-001	-4.960747e-001
2078000000	-7.409294e-001	-4.800596e-001	7.657048e-002	3.959193e-003	7.326332e-002	1.752765e-003	-7.343944e-001	-4.872993e-001
2079000000	-7.402244e-001	-4.616377e-001	7.794950e-002	2.432884e-003	7.294394e-002	2.056684e-003	-7.451721e-001	-4.815953e-001
2080000000	-7.393668e-001	-4.712585e-001	7.672763e-002	2.220045e-003	7.249470e-002	2.225052e-003	-7.385759e-001	-4.742629e-001
2081000000	-7.431453e-001	-4.670349e-001	7.764486e-002	2.945009e-003	7.480334e-002	1.937191e-003	-7.432504e-001	-4.951705e-001
2082000000	-7.389126e-001	-4.554371e-001	7.867639e-002	3.307515e-003	7.372731e-002	1.456051e-003	-7.413589e-001	-4.766601e-001
2083000000	-7.378328e-001	-4.627611e-001	7.655426e-002	2.113116e-003	7.280564e-002	1.577143e-003	-7.369345e-001	-4.657615e-001
2084000000	-7.518461e-001	-4.602564e-001	7.721863e-002	2.080058e-003	7.237089e-002	2.868256e-003	-7.364513e-001	-4.737694e-001
2085000000	-7.565259e-001	-4.490890e-001	7.639927e-002	1.666479e-003	7.325261e-002	2.712262e-003	-7.484511e-001	-4.699165e-001
2086000000	-7.484172e-001	-4.457934e-001	7.678131e-002	2.249811e-003	7.437427e-002	1.267527e-003	-7.460553e-001	-4.776143e-001
2087000000	-7.399514e-001	-4.356750e-001	7.628056e-002	2.312957e-003	7.428245e-002	2.299046e-003	-7.369087e-001	-4.638535e-001
2088000000	-7.541048e-001	-4.437373e-001	7.496662e-002	8.064831e-004	7.400602e-002	1.489734e-003	-7.496572e-001	-4.763662e-001
2089000000	-7.549607e-001	-4.433508e-001	7.536874e-002	6.858498e-004	7.309880e-002	1.862456e-003	-7.478390e-001	-4.618377e-001
2090000000	-7.574168e-001	-4.511065e-001	7.715283e-002	2.032749e-003	7.201528e-002	8.306996e-004	-7.403432e-001	-4.542448e-001
2091000000	-7.567569e-001	-4.423904e-001	7.508069e-002	2.071438e-003	7.379142e-002	2.024149e-003	-7.450544e-001	-4.724660e-001
2092000000	-7.528978e-001	-4.430701e-001	7.668286e-002	2.349312e-003	7.178026e-002	2.365619e-003	-7.447411e-001	-4.642414e-001
2093000000	-7.661197e-001	-4.316957e-001	7.510909e-002	1.676758e-003	7.158184e-002	1.828380e-003	-7.499219e-001	-4.484702e-001
2094000000	-7.535551e-001	-4.443928e-001	7.734265e-002	1.575210e-003	7.222758e-002	7.234109e-004	-7.506961e-001	-4.678111e-001
2095000000	-7.632402e-001	-4.367632e-001	7.520914e-002	-3.952598e-004	7.092342e-002	8.423854e-004	-7.515613e-001	-4.599122e-001
2096000000	-7.658688e-001	-4.296681e-001	7.601630e-002	2.238076e-004	7.228508e-002	1.229692e-003	-7.461253e-001	-4.576146e-001
2097000000	-7.725335e-001	-4.269534e-001	7.429984e-002	-5.327672e-004	7.138234e-002	8.425861e-004	-7.487392e-001	-4.547418e-001
2098000000	-7.580484e-001	-4.334345e-001	7.426530e-002	1.163242e-003	7.157564e-002	7.238442e-004	-7.550092e-001	-4.506403e-001
2099000000	-7.564043e-001	-4.152419e-001	7.291961e-002	7.977899e-004	6.989077e-002	-6.838603e-004	-7.603129e-001	-4.377064e-001
2100000000	-7.596075e-001	-4.223549e-001	7.566689e-002	2.760078e-004	7.096128e-002	4.210018e-004	-7.511214e-001	-4.434497e-001
2101000000	-7.803781e-001	-4.306006e-001	7.508449e-002	-9.778426e-004	7.117042e-002	4.087549e-004	-7.639916e-001	-4.479548e-001
2102000000	-7.647297e-001	-4.185185e-001	7.408445e-002	6.515986e-005	7.004538e-002	-2.161734e-004	-7.596723e-001	-4.345207e-001
2103000000	-7.681234e-001	-4.280454e-001	7.327440e-002	3.474237e-004	7.079513e-002	-9.751181e-004	-7.607828e-001	-4.488008e-001
2104000000	-7.808071e-001	-4.227642e-001	7.393893e-002	-1.338374e-003	7.048509e-002	3.606320e-004	-7.623696e-001	-4.434246e-001
2105000000	-7.693826e-001	-4.199054e-001	7.427437e-002	-5.429587e-004	7.112144e-002	1.990786e-004	-7.584308e-001	-4.329023e-001
2106000000	-7.742976e-001	-4.247749e-001	7.259567e-002	3.040587e-004	6.985630e-002	-3.438383e-005	-7.681372e-001	-4.358929e-001
2107000000	-7.701330e-001	-4.085591e-001	7.259758e-002	-1.472768e-003	6.872153e-002	-6.220099e-004	-7.654357e-001	-4.280741e-001
2108000000	-7.798211e-001	-4.115627e-001	7.240081e-002	-6.244883e-004	6.902161e-002	-4.451388e-004	-7.595060e-001	-4.304257e-001
2109000000	-7.714741e-001	-4.054362e-001	7.201611e-002	2.000982e-004	6.906943e-002	-8.224316e-004	-7.646740e-001	-4.320364e-001
2110000000	-7.774435e-001	-4.100652e-001	7.240194e-002	-2.124609e-003	6.822383e-002	-6.651738e-004	-7.611522e-001	-4.273830e-001
2111000000	-7.858937e-001	-4.143533e-001	7.314468e-002	-2.948393e-003	6.939437e-002	-1.350830e-003	-7.673703e-001	-4.302530e-001
2112000000	-7.762568e-001	-4.003219e-001	7.189767e-002	-1.754271e-003	6.766596e-002	-2.493573e-004	-7.691473e-001	-4.220845e-001
2113000000	-7.818547e-001	-4.036203e-001	7.005776e-002	-2.344797e-003	6.760247e-002	-1.042982e-003	-7.678586e-001	-4.277014e-001
2114000000	-7.895412e-001	-3.969780e-001	7.100333e-002	-1.663585e-003	6.702523e-002	-3.077604e-003	-7.775232e-001	-4.175604e-001
2115000000	-7.858984e-001	-4.014965e-001	7.132666e-002	-2.503819e-003	6.597889e-002	-2.594517e-003	-7.683408e-001	-4.101612e-001
2116000000	-7.815469e-001	-3.959893e-001	7.225819e-002	-3.084481e-003	6.717873e-002	-2.641711e-003	-7.743104e-001	-4.140799e-001
2117000000	-7.823218e-001	-3.861010e-001	7.102454e-002	-3.769257e-003	6.569189e-002	-2.740380e-003	-7.839339e-001	-4.113646e-001
2118000000	-7.719558e-001	-3.848926e-001	6.944266e-002	-3.555161e-003	6.720195e-002	-2.818624e-003	-7.821679e-001	-4.208344e-001
2119000000	-7.967439e-001	-3.884403e-001	6.861711e-002	-3.935868e-003	6.620568e-002	-2.146846e-003	-7.725964e-001	-4.079552e-001
2120000000	-8.026333e-001	-3.842219e-001	6.903611e-002	-4.179311e-003	6.533119e-002	-2.115134e-003	-7.752182e-001	-4.082146e-001
2121000000	-7.788410e-001	-3.820449e-001	6.769559e-002	-3.209843e-003	6.415224e-002	-2.084392e-003	-7.694261e-001	-4.073593e-001
2122000000	-7.868794e-001	-3.897279e-001	6.816191e-002	-4.285616e-003	6.516231e-002	-2.989940e-003	-7.762439e-001	-4.120407e-001
2123000000	-8.010982e-001	-3.776187e-001	6.928635e-002	-4.223147e-003	6.526908e-002	-3.221591e-003	-7.787803e-001	-4.028527e-001
2124000000	-7.952925e-001	-3.712340e-001	6.755681e-002	-4.236849e-003	6.259743e-002	-2.848847e-003	-7.782427e-001	-3.988521e-001
2125000000	-7.963600e-001	-3.718943e-001	6.722777e-002	-4.412936e-003	6.352987e-002	-2.402781e-003	-7.716058e-001	-3.892295e-001
2126000000	-7.784535e-001	-3.724572e-001	6.686913e-002	-4.967671e-003	6.365802e-002	-3.561011e-003	-7.713027e-001	-3.939172e-001
2127000000	-8.036303e-001	-3.742102e-001	6.696001e-002	-5.988342e-003	6.371408e-002	-4.360251e-003	-7.892917e-001	-3.862884e-001
2128000000	-8.043497e-001	-3.708691e-001	6.665195e-002	-5.056044e-003	6.145813e-002	-3.742492e-003	-7.808114e-001	-3.845611e-001
2129000000	-8.041449e-001	-3.606399e-001	6.529909e-002	-4.813573e-003	6.224717e-002	-4.597191e-003	-7.886203e-001	-3.885761e-001
2130000000	-8.074913e-001	-3.684300e-001	6.525610e-002	-4.356529e-003	6.102960e-002	-3.529653e-003	-7.958332e-001	-3.871375e-001
2131000000	-7.982321e-001	-3.561925e-001	6.403863e-002	-5.527454e-003	6.075529e-002	-4.078679e-003	-7.915750e-001	-3.824907e-001
2132000000	-8.103344e-001	-3.536269e-001	6.370821e-002	-4.881180e-003	6.086929e-002	-3.859836e-003	-7.873034e-001	-3.768293e-001
2133000000	-8.111714e-001	-3.481076e-001	6.296183e-002	-5.377624e-003	5.958790e-002	-3.811523e-003	-7.921567e-001	-3.780965e-001
2134000000	-8.034441e-001	-3.509730e-001	6.290538e-002	-5.881414e-003	6.054742e-002	-3.793747e-003	-7.906118e-001	-3.817187e-001
2135000000	-7.945120e-001	-3.419045e-001	6.269637e-002	-4.615237e-003	6.044973e-002	-3.870557e-003	-7.966923e-001	-3.710633e-001
2136000000	-8.058897e-001	-3.464080e-001	6.222171e-002	-5.312660e-003	5.858224e-002	-3.040639e-003	-7.874746e-001	-3.630989e-001
2137000000	-8.023740e-001	-3.419256e-001	6.268404e-002	-5.672926e-003	5.880821e-002	-5.438844e-003	-8.023951e-001	-3.666443e-001
2138000000	-8.120855e-001	-3.462127e-001	6.163501e-002	-6.242019e-003	5.750017e-002	-3.996157e-003	-7.952673e-001	-3.540258e-001
2139000000	-8.109406e-001	-3.430280e-001	6.042469e-002	-4.695546e-003	5.699225e-002	-4.452677e-003	-7.911959e-001	-3.668922e-001
2140000000	-8.165024e-001	-3.390977e-001	6.069451e-002	-6.834021e-003	5.741868e-002	-4.463457e-003	-7.961495e-001	-3.615129e-001
2141000000	-8.107744e-001	-3.390409e-001	6.036211e-002	-5.486038e-003	5.668803e-002	-4.553464e-003	-8.066750e-001	-3.570540e-001
2142000000	-8.098546e-001	-3.314998e-001	5.913746e-002	-6.016799e-003	5.584850e-002	-4.488618e-003	-7.995354e-001	-3.534609e-001
2143000000	-8.175833e-001	-3.342910e-001	5.986628e-002	-6.356893e-003	5.435976e-002	-3.690272e-003	-8.042210e-001	-3.490550e-001
2144000000	-8.091765e-001	-3.252063e-001	5.854203e-002	-6.849025e-003	5.580540e-002	-3.958460e-003	-8.031828e-001	-3.442438e-001
2145000000	-8.162925e-001	-3.228586e-001	5.780525e-002	-5.746913e-003	5.514370e-002	-3.515397e-003	-8.001434e-001	-3.499768e-001
2146000000	-8.112518e-001	-3.231034e-001	5.703776e-002	-6.891206e-003	5.561908e-002	-5.234924e-003	-7.991138e-001	-3.483582e-001
2147000000	-8.192057e-001	-3.131841e-001	5.581187e-002	-6.155370e-003	5.493822e-002	-5.079837e-003	-8.037489e-001	-3.328501e-001
2148000000	-8.163850e-001	-3.082695e-001	5.762259e-002	-6.488797e-003	5.299342e-002	-5.020837e-003	-8.029530e-001	-3.387138e-001
2149000000	-8.169722e-001	-3.150315e-001	5.675636e-002	-7.056984e-003	5.203311e-002	-4.598478e-003	-8.126065e-001	-3.292350e-001
2150000000	-8.207145e-001	-2.994954e-001	5.527739e-002	-7.276926e-003	5.166102e-002	-4.373293e-003	-8.099245e-001	-3.418106e-001
2151000000	-8.187411e-001	-3.117287e-001	5.514582e-002	-6.156413e-003	5.171340e-002	-5.033726e-003	-8.136261e-001	-3.263738e-001
2152000000	-8.183601e-001	-3.060961e-001	5.435039e-002	-6.554467e-003	5.106043e-002	-4.804933e-003	-8.101126e-001	-3.256545e-001
2153000000	-8.195363e-001	-3.098014e-001	5.294026e-002	-6.404273e-003	5.034804e-002	-4.194006e-003	-8.138765e-001	-3.197858e-001
2154000000	-8.138577e-001	-2.990377e-001	5.280004e-002	-6.228850e-003	4.933423e-002	-5.360916e-003	-8.170288e-001	-3.237137e-001
2155000000	-8.235764e-001	-2.843291e-001	5.129837e-002	-6.627952e-003	4.889583e-002	-2.874664e-003	-8.135773e-001	-3.141814e-001
2156000000	-8.226108e-001	-2.916917e-001	4.956282e-002	-6.048606e-003	4.854489e-002	-4.496875e-003	-8.156710e-001	-3.242328e-001
2157000000	-8.317481e-001	-2.803696e-001	5.092521e-002	-5.735967e-003	4.946878e-002	-4.514143e-003	-8.219634e-001	-3.255900e-001
2158000000	-8.346043e-001	-2.885653e-001	5.088071e-002	-6.452167e-003	4.829552e-002	-3.844044e-003	-8.138567e-001	-3.122057e-001
2159000000	-8.260598e-001	-2.750290e-001	4.970769e-002	-5.840962e-003	4.727698e-002	-4.381997e-003	-8.205166e-001	-3.116671e-001
2160000000	-8.378893e-001	-2.828978e-001	4.895781e-002	-5.893118e-003	4.729085e-002	-4.500956e-003	-8.177062e-001	-3.045477e-001
2161000000	-8.308620e-001	-2.749188e-001	4.786565e-002	-6.226695e-003	4.713956e-002	-3.798487e-003	-8.206548e-001	-3.056172e-001
2162000000	-8.372169e-001	-2.730625e-001	4.844891e-002	-6.814759e-003	4.576781e-002	-3.390858e-003	-8.288983e-001	-3.062531e-001
2163000000	-8.420221e-001	-2.698787e-001	4.673411e-002	-6.318553e-003	4.534913e-002	-3.828322e-003	-8.223274e-001	-2.854710e-001
2164000000	-8.359410e-001	-2.580493e-001	4.546978e-002	-7.746440e-003	4.414654e-002	-3.575749e-003	-8.169236e-001	-2.904551e-001
2165000000	-8.302067e-001	-2.510684e-001	4.675230e-002	-6.663105e-003	4.416205e-002	-4.248626e-003	-8.376777e-001	-2.955234e-001
2166000000	-8.311339e-001	-2.602937e-001	4.619850e-002	-6.046739e-003	4.347602e-002	-3.468014e-003	-8.247372e-001	-2.859884e-001
2167000000	-8.311333e-001	-2.518666e-001	4.392826e-002	-4.774189e-003	4.319095e-002	-5.565778e-003	-8.355186e-001	-2.874440e-001
2168000000	-8.304846e-001	-2.542771e-001	4.266222e-002	-5.067475e-003	4.210796e-002	-3.389210e-003	-8.356160e-001	-2.863793e-001
2169000000	-8.362546e-001	-2.507923e-001	4.276579e-002	-5.834789e-003	4.181544e-002	-4.939840e-003	-8.406003e-001	-2.628186e-001
2170000000	-8.406356e-001	-2.467857e-001	4.203568e-002	-6.212028e-003	4.091694e-002	-4.307041e-003	-8.265730e-001	-2.743742e-001
2171000000	-8.385081e-001	-2.412367e-001	4.229325e-002	-4.930374e-003	4.017461e-002	-3.766435e-003	-8.369580e-001	-2.682489e-001
2172000000	-8.462436e-001	-2.440772e-001	4.217874e-002	-5.322539e-003	3.904305e-002	-2.616183e-003	-8.341528e-001	-2.662998e-001
2173000000	-8.397310e-001	-2.289343e-001	3.918919e-002	-5.802025e-003	3.770642e-002	-2.272996e-003	-8.275075e-001	-2.598462e-001
2174000000	-8.483027e-001	-2.324828e-001	4.028207e-002	-3.887115e-003	3.914409e-002	-1.745196e-003	-8.293759e-001	-2.542397e-001
2175000000	-8.411325e-001	-2.188598e-001	3.834617e-002	-5.094180e-003	3.685309e-002	-3.177495e-003	-8.319925e-001	-2.508595e-001
2176000000	-8.444109e-001	-2.188325e-001	3.767474e-002	-4.376334e-003	3.690954e-002	-3.076484e-003	-8.426376e-001	-2.546183e-001
2177000000	-8.548084e-001	-2.163187e-001	3.811819e-002	-5.377218e-003	3.772713e-002	-2.715053e-003	-8.498357e-001	-2.587239e-001
2178000000	-8.477157e-001	-2.128672e-001	3.727012e-002	-4.269380e-003	3.669932e-002	-2.156888e-003	-8.281775e-001	-2.397583e-001
2179000000	-8.445016e-001	-2.089966e-001	3.749681e-002	-4.712861e-003	3.489207e-002	-3.257668e-003	-8.473152e-001	-2.416745e-001
2180000000	-8.621764e-001	-2.052434e-001	3.629580e-002	-4.116828e-003	3.437006e-002	-3.122741e-003	-8.408174e-001	-2.400811e-001
2181000000	-8.471142e-001	-2.037438e-001	3.561629e-002	-4.934860e-003	3.432226e-002	-1.808338e-003	-8.474244e-001	-2.297085e-001
2182000000	-8.508019e-001	-2.015240e-001	3.473896e-002	-3.431600e-003	3.413739e-002	-1.852151e-003	-8.423490e-001	-2.294233e-001
2183000000	-8.504940e-001	-1.925684e-001	3.345285e-002	-4.520568e-003	3.296306e-002	-2.838001e-003	-8.469307e-001	-2.209107e-001
2184000000	-8.492627e-001	-1.944753e-001	3.148834e-002	-3.411651e-003	3.244368e-002	-9.299397e-004	-8.455732e-001	-2.168837e-001
2185000000	-8.469222e-001	-1.877423e-001	3.260341e-002	-3.193800e-003	3.137873e-002	-1.015402e-003	-8.363723e-001	-2.058989e-001
