# Hz S RI R 50
1680000000	-0.801108188744095	0.489476448656233	-1.06397282256047E-02	-9.94752184842529E-03			-0.010641493334754	-9.91246229928254E-03	-0.621204417749282	0.693798538085039
1680250000	-0.800616711940834	0.490481309881512	-1.06629650119779E-02	-9.8887584767364E-03			-1.06571573337302E-02	-9.88681254651968E-03	-0.62020219742469	0.693694140537258
1680500000	-0.800280070769409	0.49142468298592	-1.06607532467847E-02	-9.88751985529927E-03			-1.06559438819338E-02	-9.7981051430589E-03	-0.619467080167219	0.694881817558918
1680750000	-0.799759522267763	0.490989115818538	-1.07154591076466E-02	-9.83998754205277E-03			-1.06671501152491E-02	-9.79412148899344E-03	-0.619708964518206	0.695412368534516
1681000000	-0.800388365555538	0.492151218208532	-1.07095610484058E-02	-9.74348100261539E-03			-1.07187127306698E-02	-9.75333260310897E-03	-0.620099584791664	0.696726225025618
1681250000	-0.799886202694656	0.492534398200684	-1.07058308142682E-02	-9.73734548678176E-03			-1.06716195885257E-02	-9.68214750546954E-03	-0.618961988028218	0.69718947540138
1681500000	-0.799091846410071	0.493937794523067	-1.07020075204011E-02	-9.66633385748382E-03			-0.010654737673775	-9.64765241970339E-03	-0.617880602650829	0.696841272670685
1681750000	-0.798176251439219	0.494742413090029	-1.06712952197268E-02	-9.58680061903108E-03			-1.06767746190062E-02	-9.57625566973205E-03	-0.616800953937978	0.697700507088919
1682000000	-0.798065434428647	0.494890619369661	-1.06646907096419E-02	-9.60685802149433E-03			-1.06845573315752E-02	-9.54519125833173E-03	-0.617092889130545	0.698173224598373
1682250000	-0.796723879302869	0.495877907148417	-1.06585234879723E-02	-9.52542210395497E-03			-1.06837872701392E-02	-9.47349187563692E-03	-0.615099578584819	0.699196332203178
1682500000	-0.797131471951151	0.496580257018918	-1.06760021404475E-02	-9.4584561074214E-03			-1.06609548947252E-02	-9.45274677028222E-03	-0.615091921999421	0.699101360231049
1682750000	-0.79640562943043	0.496125610115431	-1.06234723296026E-02	-9.40323349573548E-03			-1.06509409423971E-02	-9.3862622811124E-03	-0.614897172554346	0.699864829045393
1683000000	-0.796475270356544	0.497630388970378	-1.06613841741679E-02	-9.35945078509441E-03			-1.06485173122906E-02	-9.33572880906954E-03	-0.61433595707118	0.699946623469141
1683250000	-0.795070063722726	0.498097475122259	-1.05938909427461E-02	-9.26793161722035E-03			-1.06541875090778E-02	-9.26121713634972E-03	-0.613019069996912	0.700888789022359
1683500000	-0.794433181738859	0.499319340484377	-1.06060936418029E-02	-9.22263151815895E-03			-0.010574862356784	-9.23315529002698E-03	-0.612035795562979	0.70124262469039
1683750000	-0.794635827874382	0.500213265553637	-1.06401042364044E-02	-9.17080917968727E-03			-1.05749694880871E-02	-9.17539423170117E-03	-0.611664869875757	0.70200919260311
1684000000	-0.795678682370634	0.501029645714484	-1.05788161497785E-02	-9.10615161629883E-03			-1.05770491635554E-02	-9.06401634308841E-03	-0.61047088136954	0.702954280266347
1684250000	-0.794218638158708	0.501893439077808	-1.05616519836774E-02	-9.09129019578178E-03			-1.05375546114291E-02	-9.02510849831194E-03	-0.609467049850012	0.703765802791283
1684500000	-0.791324477726541	0.504056710824334	-1.05710251288429E-02	-8.98898677205306E-03			-1.04953270493353E-02	-8.9831775191886E-03	-0.609143193271199	0.702632490797741
1684750000	-0.792887834777441	0.504545150344745	-1.05382286034185E-02	-8.95989227886586E-03			-1.05276401493272E-02	-8.91253587217935E-03	-0.608151791303244	0.704101014297349
1685000000	-0.791456367949008	0.504885824077393	-1.04818739078907E-02	-8.90852726609428E-03			-1.04538858455722E-02	-8.88413246749113E-03	-0.606814076884315	0.704403201382242
1685250000	-0.792323032897515	0.505158374070882	-1.05095584556621E-02	-8.84613801414793E-03			-1.04815087768016E-02	-8.84085111005783E-03	-0.606968176468233	0.705141234820594
1685500000	-0.791842898531772	0.506706863590885	-1.04612901779539E-02	-8.80457961442946E-03			-1.04651304567777E-02	-8.7589011957145E-03	-0.606482613171481	0.706118713152623
1685750000	-0.790634551751739	0.507120186478591	-1.03732756206414E-02	-8.72633861848699E-03			-1.04247347920938E-02	-8.74322369221323E-03	-0.604909310871528	0.706913307222369
1686000000	-0.79074786054903	0.508261267219869	-1.04199031339116E-02	-8.69078890298914E-03			-1.03998060673926E-02	-8.68624830871331E-03	-0.604878072424794	0.7075500070706
1686250000	-0.790004918865103	0.509424653179821	-1.04110468203847E-02	-8.62753106905995E-03			-1.03446775059703E-02	-8.62294201925557E-03	-0.604213422046074	0.707272234709359
1686500000	-0.791334293006494	0.508970870910852	-1.02871647385111E-02	-8.62748847495065E-03			-1.03328168093678E-02	-8.54377032156921E-03	-0.602620748211636	0.708718487307441
1686750000	-0.789433389647424	0.511045593085412	-1.03136051388877E-02	-8.56969388814994E-03			-1.03391683332823E-02	-8.47952581443443E-03	-0.601949361869209	0.710258881784393
1687000000	-0.788600606162802	0.511690696805232	-1.02871237075663E-02	-8.50366849889746E-03			-1.02912705488394E-02	-0.008451927419959	-0.601419157982293	0.710123399153184
1687250000	-0.787647387405401	0.512779808392271	-1.02517387765133E-02	-8.4207253890349E-03			-1.01802969763503E-02	-8.39922625802476E-03	-0.600370366101596	0.709795762707836
1687500000	-0.786204859413521	0.513611067562724	-0.010197304997722	-8.36509953497023E-03			-0.010231127666786	-8.34179990446987E-03	-0.599318412369368	0.710697936030923
1687750000	-0.786533939658041	0.51333698695146	-1.01547131769381E-02	-8.34264508627184E-03			-0.010166769818732	-8.34268420734007E-03	-0.599090696629034	0.71162135778379
1688000000	-0.786667249117593	0.513853140813785	-1.01187786074919E-02	-8.33227345421436E-03			-1.01089294472266E-02	-8.24412617351299E-03	-0.597954983408843	0.712270322603553
1688250000	-0.785453508250063	0.514818729787105	-1.00762433166484E-02	-8.26607692273916E-03			-1.00653120574238E-02	-8.19562770977464E-03	-0.596941808293416	0.713041141366554
1688500000	-0.784346008364564	0.516018620397404	-1.00340484790031E-02	-8.23775053582182E-03			-1.00199844314045E-02	-8.22504121116486E-03	-0.596663526234932	0.713392498225413
1688750000	-0.783325453067599	0.516345893035801	-9.99408196710396E-03	-8.21188919120191E-03			-9.98164736528369E-03	-8.14811109083139E-03	-0.59581603251963	0.713889333217883
1689000000	-0.783671855889329	0.516474767814031	-9.96190957715236E-03	-8.17685637150775E-03			-9.94686235848067E-03	-8.13168747943467E-03	-0.594944926978176	0.713695835617737
1689250000	-0.783726687294298	0.517346570151894	-9.94434179151028E-03	-8.18473087913543E-03			-9.88875380996092E-03	-8.12634695217989E-03	-0.59393858260591	0.714545130341126
1689500000	-0.782660111749774	0.517729397198437	-9.86406258467632E-03	-8.1259332876428E-03			-9.85975860463363E-03	-8.12174809381622E-03	-0.59290555269473	0.714945364841252
1689750000	-0.782221125540716	0.518191763621007	-9.86654549704255E-03	-8.06486002864074E-03			-9.84038995418235E-03	-8.04687971517261E-03	-0.592031504986362	0.716136849648698
1690000000	-0.782282768850036	0.519376640078035	-9.81148979360327E-03	-8.08795851190552E-03			-9.78527446270825E-03	-0.008047126021179	-0.591799044417642	0.716150725975626
1690250000	-0.780836749277636	0.521214669359963	-9.81673110033774E-03	-8.00672078046995E-03			-9.75930162264844E-03	-8.02415290275054E-03	-0.590866720096925	0.716061263818789
1690500000	-0.781475785198077	0.52041991961859	-9.72420472551296E-03	-8.0327097472247E-03			-9.73420175085488E-03	-7.9602949198475E-03	-0.589986638070596	0.71709949108815
1690750000	-0.780359584452621	0.521613826785622	-9.74840973363236E-03	-7.98004618311974E-03			-9.69412864177529E-03	-7.98141881703386E-03	-0.589065315506772	0.717420113985669
1691000000	-0.779923362925423	0.521825115270288	-9.70408131646754E-03	-7.99311300921817E-03			-9.66925892174569E-03	-7.94690659162159E-03	-0.588648995175089	0.717832445813103
1691250000	-0.778774721937496	0.522437985132836	-9.67952704619561E-03	-7.91735111599994E-03			-9.6551023626157E-03	-7.94664849109956E-03	-0.587592303783014	0.718539282903387
1691500000	-0.777501929432606	0.524004035807402	-9.6111157318306E-03	-7.91030895183536E-03			-9.61209930346297E-03	-7.86694174933203E-03	-0.586874982505223	0.719376711793772
1691750000	-0.777963937366738	0.524381984184505	-9.61918809067316E-03	-7.8562123550172E-03			-9.58625650948676E-03	-7.84768815612675E-03	-0.586137303850486	0.71914944599779
1692000000	-0.775775703979118	0.523850048941543	-9.55474037483265E-03	-7.83392053960376E-03			-9.56745724404563E-03	-7.82284058826764E-03	-0.585335754463017	0.720193371464386
1692250000	-0.774731687429078	0.524570108835291	-9.55587182598137E-03	-7.78318596526614E-03			-9.5521490968505E-03	-7.78698087305166E-03	-0.584447962082765	0.720460691231291
1692500000	-0.77462837431606	0.525875430759551	-9.50448610834701E-03	-7.75595788065869E-03			-9.54213070924509E-03	-7.7623991526958E-03	-0.583464763948471	0.721031496123422
1692750000	-0.77401548585289	0.526955639541651	-9.49479779866397E-03	-7.74035810384202E-03			-9.5050749326348E-03	-7.73581003056344E-03	-0.582310309176576	0.721663140773183
1693000000	-0.774816917956262	0.525857745715529	-9.43902554087915E-03	-7.72733096837878E-03			-9.50722464777755E-03	-7.69660958638331E-03	-0.581828154470808	0.722562003638245
1693250000	-0.774039896694508	0.527829980699781	-9.4231880448849E-03	-7.68999820332136E-03			-9.42707190983744E-03	-7.66416355052993E-03	-0.580487152724481	0.722760333058639
1693500000	-0.773366948494173	0.529260780019716	-9.41330074077726E-03	-7.67582475508199E-03			-9.38159253319637E-03	-7.65897466450778E-03	-0.580197772633523	0.722881663495663
1693750000	-0.773369033924545	0.530271358080889	-9.36585097801723E-03	-7.63834078426309E-03			-9.36892117279413E-03	-7.60941550142679E-03	-0.579493611213576	0.723372394703226
1694000000	-0.772348759974594	0.532310315037483	-9.39754854868242E-03	-7.62089932703984E-03			-9.36495338515418E-03	-7.57973613434346E-03	-0.578020462417018	0.724058636823351
1694250000	-0.773035585103304	0.531623247000566	-9.32533457222042E-03	-7.6337391214496E-03			-9.34275148776148E-03	-7.55568944142144E-03	-0.577184558089235	0.724504045362042
1694500000	-0.771656882738727	0.533619306891615	-9.35243247153589E-03	-7.59348394585907E-03			-9.30011758386238E-03	-7.57469826587247E-03	-0.576401718715866	0.725311166844797
1694750000	-0.771150051278699	0.53338719870295	-9.30081048779253E-03	-7.59538832735846E-03			-9.30232412161814E-03	-7.52087413484825E-03	-0.575313922303947	0.725831990587369
1695000000	-0.77031010373201	0.534933223126695	-9.29251162708856E-03	-7.56093602199331E-03			-9.22910948557713E-03	-7.52373004762707E-03	-0.574792492316249	0.725745929778838
1695250000	-0.769956038455388	0.535875365496895	-9.27506876898847E-03	-7.53791447125887E-03			-9.21595328368866E-03	-7.49106916814364E-03	-0.574144404321833	0.726751874962822
1695500000	-0.768571629878442	0.536320008875245	-9.23940241075618E-03	-7.47000727992033E-03			-9.20748838388832E-03	-7.43653859726966E-03	-0.572969291004202	0.726935138705088
1695750000	-0.76811113673472	0.537380132644288	-9.2426422516977E-03	-7.47634455403345E-03			-9.1889458948145E-03	-7.43481062294136E-03	-0.572720399587483	0.727810427725337
1696000000	-0.767511774465154	0.5359732261461	-9.17717167744091E-03	-7.44244929314947E-03			-9.16361193628187E-03	-7.42544437217418E-03	-0.571803137610367	0.728353893423039
1696250000	-0.765748719214606	0.537553555430884	-9.17085313749305E-03	-7.40261296756456E-03			-9.14803938498102E-03	-7.38447718901247E-03	-0.570401372068976	0.728753536924758
1696500000	-0.766046131984154	0.538567676752658	-9.15817297878349E-03	-7.37389141824046E-03			-9.14990550275846E-03	-7.33775266763931E-03	-0.569042694736268	0.72932232500361
1696750000	-0.765038804089599	0.540435984493714	-9.16302053781505E-03	-7.36838643315143E-03			-9.15254312881709E-03	-0.007363702279997	-0.568934782988646	0.729850120979866
1697000000	-0.765339591981374	0.539909051093362	-9.11119093250331E-03	-7.30863628671741E-03			-9.12124224196599E-03	-7.30007486004081E-03	-0.568121967197578	0.730339945797868
1697250000	-0.764957837705622	0.540926452140501	-9.10528980908199E-03	-7.31902421464247E-03			-9.12004676871965E-03	-7.30197634538298E-03	-0.567002132256115	0.73069661799641
1697500000	-0.763862556431259	0.54199819075656	-9.09497596998051E-03	-7.29696928109232E-03			-9.11863249915131E-03	-7.2172670549467E-03	-0.565882400150054	0.731159120135313
1697750000	-0.764198438596429	0.543249404284505	-9.09234980401959E-03	-7.31113946595556E-03			-9.09920944978982E-03	-7.21746801492046E-03	-0.565348403663044	0.731744580085951
1698000000	-0.762434334627828	0.542245394730397	-9.10025590856138E-03	-7.25276044497742E-03			-9.0529721336227E-03	-7.19446631363299E-03	-0.563924990949827	0.731970092787856
1698250000	-0.761873296449285	0.543492515827507	-9.0716111836363E-03	-7.19274435018156E-03			-9.05802106826378E-03	-7.14683723297085E-03	-0.563569020934231	0.732467672260533
1698500000	-0.761432823813708	0.545198526644269	-9.06842037629286E-03	-7.17367091543867E-03			-9.07212974146826E-03	-7.11757797663747E-03	-0.562478764764117	0.732950218662327
1698750000	-0.761187171237854	0.545376925816252	-9.12221451638418E-03	-7.15478245163048E-03			-9.07301395102702E-03	-7.08385002524894E-03	-0.562287472747476	0.733815688875098
1699000000	-0.760842619664017	0.546012577181648	-9.04907871469518E-03	-7.11740201246064E-03			-9.04493572171062E-03	-7.05548164039041E-03	-0.561378301435211	0.734198930767239
1699250000	-0.759704224221439	0.546144914519159	-9.07942310630398E-03	-7.03501139852779E-03			-9.05254830815781E-03	-6.98644693716934E-03	-0.560675580272346	0.734420281286469
1699500000	-0.760101460096401	0.547798368940491	-9.08459542538606E-03	-7.01470040731742E-03			-9.05444474085553E-03	-6.99582115821189E-03	-0.559787799589199	0.735346727189
1699750000	-0.75885609131394	0.548102471048585	-9.05947443183292E-03	-6.96979722375746E-03			-9.05392226491223E-03	-6.95328889500616E-03	-0.558843384246517	0.735890415014385
1700000000	-0.758702061080445	0.549674688464179	-9.02699860304958E-03	-6.93181716850589E-03			-9.05470314740679E-03	-6.90769987623059E-03	-0.55840501285746	0.73641640949253
1700250000	-0.75774008218804	0.549399067482234	-9.04064905752818E-03	-6.81622233390664E-03			-9.02237964561156E-03	-6.81050135431555E-03	-0.557228079349577	0.73656173466836
1700500000	-0.756312763404612	0.551495679886716	-9.07005606032373E-03	-6.80556761793925E-03			-9.03132162771276E-03	-6.75906828759421E-03	-0.556370514201686	0.737830291598486
1700750000	-0.756380742449392	0.551077022508667	-9.02349145312349E-03	-6.71144865868492E-03			-8.98496293808363E-03	-6.68927720082668E-03	-0.555422588709721	0.737891984943396
1701000000	-0.755610831377547	0.551827475855311	-8.99975214502865E-03	-6.67333330362345E-03			-8.94937523494852E-03	-6.66958685205646E-03	-0.554682116821688	0.738293795537706
1701250000	-0.755048761050725	0.552441324389506	-8.96931145057426E-03	-6.60421986938331E-03			-8.99282037071077E-03	-6.55932612292623E-03	-0.55362674805386	0.739221731487936
1701500000	-0.753084668545745	0.553395398821821	-8.93902814113031E-03	-6.5108486759889E-03			-8.95836710318814E-03	-6.50990753953587E-03	-0.552950722960933	0.739399293074655
1701750000	-0.752643093521783	0.553898484409164	-8.92195116428598E-03	-6.49450522960594E-03			-8.91206208244899E-03	-6.4896002659573E-03	-0.552044784156536	0.740170535567342
1702000000	-0.752522719407354	0.553953596960803	-8.88370612626027E-03	-6.43423793702908E-03			-8.86873290360234E-03	-6.42245492351916E-03	-0.55154977642507	0.740618581476444
1702250000	-0.750810531046879	0.555245687308431	-8.81666622399558E-03	-6.35224503799473E-03			-8.82727777638718E-03	-6.32421573548948E-03	-0.550315433318839	0.740814313527877
1702500000	-0.751071729676076	0.557074761402468	-8.79137653317535E-03	-6.29911344290452E-03			-8.79585758173832E-03	-6.28028615124903E-03	-0.549340903410708	0.741118260546212
1702750000	-0.750323339419067	0.557259928025299	-8.77020821176949E-03	-6.27798293714538E-03			-8.74820875154829E-03	-6.23813110675546E-03	-0.548609954046496	0.741310571811255
1703000000	-0.749635267083013	0.557579771010651	-8.73132371145507E-03	-6.20071197532047E-03			-8.68457839986115E-03	-6.17104061938745E-03	-0.54796134201605	0.741915603152318
1703250000	-0.748785621827467	0.558719668531341	-8.63497328386571E-03	-6.17781352218773E-03			-8.65580043081197E-03	-6.14138373698102E-03	-0.546990377443365	0.742314994768217
1703500000	-0.747520819486896	0.559471524617197	-8.64236647773226E-03	-6.10953802339268E-03			-8.61212677533168E-03	-0.006075419525319	-0.546113513263667	0.742842088474725
1703750000	-0.748991535588569	0.560865963868365	-8.61527712650454E-03	-5.99558158431949E-03			-8.58384119290704E-03	-0.006057359759639	-0.545567867238744	0.743461316079841
1704000000	-0.746237479628669	0.56024680085533	-8.55006363956745E-03	-5.98343368841116E-03			-8.51854819065175E-03	-5.99154060015502E-03	-0.544540806219842	0.744068444413937
1704250000	-0.746642225074538	0.561578267275368	-8.48221393817464E-03	-5.9705415087934E-03			-8.48423103668215E-03	-5.91265796085681E-03	-0.543753674073621	0.744485050375352
1704500000	-0.745801849266343	0.561453545345856	-8.43561382532929E-03	-5.89736846487239E-03			-8.44501081029741E-03	-5.8776122141789E-03	-0.542805473098864	0.744712590925099
1704750000	-0.745665835053901	0.563226032551216	-8.38409999299398E-03	-5.86412307026816E-03			-8.39488580982155E-03	-5.84121388246814E-03	-0.541857895128404	0.745457918071285
1705000000	-0.744755663320451	0.562820427854997	-8.32327182008964E-03	-5.84880163091454E-03			-8.3482729560729E-03	-5.82431195966047E-03	-0.54133433315501	0.745684797208832
1705250000	-0.743793894109595	0.563621073945059	-8.28576108511845E-03	-5.76985085439518E-03			-8.27204862837771E-03	-5.75858402627989E-03	-0.540500331096707	0.746105675190379
1705500000	-0.744086653596859	0.564563211097324	-8.23694643740972E-03	-5.70232728690346E-03			-8.25971549504728E-03	-5.72824961033368E-03	-0.540046847048117	0.746968363298975
1705750000	-0.742699274467348	0.565326264705481	-8.17283963139844E-03	-5.66430581836047E-03			-8.20688359518156E-03	-5.64642623105909E-03	-0.538903030604267	0.747060514883912
1706000000	-0.742217434213832	0.56638346843861	-8.10668852562661E-03	-5.62914851235815E-03			-8.10941098325273E-03	-5.62765397491982E-03	-0.537954928831244	0.747697569308749
1706250000	-0.740203358938642	0.566427792665586	-8.05290751256356E-03	-5.62060228300748E-03			-8.08128595293776E-03	-5.59732386919827E-03	-0.536838070349754	0.748635009848028
1706500000	-0.741768779614089	0.567460391988114	-8.0022251461492E-03	-5.59584173419165E-03			-7.95927413147717E-03	-5.56130427214315E-03	-0.53614642187858	0.749070777912429
1706750000	-0.740467107194419	0.568409559732818	-7.96532125830034E-03	-5.52845231392401E-03			-7.92788598161109E-03	-5.55120677770033E-03	-0.535268038280454	0.749397103798477
1707000000	-0.740085765444133	0.568704308976744	-7.8773202572887E-03	-5.5245234226766E-03			-7.87921712334799E-03	-5.5043682745039E-03	-0.53433732915661	0.750110834196907
1707250000	-0.73932032309813	0.569800183962456	-7.81644277904273E-03	-5.49399479562098E-03			-7.81581686255952E-03	-5.50116460636969E-03	-0.53334692419817	0.750097610202958
1707500000	-0.738274075095409	0.570392918684821	-7.74812595636518E-03	-5.45296720306671E-03			-7.76324638156521E-03	-5.48825336002512E-03	-0.532280881786185	0.751315012994484
1707750000	-0.73749398564128	0.571120989078577	-7.68409307919479E-03	-5.48472135612451E-03			-7.6694620931624E-03	-0.005485862119979	-0.531660168725984	0.751829151346286
1708000000	-0.737076296819053	0.572193552297354	-7.64054034683628E-03	-5.43826908693758E-03			-7.62362847962674E-03	-5.4398089419515E-03	-0.530450117605409	0.752225820559846
1708250000	-0.737304677929527	0.5723236430396	-7.55863245235691E-03	-5.46085210757294E-03			-7.52569414430502E-03	-5.47285342266602E-03	-0.530392784118255	0.752369943314123
