! Sonnet Data File
! From: emgraph Version : 12.53-Lite
! From Emgraph Data: sf2049E
! Data File Written: 06/20/2012 10:58:03
!< HDATE 06/20/2012 10:57:07
!< MDATE 06/20/2012 10:57:07
# HZ S RI R 50.00000
 765000000 0.024887 -0.94660 -2.33e-4 4.776e-4 -2.23e-4 4.545e-4 -3.46e-3 -0.94476
 765375000 0.023176 -0.94697 -2.30e-4 4.954e-4 -1.89e-4 4.743e-4 -5.98e-3 -0.94459
 765750000 0.022160 -0.94733 -2.12e-4 4.865e-4 -1.78e-4 5.096e-4 -6.48e-3 -0.94458
 766125000 0.020689 -0.94740 -2.26e-4 4.933e-4 -1.97e-4 5.399e-4 -7.45e-3 -0.94410
 766500000 0.019356 -0.94775 -1.80e-4 4.845e-4 -1.45e-4 4.994e-4 -8.19e-3 -0.94434
 766875000 0.018737 -0.94739 -1.98e-4 4.949e-4 -1.42e-4 4.854e-4 -9.40e-3 -0.94348
 767250000 0.017530 -0.94745 -1.46e-4 4.962e-4 -1.73e-4 5.114e-4 -0.01074 -0.94348
 767625000 0.016366 -0.94709 -1.51e-4 5.477e-4 -1.66e-4 4.868e-4 -0.01235 -0.94336
 768000000 0.015444 -0.94733 -1.68e-4 5.090e-4 -1.57e-4 5.189e-4 -0.01183 -0.94361
 768375000 0.014907 -0.94789 -1.66e-4 5.128e-4 -1.93e-4 4.619e-4 -0.01356 -0.94421
 768750000 0.013252 -0.94782 -1.31e-4 4.664e-4 -1.41e-4 4.687e-4 -0.01441 -0.94348
 769125000 0.012156 -0.94758 -1.61e-4 5.263e-4 -1.40e-4 4.457e-4 -0.01563 -0.94445
 769500000 0.011030 -0.94746 -1.13e-4 5.353e-4 -1.81e-4 5.165e-4 -0.01685 -0.94433
 769875000 0.009589 -0.94720 -1.43e-4 4.910e-4 -1.64e-4 5.005e-4 -0.01807 -0.94433
 770250000 0.008965 -0.94763 -1.08e-4 5.317e-4 -1.63e-4 5.189e-4 -0.01855 -0.94471
 770625000 0.008230 -0.94684 -1.36e-4 5.045e-4 -8.70e-5 5.420e-4 -0.02026 -0.94458
 771000000 0.007265 -0.94818 -7.53e-5 4.935e-4 -6.22e-5 4.802e-4 -0.02149 -0.94531
 771375000 0.006275 -0.94855 -6.43e-5 4.987e-4 -6.55e-5 5.186e-4 -0.02257 -0.94445
 771750000 0.004998 -0.94825 -8.43e-5 4.718e-4 -4.90e-5 4.654e-4 -0.02404 -0.94507
 772125000 0.004277 -0.94977 -7.06e-5 4.444e-4 -4.73e-5 4.497e-4 -0.02502 -0.94544
 772500000 0.002683 -0.94898 -4.94e-5 4.551e-4 -7.50e-5 4.704e-4 -0.02648 -0.94519
 772875000 0.001591 -0.94940 -7.15e-5 4.188e-4 -7.11e-5 4.420e-4 -0.02735 -0.94434
 773250000 -1.16e-4 -0.94940 -4.23e-5 4.722e-4 -8.28e-5 4.273e-4 -0.02893 -0.94458
 773625000 -1.71e-3 -0.94952 -8.06e-5 4.407e-4 -5.27e-5 4.242e-4 -0.03040 -0.94518
 774000000 -2.93e-3 -0.94916 -6.68e-5 4.335e-4 -5.05e-5 4.407e-4 -0.03186 -0.94446
 774375000 -3.96e-3 -0.94916 -1.08e-4 4.037e-4 -7.94e-5 4.016e-4 -0.03284 -0.94519
 774750000 -5.56e-3 -0.94825 -6.20e-5 3.998e-4 -5.63e-5 4.570e-4 -0.03429 -0.94494
 775125000 -7.32e-3 -0.94922 -2.70e-5 4.508e-4 -6.85e-5 4.075e-4 -0.03576 -0.94458
 775500000 -7.32e-3 -0.94941 -5.39e-5 3.997e-4 -4.31e-5 3.954e-4 -0.03710 -0.94457
 775875000 -8.35e-3 -0.94934 -7.19e-5 4.414e-4 -4.92e-5 4.484e-4 -0.03843 -0.94458
 776250000 -9.28e-3 -0.94989 -8.26e-6 4.364e-4 2.561e-5 3.732e-4 -0.03929 -0.94494
 776625000 -0.01159 -0.94989 3.567e-7 3.784e-4 -8.49e-6 3.870e-4 -0.04040 -0.94421
 777000000 -0.01319 -0.95062 3.567e-5 3.744e-4 -1.64e-5 3.808e-4 -0.04224 -0.94471
 777375000 -0.01478 -0.95038 -2.43e-5 3.591e-4 -6.59e-5 3.423e-4 -0.04381 -0.94446
 777750000 -0.01599 -0.95038 5.568e-7 3.890e-4 -2.20e-5 3.169e-4 -0.04491 -0.94470
 778125000 -0.01751 -0.95014 -8.26e-5 2.503e-4 -3.01e-7 3.315e-4 -0.04614 -0.94519
 778500000 -0.01849 -0.94977 -4.14e-5 2.671e-4 -7.80e-5 3.434e-4 -0.04808 -0.94446
 778875000 -0.02019 -0.94983 -9.24e-5 3.052e-4 -3.01e-5 3.100e-4 -0.04931 -0.94494
 779250000 -0.02086 -0.94983 -9.74e-5 3.318e-4 -8.48e-5 3.146e-4 -0.05088 -0.94470
 779625000 -0.02313 -0.94977 -1.01e-4 2.821e-4 -1.01e-4 2.771e-4 -0.05235 -0.94470
 780000000 -0.02386 -0.94989 -1.12e-4 2.623e-4 -1.15e-4 2.832e-4 -0.05371 -0.94495
 780375000 -0.02575 -0.94976 -1.26e-4 2.662e-4 -1.43e-4 3.079e-4 -0.05543 -0.94470
 780750000 -0.02716 -0.95081 -1.27e-4 3.119e-4 -7.06e-5 2.910e-4 -0.05712 -0.94507
 781125000 -0.02892 -0.95038 -8.74e-5 2.621e-4 -1.67e-4 2.347e-4 -0.05822 -0.94458
 781500000 -0.03014 -0.94965 -1.25e-4 3.324e-4 -1.39e-4 2.813e-4 -0.05957 -0.94446
 781875000 -0.03187 -0.94922 -1.59e-4 2.619e-4 -1.10e-4 2.702e-4 -0.06139 -0.94373
 782250000 -0.03289 -0.94947 -7.10e-5 2.872e-4 -1.53e-4 2.947e-4 -0.06261 -0.94434
 782625000 -0.03490 -0.94941 -1.82e-4 2.692e-4 -1.62e-4 2.814e-4 -0.06468 -0.94446
 783000000 -0.03645 -0.94918 -1.67e-4 2.825e-4 -1.55e-4 2.790e-4 -0.06573 -0.94355
 783375000 -0.03842 -0.94955 -1.69e-4 2.594e-4 -1.40e-4 2.854e-4 -0.06720 -0.94300
 783750000 -0.03964 -0.94965 -1.78e-4 2.643e-4 -1.92e-4 3.248e-4 -0.06932 -0.94354
 784125000 -0.04108 -0.94897 -1.97e-4 2.615e-4 -1.81e-4 2.791e-4 -0.07117 -0.94348
 784500000 -0.04340 -0.94874 -1.77e-4 2.948e-4 -1.97e-4 2.903e-4 -0.07297 -0.94296
 784875000 -0.04460 -0.94925 -2.56e-4 2.907e-4 -2.03e-4 3.279e-4 -0.07375 -0.94278
 785250000 -0.04578 -0.94861 -1.92e-4 2.873e-4 -1.92e-4 3.298e-4 -0.07545 -0.94250
 785625000 -0.04754 -0.94833 -1.95e-4 2.646e-4 -2.39e-4 2.561e-4 -0.07742 -0.94205
 786000000 -0.04892 -0.94827 -2.04e-4 2.942e-4 -2.35e-4 2.421e-4 -0.07831 -0.94183
 786375000 -0.05101 -0.94806 -2.80e-4 3.216e-4 -2.24e-4 2.837e-4 -0.08025 -0.94187
 786750000 -0.05212 -0.94761 -2.64e-4 3.705e-4 -2.29e-4 2.935e-4 -0.08213 -0.94155
 787125000 -0.05290 -0.94736 -2.33e-4 2.951e-4 -2.37e-4 3.423e-4 -0.08358 -0.94155
 787500000 -0.05513 -0.94699 -2.33e-4 3.118e-4 -2.47e-4 3.410e-4 -0.08593 -0.94071
 787875000 -0.05697 -0.94656 -2.46e-4 3.609e-4 -2.11e-4 3.526e-4 -0.08659 -0.93970
 788250000 -0.05786 -0.94629 -2.32e-4 3.101e-4 -2.35e-4 3.754e-4 -0.08874 -0.94013
 788625000 -0.06050 -0.94583 -2.51e-4 2.996e-4 -2.20e-4 3.268e-4 -0.09045 -0.94007
 789000000 -0.06130 -0.94590 -2.38e-4 3.295e-4 -2.43e-4 3.420e-4 -0.09188 -0.93888
 789375000 -0.06303 -0.94525 -2.32e-4 3.756e-4 -2.59e-4 3.234e-4 -0.09335 -0.93906
 789750000 -0.06464 -0.94494 -2.29e-4 3.720e-4 -2.37e-4 3.480e-4 -0.09523 -0.93772
 790125000 -0.06660 -0.94394 -2.93e-4 3.693e-4 -2.08e-4 4.383e-4 -0.09728 -0.93702
 790500000 -0.06792 -0.94434 -2.53e-4 4.223e-4 -2.78e-4 3.250e-4 -0.09809 -0.93689
 790875000 -0.06951 -0.94386 -2.51e-4 4.038e-4 -2.61e-4 4.057e-4 -0.09992 -0.93555
 791250000 -0.07147 -0.94305 -2.19e-4 3.938e-4 -2.53e-4 4.346e-4 -0.10055 -0.93558
 791625000 -0.07242 -0.94265 -2.43e-4 3.968e-4 -2.49e-4 4.401e-4 -0.10237 -0.93503
 792000000 -0.07423 -0.94189 -2.44e-4 4.235e-4 -2.36e-4 4.267e-4 -0.10383 -0.93484
 792375000 -0.07574 -0.94153 -2.23e-4 3.704e-4 -1.99e-4 3.725e-4 -0.10506 -0.93473
 792750000 -0.07673 -0.94110 -2.44e-4 4.221e-4 -2.15e-4 4.070e-4 -0.10662 -0.93476
 793125000 -0.07849 -0.94080 -1.82e-4 4.296e-4 -1.99e-4 4.351e-4 -0.10810 -0.93429
 793500000 -0.07986 -0.93985 -2.05e-4 4.418e-4 -2.01e-4 3.961e-4 -0.11009 -0.93408
 793875000 -0.08215 -0.93951 -2.34e-4 4.285e-4 -2.02e-4 4.335e-4 -0.11238 -0.93357
 794250000 -0.08454 -0.93872 -1.94e-4 4.570e-4 -1.70e-4 4.552e-4 -0.11422 -0.93253
 794625000 -0.08608 -0.93735 -2.13e-4 3.499e-4 -2.23e-4 3.691e-4 -0.11571 -0.93177
 795000000 -0.08708 -0.93564 -2.32e-4 3.856e-4 -2.15e-4 3.876e-4 -0.11765 -0.93051
 795375000 -0.08728 -0.93359 -2.21e-4 4.434e-4 -2.28e-4 4.436e-4 -0.11896 -0.92917
 795750000 -0.08648 -0.93311 -2.06e-4 4.275e-4 -1.91e-4 4.432e-4 -0.11919 -0.92865
 796125000 -0.08615 -0.93454 -1.97e-4 4.858e-4 -2.24e-4 4.411e-4 -0.11940 -0.92783
 796500000 -0.08716 -0.93549 -1.64e-4 5.127e-4 -1.77e-4 4.655e-4 -0.11983 -0.92850
 796875000 -0.08963 -0.93735 -1.46e-4 4.193e-4 -1.52e-4 4.449e-4 -0.12144 -0.92859
 797250000 -0.09121 -0.93795 -1.46e-4 4.330e-4 -1.38e-4 4.132e-4 -0.12331 -0.92850
 797625000 -0.09462 -0.93851 -1.57e-4 4.052e-4 -1.47e-4 3.934e-4 -0.12498 -0.92939
 798000000 -0.09670 -0.93784 -1.25e-4 4.495e-4 -1.53e-4 4.667e-4 -0.12749 -0.92902
 798375000 -0.09933 -0.93765 -1.48e-4 4.245e-4 -1.32e-4 4.423e-4 -0.12910 -0.92835
 798750000 -0.10223 -0.93664 -1.53e-4 4.475e-4 -1.53e-4 3.865e-4 -0.13171 -0.92792
 799125000 -0.10564 -0.93549 -1.34e-4 3.649e-4 -1.48e-4 4.666e-4 -0.13403 -0.92670
 799500000 -0.10825 -0.93445 -1.50e-4 4.010e-4 -1.50e-4 4.121e-4 -0.13549 -0.92603
 799875000 -0.10982 -0.93235 -1.18e-4 3.719e-4 -9.29e-5 3.931e-4 -0.13826 -0.92499
 800250000 -0.11164 -0.93021 -1.39e-4 4.475e-4 -1.12e-4 3.840e-4 -0.14051 -0.92297
 800625000 -0.11291 -0.92724 -1.26e-4 3.943e-4 -9.95e-5 4.375e-4 -0.14135 -0.92139
 801000000 -0.11291 -0.92341 -1.34e-4 4.423e-4 -1.15e-4 3.814e-4 -0.14221 -0.91967
 801375000 -0.11017 -0.92169 -1.72e-4 4.212e-4 -1.17e-4 4.567e-4 -0.14264 -0.91833
 801750000 -0.10914 -0.92239 -7.04e-5 4.043e-4 -5.25e-5 4.210e-4 -0.14321 -0.91779
 802125000 -0.10942 -0.92450 -1.16e-4 3.753e-4 -1.04e-4 4.225e-4 -0.14344 -0.91711
 802500000 -0.11017 -0.92600 -6.76e-5 4.014e-4 -6.50e-5 3.893e-4 -0.14387 -0.91736
 802875000 -0.11239 -0.92642 -7.08e-5 3.491e-4 -8.47e-5 3.969e-4 -0.14466 -0.91809
 803250000 -0.11513 -0.92722 -1.15e-4 3.289e-4 -7.52e-5 3.095e-4 -0.14593 -0.91803
 803625000 -0.11717 -0.92721 -9.13e-5 3.010e-4 -1.09e-4 3.065e-4 -0.14824 -0.91840
 804000000 -0.11970 -0.92557 -1.17e-4 3.017e-4 -1.25e-4 3.316e-4 -0.15101 -0.91785
 804375000 -0.12318 -0.92526 -1.43e-4 2.917e-4 -9.14e-5 2.929e-4 -0.15233 -0.91577
 804750000 -0.12448 -0.92294 -1.08e-4 2.843e-4 -1.22e-4 2.405e-4 -0.15440 -0.91668
 805125000 -0.12579 -0.92004 -8.85e-5 2.286e-4 -1.03e-4 2.523e-4 -0.15582 -0.91468
 805500000 -0.12551 -0.91733 -1.56e-4 2.473e-4 -1.90e-4 2.332e-4 -0.15648 -0.91333
 805875000 -0.12384 -0.91522 -1.78e-4 2.151e-4 -1.61e-4 2.241e-4 -0.15781 -0.91175
 806250000 -0.12216 -0.91544 -2.32e-4 2.372e-4 -2.18e-4 2.251e-4 -0.15801 -0.90992
 806625000 -0.12123 -0.91739 -2.69e-4 2.073e-4 -2.57e-4 2.076e-4 -0.15776 -0.91010
 807000000 -0.12193 -0.91908 -2.36e-4 2.597e-4 -2.65e-4 2.520e-4 -0.15867 -0.90943
 807375000 -0.12268 -0.92126 -2.92e-4 2.516e-4 -2.76e-4 2.571e-4 -0.15788 -0.90901
 807750000 -0.12521 -0.92289 -2.80e-4 2.833e-4 -3.05e-4 3.050e-4 -0.15745 -0.91004
 808125000 -0.12764 -0.92338 -2.88e-4 2.718e-4 -2.96e-4 3.128e-4 -0.15850 -0.91058
 808500000 -0.13050 -0.92413 -2.42e-4 3.349e-4 -3.04e-4 3.783e-4 -0.15887 -0.91205
 808875000 -0.13385 -0.92328 -2.70e-4 3.743e-4 -3.38e-4 3.780e-4 -0.16197 -0.91389
 809250000 -0.13653 -0.92213 -3.21e-4 3.770e-4 -2.68e-4 3.548e-4 -0.16377 -0.91383
 809625000 -0.13915 -0.92120 -2.69e-4 3.274e-4 -2.74e-4 3.632e-4 -0.16583 -0.91430
 810000000 -0.14100 -0.91949 -2.89e-4 3.717e-4 -2.85e-4 3.493e-4 -0.16817 -0.91448
 810375000 -0.14253 -0.91773 -2.79e-4 3.541e-4 -2.89e-4 3.591e-4 -0.17044 -0.91425
 810750000 -0.14284 -0.91498 -2.78e-4 3.771e-4 -3.00e-4 4.060e-4 -0.17219 -0.91392
 811125000 -0.14209 -0.91351 -3.07e-4 3.625e-4 -2.71e-4 3.692e-4 -0.17528 -0.91363
 811500000 -0.14161 -0.91400 -3.10e-4 3.478e-4 -3.57e-4 3.385e-4 -0.17669 -0.91237
 811875000 -0.14062 -0.91449 -3.32e-4 3.728e-4 -3.74e-4 4.098e-4 -0.17872 -0.91181
 812250000 -0.14106 -0.91583 -3.27e-4 3.879e-4 -3.38e-4 4.136e-4 -0.18121 -0.91015
 812625000 -0.14241 -0.91808 -3.57e-4 3.645e-4 -3.18e-4 4.275e-4 -0.18161 -0.90888
 813000000 -0.14422 -0.91888 -3.80e-4 4.383e-4 -3.98e-4 4.834e-4 -0.18310 -0.90887
 813375000 -0.14703 -0.92041 -3.32e-4 4.139e-4 -3.52e-4 5.042e-4 -0.18453 -0.90699
 813750000 -0.14972 -0.92065 -3.66e-4 5.299e-4 -3.37e-4 5.333e-4 -0.18472 -0.90711
 814125000 -0.15184 -0.92059 -3.35e-4 5.440e-4 -3.10e-4 5.722e-4 -0.18487 -0.90624
 814500000 -0.15447 -0.92059 -3.09e-4 5.096e-4 -2.52e-4 5.258e-4 -0.18531 -0.90679
 814875000 -0.15660 -0.92023 -2.47e-4 5.858e-4 -2.02e-4 5.516e-4 -0.18637 -0.90711
 815250000 -0.15905 -0.91974 -1.94e-4 5.452e-4 -2.07e-4 5.359e-4 -0.18766 -0.90856
 815625000 -0.16130 -0.91937 -2.66e-4 5.549e-4 -2.23e-4 5.575e-4 -0.18911 -0.90919
 816000000 -0.16394 -0.91851 -2.19e-4 4.885e-4 -2.24e-4 5.292e-4 -0.19118 -0.91034
 816375000 -0.16517 -0.91706 -2.34e-4 4.905e-4 -2.52e-4 5.130e-4 -0.19329 -0.91091
 816750000 -0.16722 -0.91559 -2.27e-4 5.401e-4 -2.05e-4 5.087e-4 -0.19574 -0.91149
 817125000 -0.16819 -0.91460 -2.31e-4 5.201e-4 -2.19e-4 5.503e-4 -0.19883 -0.91114
 817500000 -0.16871 -0.91474 -2.17e-4 5.312e-4 -2.39e-4 5.608e-4 -0.20159 -0.91081
 817875000 -0.16929 -0.91430 -2.07e-4 5.458e-4 -1.70e-4 5.586e-4 -0.20365 -0.91108
 818250000 -0.17060 -0.91515 -2.25e-4 5.598e-4 -2.13e-4 5.774e-4 -0.20596 -0.91021
 818625000 -0.17172 -0.91583 -1.36e-4 5.558e-4 -1.83e-4 5.763e-4 -0.20843 -0.91004
 819000000 -0.17338 -0.91670 -1.82e-4 5.902e-4 -2.19e-4 5.762e-4 -0.21094 -0.90862
 819375000 -0.17639 -0.91768 -1.61e-4 5.454e-4 -1.51e-4 5.397e-4 -0.21235 -0.90822
 819750000 -0.17881 -0.91731 -1.74e-4 5.664e-4 -1.36e-4 5.598e-4 -0.21519 -0.90748
 820125000 -0.18170 -0.91765 -9.48e-5 5.635e-4 -7.78e-5 5.917e-4 -0.21672 -0.90620
 820500000 -0.18441 -0.91705 -1.48e-4 4.940e-4 -9.43e-5 5.390e-4 -0.21913 -0.90509
 820875000 -0.18685 -0.91675 -8.75e-5 5.321e-4 -1.27e-4 5.011e-4 -0.21978 -0.90430
 821250000 -0.18987 -0.91602 -8.79e-5 5.385e-4 -9.94e-5 5.108e-4 -0.22131 -0.90443
 821625000 -0.19133 -0.91505 -1.24e-4 5.128e-4 -1.42e-4 5.410e-4 -0.22246 -0.90364
 822000000 -0.19320 -0.91442 -1.12e-4 5.536e-4 -1.46e-4 5.697e-4 -0.22458 -0.90478
 822375000 -0.19451 -0.91352 -8.30e-5 5.015e-4 -1.61e-4 5.210e-4 -0.22570 -0.90455
 822750000 -0.19611 -0.91320 -1.04e-4 5.385e-4 -1.08e-4 5.201e-4 -0.22761 -0.90413
 823125000 -0.19781 -0.91338 -9.55e-5 5.779e-4 -9.57e-5 5.934e-4 -0.23026 -0.90466
 823500000 -0.19971 -0.91365 -8.10e-5 5.205e-4 -4.91e-5 5.240e-4 -0.23280 -0.90538
 823875000 -0.20259 -0.91381 -7.92e-5 5.143e-4 -8.41e-5 5.589e-4 -0.23533 -0.90539
 824250000 -0.20457 -0.91369 -1.01e-4 5.608e-4 -6.19e-5 5.681e-4 -0.23811 -0.90440
 824625000 -0.20782 -0.91396 -6.68e-5 5.738e-4 -6.15e-5 6.012e-4 -0.24073 -0.90472
 825000000 -0.20956 -0.91352 -3.76e-5 5.598e-4 -4.68e-5 6.241e-4 -0.24359 -0.90406
 825375000 -0.21323 -0.91340 -2.23e-5 6.091e-4 -2.51e-6 6.032e-4 -0.24570 -0.90369
 825750000 -0.21557 -0.91264 -1.94e-5 5.461e-4 -2.34e-5 5.890e-4 -0.24935 -0.90279
 826125000 -0.21851 -0.91228 3.227e-5 5.767e-4 4.335e-5 5.931e-4 -0.25104 -0.90277
 826500000 -0.22082 -0.91206 8.305e-5 5.766e-4 4.238e-5 5.320e-4 -0.25411 -0.90220
 826875000 -0.22326 -0.91169 1.018e-4 5.098e-4 1.036e-4 4.862e-4 -0.25663 -0.90150
 827250000 -0.22599 -0.91112 1.255e-4 5.091e-4 1.200e-4 5.587e-4 -0.25983 -0.90080
 827625000 -0.22898 -0.91094 7.364e-5 4.893e-4 1.004e-4 4.880e-4 -0.26222 -0.90020
 828000000 -0.23155 -0.91040 1.063e-4 4.726e-4 1.243e-4 4.947e-4 -0.26500 -0.89922
 828375000 -0.23440 -0.90962 9.540e-5 4.371e-4 1.326e-4 4.260e-4 -0.26747 -0.89894
 828750000 -0.23727 -0.90829 1.550e-4 4.111e-4 1.281e-4 4.123e-4 -0.27065 -0.89814
 829125000 -0.24053 -0.90779 1.072e-4 3.939e-4 1.472e-4 3.985e-4 -0.27380 -0.89722
 829500000 -0.24304 -0.90706 1.115e-4 4.060e-4 1.007e-4 4.543e-4 -0.27601 -0.89607
 829875000 -0.24594 -0.90644 7.696e-5 3.950e-4 1.649e-4 3.518e-4 -0.27923 -0.89594
 830250000 -0.24963 -0.90565 1.100e-4 3.624e-4 1.448e-4 3.393e-4 -0.28227 -0.89470
 830625000 -0.25285 -0.90440 1.046e-4 3.463e-4 8.863e-5 3.506e-4 -0.28465 -0.89355
 831000000 -0.25536 -0.90364 1.582e-4 2.992e-4 1.486e-4 2.590e-4 -0.28784 -0.89224
 831375000 -0.25868 -0.90211 2.258e-5 2.992e-4 7.456e-5 2.950e-4 -0.29078 -0.89124
 831750000 -0.26159 -0.90156 8.463e-5 3.258e-4 1.079e-4 2.791e-4 -0.29411 -0.89034
 832125000 -0.26435 -0.89991 7.620e-5 2.602e-4 8.055e-5 2.804e-4 -0.29691 -0.88840
 832500000 -0.26744 -0.89883 3.956e-5 2.431e-4 4.024e-5 2.680e-4 -0.29939 -0.88756
 832875000 -0.27056 -0.89784 4.926e-5 2.377e-4 4.542e-5 2.445e-4 -0.30282 -0.88647
 833250000 -0.27390 -0.89645 -5.04e-6 2.616e-4 5.946e-5 2.550e-4 -0.30592 -0.88446
 833625000 -0.27721 -0.89440 -1.68e-5 2.017e-4 3.285e-6 2.389e-4 -0.30966 -0.88326
 834000000 -0.28058 -0.89315 -3.54e-5 1.693e-4 -4.56e-5 2.463e-4 -0.31258 -0.88122
 834375000 -0.28369 -0.89159 -5.22e-5 1.900e-4 -8.99e-5 2.124e-4 -0.31537 -0.87934
 834750000 -0.28625 -0.88998 -1.18e-4 1.981e-4 -1.44e-4 2.001e-4 -0.31830 -0.87737
 835125000 -0.28872 -0.88807 -1.70e-4 2.322e-4 -1.70e-4 2.401e-4 -0.32141 -0.87593
 835500000 -0.29158 -0.88631 -1.68e-4 3.236e-4 -2.09e-4 3.379e-4 -0.32412 -0.87294
 835875000 -0.29445 -0.88465 -2.06e-4 3.763e-4 -2.16e-4 3.882e-4 -0.32715 -0.87082
 836250000 -0.29740 -0.88320 -2.04e-4 4.634e-4 -1.83e-4 5.269e-4 -0.32958 -0.86855
 836625000 -0.30057 -0.88191 -1.20e-4 5.601e-4 -8.48e-5 5.355e-4 -0.33125 -0.86656
 837000000 -0.30336 -0.88053 -6.91e-5 5.975e-4 -8.46e-5 5.653e-4 -0.33374 -0.86534
 837375000 -0.30694 -0.87895 2.442e-5 5.595e-4 6.630e-5 5.443e-4 -0.33593 -0.86384
 837750000 -0.31003 -0.87743 1.023e-4 5.505e-4 8.940e-5 5.624e-4 -0.33868 -0.86244
 838125000 -0.31415 -0.87546 1.896e-4 5.480e-4 1.611e-4 5.058e-4 -0.34111 -0.86155
 838500000 -0.31755 -0.87295 1.382e-4 4.903e-4 1.365e-4 5.025e-4 -0.34521 -0.86005
 838875000 -0.32192 -0.86981 2.288e-4 4.346e-4 1.962e-4 4.328e-4 -0.34814 -0.85865
 839250000 -0.32524 -0.86712 1.867e-4 4.539e-4 1.885e-4 4.380e-4 -0.35167 -0.85661
 839625000 -0.32852 -0.86303 2.254e-4 4.285e-4 2.234e-4 4.571e-4 -0.35502 -0.85456
 840000000 -0.33079 -0.85772 1.516e-4 4.458e-4 1.708e-4 4.592e-4 -0.35910 -0.85219
 840375000 -0.33118 -0.85384 1.894e-4 4.600e-4 1.985e-4 4.549e-4 -0.36325 -0.84917
 840750000 -0.33065 -0.85028 2.663e-4 5.083e-4 2.974e-4 4.897e-4 -0.36618 -0.84701
 841125000 -0.32837 -0.84965 3.528e-4 4.289e-4 3.794e-4 4.542e-4 -0.37042 -0.84265
 841500000 -0.32916 -0.85126 4.151e-4 4.109e-4 3.509e-4 4.306e-4 -0.37380 -0.83838
 841875000 -0.33236 -0.85247 3.954e-4 4.194e-4 4.547e-4 4.112e-4 -0.37674 -0.83439
 842250000 -0.33662 -0.85280 5.094e-4 3.779e-4 5.635e-4 3.589e-4 -0.38015 -0.82879
 842625000 -0.34207 -0.85264 6.102e-4 3.112e-4 6.048e-4 3.109e-4 -0.38061 -0.82221
 843000000 -0.34735 -0.85031 6.333e-4 2.336e-4 6.295e-4 2.821e-4 -0.37894 -0.81748
 843375000 -0.35327 -0.84825 6.683e-4 2.187e-4 6.796e-4 1.576e-4 -0.37762 -0.81352
 843750000 -0.35860 -0.84399 7.066e-4 4.207e-5 6.825e-4 4.779e-5 -0.37227 -0.81197
 844125000 -0.36364 -0.83872 7.331e-4 -6.14e-5 7.471e-4 -7.37e-5 -0.37184 -0.81405
 844500000 -0.36829 -0.83228 7.682e-4 -1.86e-4 7.264e-4 -1.92e-4 -0.37159 -0.81613
 844875000 -0.37069 -0.82405 7.554e-4 -3.21e-4 7.175e-4 -3.41e-4 -0.37550 -0.81979
 845250000 -0.37005 -0.81577 6.205e-4 -3.75e-4 6.281e-4 -3.98e-4 -0.37935 -0.82024
 845625000 -0.36689 -0.80880 5.962e-4 -5.91e-4 5.866e-4 -6.38e-4 -0.38491 -0.82058
 846000000 -0.36059 -0.80459 4.314e-4 -6.96e-4 3.876e-4 -7.13e-4 -0.39150 -0.81933
 846375000 -0.35375 -0.80548 3.182e-4 -7.45e-4 2.842e-4 -7.23e-4 -0.39723 -0.81697
 846750000 -0.35157 -0.81203 9.427e-5 -7.38e-4 9.489e-5 -6.70e-4 -0.40268 -0.81297
 847125000 -0.35478 -0.81711 1.403e-4 -5.76e-4 7.263e-5 -5.76e-4 -0.40816 -0.80872
 847500000 -0.36041 -0.82026 1.023e-4 -6.61e-4 1.064e-4 -6.14e-4 -0.41423 -0.80394
 847875000 -0.36713 -0.82073 1.413e-4 -6.36e-4 9.750e-5 -6.10e-4 -0.41805 -0.79796
 848250000 -0.37505 -0.81993 2.201e-4 -7.54e-4 1.798e-4 -7.77e-4 -0.42184 -0.79070
 848625000 -0.38186 -0.81667 2.340e-4 -9.39e-4 2.024e-4 -9.73e-4 -0.42431 -0.78149
 849000000 -0.38780 -0.81267 -1.66e-5 -1.08e-3 2.365e-5 -1.09e-3 -0.42560 -0.77288
 849375000 -0.39488 -0.80747 -9.07e-6 -1.35e-3 -8.08e-5 -1.37e-3 -0.42302 -0.76221
 849750000 -0.40081 -0.79935 -5.88e-4 -1.51e-3 -6.04e-4 -1.48e-3 -0.41617 -0.75514
 850125000 -0.40533 -0.78937 -9.89e-4 -1.56e-3 -1.03e-3 -1.55e-3 -0.40782 -0.75049
 850500000 -0.40647 -0.77717 -1.54e-3 -1.43e-3 -1.63e-3 -1.38e-3 -0.39831 -0.75100
 850875000 -0.40195 -0.76463 -1.95e-3 -7.22e-4 -1.99e-3 -7.53e-4 -0.39235 -0.75756
 851250000 -0.39100 -0.75496 -2.08e-3 -2.42e-4 -2.03e-3 -1.64e-4 -0.39182 -0.76569
 851625000 -0.37530 -0.75372 -2.06e-3 4.885e-4 -1.96e-3 5.787e-4 -0.39503 -0.77096
 852000000 -0.36534 -0.76287 -1.30e-3 8.239e-4 -1.26e-3 8.483e-4 -0.40139 -0.77669
 852375000 -0.36428 -0.77590 -1.02e-3 7.992e-4 -9.87e-4 8.062e-4 -0.40932 -0.77700
 852750000 -0.37011 -0.78582 -6.65e-4 7.753e-4 -6.12e-4 8.343e-4 -0.41599 -0.77778
 853125000 -0.38059 -0.79187 -5.41e-4 6.359e-4 -5.67e-4 6.437e-4 -0.42511 -0.77584
 853500000 -0.39288 -0.79249 -3.95e-4 5.223e-4 -3.70e-4 4.884e-4 -0.43168 -0.77146
 853875000 -0.40317 -0.78889 -4.24e-4 3.132e-4 -4.25e-4 3.265e-4 -0.44018 -0.76705
