# Hz S RI R 50
610000000	0.690039887974412	-0.563738354779893	0.254790080005162	0.303588985145845	7.66382516593651E-03	1.85357469502584E-02	5.85509725928326E-03	1.75589800289334E-02
			0.252085307198314	0.30442068980035	0.709516712815122	-0.538419728628774	5.36000881273439E-03	1.76647340895183E-02	6.97243158506173E-03	1.86020087624022E-02
			7.58448655976514E-03	1.84192026842762E-02	5.39888402427274E-03	1.75113821325054E-02	0.656345189009626	-0.595496028873522	0.281286477375095	0.287503574190338
			5.7585423275086E-03	0.017517446409351	6.97017088346397E-03	1.86615533471404E-02	0.280158955273152	0.286924335633858	0.650792006095968	-0.597361091371223
610250000	0.694208282052386	-0.566928756512063	0.254297109217941	0.306368860480588	7.6386513421863E-03	1.84592549646622E-02	5.75611530256097E-03	1.76544479985349E-02
			0.254941832165058	0.306432801455463	0.713406629164348	-0.538653195495694	5.34608404703172E-03	1.76866639100469E-02	6.81223484228661E-03	1.86460015512653E-02
			7.70006729006668E-03	1.84406786714817E-02	5.31921465998623E-03	1.77024819077113E-02	0.658133827559466	-0.596262056070108	0.279445441845029	0.286136953545225
			5.79414123311356E-03	1.75858568744242E-02	6.76873332697417E-03	1.88335770936095E-02	0.279477617360328	0.288799014849993	0.652125397317357	-0.597984675985299
610500000	0.690429499747791	-0.565311553742888	0.254254181327206	0.307458150022731	7.59786034233206E-03	1.84701713345644E-02	5.74659823299457E-03	1.76449214592658E-02
			0.253840848889515	0.305085398387021	0.712666999044961	-0.538714480986214	5.34407096044796E-03	1.76634909827839E-02	6.85199183205535E-03	0.018737304218161
			7.58453405643614E-03	1.84177616969783E-02	5.31594871233202E-03	1.77157233911644E-02	0.655227575228284	-0.596017352581588	0.281774725077949	0.287027397822854
			5.73409538423489E-03	1.75490919189793E-02	6.82279702032042E-03	1.89340775288482E-02	0.281165599173504	0.287635765978466	0.651288586623123	-0.598312588039447
610750000	0.691831464389731	-0.564923275578161	0.252586222690552	0.305021038261565	7.62841536662392E-03	1.83842724937159E-02	5.72686757452064E-03	1.76219000434281E-02
			0.255229829433507	0.306218920171637	0.714084930531619	-0.535488642760336	5.43414986270483E-03	1.75327978478416E-02	6.88883474903967E-03	1.88761388259965E-02
			7.57451254500472E-03	1.84027671774516E-02	5.21551782260731E-03	1.76126056309773E-02	0.656193196162116	-0.596450445625993	0.28145090843882	0.28683049600735
			5.70124836154403E-03	0.017696271131313	6.73928102670238E-03	1.88648385090067E-02	0.282035909055869	0.286901642184236	0.650526044578633	-0.598652194712135
611000000	0.690707122705192	-0.566359693456831	0.255404113374201	0.30440967141393	7.60258642339513E-03	1.84810747871241E-02	5.71069796021794E-03	1.76486697012697E-02
			0.254761936761579	0.304370514497096	0.711161818949132	-0.54021540561266	5.35040170326068E-03	1.75751513085956E-02	6.86125276101516E-03	1.88698315349656E-02
			7.52365046732405E-03	1.83465424911337E-02	5.34978219980561E-03	1.76604316682675E-02	0.654774861376882	-0.595951939843532	0.280648694004672	0.288443103127139
			5.62723702211453E-03	1.76313975897289E-02	6.85341034177141E-03	1.89803460429384E-02	0.280828013573418	0.287075276700724	0.650967828698573	-0.598660856420078
611250000	0.693493293908865	-0.568306276717907	0.254006469215414	0.305603952453078	7.45606968835639E-03	1.84044017503269E-02	5.68910838537809E-03	0.017750931881229
			0.255249966160438	0.305159453737943	0.7122145570502	-0.537189134417956	5.30576779356392E-03	1.75764017208513E-02	6.90951442343725E-03	1.90019768303412E-02
			7.44359006975474E-03	1.83873387783726E-02	5.34032014113658E-03	1.76417843623903E-02	0.655343893953085	-0.596308209021306	0.282549049501476	0.286860332344045
			5.68875765235169E-03	0.017671361022799	6.85316394168967E-03	1.90627893088491E-02	0.281693286454548	0.287545815666039	0.650372675091175	-0.598443461680131
611500000	0.692501163272829	-0.568139984310551	0.255409227879693	0.305499994633584	7.4246884666006E-03	0.018436232944164	5.71071461442332E-03	1.77422298833203E-02
			0.256360815450623	0.305853615308758	0.710693636666319	-0.538959484522997	5.34199603462349E-03	1.75710570531475E-02	7.0805094765632E-03	1.89600470754483E-02
			7.4614244660258E-03	1.84756898973279E-02	5.29095860114613E-03	0.017590954041328	0.654894708080162	-0.596278562831157	0.281780955081963	0.288054863573102
			5.74252170254312E-03	1.77871768106478E-02	6.95699701484932E-03	0.019049367359162	0.28172135754118	0.287183102493647	0.650438276606627	-0.59942386112447
611750000	0.689765323334544	-0.567382789237768	0.25470980857818	0.30472721325335	7.39438022882107E-03	1.85127446552827E-02	5.77519892172126E-03	1.78187650167072E-02
			0.254862897554528	0.30489332245504	0.710803368606224	-0.539042574971277	5.33612220310831E-03	1.75256052697859E-02	7.05162653865146E-03	1.89305034950154E-02
			7.36890155556384E-03	1.84438762682758E-02	5.26323357608192E-03	1.76277333727308E-02	0.657482404451679	-0.596339619176561	0.28215113903774	0.286009928107359
			5.72244442388885E-03	1.77812708827722E-02	7.0130083605581E-03	0.019068359169579	0.282537840796997	0.289120657612223	0.649718746487055	-0.598862468773402
612000000	0.692464335088239	-0.566904950415278	0.256027043261217	0.303703080351614	7.47958856605315E-03	1.85855233864399E-02	5.77512347922042E-03	1.78204520445277E-02
			0.255092012471998	0.306611296906455	0.709054226728835	-0.538109497678655	5.29086267415975E-03	1.75977100782027E-02	0.007056610031729	1.89473252480763E-02
			7.39391813537761E-03	1.85702740438238E-02	5.43967178594021E-03	1.74337708016499E-02	0.657519541556296	-0.597468356989569	0.282088491765057	0.288095118370522
			5.77889854323529E-03	1.77811616437651E-02	7.10146364493265E-03	1.88709471398559E-02	0.283118635572664	0.287275414484253	0.649478644790049	-0.598899217741363
612250000	0.692356307916972	-0.566550643367807	0.255588375608384	0.305764597042896	7.49711722245905E-03	1.86203394743437E-02	5.85452203293396E-03	1.77519001719417E-02
			0.25536484421128	0.306497451912707	0.712097490095592	-0.539109296939389	5.25661275099539E-03	1.76233141215664E-02	7.14971251994383E-03	1.88425217191617E-02
			7.46985945345006E-03	1.86355596343732E-02	5.27256241338122E-03	1.76845553592334E-02	0.655525545938836	-0.597614743039015	0.283309386576902	0.287791089658454
			5.76139372548535E-03	1.77207340477498E-02	7.05868265993205E-03	1.89904707336612E-02	0.28169449240762	0.28859158862762	0.649527911248882	-0.599403815602286
612500000	0.691625185845057	-0.568538535827312	0.25437358555904	0.305662344365503	7.55021460594606E-03	1.86257798258713E-02	5.82303141421695E-03	1.77561360398255E-02
			0.254974236992536	0.30625010391158	0.711770388150179	-0.540249932272256	5.29201793392703E-03	0.017656980826913	7.12843193546294E-03	1.88138486446756E-02
			7.5849998609001E-03	1.86107936410827E-02	5.33798372606459E-03	1.76750930016073E-02	0.653682398976351	-0.596228864572146	0.283255814819712	0.28713885007344
			5.8548702567298E-03	1.76940562685777E-02	7.04453457942794E-03	1.89093715650652E-02	0.282592090168496	0.286434347645006	0.648022698440872	-0.599699531281971
612750000	0.691216097172946	-0.569358054007817	0.255393033575305	0.306647439874906	7.59602128695073E-03	1.86226065721259E-02	5.92377148425564E-03	1.76044284329041E-02
			0.255517811000215	0.30536576781031	0.711847371048893	-0.542779451510349	5.36341715239768E-03	1.75482976763162E-02	7.06113769136509E-03	1.87527787747585E-02
			7.58831801575652E-03	1.86234474316015E-02	5.34622304523791E-03	1.76533426319512E-02	0.655680899452461	-0.597614329790165	0.282833714750686	0.289017125109394
			5.81214398535078E-03	1.76191646043519E-02	7.00521727372577E-03	1.88259601990319E-02	0.281026479699241	0.288566799161981	0.648289647575524	-0.59951197997264
613000000	0.688762374825364	-0.5670096889065	0.255759384809446	0.307346725488855	7.7072324844068E-03	1.85401064845179E-02	5.78203983495093E-03	1.76075054609497E-02
			0.255913675385339	0.306384688289328	0.712508501455757	-0.538835846806393	5.43015528956835E-03	1.74709061049402E-02	7.04713521776625E-03	1.87001674202689E-02
			7.66450852578724E-03	1.85822694878942E-02	5.26752723706949E-03	1.76119924963544E-02	0.655240735911349	-0.597922036286677	0.28432096852469	0.288088237365071
			5.80777215360985E-03	1.75828235881885E-02	6.89092289033329E-03	1.87673523590452E-02	0.284733088882341	0.287879673270499	0.647491793667704	-0.599481940202726
613250000	0.691174835356291	-0.567890541343923	0.25528959867127	0.305169289302695	7.57490655119083E-03	1.85532187347626E-02	5.80060406890706E-03	1.75235384602145E-02
			0.256196064998514	0.307425086197215	0.711398593699745	-0.539247015640347	5.23485568939286E-03	1.75806035527645E-02	6.91028022163692E-03	1.87200710100286E-02
			7.68079162053376E-03	1.85301769637068E-02	5.25851889579828E-03	1.75847441898387E-02	0.654714492635173	-0.598026022341556	0.282686533810256	0.288797578980014
			5.77971142603269E-03	1.75623743092385E-02	6.81582898896135E-03	1.87320078046337E-02	0.284292583407439	0.288283732161015	0.648222961980136	-0.599801093454737
613500000	0.689796818034544	-0.567698752573832	0.256179694244055	0.306355174408715	7.6548043145222E-03	1.84963275433761E-02	5.69168835917545E-03	1.75491180482978E-02
			0.256519093326659	0.306953532258927	0.711095150030151	-0.540743295020809	5.24679123246309E-03	1.75688076251285E-02	6.86060907189339E-03	1.88039726541461E-02
			7.61799077596097E-03	1.84128737191899E-02	5.31527077600154E-03	1.75812666053222E-02	0.652730616117532	-0.597307751550604	0.284025445037995	0.289006400517569
			5.69726112895212E-03	1.74716704406176E-02	6.85452170024973E-03	1.89282296522189E-02	0.282443457378241	0.288872156448148	0.649480109974351	-0.59918402040212
613750000	0.685457436863426	-0.569656738029984	0.256210492771151	0.307397011608474	7.59740781580039E-03	0.018462710279121	5.70706235737113E-03	1.75695248754852E-02
			0.255717555582325	0.304906507689422	0.711373654601282	-0.542738516526377	5.30150964469014E-03	1.75184179666489E-02	6.8146128072516E-03	1.88410062028407E-02
			7.62262697009639E-03	1.83472707179385E-02	5.27366712294241E-03	1.75469851204332E-02	0.652243324550374	-0.597763866350982	0.284089643360588	0.289565439917468
			5.66167671329621E-03	1.74861947389686E-02	6.74092989195096E-03	1.88882319163108E-02	0.283669664163125	0.288129719877413	0.647954576734133	-0.600288338915849
614000000	0.68812667173321	-0.567179458825421	0.255892460468305	0.305759228560166	7.5687431414932E-03	1.84069396501252E-02	5.64943941416777E-03	1.75007960895936E-02
			0.255842964208941	0.305792425408208	0.709883678606349	-0.53978664708353	5.24396937884834E-03	1.74920786128384E-02	6.73850439754728E-03	1.88759925746223E-02
			7.5394314598869E-03	1.84112550808302E-02	5.32997079128852E-03	1.74767667046375E-02	0.653010719357362	-0.597160805907668	0.285986173887925	0.289335255834098
			5.62414948378934E-03	1.75552385920881E-02	6.73143265834982E-03	1.89211936206958E-02	0.285982676426677	0.287621527762394	0.647574294783491	-0.599963253240908
614250000	0.692740789460589	-0.567630087722178	0.256341536499538	0.305781380301595	7.44686951388507E-03	1.84396733058928E-02	5.60187284237388E-03	1.74643434993838E-02
			0.256978573129537	0.306762105146692	0.708757724088281	-0.539496607954545	5.17453003359297E-03	1.74231741956914E-02	6.82271510588912E-03	0.018926743211118
			7.53205840048471E-03	1.84183701635331E-02	5.27704502000084E-03	1.75463563400119E-02	0.650940705186295	-0.598216892214004	0.284940537596681	0.289525255892113
			5.59724989052795E-03	1.75121193275089E-02	6.78683785306612E-03	1.89926277139092E-02	0.285076551800416	0.28825834392968	0.647005309164304	-0.601129984094661
614500000	0.68871950057335	-0.569727160794753	0.255964503328992	0.307794180235525	7.42833891459271E-03	0.018498730249485	5.57063734803226E-03	1.75235356593972E-02
			0.25685096936857	0.306125470235656	0.711674559685394	-0.542223915287795	5.18369948561972E-03	1.75058431942882E-02	6.81496238904172E-03	1.88970743593204E-02
			7.4314095284408E-03	1.83811783403794E-02	5.16674845703044E-03	1.75375860520144E-02	0.652629127180035	-0.59783228859314	0.285284566029074	0.288585506051872
			5.49480761096686E-03	1.75039237821259E-02	6.68255068996909E-03	0.019027685967295	0.28535610713941	0.287515140383952	0.647212985380629	-0.600022708348983
614750000	0.689627051203773	-0.568893170320458	0.257326859029427	0.308243709331064	7.36542144263591E-03	1.84943680846257E-02	5.54494520737326E-03	1.76908631272194E-02
			0.256175438225603	0.307237031273794	0.711847477638547	-0.541802487304204	5.17117103472112E-03	1.74790389636348E-02	6.79097100130617E-03	0.018996289875995
			7.36158374652978E-03	1.85487383997406E-02	5.14223102970854E-03	1.76748550823679E-02	0.653352977735804	-0.598732199263022	0.284619460615015	0.287854559752851
			5.49680800305097E-03	1.76525376057888E-02	6.77732902704708E-03	1.91251796831872E-02	0.286732344375477	0.289346843561503	0.647738026740142	-0.600004571182271
615000000	0.691171380526358	-0.570888233931567	0.256400545037091	0.307357987330581	7.35880345903552E-03	1.85581879994539E-02	5.53194307043684E-03	1.76358910612039E-02
			0.257335230464912	0.306160331028707	0.711428081834068	-0.541263062347822	5.11039261051577E-03	1.75557165875492E-02	6.89990986869439E-03	1.89576721527531E-02
			7.34151309164259E-03	1.85502222173545E-02	5.04260646930548E-03	1.75318504934203E-02	0.651903531746413	-0.597643080494523	0.286235103113303	0.288702639362452
			5.52455194858039E-03	1.75821031856487E-02	6.75697094278826E-03	1.90140329562103E-02	0.285418168790179	0.288275467553901	0.647628396593892	-0.600284934811488
615250000	0.688802479968471	-0.569876316442609	0.259364257900933	0.307943757481075	7.34719072331321E-03	1.86404161098684E-02	5.56050086217044E-03	1.76445633011372E-02
			0.257204138187735	0.305591330199326	0.711134741018506	-0.545180733999389	5.05865388131715E-03	1.75412351306635E-02	6.80205850757466E-03	1.89788032071219E-02
			7.34011706189965E-03	1.86485238162391E-02	5.09449523120987E-03	1.76889667757921E-02	0.654258004869889	-0.598330332428209	0.2854994322082	0.288060902688222
			5.54076886278128E-03	1.76483127834132E-02	6.80717603243772E-03	1.92034823121129E-02	0.285176029645952	0.287958846424989	0.647029097884317	-0.600228878271077
615500000	0.687718720421572	-0.571501512560815	0.259052967532863	0.305746917520978	7.45037558769108E-03	1.86949328379952E-02	5.5690357737488E-03	1.76869871112636E-02
			0.257795651583523	0.305829020078495	0.708876054534784	-0.540857248469623	5.0574279993054E-03	1.75733450365495E-02	6.79282025474654E-03	1.90401872477306E-02
			7.39150185164813E-03	1.85821886023001E-02	5.11784620776599E-03	1.75429474116759E-02	0.651473902791427	-0.598350632556365	0.285997925328085	0.289041160199814
			5.46137498566437E-03	1.76531013171786E-02	6.83814909145336E-03	1.90190601375403E-02	0.285656977551681	0.288896258750199	0.646038794504634	-0.600689472905654
615750000	0.687483249218387	-0.572250545594539	0.258002613913279	0.306781686882089	7.46073649634823E-03	1.86968457984983E-02	5.55191272318869E-03	1.76845819541176E-02
			0.257343596105405	0.305221679027021	0.708746827689772	-0.542189283077737	5.07829487489198E-03	1.75281196080968E-02	6.92948076847749E-03	1.90125709629539E-02
			7.40336332244609E-03	1.86596678543582E-02	5.07417373483235E-03	1.77057579587642E-02	0.651610238872571	-0.599322062768521	0.285815544498484	0.289284786741124
			5.50211425856842E-03	1.75923099207155E-02	6.81117525898965E-03	1.91046514744774E-02	0.286686136133551	0.288211440329194	0.646588909232721	-0.601115887401326
616000000	0.687900132813025	-0.570998433281916	0.258105586469048	0.30640568909968	7.52244608912162E-03	1.86975444713519E-02	5.51566929399127E-03	0.017657491916602
			0.257861923917214	0.306822352035935	0.711039409054129	-0.542586179905934	5.01850947388262E-03	1.75581389094873E-02	6.76973788332683E-03	1.90011207529704E-02
			7.50148587898807E-03	1.86370369075131E-02	5.06210963469324E-03	1.76352597983093E-02	0.650255817348472	-0.599324490482204	0.287796588527341	0.287778266336928
			5.55639135775153E-03	1.76350921756413E-02	6.81682462334617E-03	1.90656191069271E-02	0.285745637784684	0.289036610016704	0.645523427874369	-0.601033629826677
616250000	0.689374580573498	-0.570562778035426	0.258263980160999	0.306564036323615	7.49151920811339E-03	1.86608937218594E-02	5.55307091940889E-03	1.76897333368789E-02
			0.257683960086161	0.307773467438502	0.70890036582539	-0.540675717501975	5.10014278972994E-03	1.75640402905197E-02	6.8513117193355E-03	1.89844444040396E-02
			7.49938072108269E-03	1.86710870461193E-02	4.98138541757137E-03	1.76161928725541E-02	0.651024316566598	-0.599221618581569	0.286449657223924	0.288334028504437
			5.49562269842663E-03	1.77030154711747E-02	6.81149665435606E-03	1.90836019699396E-02	0.287320154652558	0.288582200020847	0.645812328516152	-0.601434881410251
616500000	0.686967880260333	-0.571433920034247	0.25982425266713	0.305075131257123	7.52982062908282E-03	1.86591354390873E-02	5.52487931137303E-03	1.76219485207469E-02
			0.25753978312074	0.305944093838942	0.707542339532714	-0.54255867803328	4.97094250511503E-03	0.017528481451776	6.80266826707122E-03	1.89465946732696E-02
			7.55623467182302E-03	1.86221053842308E-02	5.05253568689092E-03	1.75539147397361E-02	0.648979920046473	-0.598854993489134	0.287842493876794	0.288578467898355
			5.49682225437984E-03	1.76478953982493E-02	6.82286083251033E-03	1.89776725860623E-02	0.286529613210985	0.287665106584266	0.64508888550679	-0.601362204987121
616750000	0.688415968422642	-0.569789505507557	0.258583942803425	0.307353312967469	7.5373678276586E-03	1.85723780327151E-02	5.41808182877801E-03	1.76545644644217E-02
			0.258093009913131	0.306916113268263	0.709774482407715	-0.543941607637942	5.07895909102146E-03	1.75423237811595E-02	6.81475726887877E-03	0.019009449853838
			7.53968155702906E-03	1.85582238915557E-02	5.04010454760316E-03	1.76847962045583E-02	0.651361576236316	-0.600018228248685	0.287967428169268	0.287885603061648
			5.42665619781745E-03	1.76578219899536E-02	6.79902753251768E-03	1.90664038585137E-02	0.286131424990111	0.288009411102689	0.644659605798891	-0.601612783109665
617000000	0.684948797341729	-0.571484294524779	0.25800741032492	0.307448067547031	7.5010468218618E-03	1.86409396846386E-02	5.41675774840522E-03	1.77695812560846E-02
			0.258141693928095	0.305912468802638	0.709773661799325	-0.542231624105662	4.98471431165776E-03	1.76369347788242E-02	6.79212291591473E-03	0.019083945048043
			7.46315010461321E-03	0.018591592039307	5.05652930473806E-03	1.77218931233147E-02	0.647822418338682	-0.598940705431391	0.289494605364724	0.289540350938721
			5.43456317806476E-03	1.76211934133375E-02	6.79476800434909E-03	1.91131998928723E-02	0.286426533043841	0.28928364512451	0.645490365292723	-0.601074454966439
617250000	0.685621929109004	-0.571963337385708	0.259445408528547	0.307210534042124	7.46830329513832E-03	1.85905413867753E-02	5.45872558475465E-03	1.77123328257875E-02
			0.258952115250875	0.304830737240484	0.708664135507235	-0.543825097093341	5.03973768300104E-03	1.75386590809331E-02	6.78280376659523E-03	1.89940242541606E-02
			7.5276104425182E-03	1.85933607196471E-02	5.00096450390481E-03	1.76438402133491E-02	0.648596964902984	-0.600348834727832	0.287920338430165	0.290035949567172
			5.41511115367017E-03	1.76262312736133E-02	6.77027173223286E-03	1.90423557828289E-02	0.287365903297972	0.28874760321682	0.643423604751351	-0.601980499623659
617500000	0.686689083459115	-0.572886649320206	0.258022586797443	0.306842440059771	7.45434422527106E-03	1.87786332343867E-02	5.38161093130003E-03	1.77466565996235E-02
			0.258706630301907	0.306866658581591	0.708157951941573	-0.5404402404961	4.91378736466489E-03	1.76172293552042E-02	6.68785416983234E-03	1.90878243010056E-02
			7.42895892546025E-03	0.018604285446349	4.98025919630742E-03	1.76623106591443E-02	0.648361208494834	-0.600125466018961	0.288930763656382	0.28856016117084
			5.38059088821811E-03	1.77459023397981E-02	6.70401291310971E-03	1.91031876771571E-02	0.287088408151907	0.288809527038308	0.643863866505521	-0.602924607737466
