# Hz S RI R 50
380000000	0.689782616905668	-0.707230340094439	9.15288622525606E-03	8.4877409138378E-03			9.15989061134452E-03	8.52848240681426E-03	0.662710998070174	-0.697383575724724
381875000	0.689260049148442	-0.707528733621098	9.25324119512115E-03	8.4849838222957E-03			9.21535569603542E-03	8.52790834461444E-03	0.659215811869734	-0.699818705295744
383750000	0.688459431288308	-0.710462998212753	9.34467259987107E-03	8.49128884116537E-03			9.27477240180257E-03	8.49063575866487E-03	0.655836248981255	-0.703666897955294
385625000	0.684931502965608	-0.711627513483175	9.41145890727235E-03	8.47570043961936E-03			9.45881145729764E-03	8.56012608306767E-03	0.65302547071042	-0.705138701696647
387500000	0.678034656080985	-0.71357586894146	9.48826652122335E-03	8.44635990708864E-03			9.49697886067839E-03	8.54588179154395E-03	0.649917112585326	-0.708476111594035
389375000	0.676003770626927	-0.717825951805077	9.57358966281466E-03	8.44949244509411E-03			9.57939317477254E-03	8.46611919654608E-03	0.646194944072872	-0.710318439176686
391250000	0.676803566512211	-0.722362069231786	9.68059773430605E-03	8.39695043552056E-03			9.66931820184935E-03	8.49066818086075E-03	0.644452297163884	-0.712734372572674
393125000	0.672409819963667	-0.723111390285757	9.74649389310351E-03	8.48394371001877E-03			9.69009792697275E-03	8.53249076054042E-03	0.640985090181748	-0.71436418769525
395000000	0.670473133998196	-0.724782609161124	9.7694847510153E-03	8.45324530314409E-03			9.77431309924512E-03	8.54659899048213E-03	0.637847917285876	-0.716308378773435
396875000	0.668671525714071	-0.728854613130808	9.94482075935367E-03	8.42344822261388E-03			9.88054018500028E-03	8.48794862311182E-03	0.634779224308359	-0.71963172544467
398750000	0.662523790803279	-0.730891768653221	9.93168644634035E-03	8.41914160459935E-03			9.94137036867318E-03	8.45328379288397E-03	0.632074269208782	-0.721724523053374
400625000	0.660969953777505	-0.732454574550013	0.010016240180726	8.40495438700919E-03			1.00240151356531E-02	8.39865688912353E-03	0.628239842430539	-0.723941127209263
402500000	0.657160868046354	-0.737048788376428	1.01272013026775E-02	8.40432222900477E-03			1.01072193573499E-02	8.41719818043544E-03	0.624414779208829	-0.726455278737285
404375000	0.657171809451563	-0.740267651698067	1.02208428214041E-02	8.34659439443399E-03			1.01947562355899E-02	8.41603301483513E-03	0.621654845016746	-0.729234653882088
406250000	0.652001426176101	-0.741183010487892	1.02431394579027E-02	8.32732719950813E-03			1.02382049416222E-02	8.39612172128201E-03	0.618768791678815	-0.730936653321055
408125000	0.650179782928887	-0.745022693401664	1.03377073806428E-02	8.38823952268853E-03			1.03630572011818E-02	8.38661845180608E-03	0.615616064502727	-0.734056415353283
410000000	0.64688857769161	-0.747046256038314	1.04358055362039E-02	8.29432372988144E-03			1.04588249231438E-02	8.36815948344458E-03	0.613250575896045	-0.736069421087118
411875000	0.644575723291399	-0.749288319218909	1.05037295455129E-02	8.34052788336456E-03			1.05356957018122E-02	8.36423864224488E-03	0.608205912225377	-0.737180486082454
413750000	0.640524215712968	-0.752908847781034	1.05978988680533E-02	8.30278248421294E-03			1.06117610523335E-02	8.3018065153766E-03	0.605131430554951	-0.739198994248684
415625000	0.635495165810824	-0.754583789078868	1.06471584463439E-02	8.23929879232407E-03			1.07308119380695E-02	8.28789422311898E-03	0.602600064162633	-0.743433063858725
417500000	0.635013999267631	-0.757590613391021	1.07631654539154E-02	8.21581913050817E-03			1.07874517373897E-02	8.28174726423636E-03	0.597457462792907	-0.746146598136532
419375000	0.632722877116268	-0.759309616254851	1.08508086764683E-02	8.22826348353258E-03			1.08451169416687E-02	8.17571904276214E-03	0.59300299500872	-0.74777122916994
421250000	0.630122490491738	-0.762009478978865	0.010928383845305	8.16566147952249E-03			1.08888974600502E-02	8.2153594807379E-03	0.592732174879828	-0.749272444062853
423125000	0.624607392995599	-0.764553360480742	1.09835746562206E-02	8.16885737512283E-03			1.10481568165333E-02	8.21391834286225E-03	0.589411136499547	-0.752837512516331
425000000	0.624789669777328	-0.76839155468182	1.11385406610408E-02	8.01788888735493E-03			1.10818422458936E-02	8.10082532602609E-03	0.586156425716732	-0.751304907140598
426875000	0.621052856902594	-0.769776566757485	1.12081142271329E-02	8.00576845741063E-03			0.011156925373133	8.0368753149437E-03	0.581303838141422	-0.753488448814479
428750000	0.61781942228347	-0.772822961231748	1.12957116664001E-02	8.0029838141577E-03			0.011201748508874	7.99305471594326E-03	0.579029223826978	-0.7584632747968
430625000	0.613376538081472	-0.773596243798544	1.13394197274167E-02	7.96702574101203E-03			1.13598366973821E-02	7.99195104904355E-03	0.573425622660175	-0.760883641175012
432500000	0.610787023064057	-0.777353515168677	1.13643381879109E-02	7.89123728010881E-03			1.13880388296489E-02	7.94808360073796E-03	0.571577448197842	-0.76427662723751
434375000	0.608826464684134	-0.779004369403971	1.14670706784757E-02	7.82969638747887E-03			1.14729215005439E-02	7.80035227041658E-03	0.567935412303039	-0.766395914454582
436250000	0.605050960644098	-0.782274791442914	1.15564028579601E-02	7.75997927745135E-03			1.15406367449754E-02	7.75202827243695E-03	0.564535265551078	-0.767177228513105
438125000	0.602055204106224	-0.784219942875918	0.01151766329258	7.70581052767175E-03			1.15477342475859E-02	7.71448116129729E-03	0.561321208720461	-0.768188038737008
440000000	0.59922716223491	-0.787484443794781	1.16009693350756E-02	7.6328854732493E-03			1.16069144775009E-02	7.72996731147548E-03	0.560430361673778	-0.770827835900687
441875000	0.59487892782264	-0.78830732550649	1.16401272530137E-02	7.56871933162028E-03			1.16456429571667E-02	7.60436281984401E-03	0.558197312060413	-0.772342230881194
443750000	0.59196972407542	-0.791983256793261	1.16364370021899E-02	7.53630857634191E-03			1.16165832484778E-02	7.53908173680686E-03	0.551467209309325	-0.76989821873907
445625000	0.589049170892663	-0.793575457713074	1.16464171764907E-02	7.49553095658753E-03			1.16167128204433E-02	7.52083904410317E-03	0.550804299212545	-0.773604257421757
447500000	0.584157258256925	-0.797012109195214	1.16548014210888E-02	7.41392633413643E-03			1.16348019370051E-02	7.4573487240466E-03	0.547841708818866	-0.775724432500331
449375000	0.582831389214356	-0.798206190210079	1.16752249685284E-02	7.37315909676205E-03			0.011617616324141	7.40409578529005E-03	0.544344572296939	-0.777431244959001
451250000	0.582140246490022	-0.802303876453749	1.17148765262352E-02	7.38890491033608E-03			1.16394108154765E-02	7.42133227974864E-03	0.541410701638278	-0.782889232219661
453125000	0.577321233504484	-0.802568902350442	1.16627209363181E-02	7.33417263307465E-03			1.16883545733682E-02	7.40782955248659E-03	0.536874372665677	-0.78680359685192
455000000	0.569500486904377	-0.804512396230491	1.16433193791012E-02	7.32646562188121E-03			1.16016101616011E-02	7.31666283879483E-03	0.532015728838072	-0.785117208790265
456875000	0.57072598564748	-0.80785656589066	1.16281842452953E-02	7.34899873342134E-03			1.15599603500262E-02	7.30383036221177E-03	0.532050862039483	-0.786325747819573
458750000	0.568418207981591	-0.810095231113785	1.15944524985283E-02	7.36563946741952E-03			1.16246909333694E-02	7.37656226679327E-03	0.525930521417262	-0.788405180416989
460625000	0.564338062302399	-0.810456633943825	1.16335719830325E-02	7.36541458687204E-03			1.16149592975413E-02	7.37060639234613E-03	0.523619892870456	-0.792069213006988
462500000	0.561833950109239	-0.813388829419007	1.16049298343269E-02	7.40178710013283E-03			1.16214233884774E-02	7.37929209290298E-03	0.52212321822805	-0.79437440144421
464375000	0.558845092534094	-0.815158558379065	1.16411411636217E-02	7.38373143307837E-03			1.16253146112191E-02	7.3759366982002E-03	0.518573488103731	-0.79651403706171
466250000	0.554983920988624	-0.817510241862158	1.15852500527736E-02	7.39709397234104E-03			1.15849815731484E-02	7.4318492490981E-03	0.51642611269976	-0.798724818204036
468125000	0.552958356745664	-0.819974242127539	1.15923007408933E-02	7.49026643373212E-03			1.15851197676951E-02	7.42497470948957E-03	0.511267842400386	-0.79871877333571
470000000	0.548979408901028	-0.822532025646631	1.16075837155615E-02	7.55666353770269E-03			1.15808918357331E-02	7.55340303572571E-03	0.511124621413822	-0.802805229890751
471875000	0.54756580591727	-0.822946513372912	1.16470423325414E-02	7.61937646197662E-03			1.16317907209832E-02	7.66601376983838E-03	0.508030677584703	-0.806898001270862
473750000	0.538750863662461	-0.827878115625536	1.17437415479247E-02	7.71676400149648E-03			1.16893470218461E-02	7.74552091235819E-03	0.502711221891436	-0.806275790424512
475625000	0.538964747257128	-0.830912747172883	1.18491145988725E-02	7.78817227087432E-03			1.17802799423175E-02	7.83857637599048E-03	0.501166196957249	-0.80899313980749
477500000	0.532947531133299	-0.829480232068864	0.011908733070263	7.86025300838643E-03			1.19327687637884E-02	7.87765952622035E-03	0.496293125276468	-0.811230138602495
479375000	0.533580937149833	-0.833784808083566	1.19968421810249E-02	7.85449955285266E-03			1.19575004413575E-02	7.90614923753289E-03	0.493211662309166	-0.812433427022615
481250000	0.52925553143006	-0.839808357132127	1.21152000608746E-02	7.94186838883707E-03			1.21159772822931E-02	7.89186261209259E-03	0.488649944872066	-0.813828813233244
483125000	0.522850088240164	-0.838025239152018	1.21938860638389E-02	7.94299034513965E-03			1.22012672415057E-02	7.88889195807785E-03	0.484771637930343	-0.818316848785541
485000000	0.522551814995838	-0.841638607263041	1.22913989888122E-02	7.92241883388409E-03			0.012278343024984	7.89585835492274E-03	0.480966306604078	-0.819352946895321
486875000	0.519264592362262	-0.841875436644898	1.24222444110745E-02	7.92183387341421E-03			1.23723658221086E-02	7.96397763028957E-03	0.478021381823267	-0.821239346596019
488750000	0.513725369438632	-0.842933631543101	1.24505326020973E-02	7.95820670793964E-03			1.25278789337268E-02	7.97987799968955E-03	0.474744080629647	-0.8233372066933
490625000	0.511763755378983	-0.846152914362419	1.25511888912699E-02	7.95263514915687E-03			1.25519903492592E-02	7.94854654504622E-03	0.47189847055534	-0.825168462925825
492500000	0.508177589540764	-0.846515297337522	1.26256323285828E-02	7.99070730492521E-03			1.26639658388344E-02	8.01843104699647E-03	0.46720640015922	-0.826552864141126
494375000	0.504781981768108	-0.849449857839984	1.27403140648885E-02	8.03486095887319E-03			1.28024845874874E-02	8.04580468459375E-03	0.464436193930389	-0.829080991221917
496250000	0.501843986215109	-0.850186326926406	1.28753361000909E-02	8.04896407599853E-03			1.28670269937942E-02	8.04878383400237E-03	0.459419145348434	-0.830387815609346
498125000	0.499004957221985	-0.853035569773776	1.29640786735213E-02	8.03669080969273E-03			1.29578224153104E-02	8.02958272188409E-03	0.455806493719229	-0.832819934235548
500000000	0.493893775645871	-0.85444587712726	1.30887243489092E-02	8.04055709634836E-03			1.30216781381951E-02	7.98109641468298E-03	0.452030985573545	-0.833302799311318
501875000	0.490316625980474	-0.858549200465826	1.32026088808089E-02	8.00935470110438E-03			1.31776712869187E-02	7.98148355565586E-03	0.449813645340126	-0.835929610016135
503750000	0.48800945351155	-0.85722416006909	1.33115053761031E-02	8.0614443345229E-03			1.32762603285725E-02	8.00346137853377E-03	0.444358361708484	-0.838313303901577
505625000	0.485079403504512	-0.861297254953585	1.34335152823733E-02	8.01820145782828E-03			1.33868631075286E-02	7.99830885303071E-03	0.440758384261403	-0.841702129721422
507500000	0.479270620442998	-0.864316853494693	1.34853418109342E-02	7.96204203837797E-03			1.34490037510455E-02	8.04583671671031E-03	0.438298124886348	-0.842336142958921
509375000	0.478085930036285	-0.866749655568718	1.36497850717964E-02	7.98724109890541E-03			1.36698544210079E-02	7.94979614573155E-03	0.433719573560532	-0.841930594271441
511250000	0.474375004638387	-0.866437957537396	1.36808125464588E-02	7.95629295346856E-03			0.013712087875157	7.8686637666606E-03	0.43006131402009	-0.845760237617367
513125000	0.471231137841521	-0.866762916343804	0.013764601456083	7.93540085674331E-03			1.38016877220585E-02	7.90935451269694E-03	0.427010138899174	-0.846446828400144
515000000	0.469935011178649	-0.869301158468726	1.39380707446427E-02	7.96449787347202E-03			1.39083485478955E-02	7.93996947267256E-03	0.423603973694094	-0.848189375759123
516875000	0.464886099554791	-0.873760799114862	1.40197953737262E-02	7.86807166387763E-03			0.013999690418899	7.81838580451102E-03	0.419601006113281	-0.849708966882051
518750000	0.462894182027867	-0.874827224052231	1.41302714982083E-02	7.85319965192242E-03			1.40505664268277E-02	7.88322538921144E-03	0.41555824310554	-0.852521975331707
520625000	0.458193734334821	-0.876553391227217	1.42825700767865E-02	7.82517988056925E-03			1.42261192285297E-02	7.76243926959526E-03	0.409437147212412	-0.853683478936689
522500000	0.454706086710043	-0.877881512114194	1.43762718747536E-02	7.77451330416329E-03			1.42722226069729E-02	7.73141245416829E-03	0.408304029324944	-0.854910384811322
524375000	0.45253876410887	-0.879688010430933	1.44376351695817E-02	7.74434561152973E-03			1.43678013569476E-02	7.77966273510163E-03	0.407022259382337	-0.853172440300427
526250000	0.447721587660576	-0.881210747679882	1.45370517137588E-02	7.79605762587547E-03			1.44683301055485E-02	7.6724107423606E-03	0.398538806064675	-0.857682615820169
528125000	0.443618791690786	-0.881416353996728	1.45685139808091E-02	0.007738171569211			1.45672061931545E-02	7.66732956054202E-03	0.398843032263794	-0.86071132363092
530000000	0.439969389638708	-0.883285188795904	1.46387212503513E-02	7.67061089782718E-03			1.47260328787079E-02	7.60680394171562E-03	0.392315373140834	-0.857230956496913
531875000	0.437006270332543	-0.884271186307656	1.48154951915937E-02	7.56819753194196E-03			1.47668093619442E-02	7.62022119553202E-03	0.390143800446382	-0.861861937560374
533750000	0.432066070026939	-0.885841650645939	1.48972301873081E-02	7.54347489526342E-03			1.49189363151946E-02	7.52652877323217E-03	0.386762857314077	-0.864484990616216
535625000	0.432821995688565	-0.88885118248454	1.50354849270949E-02	7.53864417960141E-03			1.49763613334126E-02	7.47021611987977E-03	0.380460571195067	-0.861892339590796
537500000	0.426949332871929	-0.889696576934843	1.50320998204766E-02	7.45664483874032E-03			1.50840366600509E-02	7.46274863371477E-03	0.375996266212894	-0.87176409661505
539375000	0.423050834199424	-0.890767241725933	1.51789613657933E-02	7.45172380276662E-03			1.51327703804453E-02	7.41480531659588E-03	0.375482706708908	-0.864649934390912
541250000	0.419712597337241	-0.892761147541676	1.52060336251356E-02	7.32906490600115E-03			1.52798506231601E-02	7.42221387333377E-03	0.372420732390822	-0.872070859302923
543125000	0.41416290438506	-0.893640413192799	1.53506022940157E-02	7.32707008216894E-03			1.53864290858295E-02	7.3164612909455E-03	0.367952794677699	-0.873026728547776
545000000	0.413877398901855	-0.89622106098815	1.53641427186271E-02	7.32205176073599E-03			0.015443805570132	7.32709599847503E-03	0.365245298098853	-0.875329662492313
546875000	0.40769178308946	-0.896274340623111	1.54156286216028E-02	7.25040051696643E-03			1.54620710940036E-02	7.24623038282789E-03	0.362447701600744	-0.873883418391142
548750000	0.406750463440634	-0.898324317934269	1.55113217296692E-02	7.22762270050861E-03			1.55529420054453E-02	7.21577863580043E-03	0.356731391808589	-0.873859709229402
550625000	0.402333090891772	-0.900094418038455	1.57102174906859E-02	7.18072426847714E-03			1.56803003390673E-02	7.09890541114214E-03	0.351746695192777	-0.875128829336146
552500000	0.396397591241699	-0.901685797069038	1.57849300132572E-02	7.14602194549208E-03			1.57290012834489E-02	0.007127525463331	0.350224887782923	-0.876405053279339
554375000	0.393811780932376	-0.902596261630494	1.58178310820657E-02	7.05259278986361E-03			1.58311276993018E-02	7.06691919869406E-03	0.344245475805421	-0.880862611515447
556250000	0.392259255872249	-0.903454548423766	1.58555255366139E-02	7.00069912082052E-03			1.58981316749078E-02	6.94455944789649E-03	0.341346263158179	-0.879532852832463
558125000	0.388474439878538	-0.903359666858845	0.015978994044112	7.00082987019765E-03			1.59645141350424E-02	6.93900692445433E-03	0.336771737138773	-0.879702986935379
560000000	0.384567196013673	-0.905571926534016	1.61044092484596E-02	6.88059980828539E-03			1.60689423922496E-02	6.90506886908991E-03	0.336369629706163	-0.885356735736114
561875000	0.381613790885836	-0.907819614442152	1.61905255544572E-02	6.90369124028497E-03			1.61848423810263E-02	6.86154973035191E-03	0.331430716900371	-0.883504674675223
563750000	0.376750989070935	-0.909938406957154	1.62754514174534E-02	6.85517309726441E-03			1.62147458156394E-02	6.8272922659792E-03	0.328382857495274	-0.887626031106007
565625000	0.373599982351621	-0.912228809620902	1.63513458205004E-02	6.78207286698349E-03			1.63645051433489E-02	6.76674979935912E-03	0.323311135086558	-0.888699749787024
567500000	0.371290188103901	-0.911220436953501	0.016386577597674	6.69137625302356E-03			1.64525305895055E-02	6.72334141217741E-03	0.319551078284088	-0.888811569843029
569375000	0.364544295718579	-0.91214798253223	1.65055153282178E-02	6.66526972378509E-03			0.016505537058636	6.62116117516286E-03	0.317448002492973	-0.887378323365423
571250000	0.361852293606071	-0.91444228144463	1.65941716047448E-02	6.56040533812018E-03			1.66095819720765E-02	6.56065872535036E-03	0.313575878388401	-0.89069770267883
573125000	0.359086950268328	-0.912924898698846	1.66417688823711E-02	6.48397903521182E-03			1.66670516692621E-02	6.47246162331571E-03	0.306981776719886	-0.894409341022037
575000000	0.355290119110425	-0.916235372304267	1.67020801634243E-02	6.43229007483666E-03			1.67043486535427E-02	6.40263106031677E-03	0.307183187965008	-0.891971389426027
576875000	0.35356872842238	-0.91677977392171	1.67725217294675E-02	6.32150059584102E-03			1.68161379419097E-02	6.34556976939788E-03	0.301016936582872	-0.894641768051357
578750000	0.346885932764769	-0.92233272876842	1.69143279051617E-02	6.29178317342754E-03			1.68520562323783E-02	6.25440938372564E-03	0.296728971187472	-0.894262234612518
580625000	0.343118439911912	-0.920823214115599	1.69223126361288E-02	6.20013060653044E-03			1.69177685349094E-02	6.17590359756722E-03	0.293583128883705	-0.896268560288525
582500000	0.339878552495798	-0.919162069922439	1.70103513260692E-02	6.13904732737865E-03			0.016962955816179	6.14170161032675E-03	0.289065872136114	-0.896820211472059
584375000	0.335673039568078	-0.920560412891637	1.70883310393521E-02	6.09612283862322E-03			1.70199773109947E-02	6.03508032294584E-03	0.286435735371309	-0.897992695357791
586250000	0.333602962077177	-0.925551050986683	1.71414957836613E-02	6.10903061193226E-03			1.70736314807634E-02	5.99467696283236E-03	0.282321595828059	-0.899851955764394
588125000	0.331854925945751	-0.924267167631399	1.71894879110276E-02	5.97809959953541E-03			1.71714654718041E-02	5.93944298621432E-03	0.27942698214213	-0.9010050351313
590000000	0.328036507868061	-0.925237662720094	1.72571433950536E-02	5.92430392379007E-03			1.72571963436569E-02	5.88783936306392E-03	0.274388302392602	-0.900571914690307
591875000	0.323720795640486	-0.92594874029903	1.73487486767062E-02	5.87345890226639E-03			1.72398352783249E-02	5.78485413354682E-03	0.271088666263233	-0.902884595427919
593750000	0.320426471882537	-0.929687691138136	1.73748209212404E-02	5.74613520854519E-03			1.73414425980278E-02	5.7523790449423E-03	0.266920042296619	-0.905115204115242
595625000	0.318251793601856	-0.925282686664788	1.73793494696992E-02	5.81447936465731E-03			1.74197628396476E-02	5.72938729392696E-03	0.262994674982609	-0.904110715547531
597500000	0.313797840113763	-0.930773726346026	1.74973934074983E-02	5.7068736862005E-03			1.74955523130663E-02	5.71566042485023E-03	0.260054784055262	-0.906878285413817
599375000	0.309089075742539	-0.931319713400983	1.75746535498394E-02	5.60966975842762E-03			1.74775807667911E-02	5.55022457234968E-03	0.255869106461098	-0.908434059521424
