# Hz S RI R 50
1672500000	-0.445265138667802	0.78505127192577	1.27071848540539E-02	4.14811558034193E-03			1.27403691641263E-02	4.07580987960778E-03	-0.584198585027444	0.735011098858026
1672593750	-0.444145982264229	0.786064304755073	1.27752163270328E-02	4.24374754187278E-03			1.27770955387453E-02	4.19644629780316E-03	-0.583606072524376	0.736348445501665
1672687500	-0.442790353545485	0.786897997605913	1.28334229100902E-02	4.33108065742636E-03			1.28574263056101E-02	4.28434402724633E-03	-0.582412417176973	0.737123729636453
1672781250	-0.441598249092721	0.787731916887648	1.29072092799521E-02	4.39581589700649E-03			0.012905169460702	4.33812770840307E-03	-0.581252412165834	0.738883586350709
1672875000	-0.440142412020017	0.789143878384243	1.29789441433252E-02	4.47712930160214E-03			1.30012916414416E-02	4.41615752077656E-03	-0.580340316756845	0.739500678046228
1672968750	-0.438588630319053	0.790070372437069	1.30477877966703E-02	4.53689761674302E-03			1.30849952472558E-02	4.49815957095777E-03	-0.579276398687247	0.740715888158838
1673062500	-0.437194660582847	0.791243329257545	1.30957934607249E-02	4.62122777271947E-03			1.31280588068309E-02	4.56154283064506E-03	-0.578095023531114	0.741999203743338
1673156250	-0.435920137209799	0.792272203490871	1.31193222384649E-02	4.67705948656822E-03			1.31790341713908E-02	4.5959667931186E-03	-0.576920354168122	0.742786695396979
1673250000	-0.434619813254822	0.793231390549534	1.32091374641506E-02	4.75687232606075E-03			1.32115470905111E-02	4.69534314710498E-03	-0.575956572226063	0.744112945049341
1673343750	-0.432912523852575	0.794315671183851	1.32281531629538E-02	4.82050225996701E-03			0.013251085447804	4.76274224946387E-03	-0.574636523318569	0.745290861221558
1673437500	-0.431528445428984	0.795440368153309	1.33025039317045E-02	4.88432477719873E-03			1.33303777835249E-02	4.82209226283468E-03	-0.573655239826415	0.746239858113178
1673531250	-0.429583396422872	0.797021632165618	1.33334690883554E-02	4.93930148096921E-03			1.33609857742845E-02	4.92265666732822E-03	-0.572442011144878	0.747266014665129
1673625000	-0.428158560996453	0.797475823703815	1.33866453979839E-02	5.03562187936653E-03			1.34209745555959E-02	4.9795588272851E-03	-0.571283409731695	0.74839337039275
1673718750	-0.426366717695944	0.798694435153514	1.34389380257597E-02	5.08467641692724E-03			1.35044025680162E-02	5.02971361779744E-03	-0.570176614867652	0.74940203953041
1673812500	-0.425108138263753	0.799630310273277	1.35099800455787E-02	0.005166520751847			1.35178595121163E-02	5.09259255108889E-03	-0.568973671812547	0.750610049780441
1673906250	-0.42321577361473	0.800998844277939	0.01352538738864	5.21498774409295E-03			0.01355118013306	5.13454795986933E-03	-0.56778793356077	0.751582675602781
1674000000	-0.421618035488926	0.801937886689337	1.35862418963682E-02	5.26956628612207E-03			1.36115428487486E-02	5.21688510218869E-03	-0.566416100922434	0.752714482018417
1674093750	-0.419639830265979	0.803120705924147	1.36553738381528E-02	5.38350445488411E-03			1.36301660358543E-02	5.29809907899999E-03	-0.565133206423837	0.753891830745505
1674187500	-0.418182032727407	0.804008826173756	1.36952550858163E-02	5.39635533791408E-03			1.36820124596426E-02	5.34961662141602E-03	-0.563400407125571	0.755091299406178
1674281250	-0.416587032918117	0.805033862108126	1.36895131550292E-02	5.48457141109493E-03			1.37325260015854E-02	5.41247084633285E-03	-0.562441128866946	0.756196287940641
1674375000	-0.414654972351749	0.805823887247027	1.37143959208923E-02	5.51745277714451E-03			1.37211521849463E-02	5.46667559804112E-03	-0.561298782358743	0.757175132508623
1674468750	-0.412950090282066	0.807012618931168	1.37625960107292E-02	5.6006170786015E-03			0.013745480223374	5.56177506413771E-03	-0.559488633604734	0.758064325901387
1674562500	-0.410991500540627	0.808057625955019	1.37802403943811E-02	5.67537601435611E-03			1.37838942133181E-02	5.59047660142976E-03	-0.557967053599445	0.759266238798024
1674656250	-0.409146283848505	0.808946432975742	1.38261102181858E-02	5.73970471717585E-03			1.38633610522303E-02	5.66451995131896E-03	-0.556830905371277	0.760331239130496
1674750000	-0.407100774611979	0.810261068399547	0.013858479254304	5.80871082574293E-03			1.38857579136438E-02	5.74827183043344E-03	-0.555231005636227	0.761716360562264
1674843750	-0.40502953537228	0.810691207927074	1.38724779855205E-02	5.85158039007214E-03			0.013915324967368	5.79828594683963E-03	-0.553716293556098	0.762427258879213
1674937500	-0.403178210684431	0.812318403310691	1.39062839978987E-02	5.94931275385276E-03			1.39310031718073E-02	5.85891104837685E-03	-0.552254305035074	0.763443795705527
1675031250	-0.40141733941051	0.812872549617433	1.39426204847904E-02	6.02438622890069E-03			1.39590777728112E-02	5.96610235545245E-03	-0.550652551133575	0.764297367233664
1675125000	-0.399183314231636	0.813846713245547	1.39791684757208E-02	6.10162798146555E-03			1.40077968894077E-02	6.06069096120126E-03	-0.548983505499651	0.765234723820149
1675218750	-0.397031602491081	0.814806917733956	1.40133493542855E-02	6.15898965909949E-03			0.01400683548824	6.15231118256164E-03	-0.547738866550397	0.765907182793424
1675312500	-0.394915183977599	0.815594395440629	1.40409245365662E-02	6.23694784975661E-03			1.40747490693974E-02	6.17829158064808E-03	-0.546140405190165	0.766759412856173
1675406250	-0.392847054369953	0.816967530173911	1.40859869690123E-02	6.32160324993793E-03			1.40906724272084E-02	6.29828760663462E-03	-0.544590247863092	0.767803161867787
1675500000	-0.390821468572391	0.817478290856229	1.41334656421111E-02	6.36989340078203E-03			1.41084549447385E-02	6.30962788446262E-03	-0.542958077472374	0.768652023259211
1675593750	-0.388477406414228	0.81844598914485	1.41596366777589E-02	6.45557615641502E-03			1.41994787191614E-02	6.40128457294458E-03	-0.541371211453795	0.769759514110088
1675687500	-0.386484719194678	0.819374844972462	1.42072432967552E-02	6.52839521070765E-03			0.014245938044949	6.43706193904833E-03	-0.539994159938631	0.770565751834761
1675781250	-0.384616574238695	0.819566184296299	0.014261375997992	6.56244133230956E-03			1.42575421331737E-02	6.51479365717718E-03	-0.538342099168815	0.771219515131454
1675875000	-0.382447675318098	0.820433912059143	1.42549352716702E-02	6.63282522092317E-03			1.43670582392681E-02	6.5497333998331E-03	-0.536777779270974	0.772035205853249
1675968750	-0.379989196173936	0.82147558082661	1.43553032599287E-02	6.67242057178465E-03			1.43411464052942E-02	6.61250559998686E-03	-0.535137353341184	0.773049818890033
1676062500	-0.378026792001852	0.82172768774026	1.43920031102464E-02	6.70317956531049E-03			1.44022188402271E-02	6.67120201346847E-03	-0.533699949616524	0.773905531174858
1676156250	-0.375804199792432	0.822257176651964	1.43752328118304E-02	6.77034261211964E-03			1.43940547265354E-02	6.72460170733245E-03	-0.53191482315705	0.774282383059118
1676250000	-0.373600380906994	0.823423506824808	1.44294121955143E-02	6.8396771891511E-03			1.44032615485405E-02	6.74908906399333E-03	-0.530854091742214	0.77550218888616
1676343750	-0.371712888449024	0.823368895125898	0.01436458107838	6.89460433186163E-03			1.44312114242052E-02	6.81202996646416E-03	-0.529202419375195	0.776170613380686
1676437500	-0.369404019439333	0.82419968040524	1.44309092920614E-02	6.9388489516317E-03			1.44327047241458E-02	6.86234089784487E-03	-0.527552651979006	0.776786370986328
1676531250	-0.36718989523602	0.825114132317187	1.44167744946223E-02	6.9697616464892E-03			1.44572822444234E-02	6.89350114471504E-03	-0.525710015202172	0.778476948134928
1676625000	-0.36487154833769	0.825462946470882	1.44274061439072E-02	6.99107839645173E-03			1.44654235316454E-02	6.97192833712998E-03	-0.524173212704728	0.778479896011333
1676718750	-0.363100902899723	0.825995854784226	1.44098472575555E-02	7.08705495208433E-03			1.44428812070394E-02	7.03546658697322E-03	-0.522954619851185	0.779350267699863
1676812500	-0.360706534010796	0.826654653907788	1.44180366046677E-02	7.14368675999505E-03			1.44506530146198E-02	7.08218245426042E-03	-0.521302664318133	0.780090994425411
1676906250	-0.358605328937552	0.827382775080185	0.014407614771194	7.19242833325766E-03			1.44366049561716E-02	7.11582007359307E-03	-0.519579117233361	0.781007092447159
1677000000	-0.356271130659032	0.827674928571639	1.44274159801266E-02	7.2626747100193E-03			1.44151844984322E-02	7.18428556681142E-03	-0.517863959680835	0.78187499772891
1677093750	-0.354584281469023	0.828110729255907	1.44058265158531E-02	7.31869210471704E-03			1.43842297154069E-02	7.26030599726864E-03	-0.516482862975818	0.782331469397462
1677187500	-0.351943189543839	0.828763337231995	1.43976881623194E-02	7.39469663814484E-03			1.44116427341309E-02	7.31308789125895E-03	-0.514502239232266	0.783140122223623
1677281250	-0.349829655967004	0.829172262044696	1.43678544513371E-02	7.45466110349457E-03			1.43840521906115E-02	7.39055244363754E-03	-0.513096536381135	0.783970662898325
1677375000	-0.347470870660966	0.829615275991137	1.43795845073269E-02	7.52892750224147E-03			1.43714950836534E-02	7.45983833897271E-03	-0.511112653525733	0.784482724956261
1677468750	-0.34534959572519	0.830066507573528	1.43547810312806E-02	7.6232788698735E-03			1.43424215599775E-02	7.59557519347443E-03	-0.509474738196102	0.785204022957396
1677562500	-0.34333523551558	0.830469382990112	0.01433960097194	7.68615612514326E-03			1.43479727906812E-02	7.61724885238241E-03	-0.507854867059802	0.785815817909868
1677656250	-0.340899852101886	0.830829236387731	1.43326081505844E-02	7.75250927323037E-03			1.43470868070302E-02	7.72908407886646E-03	-0.506328188708398	0.786283570104818
1677750000	-0.338822058915019	0.831003836187463	1.42907930081272E-02	7.83966720725187E-03			1.43145233460959E-02	7.81268876808251E-03	-0.504924320884291	0.786853273320047
1677843750	-0.336306541501306	0.83159859436827	1.43098731159647E-02	7.93668023156063E-03			0.014321082204018	7.85698682275165E-03	-0.50311115096085	0.787758121956499
1677937500	-0.3341509566393	0.831739005595657	1.42677428828469E-02	8.02027867767361E-03			1.42799805892406E-02	7.93727580156481E-03	-0.501687107338513	0.788139880527858
1678031250	-0.33215351894922	0.831883486439291	1.42712796081034E-02	8.14195053034045E-03			1.43071667820361E-02	8.06699910872712E-03	-0.499851190496893	0.788843201137977
1678125000	-0.329634488186661	0.832705505175109	1.42746665998104E-02	8.19551486217403E-03			1.43051527472992E-02	8.14093089423542E-03	-0.49860501786047	0.789635572019559
1678218750	-0.327344740519873	0.832654349735014	1.42503586046644E-02	8.27157764510313E-03			1.42691665302603E-02	8.28214634742738E-03	-0.496983708814187	0.790184021647425
1678312500	-0.325568631162778	0.832886761065575	1.42787759584627E-02	8.42337787769961E-03			1.42863183843729E-02	8.35978622075151E-03	-0.49525682395688	0.790897385012392
1678406250	-0.323079761372994	0.833454565259085	0.014314638716742	8.46871461318255E-03			1.43133449321739E-02	8.41387248826799E-03	-0.493447843373992	0.791573232751272
1678500000	-0.321032435710827	0.833259089935959	1.43026805472347E-02	8.56515873833675E-03			1.42694487745329E-02	8.53238901330579E-03	-0.492018841726931	0.792195021176812
1678593750	-0.319146579636624	0.833644308640373	1.42526544785592E-02	8.64493512368028E-03			1.42948686818492E-02	8.62042839296726E-03	-0.490457316440067	0.792897653638142
1678687500	-0.3165330645445	0.833903733882509	1.42899107441245E-02	8.75311315624972E-03			1.43047359408642E-02	8.71213748724716E-03	-0.488758306738457	0.793604107198892
1678781250	-0.314184296882284	0.833946687466589	1.43271274073781E-02	8.86018285764134E-03			1.43497518229326E-02	8.79160463834499E-03	-0.487092279727918	0.794457339523822
1678875000	-0.311921282009601	0.834166354722404	1.43516877427407E-02	8.94387164429569E-03			1.43808046324943E-02	8.89940579350755E-03	-0.485310973532183	0.794918779815216
1678968750	-0.310046370017756	0.834351356112969	1.44008385920111E-02	9.05486587322343E-03			1.43938711809235E-02	8.97517421621082E-03	-0.483644004661349	0.795550495811438
1679062500	-0.307710971744243	0.834137071809786	0.01444531178345	9.10372894697448E-03			1.44644147700444E-02	9.0471701354729E-03	-0.481939266014376	0.796347282752856
1679156250	-0.305485251761492	0.834350247333617	1.44637936492878E-02	9.15451266554678E-03			1.45052365562847E-02	9.07688376006756E-03	-0.480208619103274	0.796823415828227
1679250000	-0.303250269452826	0.834523262833267	1.44877668253747E-02	9.19206653669391E-03			0.014552680629811	9.13461092968575E-03	-0.478543394877486	0.797641690226409
1679343750	-0.301266177498918	0.834649480869902	0.014532875951401	9.20346258284412E-03			1.45295025456032E-02	9.1715491830492E-03	-0.476670463789329	0.798193867501336
1679437500	-0.299003140221454	0.834485999423302	1.45576822550599E-02	9.23287924872334E-03			1.45850734581324E-02	9.20278922274537E-03	-0.475059739273911	0.798635553755629
1679531250	-0.29651576087936	0.834562426735256	1.45704586484434E-02	9.27031227585597E-03			1.46023788339879E-02	9.20367136196794E-03	-0.472902769302502	0.799342940872431
1679625000	-0.294067371230787	0.834269253810741	1.45620920718683E-02	9.30813302884981E-03			1.46199664059623E-02	9.23992881595784E-03	-0.471471773961202	0.799821175368876
1679718750	-0.291905922654538	0.834508977744231	1.46128737941275E-02	9.28288401306365E-03			1.46224951077729E-02	9.22416430044829E-03	-0.469246641335906	0.800583945966541
1679812500	-0.289980990218659	0.833619159742502	0.014602793287922	9.27436276911391E-03			1.46338006382184E-02	9.23343458565065E-03	-0.467447429646054	0.800923732158349
1679906250	-0.287512252523766	0.83342021745552	1.45723958124748E-02	9.22457217966898E-03			1.46055513267512E-02	9.13443748150648E-03	-0.465449621365253	0.8011937691457
1680000000	-0.285418281579622	0.833248401722305	1.45180347615351E-02	9.18044169333093E-03			1.45710032436089E-02	9.11677053725526E-03	-0.463508706920064	0.801229867157003
1680093750	-0.283673615464491	0.83243677918987	1.44315749716645E-02	9.15747615673714E-03			1.44438765147274E-02	9.10416843040493E-03	-0.461304997563937	0.801580753406889
1680187500	-0.281920635053018	0.831463857805492	1.43295777216321E-02	9.14196451563695E-03			1.43606494722325E-02	9.08998333037659E-03	-0.45988858897823	0.801582144058361
1680281250	-0.280076474644486	0.830524243493458	1.42108290677384E-02	9.16256273340297E-03			1.42474817798505E-02	9.04164475860825E-03	-0.457951374821593	0.801413952759855
1680375000	-0.279115448783393	0.829841627713323	1.41117001023417E-02	9.15353668015247E-03			0.014116189984601	9.06540791973044E-03	-0.456434622295861	0.801442490971757
1680468750	-0.278244234538682	0.829217422982569	1.39607138816786E-02	9.13550380716506E-03			1.39445435576796E-02	9.09008064210676E-03	-0.45483793674927	0.801312866955012
1680562500	-0.277487734296477	0.827900713507458	0.013745091580288	9.17315655617981E-03			0.013779353600363	9.11790149859703E-03	-0.453751602247955	0.80109449230893
1680656250	-0.277463537035904	0.827673629996735	1.35063577193089E-02	9.27126050118605E-03			1.35518566623288E-02	9.18026098885309E-03	-0.452672009997438	0.800807021065561
1680750000	-0.277614734425246	0.82768532383672	1.33114485366574E-02	9.41413844537967E-03			1.33502641050389E-02	9.30092011585656E-03	-0.451698742630791	0.800871528210281
1680843750	-0.277634220527452	0.828418231301559	1.31244913271183E-02	9.58393278082399E-03			1.31546503520291E-02	9.49752125200653E-03	-0.451146534724534	0.800929368508594
1680937500	-0.27791244426473	0.829879535684783	1.29655529717346E-02	9.82137835149541E-03			1.30198143637065E-02	9.75976841171093E-03	-0.450520937004471	0.801125924657726
1681031250	-0.277775532960143	0.831456309522421	1.28622383254016E-02	1.00665394722569E-02			1.28709049090074E-02	9.98165567748014E-03	-0.449760261764893	0.801353337146603
1681125000	-0.276629857469186	0.833460027965307	1.27969320327868E-02	1.03417033689302E-02			1.28612472471463E-02	0.010302394280295	-0.449320759486946	0.802254912062603
1681218750	-0.275657797690767	0.835502161073411	1.28001549926668E-02	1.06422950605332E-02			1.28780286183623E-02	1.05819390455091E-02	-0.448851178243179	0.803202631625167
1681312500	-0.273772305171203	0.837978492144531	1.29068780558704E-02	1.08847375353636E-02			1.29384748424439E-02	1.08225925157704E-02	-0.448135999358519	0.804204812535905
1681406250	-0.272057909889564	0.839628693818354	1.30406804608183E-02	1.10904190458859E-02			1.30918223260972E-02	1.10496213257271E-02	-0.447434022911845	0.805335649539512
1681500000	-0.269996947271813	0.841841212387122	1.32003334521295E-02	1.12973961845422E-02			1.32458895941093E-02	1.12112171468498E-02	-0.44666541379712	0.806526049112046
1681593750	-0.267490738521144	0.844033571229669	1.33988806173656E-02	1.13692185724981E-02			1.34552251290143E-02	1.12964383922971E-02	-0.445775680593842	0.807993352082385
1681687500	-0.265129780863609	0.845375754306062	1.36195278003767E-02	1.13962064541379E-02			1.36395569130557E-02	1.12975929720787E-02	-0.444798802932091	0.809786667256943
1681781250	-0.262637644879386	0.846962370099498	0.01378758827856	1.13465091036488E-02			1.37825991339481E-02	1.12627986717372E-02	-0.443604300714907	0.811459429517638
1681875000	-0.25967232604537	0.848546192715941	1.39022623957351E-02	1.12626164991731E-02			1.39316251894572E-02	1.11738747584306E-02	-0.441939211573235	0.812882237936563
1681968750	-0.256891530642936	0.849885795684327	0.014020583416255	1.11022276599549E-02			1.40520747977603E-02	0.011041481467407	-0.440673179236684	0.814984266037321
1682062500	-0.254296320065994	0.851203967919731	1.40482281722345E-02	1.09535687370956E-02			1.41178536504955E-02	1.08711950367437E-02	-0.439042053659939	0.816527230226414
1682156250	-0.25142181786775	0.852679927734891	1.40590682985464E-02	1.08137086346851E-02			1.40902922519906E-02	1.06709334449341E-02	-0.437060433037532	0.81822647588603
1682250000	-0.248262174497543	0.853608104106086	1.39695125244718E-02	1.06094326590821E-02			1.40297946274519E-02	0.010535412584623	-0.43523818364951	0.819944932134179
1682343750	-0.245287724984523	0.854566632851928	1.39289849073253E-02	1.04511710285662E-02			0.013939049403253	1.03529849216231E-02	-0.433244086964323	0.821632860905526
1682437500	-0.242450011902976	0.855587468453684	1.37968089517956E-02	1.03113099631056E-02			1.38340953786056E-02	1.02347634381217E-02	-0.431091310028703	0.822888704127101
1682531250	-0.239461304347265	0.856504210261814	1.36744485130436E-02	1.01441510610068E-02			1.37181831946705E-02	1.00520846261594E-02	-0.428913522229687	0.824405538054539
1682625000	-0.236279838878013	0.857443666146964	1.35272497111923E-02	1.00072899319601E-02			1.35555124045257E-02	9.9247160759228E-03	-0.426562418874619	0.825871112879062
1682718750	-0.233431950170318	0.85801623981537	1.33455888894391E-02	9.85272173835769E-03			1.33535924977072E-02	0.009762559338699	-0.424201994776162	0.827296038504886
1682812500	-0.230255034842327	0.858938313193518	1.31035949529987E-02	9.71271978634132E-03			1.31190971747805E-02	9.62057563378437E-03	-0.422132630452986	0.828547028727561
1682906250	-0.227074555674357	0.859542752756082	1.28557789875012E-02	9.63986436602679E-03			1.28909043192744E-02	9.57533094776237E-03	-0.419669559750436	0.82970674474581
1683000000	-0.223918926216277	0.860224444887415	1.26192975171542E-02	9.5343772993116E-03			1.26534804903515E-02	9.47447922295666E-03	-0.417219063616134	0.830900373866425
1683093750	-0.221016272749234	0.860883025902223	1.23567132365144E-02	9.45656688536156E-03			1.24112752179521E-02	9.38488147251169E-03	-0.41481588678234	0.832073675459363
1683187500	-0.217825538986864	0.861852710320163	1.20993213359715E-02	9.39602508248642E-03			0.012126358316987	9.30993930574155E-03	-0.412270489459373	0.833418547476449
1683281250	-0.214431922375019	0.862176152882841	1.17995983192707E-02	9.33675812204853E-03			1.18391176528832E-02	9.32278886568053E-03	-0.409775274028887	0.834536472970431
1683375000	-0.211005554109317	0.862718600363685	0.011485590322402	9.26402876915629E-03			1.15160068547765E-02	9.2012501108754E-03	-0.407003460007493	0.835548247407431
