!SF2194 
# HZ S RI R 50
1194999936     -0.6579285     -0.2504272      0.0019038     -0.0028825      0.0018444     -0.0028415     -0.7359314     -0.0124512
1195031168     -0.6577148     -0.2502747      0.0018615     -0.0028633      0.0018538     -0.0027963     -0.7362061     -0.0116272
1195062400     -0.6578674     -0.2492981      0.0018891     -0.0028973      0.0018938     -0.0028161     -0.7364502     -0.0114441
1195093632     -0.6575623     -0.2490540      0.0019028     -0.0029223      0.0018463     -0.0027804     -0.7361755     -0.0104980
1195124992     -0.6578979     -0.2483215      0.0019003     -0.0028636      0.0017928     -0.0027910     -0.7366333     -0.0106506
1195156224     -0.6582642     -0.2482300      0.0018529     -0.0028930      0.0018542     -0.0028186     -0.7361145     -0.0099792
1195187456     -0.6588745     -0.2472839      0.0018549     -0.0028578      0.0018492     -0.0027962     -0.7362671     -0.0093384
1195218688     -0.6590576     -0.2469177      0.0019101     -0.0029114      0.0018405     -0.0028239     -0.7358704     -0.0090027
1195249920     -0.6587830     -0.2464294      0.0019330     -0.0028498      0.0018492     -0.0028105     -0.7358093     -0.0087585
1195281152     -0.6584167     -0.2456665      0.0019002     -0.0028675      0.0018706     -0.0027655     -0.7363281     -0.0079651
1195312384     -0.6593323     -0.2454834      0.0018770     -0.0028862      0.0018723     -0.0028324     -0.7366638     -0.0074463
1195343744     -0.6590881     -0.2453308      0.0019193     -0.0029068      0.0018628     -0.0027955     -0.7356873     -0.0067139
1195374976     -0.6596985     -0.2446289      0.0018140     -0.0029082      0.0018934     -0.0028077     -0.7363281     -0.0062561
1195406208     -0.6593628     -0.2442017      0.0019588     -0.0028304      0.0018648     -0.0027863     -0.7369995     -0.0064087
1195437440     -0.6603088     -0.2437439      0.0018983     -0.0028986      0.0018482     -0.0027952     -0.7362061     -0.0052185
1195468672     -0.6601563     -0.2435303      0.0019052     -0.0028560      0.0018443     -0.0028294     -0.7367554     -0.0052490
1195499904     -0.6606140     -0.2428589      0.0018952     -0.0028428      0.0018674     -0.0028317     -0.7364502     -0.0049133
1195531136     -0.6599426     -0.2426147      0.0018951     -0.0029184      0.0018336     -0.0028514     -0.7358093     -0.0045471
1195562496     -0.6609497     -0.2420044      0.0018610     -0.0029262      0.0018531     -0.0028216     -0.7369385     -0.0038147
1195593728     -0.6608887     -0.2413940      0.0019141     -0.0028980      0.0018682     -0.0028327     -0.7366638     -0.0031433
1195624960     -0.6609192     -0.2413025      0.0018747     -0.0029024      0.0018027     -0.0028298     -0.7361145     -0.0028687
1195656192     -0.6612549     -0.2402649      0.0018474     -0.0029346      0.0018464     -0.0027547     -0.7367249     -0.0026245
1195687424     -0.6618042     -0.2404480      0.0018593     -0.0029609      0.0018477     -0.0028172     -0.7370300     -0.0021057
1195718656     -0.6619568     -0.2396851      0.0018734     -0.0028750      0.0018564     -0.0028121     -0.7367249     -0.0020142
1195749888     -0.6618042     -0.2395630      0.0019120     -0.0029655      0.0018286     -0.0028577     -0.7369385     -0.0015869
1195781248     -0.6621399     -0.2398376      0.0018723     -0.0029474      0.0018164     -0.0028342     -0.7367859     -0.0010071
1195812480     -0.6633911     -0.2382813      0.0018686     -0.0029521      0.0018400     -0.0028939     -0.7366638     -0.0001526
1195843712     -0.6630859     -0.2376099      0.0019132     -0.0029435      0.0017976     -0.0029446     -0.7373657     -0.0001831
1195874944     -0.6630249     -0.2377930      0.0019424     -0.0029837      0.0018653     -0.0028869     -0.7375183      0.0004883
1195906176     -0.6630554     -0.2375488      0.0018981     -0.0029545      0.0018423     -0.0028855     -0.7373657      0.0012207
1195937408     -0.6640015     -0.2370300      0.0018253     -0.0029273      0.0018445     -0.0028620     -0.7376099      0.0011292
1195968640     -0.6642456     -0.2359619      0.0018617     -0.0029720      0.0018251     -0.0028549     -0.7368164      0.0014648
1196000000     -0.6643372     -0.2359314      0.0018059     -0.0029408      0.0018156     -0.0028851     -0.7372742      0.0020447
1196031232     -0.6648560     -0.2353516      0.0018142     -0.0029564      0.0018084     -0.0028818     -0.7376404      0.0032349
1196062464     -0.6647034     -0.2348328      0.0018150     -0.0029755      0.0017960     -0.0028714     -0.7374573      0.0037231
1196093696     -0.6651001     -0.2345581      0.0018384     -0.0029118      0.0017773     -0.0028911     -0.7373962      0.0033569
1196124928     -0.6652832     -0.2339478      0.0018185     -0.0029318      0.0018078     -0.0028836     -0.7380066      0.0036011
1196156160     -0.6655273     -0.2334595      0.0018340     -0.0029925      0.0017051     -0.0029221     -0.7375183      0.0044556
1196187392     -0.6660461     -0.2326660      0.0018232     -0.0030082      0.0017786     -0.0028980     -0.7378235      0.0054932
1196218624     -0.6658325     -0.2318726      0.0018253     -0.0029428      0.0017705     -0.0028604     -0.7386169      0.0056152
1196249984     -0.6657715     -0.2316284      0.0017984     -0.0029720      0.0017184     -0.0028592     -0.7377930      0.0068054
1196281216     -0.6671448     -0.2309570      0.0017501     -0.0029399      0.0017308     -0.0028659     -0.7379150      0.0067444
1196312448     -0.6664124     -0.2309875      0.0017378     -0.0029364      0.0017688     -0.0028515     -0.7381592      0.0075684
1196343680     -0.6664734     -0.2298889      0.0017679     -0.0029044      0.0017160     -0.0028913     -0.7376709      0.0076294
1196374912     -0.6664429     -0.2296753      0.0017838     -0.0029786      0.0017425     -0.0028237     -0.7380066      0.0083923
1196406144     -0.6672974     -0.2297058      0.0017946     -0.0029233      0.0017539     -0.0028666     -0.7383728      0.0084229
1196437376     -0.6671448     -0.2288513      0.0017645     -0.0029511      0.0016860     -0.0028970     -0.7386780      0.0090637
1196468736     -0.6671143     -0.2278748      0.0017744     -0.0029143      0.0016950     -0.0028425     -0.7383118      0.0100403
1196499968     -0.6676025     -0.2274780      0.0017176     -0.0029247      0.0017661     -0.0028691     -0.7382507      0.0101929
1196531200     -0.6684265     -0.2270203      0.0017444     -0.0029566      0.0017467     -0.0029157     -0.7385864      0.0106812
1196562432     -0.6686096     -0.2261658      0.0017498     -0.0029606      0.0017123     -0.0028789     -0.7388611      0.0111389
1196593664     -0.6687927     -0.2267761      0.0017496     -0.0029697      0.0017070     -0.0028894     -0.7387085      0.0119324
1196624896     -0.6690979     -0.2261353      0.0017796     -0.0029603      0.0017161     -0.0029008     -0.7389526      0.0127869
1196656128     -0.6693420     -0.2250671      0.0017427     -0.0029539      0.0017167     -0.0028878     -0.7387390      0.0127258
1196687488     -0.6688538     -0.2245789      0.0017188     -0.0029143      0.0017619     -0.0028888     -0.7387695      0.0128784
1196718720     -0.6699524     -0.2236938      0.0017661     -0.0029848      0.0016930     -0.0028727     -0.7389221      0.0133972
1196749952     -0.6698608     -0.2239380      0.0017782     -0.0029359      0.0017145     -0.0028772     -0.7397156      0.0144958
1196781184     -0.6702576     -0.2233276      0.0017921     -0.0029215      0.0016756     -0.0028607     -0.7392273      0.0145264
1196812416     -0.6703186     -0.2222595      0.0018282     -0.0029628      0.0017091     -0.0028908     -0.7398682      0.0150452
1196843648     -0.6708374     -0.2226257      0.0017396     -0.0029258      0.0017114     -0.0028313     -0.7397766      0.0156860
1196874880     -0.6714172     -0.2217407      0.0016912     -0.0029762      0.0016924     -0.0029013     -0.7397766      0.0167236
1196906240     -0.6716614     -0.2208862      0.0016735     -0.0029182      0.0016840     -0.0028780     -0.7399292      0.0172729
1196937472     -0.6716614     -0.2207642      0.0016863     -0.0029447      0.0017158     -0.0029241     -0.7401428      0.0175476
1196968704     -0.6716003     -0.2202759      0.0017318     -0.0029739      0.0016578     -0.0028628     -0.7397156      0.0177002
1196999936     -0.6715393     -0.2195740      0.0017073     -0.0029974      0.0016458     -0.0028607     -0.7398682      0.0188599
1197031168     -0.6720581     -0.2189636      0.0017025     -0.0029142      0.0016550     -0.0028725     -0.7403259      0.0190430
1197062400     -0.6726685     -0.2189331      0.0017474     -0.0029919      0.0016949     -0.0028862     -0.7406006      0.0190735
1197093632     -0.6728821     -0.2175903      0.0017430     -0.0029252      0.0016544     -0.0029050     -0.7403564      0.0200806
1197124992     -0.6735840     -0.2177734      0.0016816     -0.0029490      0.0016141     -0.0028839     -0.7402344      0.0209656
1197156224     -0.6731873     -0.2169495      0.0017194     -0.0028932      0.0016750     -0.0029578     -0.7405701      0.0206909
1197187456     -0.6736755     -0.2161255      0.0017070     -0.0029383      0.0016789     -0.0028723     -0.7404785      0.0216064
1197218688     -0.6746216     -0.2162781      0.0016954     -0.0029391      0.0016582     -0.0028932     -0.7407532      0.0227051
1197249920     -0.6738586     -0.2155151      0.0017239     -0.0029387      0.0016599     -0.0028527     -0.7408752      0.0229187
1197281152     -0.6743774     -0.2146606      0.0017042     -0.0029449      0.0016291     -0.0028799     -0.7409668      0.0238647
1197312384     -0.6749573     -0.2139282      0.0016974     -0.0028913      0.0016872     -0.0028316     -0.7403870      0.0238037
1197343744     -0.6750488     -0.2135010      0.0016233     -0.0029162      0.0016385     -0.0028651     -0.7404175      0.0241394
1197374976     -0.6754150     -0.2136230      0.0017024     -0.0029553      0.0016711     -0.0028920     -0.7409363      0.0252075
1197406208     -0.6755676     -0.2122498      0.0017022     -0.0028859      0.0016170     -0.0028815     -0.7410889      0.0261230
1197437440     -0.6759644     -0.2116394      0.0017078     -0.0029860      0.0016744     -0.0028874     -0.7407532      0.0260620
1197468672     -0.6761780     -0.2118835      0.0016778     -0.0029503      0.0016307     -0.0028640     -0.7409668      0.0272827
1197499904     -0.6758423     -0.2109680      0.0017375     -0.0029697      0.0016547     -0.0028751     -0.7408752      0.0281067
1197531136     -0.6765747     -0.2099304      0.0016541     -0.0029317      0.0016549     -0.0028589     -0.7411194      0.0279541
1197562496     -0.6769714     -0.2095032      0.0016726     -0.0028934      0.0016179     -0.0028079     -0.7411194      0.0289612
1197593728     -0.6767883     -0.2086792      0.0016422     -0.0029564      0.0016514     -0.0028704     -0.7412415      0.0290527
1197624960     -0.6770935     -0.2084656      0.0016302     -0.0029377      0.0016648     -0.0028706     -0.7416992      0.0298462
1197656192     -0.6778564     -0.2077637      0.0016550     -0.0028965      0.0016776     -0.0028290     -0.7412109      0.0298767
1197687424     -0.6779175     -0.2067871      0.0016764     -0.0028822      0.0015914     -0.0028653     -0.7417603      0.0311279
1197718656     -0.6781616     -0.2061462      0.0016462     -0.0028924      0.0016389     -0.0028844     -0.7408447      0.0312805
1197749888     -0.6784058     -0.2059631      0.0016596     -0.0029829      0.0016520     -0.0029078     -0.7409973      0.0317688
1197781248     -0.6788635     -0.2051086      0.0017030     -0.0029844      0.0016941     -0.0028628     -0.7416382      0.0325317
1197812480     -0.6786804     -0.2044983      0.0016582     -0.0029644      0.0015786     -0.0028479     -0.7415771      0.0329895
1197843712     -0.6792603     -0.2049866      0.0016538     -0.0029229      0.0016211     -0.0029119     -0.7418518      0.0335388
1197874944     -0.6786499     -0.2034302      0.0016824     -0.0029027      0.0015695     -0.0028994     -0.7416992      0.0344543
1197906176     -0.6787720     -0.2026978      0.0016142     -0.0029063      0.0015905     -0.0028750     -0.7422180      0.0353394
1197937408     -0.6796570     -0.2022705      0.0015882     -0.0029624      0.0015376     -0.0029128     -0.7415161      0.0354614
1197968640     -0.6799622     -0.2019043      0.0016022     -0.0029861      0.0016110     -0.0028834     -0.7415466      0.0360107
1197999872     -0.6801758     -0.2017212      0.0016180     -0.0029490      0.0015736     -0.0028660     -0.7413635      0.0368347
1198031232     -0.6799011     -0.2008667      0.0016350     -0.0029665      0.0016311     -0.0028901     -0.7418518      0.0367126
1198062464     -0.6800842     -0.2004089      0.0016263     -0.0029384      0.0016137     -0.0028558     -0.7415161      0.0375671
1198093696     -0.6805420     -0.1994324      0.0015719     -0.0029243      0.0016164     -0.0028905     -0.7416382      0.0390930
1198124928     -0.6808472     -0.1992798      0.0015985     -0.0029123      0.0015824     -0.0028893     -0.7416077      0.0384216
1198156160     -0.6813049     -0.1979980      0.0016166     -0.0028700      0.0015075     -0.0028460     -0.7418213      0.0393066
1198187392     -0.6809387     -0.1973267      0.0016093     -0.0029403      0.0016119     -0.0028664     -0.7424927      0.0395508
1198218624     -0.6811218     -0.1974792      0.0015664     -0.0028836      0.0015769     -0.0028551     -0.7417297      0.0401306
1198249984     -0.6813965     -0.1961060      0.0016108     -0.0028975      0.0015882     -0.0028905     -0.7416077      0.0414429
1198281216     -0.6824646     -0.1956787      0.0015787     -0.0029399      0.0015607     -0.0028527     -0.7419434      0.0419006
1198312448     -0.6815796     -0.1954956      0.0016512     -0.0029145      0.0015936     -0.0028732     -0.7424927      0.0427551
1198343680     -0.6827087     -0.1948853      0.0016376     -0.0029470      0.0016201     -0.0028766     -0.7410889      0.0423584
1198374912     -0.6820068     -0.1942444      0.0016069     -0.0029292      0.0015817     -0.0028355     -0.7421875      0.0437317
1198406144     -0.6824036     -0.1936646      0.0015993     -0.0029100      0.0015426     -0.0028446     -0.7416382      0.0447083
1198437376     -0.6825562     -0.1923828      0.0016104     -0.0029137      0.0016092     -0.0028639     -0.7414856      0.0443726
1198468736     -0.6826477     -0.1922607      0.0015788     -0.0029455      0.0015548     -0.0028995     -0.7413635      0.0450134
1198499968     -0.6831360     -0.1918945      0.0015928     -0.0029422      0.0015450     -0.0029253     -0.7415771      0.0459900
1198531200     -0.6837158     -0.1911621      0.0015833     -0.0029498      0.0015312     -0.0028145     -0.7412720      0.0462646
1198562432     -0.6833496     -0.1899109      0.0015930     -0.0029370      0.0016001     -0.0028201     -0.7424316      0.0468750
1198593664     -0.6835938     -0.1896362      0.0015981     -0.0029343      0.0015566     -0.0028763     -0.7417908      0.0473938
1198624896     -0.6838379     -0.1892700      0.0015998     -0.0029098      0.0015458     -0.0028419     -0.7417297      0.0480652
1198656128     -0.6837463     -0.1889038      0.0015570     -0.0029205      0.0014852     -0.0029006     -0.7414246      0.0485840
1198687488     -0.6838684     -0.1888428      0.0015826     -0.0029258      0.0015719     -0.0028687     -0.7414246      0.0485229
1198718720     -0.6843872     -0.1877441      0.0015876     -0.0028691      0.0014960     -0.0028681     -0.7417908      0.0493164
1198749952     -0.6845398     -0.1866760      0.0016044     -0.0029095      0.0015599     -0.0028543     -0.7415161      0.0497437
1198781184     -0.6847534     -0.1861267      0.0015376     -0.0028985      0.0015959     -0.0028394     -0.7413635      0.0506592
1198812416     -0.6846313     -0.1853638      0.0015724     -0.0029536      0.0015342     -0.0029064     -0.7416077      0.0513611
1198843648     -0.6852722     -0.1843872      0.0016484     -0.0029336      0.0014858     -0.0028785     -0.7420349      0.0519409
1198874880     -0.6847839     -0.1843872      0.0015860     -0.0029266      0.0015361     -0.0028449     -0.7411194      0.0528564
1198906240     -0.6849365     -0.1840820      0.0015398     -0.0029345      0.0015239     -0.0028702     -0.7417603      0.0527039
1198937472     -0.6858215     -0.1835632      0.0015469     -0.0029144      0.0015286     -0.0028995     -0.7415771      0.0536194
1198968704     -0.6855469     -0.1826782      0.0015621     -0.0028692      0.0015563     -0.0028337     -0.7411194      0.0542603
1198999936     -0.6860352     -0.1816406      0.0015482     -0.0029217      0.0015323     -0.0028443     -0.7409668      0.0548401
1199031168     -0.6855774     -0.1820374      0.0015502     -0.0029322      0.0014800     -0.0028741     -0.7411499      0.0552979
1199062400     -0.6862793     -0.1801453      0.0015768     -0.0029192      0.0015341     -0.0029101     -0.7415466      0.0553894
1199093632     -0.6860046     -0.1797791      0.0015352     -0.0029083      0.0015408     -0.0028604     -0.7409363      0.0555420
1199124992     -0.6863098     -0.1793823      0.0015661     -0.0029838      0.0014786     -0.0028241     -0.7407227      0.0570068
1199156224     -0.6862793     -0.1784058      0.0014999     -0.0028787      0.0015106     -0.0028894     -0.7407227      0.0573730
1199187456     -0.6866150     -0.1783752      0.0015565     -0.0029347      0.0015447     -0.0028138     -0.7408142      0.0582886
1199218688     -0.6865845     -0.1772461      0.0015829     -0.0029284      0.0015118     -0.0027738     -0.7405090      0.0587158
1199249920     -0.6871338     -0.1773682      0.0015142     -0.0028917      0.0014642     -0.0027900     -0.7407837      0.0596924
1199281152     -0.6869507     -0.1767273      0.0015087     -0.0028974      0.0015373     -0.0028192     -0.7407837      0.0593567
1199312384     -0.6867371     -0.1760559      0.0015327     -0.0029001      0.0015192     -0.0028679     -0.7409973      0.0608826
1199343744     -0.6873779     -0.1752930      0.0015228     -0.0028902      0.0015205     -0.0028579     -0.7406616      0.0609436
1199374976     -0.6876221     -0.1743164      0.0015633     -0.0029695      0.0015099     -0.0028067     -0.7406921      0.0616455
1199406208     -0.6874084     -0.1740723      0.0015197     -0.0028896      0.0014695     -0.0028208     -0.7406616      0.0618896
1199437440     -0.6879272     -0.1734924      0.0015638     -0.0029217      0.0014784     -0.0028073     -0.7407532      0.0625305
1199468672     -0.6882935     -0.1731873      0.0015301     -0.0028450      0.0014567     -0.0028332     -0.7408752      0.0627747
1199499904     -0.6877136     -0.1722107      0.0015000     -0.0028903      0.0014589     -0.0028273     -0.7403870      0.0634766
1199531136     -0.6881409     -0.1714172      0.0015035     -0.0028847      0.0014446     -0.0028580     -0.7405396      0.0641174
1199562496     -0.6883545     -0.1708069      0.0015144     -0.0028781      0.0014837     -0.0028154     -0.7405396      0.0645447
1199593728     -0.6875000     -0.1708984      0.0015218     -0.0028248      0.0014701     -0.0028377     -0.7399597      0.0650635
1199624960     -0.6881104     -0.1698914      0.0015268     -0.0028994      0.0014941     -0.0028006     -0.7401123      0.0659485
1199656192     -0.6880493     -0.1687317      0.0015647     -0.0028814      0.0014600     -0.0028313     -0.7406006      0.0664368
1199687424     -0.6876221     -0.1687012      0.0015545     -0.0028859      0.0015287     -0.0028280     -0.7400818      0.0667725
1199718656     -0.6878967     -0.1682739      0.0015635     -0.0029162      0.0015582     -0.0028082     -0.7400208      0.0672913
