!SF2194 
# HZ S RI R 50
1214999936     -0.6710205      0.2392273     -0.0005738     -0.0020479     -0.0005656     -0.0020118     -0.6333618      0.4062805
1215006208     -0.6706543      0.2391968     -0.0006007     -0.0020334     -0.0005502     -0.0019476     -0.6331482      0.4063416
1215012480     -0.6699219      0.2394409     -0.0005884     -0.0020286     -0.0005589     -0.0020247     -0.6324768      0.4060059
1215018624     -0.6696167      0.2401428     -0.0005894     -0.0020052     -0.0005637     -0.0019960     -0.6324768      0.4061584
1215024896     -0.6691895      0.2398682     -0.0005660     -0.0020310     -0.0005516     -0.0019575     -0.6318359      0.4065857
1215031168     -0.6684570      0.2406311     -0.0006074     -0.0019963     -0.0005285     -0.0019584     -0.6312561      0.4066467
1215037440     -0.6683350      0.2407532     -0.0006062     -0.0019976     -0.0005521     -0.0019053     -0.6309814      0.4070740
1215043712     -0.6676941      0.2411499     -0.0006160     -0.0020103     -0.0005578     -0.0019610     -0.6308289      0.4075317
1215049984     -0.6677551      0.2415466     -0.0005947     -0.0019751     -0.0005780     -0.0019659     -0.6304626      0.4078369
1215056128     -0.6671143      0.2419434     -0.0005697     -0.0019696     -0.0005354     -0.0019430     -0.6301880      0.4080200
1215062400     -0.6667786      0.2422180     -0.0006129     -0.0019825     -0.0005885     -0.0019928     -0.6292725      0.4078064
1215068672     -0.6665344      0.2425232     -0.0006293     -0.0019920     -0.0005636     -0.0019971     -0.6289368      0.4083557
1215074944     -0.6663513      0.2430725     -0.0006183     -0.0020192     -0.0006083     -0.0019649     -0.6286621      0.4086914
1215081216     -0.6657715      0.2429810     -0.0006171     -0.0019500     -0.0005578     -0.0019784     -0.6284485      0.4082642
1215087488     -0.6651917      0.2434082     -0.0005782     -0.0020328     -0.0005831     -0.0019530     -0.6278687      0.4087524
1215093632     -0.6649780      0.2440186     -0.0005774     -0.0019256     -0.0005306     -0.0019525     -0.6279297      0.4088135
1215099904     -0.6647339      0.2437134     -0.0006038     -0.0019639     -0.0005609     -0.0020005     -0.6272278      0.4089661
1215106176     -0.6638184      0.2439575     -0.0005858     -0.0019946     -0.0006092     -0.0019451     -0.6269226      0.4087830
1215112448     -0.6634827      0.2443542     -0.0005906     -0.0019621     -0.0006419     -0.0019523     -0.6260681      0.4091187
1215118720     -0.6628418      0.2440796     -0.0006316     -0.0020202     -0.0005397     -0.0019960     -0.6253662      0.4089661
1215124992     -0.6628723      0.2446289     -0.0005908     -0.0019799     -0.0005820     -0.0019661     -0.6252747      0.4087219
1215131136     -0.6622009      0.2449341     -0.0006299     -0.0020025     -0.0005934     -0.0019901     -0.6248779      0.4088135
1215137408     -0.6620789      0.2444153     -0.0005962     -0.0020040     -0.0006419     -0.0019335     -0.6245728      0.4088135
1215143680     -0.6616516      0.2442322     -0.0006671     -0.0020106     -0.0005753     -0.0019815     -0.6243896      0.4087524
1215149952     -0.6611938      0.2441406     -0.0006450     -0.0020164     -0.0006394     -0.0019886     -0.6236877      0.4089966
1215156224     -0.6609192      0.2441101     -0.0006108     -0.0020159     -0.0005959     -0.0019219     -0.6232300      0.4089661
1215162496     -0.6607056      0.2442017     -0.0006561     -0.0020038     -0.0005863     -0.0019424     -0.6233521      0.4087219
1215168640     -0.6602783      0.2442932     -0.0006737     -0.0019923     -0.0006019     -0.0019759     -0.6225281      0.4085693
1215174912     -0.6602783      0.2449341     -0.0006971     -0.0019866     -0.0006335     -0.0019709     -0.6223755      0.4086914
1215181184     -0.6597290      0.2449036     -0.0006603     -0.0019548     -0.0006708     -0.0019394     -0.6221313      0.4086609
1215187456     -0.6595764      0.2451172     -0.0006399     -0.0019687     -0.0006578     -0.0020012     -0.6221619      0.4088135
1215193728     -0.6595764      0.2453003     -0.0006388     -0.0019739     -0.0006411     -0.0019377     -0.6222229      0.4082947
1215200000     -0.6593323      0.2451477     -0.0006663     -0.0019926     -0.0006564     -0.0019867     -0.6222839      0.4078674
1215206144     -0.6595764      0.2447510     -0.0006814     -0.0020072     -0.0006377     -0.0019625     -0.6213379      0.4081726
1215212416     -0.6591492      0.2453003     -0.0006877     -0.0019548     -0.0006765     -0.0019615     -0.6217041      0.4079590
1215218688     -0.6586304      0.2447815     -0.0006996     -0.0020148     -0.0006256     -0.0019079     -0.6216125      0.4077148
1215224960     -0.6587219      0.2453613     -0.0006984     -0.0019794     -0.0006440     -0.0020319     -0.6213684      0.4081116
1215231232     -0.6586304      0.2453918     -0.0006651     -0.0019782     -0.0006567     -0.0019712     -0.6213989      0.4079895
1215237376     -0.6577148      0.2458496     -0.0007081     -0.0020286     -0.0006465     -0.0019439     -0.6214294      0.4075928
1215243648     -0.6581116      0.2459717     -0.0007343     -0.0019979     -0.0006896     -0.0019641     -0.6212158      0.4076538
1215249920     -0.6577759      0.2460938     -0.0007385     -0.0019857     -0.0006889     -0.0019492     -0.6209717      0.4080200
1215256192     -0.6577148      0.2464600     -0.0007299     -0.0019342     -0.0007013     -0.0019569     -0.6210632      0.4080200
1215262464     -0.6582336      0.2465210     -0.0007141     -0.0020120     -0.0007073     -0.0019763     -0.6217041      0.4079590
1215268736     -0.6578674      0.2462463     -0.0007520     -0.0019668     -0.0007037     -0.0018857     -0.6215820      0.4086304
1215274880     -0.6579285      0.2469482     -0.0007688     -0.0019975     -0.0007306     -0.0019416     -0.6217651      0.4086304
1215281152     -0.6582947      0.2467957     -0.0007772     -0.0019755     -0.0007684     -0.0019547     -0.6217041      0.4086914
1215287424     -0.6575012      0.2470398     -0.0007137     -0.0019244     -0.0007530     -0.0019563     -0.6217651      0.4089355
1215293696     -0.6578979      0.2473755     -0.0007176     -0.0019312     -0.0007639     -0.0019170     -0.6216431      0.4086914
1215299968     -0.6576233      0.2477417     -0.0007869     -0.0019481     -0.0007339     -0.0019331     -0.6210938      0.4089050
1215306240     -0.6577454      0.2476501     -0.0007820     -0.0019947     -0.0007852     -0.0018858     -0.6216736      0.4092102
1215312384     -0.6577148      0.2479858     -0.0007869     -0.0019279     -0.0007499     -0.0018816     -0.6212158      0.4092102
1215318656     -0.6576843      0.2479248     -0.0007896     -0.0019560     -0.0007836     -0.0019706     -0.6214600      0.4091492
1215324928     -0.6579895      0.2482605     -0.0007796     -0.0019618     -0.0007818     -0.0018916     -0.6213379      0.4099121
1215331200     -0.6582031      0.2489929     -0.0008323     -0.0019346     -0.0007617     -0.0018526     -0.6211548      0.4097900
1215337472     -0.6579895      0.2491760     -0.0008472     -0.0019308     -0.0008032     -0.0019410     -0.6213379      0.4100037
1215343744     -0.6583557      0.2496948     -0.0008254     -0.0019125     -0.0007856     -0.0018817     -0.6215515      0.4103699
1215349888     -0.6578674      0.2498474     -0.0008397     -0.0018404     -0.0008675     -0.0018666     -0.6209717      0.4105835
1215356160     -0.6576233      0.2500305     -0.0008827     -0.0019244     -0.0007614     -0.0018216     -0.6209106      0.4106750
1215362432     -0.6575012      0.2505798     -0.0008535     -0.0018747     -0.0008280     -0.0018902     -0.6211853      0.4112244
1215368704     -0.6573486      0.2511597     -0.0008636     -0.0018860     -0.0008025     -0.0018296     -0.6213074      0.4112549
1215374976     -0.6569824      0.2515564     -0.0008674     -0.0018768     -0.0008205     -0.0018386     -0.6210327      0.4120789
1215381248     -0.6569214      0.2524719     -0.0008148     -0.0018361     -0.0008457     -0.0018651     -0.6210022      0.4122314
1215387392     -0.6567078      0.2528381     -0.0008821     -0.0018576     -0.0008385     -0.0017974     -0.6211243      0.4125366
1215393664     -0.6567383      0.2530823     -0.0008792     -0.0018282     -0.0008758     -0.0018327     -0.6206360      0.4131775
1215399936     -0.6563110      0.2538147     -0.0008816     -0.0018418     -0.0008773     -0.0017955     -0.6208191      0.4133301
1215406208     -0.6564331      0.2540588     -0.0008814     -0.0018233     -0.0008845     -0.0017779     -0.6207275      0.4140930
1215412480     -0.6558838      0.2545166     -0.0008765     -0.0018353     -0.0008842     -0.0017627     -0.6204529      0.4142456
1215418624     -0.6560059      0.2550049     -0.0008695     -0.0017811     -0.0008548     -0.0017936     -0.6201172      0.4145203
1215424896     -0.6559448      0.2549133     -0.0009241     -0.0018191     -0.0008575     -0.0017880     -0.6203308      0.4148865
1215431168     -0.6554565      0.2552795     -0.0008593     -0.0017885     -0.0008194     -0.0017254     -0.6202087      0.4154968
1215437440     -0.6553955      0.2558594     -0.0009179     -0.0017785     -0.0008737     -0.0017211     -0.6199951      0.4158936
1215443712     -0.6552734      0.2562866     -0.0008812     -0.0017271     -0.0008453     -0.0017513     -0.6201172      0.4162598
1215449984     -0.6546021      0.2566833     -0.0008920     -0.0017167     -0.0008706     -0.0016942     -0.6197815      0.4165039
1215456128     -0.6539307      0.2569275     -0.0009317     -0.0017049     -0.0009298     -0.0017436     -0.6192017      0.4166870
1215462400     -0.6545410      0.2577515     -0.0009408     -0.0017329     -0.0009670     -0.0016930     -0.6192017      0.4167175
1215468672     -0.6537170      0.2582397     -0.0009334     -0.0016643     -0.0008707     -0.0016606     -0.6189880      0.4169617
1215474944     -0.6533508      0.2584229     -0.0009133     -0.0017327     -0.0008645     -0.0016581     -0.6187744      0.4176941
1215481216     -0.6531677      0.2587891     -0.0009358     -0.0016750     -0.0009063     -0.0016450     -0.6184998      0.4182739
1215487488     -0.6526794      0.2590027     -0.0009450     -0.0016685     -0.0009332     -0.0016528     -0.6184387      0.4188232
1215493632     -0.6525269      0.2591858     -0.0009259     -0.0016435     -0.0009199     -0.0016989     -0.6180115      0.4190063
1215499904     -0.6524048      0.2598572     -0.0008854     -0.0016567     -0.0009077     -0.0015777     -0.6172791      0.4197388
1215506176     -0.6518555      0.2605591     -0.0009271     -0.0016587     -0.0008763     -0.0015976     -0.6167908      0.4204407
1215512448     -0.6517334      0.2604675     -0.0008957     -0.0015956     -0.0008882     -0.0015697     -0.6162415      0.4204102
1215518720     -0.6510620      0.2608337     -0.0008744     -0.0016152     -0.0008903     -0.0015658     -0.6163940      0.4206848
1215524992     -0.6499329      0.2608337     -0.0009168     -0.0015801     -0.0009019     -0.0015411     -0.6157532      0.4207458
1215531136     -0.6496582      0.2610474     -0.0009179     -0.0015386     -0.0008696     -0.0015599     -0.6152649      0.4205017
1215537408     -0.6490784      0.2615051     -0.0009489     -0.0015647     -0.0009018     -0.0015229     -0.6148682      0.4211426
1215543680     -0.6482849      0.2614136     -0.0009130     -0.0015517     -0.0008496     -0.0015249     -0.6145935      0.4212952
1215549952     -0.6478271      0.2618713     -0.0008813     -0.0015224     -0.0008790     -0.0015088     -0.6142883      0.4221497
1215556224     -0.6476440      0.2615967     -0.0008731     -0.0015264     -0.0009021     -0.0014447     -0.6139221      0.4225769
1215562496     -0.6470032      0.2617493     -0.0008593     -0.0014375     -0.0008587     -0.0014585     -0.6138306      0.4225159
1215568640     -0.6468201      0.2619324     -0.0008748     -0.0015059     -0.0008957     -0.0014421     -0.6135864      0.4231567
1215574912     -0.6460266      0.2620239     -0.0008506     -0.0014437     -0.0008255     -0.0014318     -0.6132202      0.4228821
1215581184     -0.6464539      0.2621460     -0.0008457     -0.0014385     -0.0008656     -0.0014251     -0.6123352      0.4233093
1215587456     -0.6457825      0.2623291     -0.0008324     -0.0013992     -0.0008377     -0.0013870     -0.6126404      0.4233398
1215593728     -0.6449585      0.2623901     -0.0008578     -0.0014048     -0.0007775     -0.0014037     -0.6116638      0.4235229
1215599872     -0.6450806      0.2620239     -0.0008222     -0.0013715     -0.0007322     -0.0013535     -0.6113586      0.4234619
1215606144     -0.6447449      0.2619629     -0.0008135     -0.0013754     -0.0007975     -0.0013567     -0.6112061      0.4235840
1215612416     -0.6444092      0.2620544     -0.0007602     -0.0013689     -0.0007225     -0.0013567     -0.6105957      0.4236145
1215618688     -0.6439819      0.2614746     -0.0007700     -0.0013442     -0.0007498     -0.0013157     -0.6099854      0.4234314
1215624960     -0.6433716      0.2615356     -0.0007603     -0.0014036     -0.0007037     -0.0012993     -0.6093445      0.4240417
1215631232     -0.6433105      0.2614136     -0.0007412     -0.0013099     -0.0006918     -0.0013278     -0.6089783      0.4230652
1215637376     -0.6434021      0.2612915     -0.0007353     -0.0013427     -0.0006696     -0.0013596     -0.6088867      0.4233704
1215643648     -0.6433105      0.2606812     -0.0007068     -0.0013245     -0.0006644     -0.0013236     -0.6083679      0.4235535
1215649920     -0.6427917      0.2604675     -0.0006309     -0.0012884     -0.0006781     -0.0012963     -0.6080322      0.4234619
1215656192     -0.6433716      0.2604065     -0.0006697     -0.0013319     -0.0006585     -0.0013063     -0.6079102      0.4239197
1215662464     -0.6433411      0.2600098     -0.0006523     -0.0013419     -0.0006138     -0.0013528     -0.6076355      0.4237061
1215668736     -0.6437378      0.2597961     -0.0005560     -0.0013226     -0.0005735     -0.0012939     -0.6072388      0.4231567
1215674880     -0.6434021      0.2593384     -0.0005732     -0.0013707     -0.0005580     -0.0013268     -0.6068726      0.4233093
1215681152     -0.6439819      0.2593994     -0.0005826     -0.0013090     -0.0005339     -0.0013307     -0.6069336      0.4226074
1215687424     -0.6440125      0.2587585     -0.0005111     -0.0013338     -0.0005280     -0.0013433     -0.6067505      0.4225769
1215693696     -0.6450195      0.2592773     -0.0004998     -0.0013604     -0.0004797     -0.0013506     -0.6070251      0.4227600
1215699968     -0.6445007      0.2591248     -0.0004734     -0.0013599     -0.0005023     -0.0013344     -0.6069946      0.4227600
1215706240     -0.6452332      0.2591553     -0.0004466     -0.0013914     -0.0003988     -0.0013474     -0.6063843      0.4225769
1215712384     -0.6453247      0.2589722     -0.0004473     -0.0013913     -0.0004431     -0.0013787     -0.6065979      0.4225769
1215718656     -0.6462708      0.2592773     -0.0004387     -0.0013953     -0.0004142     -0.0013615     -0.6067810      0.4225464
1215724928     -0.6464844      0.2598572     -0.0003945     -0.0014220     -0.0003759     -0.0013629     -0.6073303      0.4227600
1215731200     -0.6471252      0.2592468     -0.0003622     -0.0014164     -0.0003604     -0.0013996     -0.6069946      0.4227905
1215737472     -0.6471558      0.2594604     -0.0003495     -0.0014325     -0.0003513     -0.0014367     -0.6073914      0.4226685
1215743744     -0.6478577      0.2600403     -0.0003429     -0.0014676     -0.0004302     -0.0014439     -0.6076050      0.4223328
1215749888     -0.6488953      0.2604980     -0.0003109     -0.0015520     -0.0003474     -0.0015261     -0.6074524      0.4224548
1215756160     -0.6491394      0.2611694     -0.0003492     -0.0015050     -0.0003443     -0.0015161     -0.6077271      0.4225464
1215762432     -0.6490784      0.2614441     -0.0003473     -0.0015628     -0.0003244     -0.0014927     -0.6076965      0.4222717
1215768704     -0.6496887      0.2620239     -0.0003388     -0.0015837     -0.0002996     -0.0015634     -0.6076965      0.4226074
1215774976     -0.6507874      0.2624512     -0.0002496     -0.0015981     -0.0003394     -0.0015894     -0.6084595      0.4226990
1215781248     -0.6513062      0.2626953     -0.0003136     -0.0016471     -0.0003138     -0.0015965     -0.6085815      0.4233093
1215787392     -0.6512756      0.2633667     -0.0003399     -0.0016696     -0.0003172     -0.0016204     -0.6088562      0.4233704
1215793664     -0.6521606      0.2642822     -0.0003577     -0.0016738     -0.0003390     -0.0016385     -0.6093445      0.4238892
1215799936     -0.6518250      0.2647705     -0.0003316     -0.0017091     -0.0002757     -0.0016944     -0.6096497      0.4244080
1215806208     -0.6529236      0.2654419     -0.0003393     -0.0016705     -0.0003552     -0.0017315     -0.6098938      0.4246216
1215812480     -0.6530457      0.2662964     -0.0003434     -0.0017653     -0.0002891     -0.0017153     -0.6103516      0.4249878
1215818624     -0.6531677      0.2669678     -0.0003760     -0.0017881     -0.0003253     -0.0016834     -0.6105652      0.4255371
1215824896     -0.6532898      0.2678833     -0.0003797     -0.0017406     -0.0003775     -0.0017340     -0.6105957      0.4259338
1215831168     -0.6535645      0.2686768     -0.0003858     -0.0018295     -0.0003707     -0.0017463     -0.6107788      0.4269104
1215837440     -0.6534424      0.2689819     -0.0003623     -0.0018231     -0.0003986     -0.0017358     -0.6112671      0.4273682
1215843712     -0.6533203      0.2699890     -0.0004529     -0.0018191     -0.0004096     -0.0017753     -0.6111755      0.4276733
1215849984     -0.6530457      0.2713623     -0.0004972     -0.0018299     -0.0003960     -0.0018018     -0.6111145      0.4283752
1215856128     -0.6538391      0.2720947     -0.0004673     -0.0018388     -0.0003995     -0.0018291     -0.6112671      0.4293518
1215862400     -0.6532288      0.2727051     -0.0004615     -0.0018508     -0.0004686     -0.0018088     -0.6112061      0.4299927
1215868672     -0.6536255      0.2737732     -0.0004641     -0.0018792     -0.0004311     -0.0018884     -0.6109009      0.4306641
1215874944     -0.6531372      0.2746887     -0.0004859     -0.0018729     -0.0004690     -0.0018388     -0.6113586      0.4317017
1215881216     -0.6531067      0.2755432     -0.0005758     -0.0018708     -0.0004541     -0.0018392     -0.6113281      0.4318542
1215887488     -0.6533813      0.2758789     -0.0005004     -0.0018870     -0.0005429     -0.0018727     -0.6109009      0.4326782
1215893632     -0.6530762      0.2770386     -0.0005094     -0.0018655     -0.0005170     -0.0018487     -0.6111450      0.4330139
1215899904     -0.6530151      0.2779541     -0.0005484     -0.0018871     -0.0005566     -0.0018756     -0.6115723      0.4339600
1215906176     -0.6526489      0.2786255     -0.0005150     -0.0019195     -0.0005614     -0.0018814     -0.6110229      0.4349670
1215912448     -0.6520691      0.2789612     -0.0006206     -0.0019152     -0.0005540     -0.0018969     -0.6110229      0.4354858
1215918720     -0.6517029      0.2801819     -0.0006077     -0.0019480     -0.0005630     -0.0018603     -0.6101990      0.4359741
1215924992     -0.6517334      0.2809448     -0.0006250     -0.0019195     -0.0006329     -0.0018820     -0.6101379      0.4366760
1215931136     -0.6514282      0.2819519     -0.0006423     -0.0019120     -0.0005705     -0.0018721     -0.6094360      0.4376831
1215937408     -0.6513062      0.2819824     -0.0006102     -0.0018841     -0.0006043     -0.0018954     -0.6092224      0.4385681
1215943680     -0.6511536      0.2830811     -0.0006386     -0.0019153     -0.0005957     -0.0019131     -0.6089783      0.4387512
