# Hz  S  RI  R  75
! ADVANTEST Corporation R3860A
! Date: Sun Jul 02 19:09:26 2006
! P1234 S-Parameter Z1=75 Z2=75 Z3=75 Z4=75
1.6654800000e+009  2.912896e-001 -7.733542e-001 -1.572801e-001 -1.204901e-001 -3.099390e-003 -6.158612e-004 -1.246129e-003 -2.770307e-004
                  -1.558491e-001 -1.197223e-001 -1.909524e-002 -8.637324e-001  8.469902e-004  8.167228e-004 -3.171412e-003 -4.111313e-004
                  -3.032068e-003 -7.452056e-004  7.723216e-004  9.342885e-004  1.254678e-005 -8.409106e-001 -1.434417e-001 -1.216477e-001
                  -1.291552e-003 -2.463007e-004 -3.028518e-003 -4.280721e-004 -1.449585e-001 -1.204431e-001  2.867956e-001 -7.793255e-001
1.6656300000e+009  2.880539e-001 -7.700640e-001 -1.557183e-001 -1.207060e-001 -3.155645e-003 -8.359347e-004 -1.358997e-003 -1.627064e-004
                  -1.562753e-001 -1.223446e-001 -2.030644e-002 -8.621755e-001  9.072674e-004  9.642715e-004 -3.084942e-003 -4.502844e-004
                  -3.038725e-003 -7.192106e-004  8.496417e-004  9.377631e-004  2.318174e-004 -8.402497e-001 -1.422877e-001 -1.221911e-001
                  -1.360899e-003 -2.297196e-004 -3.070024e-003 -4.953830e-004 -1.437189e-001 -1.204446e-001  2.855315e-001 -7.792455e-001
1.6657800000e+009  2.884628e-001 -7.683944e-001 -1.557588e-001 -1.232711e-001 -3.108706e-003 -7.163145e-004 -1.331671e-003 -2.423469e-004
                  -1.566170e-001 -1.233149e-001 -1.913703e-002 -8.597770e-001  8.455046e-004  9.107090e-004 -3.077343e-003 -4.066561e-004
                  -3.060512e-003 -7.922611e-004  8.753557e-004  9.573193e-004 -9.638667e-004 -8.390533e-001 -1.426459e-001 -1.228802e-001
                  -1.342657e-003 -2.266199e-004 -3.010254e-003 -4.322903e-004 -1.426049e-001 -1.211329e-001  2.843043e-001 -7.788478e-001
1.6659300000e+009  2.875369e-001 -7.690179e-001 -1.556987e-001 -1.226137e-001 -3.144274e-003 -7.321186e-004 -1.328356e-003 -2.394014e-004
                  -1.571187e-001 -1.232833e-001 -1.912866e-002 -8.606541e-001  9.437086e-004  8.435914e-004 -3.073259e-003 -3.454454e-004
                  -3.054263e-003 -7.350106e-004  8.575190e-004  9.428617e-004 -2.020553e-003 -8.381920e-001 -1.413371e-001 -1.235699e-001
                  -1.409811e-003 -2.446220e-004 -3.000515e-003 -4.324935e-004 -1.426158e-001 -1.220741e-001  2.831859e-001 -7.781506e-001
1.6660800000e+009  2.858546e-001 -7.674462e-001 -1.544663e-001 -1.237012e-001 -3.197600e-003 -7.501863e-004 -1.347358e-003 -2.385106e-004
                  -1.563199e-001 -1.243556e-001 -2.064682e-002 -8.586434e-001  9.661735e-004  9.372566e-004 -3.098873e-003 -4.239094e-004
                  -3.188344e-003 -7.761085e-004  9.395109e-004  9.285352e-004 -9.917766e-004 -8.367928e-001 -1.422992e-001 -1.245286e-001
                  -1.350523e-003 -2.254107e-004 -3.029972e-003 -4.620579e-004 -1.425342e-001 -1.235309e-001  2.834538e-001 -7.769539e-001
1.6662300000e+009  2.861955e-001 -7.668754e-001 -1.553300e-001 -1.250283e-001 -3.181548e-003 -7.987799e-004 -1.412200e-003 -2.901306e-004
                  -1.565438e-001 -1.250513e-001 -1.965986e-002 -8.570457e-001  9.655644e-004  8.916423e-004 -3.041251e-003 -3.566197e-004
                  -3.214870e-003 -7.593238e-004  9.754362e-004  9.038894e-004 -6.401241e-004 -8.349649e-001 -1.423704e-001 -1.251546e-001
                  -1.290274e-003 -2.457243e-004 -3.129526e-003 -4.413374e-004 -1.422377e-001 -1.242935e-001  2.822523e-001 -7.774159e-001
1.6663800000e+009  2.859679e-001 -7.661111e-001 -1.563003e-001 -1.255534e-001 -3.222696e-003 -7.790087e-004 -1.359618e-003 -2.490586e-004
                  -1.569646e-001 -1.261841e-001 -1.890513e-002 -8.566558e-001  9.617514e-004  9.188016e-004 -3.031797e-003 -3.731788e-004
                  -3.192239e-003 -7.021729e-004  1.055232e-003  8.924673e-004 -4.846454e-004 -8.342291e-001 -1.425220e-001 -1.264110e-001
                  -1.363734e-003 -2.819571e-004 -3.076957e-003 -3.987914e-004 -1.421855e-001 -1.251983e-001  2.822468e-001 -7.762333e-001
1.6665300000e+009  2.852389e-001 -7.659559e-001 -1.562741e-001 -1.260544e-001 -3.254218e-003 -6.887979e-004 -1.360044e-003 -3.565475e-004
                  -1.573736e-001 -1.267729e-001 -1.826607e-002 -8.556644e-001  8.715415e-004  8.346295e-004 -3.003751e-003 -3.102291e-004
                  -3.131760e-003 -7.265832e-004  9.809581e-004  8.625488e-004 -1.403838e-004 -8.321978e-001 -1.427640e-001 -1.273356e-001
                  -1.432101e-003 -2.615789e-004 -3.018209e-003 -3.762271e-004 -1.424332e-001 -1.266906e-001  2.819490e-001 -7.756355e-001
1.6666800000e+009  2.861831e-001 -7.662589e-001 -1.573637e-001 -1.271635e-001 -3.213193e-003 -6.704947e-004 -1.391079e-003 -3.290353e-004
                  -1.580525e-001 -1.277779e-001 -1.689602e-002 -8.538581e-001  9.472349e-004  8.226580e-004 -2.963769e-003 -2.963279e-004
                  -3.115708e-003 -7.386960e-004  9.131039e-004  8.609053e-004 -5.901754e-004 -8.317893e-001 -1.427165e-001 -1.285694e-001
                  -1.447702e-003 -2.967461e-004 -2.941405e-003 -3.695456e-004 -1.424348e-001 -1.271541e-001  2.813803e-001 -7.751740e-001
1.6668300000e+009  2.851078e-001 -7.643635e-001 -1.563632e-001 -1.284243e-001 -3.176806e-003 -6.849639e-004 -1.432704e-003 -3.485664e-004
                  -1.582375e-001 -1.287267e-001 -1.774891e-002 -8.529137e-001  9.933100e-004  8.217485e-004 -3.017049e-003 -2.997880e-004
                  -3.160913e-003 -7.546784e-004  9.919265e-004  8.462732e-004  8.547455e-004 -8.305367e-001 -1.434913e-001 -1.296944e-001
                  -1.432547e-003 -3.017684e-004 -2.964691e-003 -3.770957e-004 -1.430585e-001 -1.281248e-001  2.812082e-001 -7.743086e-001
1.6669800000e+009  2.852452e-001 -7.630895e-001 -1.573734e-001 -1.294489e-001 -3.206825e-003 -7.391378e-004 -1.515490e-003 -3.278514e-004
                  -1.592311e-001 -1.293810e-001 -1.611932e-002 -8.521681e-001  9.555806e-004  8.092541e-004 -2.891608e-003 -3.048392e-004
                  -3.171151e-003 -6.868471e-004  9.477902e-004  7.593128e-004  6.804466e-004 -8.293061e-001 -1.433986e-001 -1.296146e-001
                  -1.476856e-003 -4.125878e-004 -2.906649e-003 -2.449827e-004 -1.438126e-001 -1.286369e-001  2.808078e-001 -7.737944e-001
1.6671300000e+009  2.867304e-001 -7.628864e-001 -1.593199e-001 -1.302222e-001 -3.163725e-003 -7.838317e-004 -1.606661e-003 -2.766578e-004
                  -1.595914e-001 -1.299180e-001 -1.468230e-002 -8.519425e-001  9.524346e-004  8.387259e-004 -2.819191e-003 -3.487041e-004
                  -3.166681e-003 -6.920422e-004  9.864122e-004  8.072726e-004  2.475873e-003 -8.288614e-001 -1.450425e-001 -1.311040e-001
                  -1.499061e-003 -3.140724e-004 -2.985712e-003 -3.736997e-004 -1.445927e-001 -1.296608e-001  2.815044e-001 -7.730505e-001
1.6672800000e+009  2.847629e-001 -7.632356e-001 -1.591127e-001 -1.299534e-001 -3.160791e-003 -7.615379e-004 -1.522126e-003 -3.211845e-004
                  -1.604751e-001 -1.304973e-001 -1.380940e-002 -8.504737e-001  9.558766e-004  8.293774e-004 -2.929774e-003 -3.604433e-004
                  -3.160415e-003 -6.904443e-004  9.654626e-004  8.164683e-004  2.526447e-003 -8.272215e-001 -1.452550e-001 -1.307860e-001
                  -1.552290e-003 -3.599129e-004 -2.901527e-003 -3.610655e-004 -1.445514e-001 -1.303771e-001  2.812477e-001 -7.731715e-001
1.6674300000e+009  2.856296e-001 -7.629709e-001 -1.599390e-001 -1.297833e-001 -3.292182e-003 -6.772585e-004 -1.473970e-003 -2.285262e-004
                  -1.612919e-001 -1.306279e-001 -1.343955e-002 -8.513079e-001  9.643981e-004  7.288142e-004 -2.915047e-003 -3.410867e-004
                  -3.221285e-003 -8.023384e-004  1.009941e-003  8.241230e-004  4.479274e-003 -8.278773e-001 -1.465910e-001 -1.316815e-001
                  -1.530410e-003 -2.442840e-004 -2.836005e-003 -3.493726e-004 -1.465274e-001 -1.302505e-001  2.819618e-001 -7.725548e-001
1.6675800000e+009  2.868758e-001 -7.628520e-001 -1.616329e-001 -1.312862e-001 -3.216891e-003 -6.601681e-004 -1.591244e-003 -2.522244e-004
                  -1.627096e-001 -1.310710e-001 -1.136539e-002 -8.499073e-001  8.928409e-004  7.496162e-004 -2.779248e-003 -3.734371e-004
                  -3.233315e-003 -7.236593e-004  1.035387e-003  8.316211e-004  4.970744e-003 -8.275247e-001 -1.476385e-001 -1.316929e-001
                  -1.524936e-003 -2.553314e-004 -2.861760e-003 -3.978625e-004 -1.467540e-001 -1.311064e-001  2.820169e-001 -7.723225e-001
1.6677300000e+009  2.871945e-001 -7.639061e-001 -1.623812e-001 -1.312708e-001 -3.274065e-003 -7.706871e-004 -1.616159e-003 -2.261730e-004
                  -1.629701e-001 -1.310471e-001 -1.107948e-002 -8.495961e-001  1.020932e-003  7.276676e-004 -2.829371e-003 -3.917450e-004
                  -3.307588e-003 -6.230803e-004  9.805871e-004  7.247626e-004  6.347075e-003 -8.269949e-001 -1.484465e-001 -1.320702e-001
                  -1.488896e-003 -2.725910e-004 -2.905957e-003 -3.773215e-004 -1.481471e-001 -1.313107e-001  2.827896e-001 -7.725222e-001
1.6678800000e+009  2.877635e-001 -7.633056e-001 -1.638093e-001 -1.306828e-001 -3.309157e-003 -6.566745e-004 -1.507193e-003 -2.697791e-004
                  -1.650863e-001 -1.310312e-001 -9.572433e-003 -8.505481e-001  9.586517e-004  8.004035e-004 -2.853904e-003 -3.449253e-004
                  -3.244256e-003 -6.291614e-004  9.542116e-004  6.756574e-004  7.196873e-003 -8.264394e-001 -1.488027e-001 -1.323828e-001
                  -1.609121e-003 -2.392740e-004 -2.809545e-003 -3.809537e-004 -1.481922e-001 -1.313093e-001  2.824854e-001 -7.726039e-001
1.6680300000e+009  2.875048e-001 -7.629642e-001 -1.641670e-001 -1.299401e-001 -3.321526e-003 -6.288548e-004 -1.537353e-003 -1.770406e-004
                  -1.655479e-001 -1.309138e-001 -8.559245e-003 -8.509854e-001  9.696605e-004  7.275665e-004 -2.761776e-003 -3.775427e-004
                  -3.259973e-003 -6.129979e-004  9.457420e-004  7.610437e-004  7.897750e-003 -8.270942e-001 -1.498123e-001 -1.317413e-001
                  -1.529160e-003 -2.125436e-004 -2.874197e-003 -3.669786e-004 -1.505741e-001 -1.313408e-001  2.834620e-001 -7.732930e-001
1.6681800000e+009  2.882636e-001 -7.636659e-001 -1.649616e-001 -1.295920e-001 -3.293246e-003 -6.652275e-004 -1.610738e-003 -1.810264e-004
                  -1.666648e-001 -1.301695e-001 -7.593629e-003 -8.518865e-001  9.618605e-004  7.329389e-004 -2.790821e-003 -3.833103e-004
                  -3.265840e-003 -5.999490e-004  9.250436e-004  7.269823e-004  9.820476e-003 -8.271256e-001 -1.512363e-001 -1.317952e-001
                  -1.551239e-003 -2.502252e-004 -2.753777e-003 -3.674117e-004 -1.507273e-001 -1.310197e-001  2.831230e-001 -7.727953e-001
1.6683300000e+009  2.895306e-001 -7.650745e-001 -1.675499e-001 -1.288603e-001 -3.206692e-003 -6.189415e-004 -1.593182e-003 -2.883429e-004
                  -1.688845e-001 -1.299125e-001 -5.446367e-003 -8.523746e-001  8.823163e-004  7.179105e-004 -2.794982e-003 -4.124014e-004
                  -3.248625e-003 -6.888667e-004  9.488077e-004  7.392103e-004  1.048322e-002 -8.278676e-001 -1.517688e-001 -1.317496e-001
                  -1.611941e-003 -1.610494e-004 -2.796200e-003 -4.084813e-004 -1.517106e-001 -1.308872e-001  2.839767e-001 -7.733951e-001
1.6684800000e+009  2.897011e-001 -7.651716e-001 -1.676684e-001 -1.291522e-001 -3.334081e-003 -5.617884e-004 -1.556166e-003 -2.029976e-004
                  -1.691104e-001 -1.294706e-001 -5.186982e-003 -8.520728e-001  9.014185e-004  7.073611e-004 -2.762434e-003 -4.151322e-004
                  -3.221158e-003 -5.769050e-004  9.083787e-004  6.875763e-004  1.058979e-002 -8.275950e-001 -1.517168e-001 -1.315765e-001
                  -1.636626e-003 -1.829880e-004 -2.747855e-003 -4.162801e-004 -1.520539e-001 -1.307077e-001  2.832694e-001 -7.733182e-001
1.6686300000e+009  2.903699e-001 -7.650114e-001 -1.682861e-001 -1.285263e-001 -3.140896e-003 -6.079688e-004 -1.636313e-003 -1.663908e-004
                  -1.701591e-001 -1.288708e-001 -4.120239e-003 -8.538316e-001  8.475551e-004  7.340311e-004 -2.741184e-003 -4.158563e-004
                  -3.167371e-003 -5.459624e-004  8.591475e-004  7.565422e-004  1.151451e-002 -8.288877e-001 -1.537925e-001 -1.304252e-001
                  -1.630610e-003 -2.721332e-004 -2.752879e-003 -4.603541e-004 -1.530790e-001 -1.302682e-001  2.845795e-001 -7.728798e-001
1.6687800000e+009  2.907347e-001 -7.660432e-001 -1.695843e-001 -1.278149e-001 -3.210055e-003 -6.205306e-004 -1.593523e-003 -2.031492e-004
                  -1.707755e-001 -1.286461e-001 -2.893998e-003 -8.532768e-001  8.075064e-004  8.073043e-004 -2.749145e-003 -5.090164e-004
                  -3.181313e-003 -6.400779e-004  8.733167e-004  7.704684e-004  1.257616e-002 -8.283060e-001 -1.538640e-001 -1.304535e-001
                  -1.636952e-003 -2.007646e-004 -2.708083e-003 -4.600495e-004 -1.541210e-001 -1.300230e-001  2.846000e-001 -7.741519e-001
1.6689300000e+009  2.901280e-001 -7.675200e-001 -1.698280e-001 -1.261607e-001 -3.225815e-003 -6.520728e-004 -1.594902e-003 -1.612786e-004
                  -1.717261e-001 -1.270757e-001 -3.186620e-003 -8.556986e-001  9.106199e-004  8.306028e-004 -2.701341e-003 -4.993828e-004
                  -3.270859e-003 -6.015339e-004  9.680675e-004  7.575412e-004  1.318975e-002 -8.280464e-001 -1.545517e-001 -1.300557e-001
                  -1.612403e-003 -1.670715e-004 -2.782325e-003 -4.885734e-004 -1.548667e-001 -1.294651e-001  2.845218e-001 -7.746857e-001
1.6690800000e+009  2.907592e-001 -7.688337e-001 -1.709719e-001 -1.252862e-001 -3.295289e-003 -6.110880e-004 -1.582221e-003 -1.457105e-004
                  -1.719404e-001 -1.260426e-001 -2.220845e-003 -8.567904e-001  9.246419e-004  7.426388e-004 -2.772270e-003 -4.847444e-004
                  -3.245720e-003 -6.023406e-004  8.582888e-004  7.464722e-004  1.423557e-002 -8.300147e-001 -1.555625e-001 -1.294131e-001
                  -1.655340e-003 -1.540385e-004 -2.744143e-003 -5.111215e-004 -1.552151e-001 -1.281581e-001  2.848654e-001 -7.761257e-001
1.6692300000e+009  2.908319e-001 -7.692116e-001 -1.708122e-001 -1.248438e-001 -3.257086e-003 -5.629854e-004 -1.623309e-003 -1.694852e-004
                  -1.727456e-001 -1.251842e-001 -2.594819e-003 -8.575352e-001  8.684624e-004  7.606741e-004 -2.688036e-003 -5.273268e-004
                  -3.236675e-003 -5.252981e-004  8.247349e-004  7.526324e-004  1.506558e-002 -8.299011e-001 -1.566749e-001 -1.291502e-001
                  -1.700697e-003 -2.147952e-004 -2.671142e-003 -5.716875e-004 -1.562858e-001 -1.282998e-001  2.860047e-001 -7.762653e-001
1.6693800000e+009  2.909608e-001 -7.710899e-001 -1.721895e-001 -1.233085e-001 -3.302025e-003 -5.808549e-004 -1.611550e-003 -1.459471e-004
                  -1.730935e-001 -1.236057e-001 -1.990100e-003 -8.586836e-001  8.293814e-004  8.113342e-004 -2.699529e-003 -6.156084e-004
                  -3.245626e-003 -6.209257e-004  7.757744e-004  8.091788e-004  1.567300e-002 -8.314464e-001 -1.576933e-001 -1.283458e-001
                  -1.614395e-003 -1.358401e-004 -2.651437e-003 -6.009738e-004 -1.572280e-001 -1.268610e-001  2.855822e-001 -7.773236e-001
1.6695300000e+009  2.915356e-001 -7.720971e-001 -1.726378e-001 -1.224308e-001 -3.187587e-003 -4.384342e-004 -1.656603e-003 -2.107788e-004
                  -1.737597e-001 -1.229205e-001 -1.241540e-003 -8.602144e-001  7.998593e-004  6.901119e-004 -2.707663e-003 -4.898944e-004
                  -3.187343e-003 -5.980160e-004  8.476559e-004  8.057181e-004  1.470350e-002 -8.333805e-001 -1.575201e-001 -1.265121e-001
                  -1.583275e-003 -1.261316e-004 -2.703730e-003 -5.502655e-004 -1.573333e-001 -1.258310e-001  2.854531e-001 -7.783753e-001
1.6696800000e+009  2.907823e-001 -7.727391e-001 -1.722868e-001 -1.207645e-001 -3.205037e-003 -6.112086e-004 -1.670548e-003 -1.228272e-004
                  -1.739559e-001 -1.218018e-001 -1.275100e-003 -8.613533e-001  7.627038e-004  8.169413e-004 -2.659136e-003 -6.713791e-004
                  -3.203393e-003 -5.429406e-004  7.908168e-004  7.991415e-004  1.696829e-002 -8.338029e-001 -1.584872e-001 -1.259852e-001
                  -1.603722e-003 -1.634947e-004 -2.735246e-003 -5.890935e-004 -1.587789e-001 -1.254248e-001  2.863151e-001 -7.795247e-001
1.6698300000e+009  2.904385e-001 -7.738955e-001 -1.723052e-001 -1.198887e-001 -3.120476e-003 -5.071764e-004 -1.679992e-003 -6.496499e-005
                  -1.742172e-001 -1.204703e-001 -2.279987e-003 -8.624747e-001  7.562867e-004  9.126965e-004 -2.661093e-003 -7.114421e-004
                  -3.188136e-003 -5.597702e-004  8.181043e-004  8.841307e-004  1.776685e-002 -8.338916e-001 -1.591272e-001 -1.258691e-001
                  -1.658407e-003 -1.370156e-004 -2.761723e-003 -7.103625e-004 -1.591265e-001 -1.245212e-001  2.864280e-001 -7.797697e-001
1.6699800000e+009  2.896159e-001 -7.763202e-001 -1.729582e-001 -1.183102e-001 -3.155668e-003 -5.407439e-004 -1.599855e-003 -8.460064e-005
                  -1.737332e-001 -1.189370e-001 -1.400854e-003 -8.642485e-001  8.433740e-004  8.670137e-004 -2.819733e-003 -7.260898e-004
                  -3.229341e-003 -6.092289e-004  9.123432e-004  9.250350e-004  1.813279e-002 -8.353903e-001 -1.593915e-001 -1.247631e-001
                  -1.611058e-003 -4.568533e-005 -2.782301e-003 -7.342228e-004 -1.597150e-001 -1.234325e-001  2.861570e-001 -7.807391e-001
1.6701300000e+009  2.916216e-001 -7.755097e-001 -1.733471e-001 -1.181133e-001 -3.151902e-003 -5.475227e-004 -1.622877e-003 -1.157434e-004
                  -1.754894e-001 -1.184305e-001 -1.450672e-003 -8.658153e-001  8.178747e-004  9.373697e-004 -2.801725e-003 -7.361890e-004
                  -3.216407e-003 -5.488826e-004  8.414000e-004  8.775191e-004  1.791432e-002 -8.351976e-001 -1.591107e-001 -1.236486e-001
                  -1.628126e-003 -8.656282e-005 -2.790623e-003 -7.030545e-004 -1.597118e-001 -1.230938e-001  2.857285e-001 -7.822881e-001
1.6702800000e+009  2.904186e-001 -7.779557e-001 -1.735217e-001 -1.165747e-001 -3.122599e-003 -4.928651e-004 -1.653057e-003 -1.408468e-004
                  -1.754605e-001 -1.171025e-001 -9.694484e-004 -8.657124e-001  8.252816e-004  8.997583e-004 -2.756771e-003 -7.078588e-004
                  -3.149710e-003 -4.734043e-004  8.356483e-004  8.102278e-004  1.772025e-002 -8.371220e-001 -1.600182e-001 -1.226666e-001
                  -1.610971e-003 -1.637655e-004 -2.773944e-003 -6.189288e-004 -1.597309e-001 -1.215050e-001  2.857644e-001 -7.831122e-001
1.6704300000e+009  2.901451e-001 -7.794996e-001 -1.731740e-001 -1.154111e-001 -3.142229e-003 -5.712408e-004 -1.672676e-003 -9.386480e-005
                  -1.747197e-001 -1.151759e-001 -2.033611e-003 -8.670058e-001  8.529945e-004  8.807605e-004 -2.774599e-003 -6.689251e-004
                  -3.110066e-003 -5.199324e-004  8.181366e-004  8.531585e-004  1.858927e-002 -8.382635e-001 -1.598272e-001 -1.221591e-001
                  -1.633269e-003 -7.344189e-005 -2.890317e-003 -7.289656e-004 -1.600058e-001 -1.209486e-001  2.851837e-001 -7.826840e-001
1.6705800000e+009  2.896705e-001 -7.800107e-001 -1.735023e-001 -1.139650e-001 -3.064638e-003 -6.742101e-004 -1.638965e-003 -3.788434e-005
                  -1.750503e-001 -1.147723e-001 -1.919991e-003 -8.686713e-001  7.966126e-004  9.627991e-004 -2.819240e-003 -7.171249e-004
                  -3.077222e-003 -5.722750e-004  7.675273e-004  9.393011e-004  1.938753e-002 -8.403870e-001 -1.615727e-001 -1.208849e-001
                  -1.611883e-003 -7.753330e-005 -2.857227e-003 -6.944425e-004 -1.611620e-001 -1.196885e-001  2.854420e-001 -7.840244e-001
1.6707300000e+009  2.883439e-001 -7.821702e-001 -1.733298e-001 -1.121984e-001 -3.071008e-003 -5.981307e-004 -1.687607e-003 -1.128030e-004
                  -1.748374e-001 -1.131375e-001 -1.999478e-003 -8.700442e-001  7.764397e-004  9.129702e-004 -2.764899e-003 -7.314760e-004
                  -3.066340e-003 -5.654204e-004  7.596701e-004  9.932402e-004  1.869805e-002 -8.391775e-001 -1.606704e-001 -1.201382e-001
                  -1.665582e-003 -9.089313e-005 -2.773784e-003 -7.985371e-004 -1.611419e-001 -1.197513e-001  2.851159e-001 -7.848662e-001
