!HP8753
# HZ S RI R 50
2449999872     -0.8590088      0.2462463      0.0046401     -0.0009072      0.0046706     -0.0009806     -0.8444519      0.2770996
2450249984     -0.8585815      0.2467041      0.0046327     -0.0009074      0.0046649     -0.0009544     -0.8442688      0.2774658
2450499840     -0.8585205      0.2478638      0.0046256     -0.0008585      0.0046921     -0.0009146     -0.8440857      0.2780762
2450749952     -0.8579712      0.2481079      0.0046473     -0.0008438      0.0046670     -0.0008936     -0.8439636      0.2786255
2450999808     -0.8581238      0.2487488      0.0046551     -0.0007973      0.0046759     -0.0008621     -0.8435974      0.2792664
2451249920     -0.8574524      0.2487183      0.0046380     -0.0007901      0.0046697     -0.0008543     -0.8433838      0.2796326
2451499776     -0.8573608      0.2493591      0.0046320     -0.0007577      0.0046630     -0.0008230     -0.8435974      0.2805786
2451749888     -0.8572083      0.2497559      0.0046389     -0.0007546      0.0046659     -0.0007997     -0.8434143      0.2812195
2451999744     -0.8576660      0.2507019      0.0046258     -0.0007303      0.0046310     -0.0007768     -0.8431091      0.2816467
2452249856     -0.8565369      0.2516479      0.0046041     -0.0007050      0.0046446     -0.0007887     -0.8430786      0.2823486
2452499968     -0.8566895      0.2514343      0.0046046     -0.0006697      0.0046332     -0.0007491     -0.8425598      0.2831421
2452749824     -0.8561401      0.2540588      0.0045683     -0.0006590      0.0046306     -0.0007336     -0.8425903      0.2830811
2452999936     -0.8558960      0.2531738      0.0045168     -0.0006735      0.0045660     -0.0006778     -0.8424377      0.2843018
2453249792     -0.8556519      0.2537231      0.0045402     -0.0006042      0.0045674     -0.0006528     -0.8416138      0.2852173
2453499904     -0.8552246      0.2549438      0.0045211     -0.0005853      0.0045564     -0.0006294     -0.8413696      0.2856140
2453749760     -0.8549194      0.2554321      0.0045395     -0.0005307      0.0045505     -0.0006280     -0.8411865      0.2863159
2453999872     -0.8544922      0.2559509      0.0044923     -0.0005124      0.0045369     -0.0005941     -0.8407288      0.2865601
2454249984     -0.8547363      0.2567749      0.0044570     -0.0005293      0.0045018     -0.0005555     -0.8402405      0.2883301
2454499840     -0.8544617      0.2577515      0.0044475     -0.0004690      0.0044918     -0.0005145     -0.8401794      0.2889099
2454749952     -0.8536682      0.2583313      0.0044205     -0.0004590      0.0044730     -0.0005128     -0.8395386      0.2896729
2454999808     -0.8535767      0.2602539      0.0044146     -0.0004232      0.0044355     -0.0004795     -0.8394470      0.2905273
2455249920     -0.8538818      0.2607117      0.0043554     -0.0003872      0.0044100     -0.0004430     -0.8393555      0.2911377
2455499776     -0.8534851      0.2611694      0.0043452     -0.0003459      0.0043752     -0.0004275     -0.8390198      0.2922363
2455749888     -0.8525696      0.2617188      0.0043156     -0.0003393      0.0043488     -0.0003753     -0.8387146      0.2928467
2456000000     -0.8521423      0.2628479      0.0042884     -0.0002742      0.0043278     -0.0003402     -0.8387146      0.2941895
2456249856     -0.8519897      0.2637329      0.0042655     -0.0002382      0.0042837     -0.0002918     -0.8381348      0.2950439
2456499968     -0.8515625      0.2646179      0.0042586     -0.0002081      0.0042639     -0.0002844     -0.8378601      0.2958984
2456749824     -0.8514404      0.2649536      0.0042133     -0.0001686      0.0042427     -0.0002108     -0.8376465      0.2967224
2456999936     -0.8510132      0.2666931      0.0041776     -0.0001328      0.0042021     -0.0001767     -0.8371887      0.2974548
2457249792     -0.8507996      0.2675781      0.0041642     -0.0000741      0.0041845     -0.0001214     -0.8372192      0.2978210
2457499904     -0.8502502      0.2672119      0.0041373     -0.0000463      0.0041482     -0.0000870     -0.8368835      0.2987366
2457749760     -0.8494568      0.2689819      0.0041218     -0.0000126      0.0041463     -0.0000632     -0.8363953      0.2997742
2457999872     -0.8495178      0.2690125      0.0040951      0.0000527      0.0040851      0.0000000     -0.8356934      0.3004456
2458249984     -0.8492126      0.2698669      0.0040588      0.0000794      0.0040691      0.0000427     -0.8356323      0.3009338
2458499840     -0.8486023      0.2709045      0.0040281      0.0001223      0.0040536      0.0000894     -0.8348999      0.3016052
2458749952     -0.8479309      0.2718811      0.0040028      0.0001833      0.0040336      0.0001228     -0.8341370      0.3023682
2458999808     -0.8482666      0.2729492      0.0039511      0.0002348      0.0039749      0.0001984     -0.8342896      0.3029175
2459249920     -0.8475647      0.2732239      0.0039594      0.0003021      0.0039742      0.0002215     -0.8333740      0.3034973
2459499776     -0.8469543      0.2744141      0.0039365      0.0003345      0.0039535      0.0002813     -0.8332214      0.3043213
2459749888     -0.8459167      0.2745972      0.0038853      0.0003815      0.0038998      0.0003412     -0.8325806      0.3049927
2459999744     -0.8462524      0.2759705      0.0039115      0.0004439      0.0038812      0.0003808     -0.8320923      0.3057251
2460249856     -0.8450928      0.2763977      0.0038533      0.0004654      0.0038764      0.0004539     -0.8313904      0.3064880
2460499968     -0.8457031      0.2770691      0.0038447      0.0005536      0.0038364      0.0004871     -0.8307190      0.3073120
2460749824     -0.8441772      0.2779846      0.0037894      0.0006082      0.0038402      0.0005517     -0.8300781      0.3079834
2460999936     -0.8442688      0.2789307      0.0038073      0.0006356      0.0038357      0.0006039     -0.8297424      0.3090210
2461249792     -0.8434448      0.2791138      0.0037651      0.0006945      0.0037961      0.0006466     -0.8288269      0.3095398
2461499904     -0.8426819      0.2800903      0.0037367      0.0007679      0.0037522      0.0007203     -0.8281860      0.3103943
2461749760     -0.8418579      0.2807312      0.0037222      0.0007932      0.0037274      0.0007799     -0.8276367      0.3107605
2461999872     -0.8420410      0.2819214      0.0036962      0.0008466      0.0037255      0.0008256     -0.8270569      0.3116150
2462249984     -0.8419495      0.2821655      0.0036867      0.0009208      0.0037050      0.0008774     -0.8269653      0.3129578
2462499840     -0.8414001      0.2831116      0.0036759      0.0009677      0.0036836      0.0009367     -0.8262939      0.3137207
2462749952     -0.8406982      0.2843018      0.0036263      0.0010333      0.0036707      0.0010080     -0.8258972      0.3143921
2462999808     -0.8407288      0.2840271      0.0036275      0.0010784      0.0036473      0.0010605     -0.8252869      0.3151550
2463249920     -0.8402405      0.2857666      0.0036142      0.0011675      0.0036294      0.0011275     -0.8248901      0.3156738
2463499776     -0.8395081      0.2859802      0.0035889      0.0012109      0.0036209      0.0011961     -0.8242798      0.3162842
2463749888     -0.8391418      0.2866516      0.0035877      0.0012784      0.0036139      0.0012572     -0.8235474      0.3168945
2464000000     -0.8388367      0.2877197      0.0035455      0.0013340      0.0035913      0.0013001     -0.8230896      0.3173828
2464249856     -0.8384094      0.2874146      0.0035493      0.0014036      0.0035839      0.0013556     -0.8224487      0.3179016
2464499968     -0.8375854      0.2885132      0.0035131      0.0014689      0.0035732      0.0014369     -0.8221130      0.3183899
2464749824     -0.8373718      0.2895203      0.0035386      0.0015268      0.0035579      0.0015028     -0.8215332      0.3187561
2464999936     -0.8369141      0.2901001      0.0035322      0.0015738      0.0035682      0.0015666     -0.8210449      0.3193665
2465249792     -0.8365479      0.2910461      0.0035248      0.0016382      0.0035663      0.0015886     -0.8207092      0.3197632
2465499904     -0.8361206      0.2916260      0.0034950      0.0017130      0.0035584      0.0016696     -0.8206787      0.3203430
2465749760     -0.8347778      0.2926025      0.0035055      0.0017579      0.0035350      0.0017276     -0.8200989      0.3211670
2465999872     -0.8347778      0.2933044      0.0035121      0.0018151      0.0035343      0.0017760     -0.8195801      0.3215942
2466249984     -0.8345337      0.2940674      0.0035131      0.0018981      0.0035315      0.0018570     -0.8193054      0.3223877
2466499840     -0.8341370      0.2945251      0.0035014      0.0019650      0.0035231      0.0019186     -0.8188477      0.3229370
2466749952     -0.8337708      0.2951660      0.0034888      0.0020177      0.0035069      0.0019627     -0.8182373      0.3236084
2466999808     -0.8333435      0.2966919      0.0034671      0.0020514      0.0035248      0.0020154     -0.8179321      0.3242798
2467249920     -0.8332214      0.2967529      0.0034943      0.0021088      0.0035214      0.0020812     -0.8174744      0.3249207
2467499776     -0.8319702      0.2972412      0.0034955      0.0021660      0.0035045      0.0021436     -0.8172607      0.3255310
2467749888     -0.8313293      0.2984009      0.0034828      0.0022154      0.0035193      0.0022068     -0.8166199      0.3261414
2467999744     -0.8309937      0.2988281      0.0034866      0.0022724      0.0035336      0.0022473     -0.8160400      0.3267822
2468249856     -0.8304443      0.2997742      0.0034974      0.0023139      0.0035362      0.0022905     -0.8156128      0.3275146
2468499968     -0.8302002      0.3011780      0.0034864      0.0023708      0.0035412      0.0023479     -0.8153381      0.3286133
2468749824     -0.8297729      0.3010864      0.0034847      0.0024571      0.0035484      0.0023901     -0.8150635      0.3292236
2468999936     -0.8292236      0.3015442      0.0034845      0.0024922      0.0035341      0.0024290     -0.8144836      0.3296509
2469249792     -0.8286133      0.3021240      0.0034754      0.0024929      0.0035229      0.0024531     -0.8141479      0.3308411
2469499904     -0.8281555      0.3031921      0.0034654      0.0025895      0.0035288      0.0025492     -0.8136902      0.3312988
2469749760     -0.8279724      0.3047791      0.0034773      0.0026362      0.0035193      0.0025880     -0.8132629      0.3317871
2469999872     -0.8281860      0.3049011      0.0034754      0.0026922      0.0035207      0.0026119     -0.8123474      0.3327942
2470249984     -0.8280029      0.3060608      0.0034714      0.0027342      0.0035169      0.0027020     -0.8120728      0.3333435
2470499840     -0.8267822      0.3064880      0.0034838      0.0027697      0.0035198      0.0027535     -0.8113098      0.3341675
2470749952     -0.8263550      0.3071594      0.0034738      0.0028262      0.0035152      0.0027716     -0.8107300      0.3348999
2470999808     -0.8264771      0.3083801      0.0034599      0.0028732      0.0035119      0.0028353     -0.8104248      0.3354797
2471249920     -0.8254700      0.3092957      0.0034597      0.0029290      0.0034966      0.0029035     -0.8096008      0.3365784
2471499776     -0.8244934      0.3098145      0.0034814      0.0029833      0.0035245      0.0029314     -0.8093567      0.3368225
2471749888     -0.8242798      0.3105164      0.0034666      0.0030205      0.0034950      0.0029685     -0.8086548      0.3375244
2472000000     -0.8241577      0.3107910      0.0034761      0.0030482      0.0035331      0.0030339     -0.8080444      0.3378906
2472249856     -0.8231506      0.3111572      0.0034692      0.0031159      0.0035169      0.0030789     -0.8078613      0.3385925
2472499968     -0.8224792      0.3121643      0.0034621      0.0031569      0.0035043      0.0031304     -0.8073730      0.3391113
2472749824     -0.8221436      0.3126526      0.0034535      0.0032208      0.0035081      0.0031590     -0.8066101      0.3399353
2472999936     -0.8222351      0.3136597      0.0034547      0.0032520      0.0035291      0.0032287     -0.8062134      0.3405151
2473249792     -0.8212280      0.3146362      0.0034649      0.0033104      0.0035164      0.0032718     -0.8056946      0.3411560
2473499904     -0.8208618      0.3149719      0.0034750      0.0033631      0.0034859      0.0033214     -0.8051453      0.3418884
2473749760     -0.8208008      0.3159180      0.0034678      0.0033817      0.0035315      0.0033586     -0.8051453      0.3426208
2473999872     -0.8197632      0.3170166      0.0034664      0.0034525      0.0035329      0.0034199     -0.8047485      0.3430176
2474249984     -0.8194275      0.3170166      0.0034916      0.0035026      0.0035357      0.0034456     -0.8039856      0.3435669
2474499840     -0.8183899      0.3184509      0.0034614      0.0035434      0.0035574      0.0034933     -0.8034058      0.3442993
2474749952     -0.8175964      0.3189697      0.0035017      0.0035760      0.0035684      0.0035331     -0.8029175      0.3449707
2474999808     -0.8175964      0.3198853      0.0035083      0.0036013      0.0035520      0.0035636     -0.8026428      0.3460083
2475249920     -0.8165283      0.3207092      0.0035102      0.0036478      0.0035443      0.0035884     -0.8020630      0.3467712
2475499776     -0.8172607      0.3216248      0.0034823      0.0036852      0.0035164      0.0036504     -0.8018494      0.3473206
2475749888     -0.8161621      0.3221436      0.0034771      0.0037172      0.0035417      0.0036769     -0.8013916      0.3479614
2475999744     -0.8159485      0.3232727      0.0034766      0.0037735      0.0035503      0.0037265     -0.8008728      0.3488464
2476249856     -0.8149719      0.3237305      0.0035000      0.0037880      0.0035303      0.0037572     -0.8004761      0.3494568
2476499968     -0.8148193      0.3239136      0.0035012      0.0038257      0.0035601      0.0037546     -0.8000183      0.3502808
2476749824     -0.8141785      0.3251038      0.0035036      0.0038679      0.0035331      0.0038276     -0.7994690      0.3507996
2476999936     -0.8140869      0.3252869      0.0035167      0.0038946      0.0035496      0.0038743     -0.7991638      0.3511963
2477249792     -0.8131104      0.3258667      0.0034819      0.0039511      0.0035567      0.0038688     -0.7985840      0.3523254
2477499904     -0.8121338      0.3270569      0.0034833      0.0039670      0.0035403      0.0039091     -0.7979126      0.3526306
2477749760     -0.8117065      0.3274231      0.0035150      0.0039685      0.0035410      0.0039179     -0.7976074      0.3537903
2477999872     -0.8112183      0.3285828      0.0034974      0.0040154      0.0035238      0.0039675     -0.7965698      0.3538513
2478249984     -0.8104858      0.3289795      0.0034673      0.0040348      0.0035264      0.0039883     -0.7960815      0.3544922
2478499840     -0.8100891      0.3293762      0.0034535      0.0040500      0.0034988      0.0040021     -0.7959595      0.3550110
2478749952     -0.8088074      0.3302307      0.0034511      0.0041180      0.0034773      0.0040495     -0.7952271      0.3562622
2478999808     -0.8090820      0.3308105      0.0034506      0.0041277      0.0034797      0.0040636     -0.7947998      0.3568115
2479249920     -0.8076172      0.3309021      0.0033963      0.0041335      0.0034549      0.0041041     -0.7944031      0.3577576
2479499776     -0.8075562      0.3314819      0.0034058      0.0041862      0.0034649      0.0041285     -0.7939758      0.3584900
2479749888     -0.8068237      0.3322449      0.0033846      0.0041916      0.0034280      0.0041330     -0.7936401      0.3593445
2480000000     -0.8064270      0.3324890      0.0033617      0.0042436      0.0033979      0.0041881     -0.7930298      0.3600159
2480249856     -0.8060913      0.3341675      0.0033228      0.0042675      0.0033872      0.0042269     -0.7925415      0.3609924
2480499968     -0.8059692      0.3351746      0.0032921      0.0042868      0.0033579      0.0042305     -0.7921448      0.3618469
2480749824     -0.8054810      0.3359375      0.0032802      0.0043185      0.0033040      0.0042436     -0.7917786      0.3628235
2480999936     -0.8056641      0.3370667      0.0032651      0.0043473      0.0032954      0.0042868     -0.7911987      0.3636169
2481249792     -0.8054199      0.3383789      0.0032556      0.0043952      0.0032625      0.0043507     -0.7907410      0.3653259
2481499904     -0.8050537      0.3391418      0.0031905      0.0044141      0.0032506      0.0043972     -0.7903442      0.3662415
2481749760     -0.8046265      0.3402100      0.0031517      0.0044692      0.0032139      0.0044007     -0.7899780      0.3669739
2481999872     -0.8044434      0.3410950      0.0030966      0.0045161      0.0031843      0.0044646     -0.7896118      0.3680115
2482249984     -0.8037109      0.3424683      0.0030763      0.0045719      0.0031393      0.0045156     -0.7891846      0.3690186
2482499840     -0.8032532      0.3433228      0.0030770      0.0046339      0.0031095      0.0045426     -0.7886658      0.3700256
2482749952     -0.8028259      0.3435669      0.0030289      0.0046880      0.0030811      0.0046053     -0.7876587      0.3707581
2482999808     -0.8019409      0.3445129      0.0030012      0.0046949      0.0030465      0.0046556     -0.7871094      0.3717957
2483249920     -0.8017578      0.3451538      0.0029821      0.0047853      0.0030212      0.0047264     -0.7861328      0.3728333
2483499776     -0.8010559      0.3464355      0.0029593      0.0048409      0.0030136      0.0048134     -0.7855835      0.3737793
2483749888     -0.7997742      0.3470764      0.0029263      0.0048931      0.0029984      0.0048139     -0.7846375      0.3746338
2483999744     -0.7992859      0.3479309      0.0029340      0.0049503      0.0029788      0.0049047     -0.7838440      0.3753967
2484249856     -0.7987976      0.3496094      0.0028811      0.0050042      0.0029304      0.0049281     -0.7831116      0.3771973
2484499968     -0.7980042      0.3500061      0.0028591      0.0050197      0.0029383      0.0049889     -0.7822266      0.3771362
2484749824     -0.7977600      0.3505859      0.0028453      0.0051029      0.0029137      0.0050528     -0.7812195      0.3778076
2484999936     -0.7971497      0.3517761      0.0028386      0.0051739      0.0028846      0.0051024     -0.7807312      0.3786926
2485249792     -0.7968140      0.3528137      0.0028257      0.0052319      0.0028839      0.0051725     -0.7796326      0.3794250
2485499904     -0.7959290      0.3540955      0.0028214      0.0053031      0.0028806      0.0052552     -0.7793579      0.3788757
2485749760     -0.7950134      0.3551636      0.0027840      0.0053749      0.0028465      0.0052712     -0.7781372      0.3808899
2485999872     -0.7936096      0.3551941      0.0027881      0.0054185      0.0028324      0.0053718     -0.7768860      0.3813477
2486249984     -0.7933350      0.3565369      0.0027559      0.0054958      0.0027993      0.0054061     -0.7758484      0.3823242
2486499840     -0.7929993      0.3572388      0.0027380      0.0055377      0.0028071      0.0054941     -0.7749329      0.3830261
2486749952     -0.7922668      0.3584595      0.0027702      0.0055897      0.0028017      0.0055227     -0.7743530      0.3840637
2486999808     -0.7911072      0.3591614      0.0027356      0.0056515      0.0028174      0.0055809     -0.7736206      0.3847656
2487249920     -0.7902527      0.3599548      0.0027049      0.0057077      0.0027921      0.0056314     -0.7725220      0.3858032
2487499776     -0.7900391      0.3600769      0.0027318      0.0057518      0.0027788      0.0056942     -0.7715149      0.3870850
2487749888     -0.7890320      0.3616028      0.0027137      0.0058272      0.0027788      0.0057621     -0.7705078      0.3877869
