# Hz  S  RI  R  75
! ADVANTEST Corporation R3860A
! Date: Sun Jul 02 19:05:37 2006
! P1234 S-Parameter Z1=75 Z2=75 Z3=75 Z4=75
1.0000000000e+007 -6.511813e-002 -4.223427e-002  9.349166e-001 -4.972509e-002 -3.315640e-005 -3.977422e-005 -3.355555e-005 -4.039384e-005
                   9.349185e-001 -4.972677e-002 -6.498635e-002 -4.213536e-002 -3.325300e-005 -3.971110e-005 -3.365419e-005 -4.032854e-005
                  -6.004141e-005 -1.680693e-005 -6.025597e-005 -1.676699e-005 -6.414050e-002 -4.992192e-002  9.358356e-001 -5.746791e-002
                  -6.063380e-005 -1.744314e-005 -6.085009e-005 -1.740249e-005  9.358351e-001 -5.746805e-002 -6.412840e-002 -4.993135e-002
1.3743750000e+007  1.579505e-004  4.487580e-003  1.000120e+000 -5.872939e-003 -3.671668e-005  1.111800e-005 -3.657959e-005  1.059360e-005
                   1.000121e+000 -5.872305e-003  1.910311e-004  4.492678e-003 -3.646200e-005  1.173053e-005 -3.631887e-005  1.120067e-005
                  -1.261781e-005  2.504989e-006 -1.221178e-005  3.158157e-006  4.312396e-004  4.505901e-003  1.000368e+000 -5.853699e-003
                  -1.267707e-005  2.160147e-006 -1.226803e-005  2.807779e-006  1.000368e+000 -5.853940e-003  4.128814e-004  4.511977e-003
1.7487500000e+007 -3.505354e-004  6.312661e-003  9.995738e-001 -6.869342e-003  2.520236e-005  7.622081e-005  2.487600e-005  7.683346e-005
                   9.995745e-001 -6.869563e-003 -3.271704e-004  6.319736e-003  2.516931e-005  7.677515e-005  2.484158e-005  7.739422e-005
                   2.668346e-005  6.634476e-005  2.628921e-005  6.713551e-005 -3.529787e-004  5.402863e-003  9.995501e-001 -7.786714e-003
                   2.649407e-005  6.657306e-005  2.609399e-005  6.737210e-005  9.995494e-001 -7.787126e-003 -3.736019e-004  5.394786e-003
2.1231250000e+007 -3.745555e-004  7.099007e-003  9.995109e-001 -8.910899e-003 -3.305535e-005 -3.159109e-006 -3.365267e-005 -3.899984e-006
                   9.995104e-001 -8.911265e-003 -3.477632e-004  7.096277e-003 -3.312684e-005 -3.211575e-006 -3.373183e-005 -3.954973e-006
                  -7.544756e-005  3.759059e-005 -7.527151e-005  3.684303e-005 -5.304813e-004  6.904389e-003  9.993311e-001 -9.105932e-003
                  -7.560068e-005  3.748862e-005 -7.542416e-005  3.673607e-005  9.993298e-001 -9.105308e-003 -5.522966e-004  6.901935e-003
2.4975000000e+007 -5.276761e-004  7.687885e-003  9.993343e-001 -1.114306e-002 -3.652872e-008  4.495564e-005  1.383238e-006  4.505757e-005
                   9.993350e-001 -1.114164e-002 -4.480443e-004  7.691489e-003 -1.108537e-006  4.512006e-005  3.064316e-007  4.521804e-005
                  -2.536325e-005  5.952576e-005 -2.597701e-005  5.917772e-005 -4.591048e-004  7.648315e-003  9.993412e-001 -1.119487e-002
                  -2.435621e-005  6.020811e-005 -2.497602e-005  5.987031e-005  9.993396e-001 -1.119473e-002 -5.051494e-004  7.626276e-003
2.8718750000e+007 -5.675249e-004  9.576326e-003  9.992450e-001 -1.207727e-002  4.886138e-006  1.919171e-005  4.136062e-006  1.886828e-005
                   9.992447e-001 -1.207569e-002 -4.733496e-004  9.581272e-003  5.030814e-006  1.826575e-005  4.289001e-006  1.793932e-005
                   3.100295e-005  1.727752e-005  2.982012e-005  1.773174e-005 -1.038641e-003  9.434913e-003  9.987040e-001 -1.223353e-002
                   3.108147e-005  1.850378e-005  2.988746e-005  1.895130e-005  9.987036e-001 -1.223463e-002 -1.084119e-003  9.407701e-003
3.2462500000e+007 -8.115482e-004  1.066945e-002  9.989293e-001 -1.380638e-002  5.718035e-005  1.927519e-005  5.678875e-005  1.838593e-005
                   9.989284e-001 -1.380549e-002 -7.308435e-004  1.067638e-002  5.487067e-005  2.035009e-005  5.449528e-005  1.948131e-005
                  -5.582952e-006  7.081608e-005 -5.040674e-006  7.133880e-005 -2.020597e-004  1.071425e-002  9.994552e-001 -1.377690e-002
                  -5.447276e-006  7.009102e-005 -4.859672e-006  7.061700e-005  9.994555e-001 -1.377656e-002 -2.876222e-004  1.069020e-002
3.6206250000e+007 -2.040275e-004  1.190299e-002  9.994816e-001 -1.540436e-002 -4.650989e-006  6.157601e-005 -5.712328e-006  6.156725e-005
                   9.994797e-001 -1.540432e-002 -8.863293e-005  1.189362e-002 -5.857109e-006  6.271256e-005 -6.915268e-006  6.267286e-005
                   1.096567e-005  7.542406e-005  1.040839e-005  7.544931e-005 -1.088083e-003  1.237455e-002  9.984887e-001 -1.493881e-002
                   1.152280e-005  7.436443e-005  1.095884e-005  7.436499e-005  9.984877e-001 -1.493913e-002 -1.188904e-003  1.235287e-002
3.9950000000e+007 -6.356859e-004  1.303449e-002  9.989783e-001 -1.709558e-002  1.531171e-005  5.023876e-005  1.619042e-005  5.180894e-005
                   9.989790e-001 -1.709555e-002 -4.985952e-004  1.302769e-002  1.406128e-005  4.895547e-005  1.494883e-005  5.055071e-005
                   3.809795e-005  5.562689e-005  3.658360e-005  5.518290e-005 -1.128078e-003  1.397023e-002  9.983590e-001 -1.615539e-002
                   3.973691e-005  5.792561e-005  3.820331e-005  5.748548e-005  9.983557e-001 -1.615290e-002 -1.248300e-003  1.397466e-002
4.3693750000e+007 -1.223953e-003  1.462293e-002  9.983120e-001 -1.832508e-002 -4.215472e-005  1.257028e-004 -4.170680e-005  1.270430e-004
                   9.983127e-001 -1.832460e-002 -1.063736e-003  1.462894e-002 -4.221281e-005  1.254511e-004 -4.173535e-005  1.267913e-004
                  -3.404872e-005  1.321597e-004 -3.503503e-005  1.344237e-004 -1.183629e-003  1.442465e-002  9.982113e-001 -1.854631e-002
                  -3.511281e-005  1.329776e-004 -3.614469e-005  1.352857e-004  9.982083e-001 -1.854279e-002 -1.309216e-003  1.438858e-002
4.7437500000e+007 -1.624970e-003  1.615198e-002  9.978548e-001 -1.960370e-002  2.519227e-005  1.343680e-004  2.596633e-005  1.350810e-004
                   9.978580e-001 -1.960439e-002 -1.379726e-003  1.619019e-002  2.568625e-005  1.312420e-004  2.642303e-005  1.319983e-004
                  -5.962462e-006  1.548834e-004 -7.288178e-006  1.537170e-004 -1.206398e-003  1.724922e-002  9.980694e-001 -1.851916e-002
                  -5.194383e-006  1.523510e-004 -6.570732e-006  1.512640e-004  9.980709e-001 -1.851949e-002 -1.371324e-003  1.726203e-002
5.1181250000e+007 -9.624039e-004  1.778826e-002  9.984082e-001 -2.079048e-002  7.863815e-005  1.575970e-004  8.094974e-005  1.549796e-004
                   9.984117e-001 -2.079634e-002 -7.256541e-004  1.782436e-002  7.400290e-005  1.569890e-004  7.639847e-005  1.544320e-004
                   9.727290e-005  1.831973e-004  9.319143e-005  1.868087e-004 -5.821586e-004  1.833476e-002  9.985628e-001 -2.025820e-002
                   9.906128e-005  1.830569e-004  9.501194e-005  1.866954e-004  9.985640e-001 -2.025785e-002 -7.990003e-004  1.834883e-002
5.4925000000e+007 -1.490740e-003  1.894547e-002  9.977694e-001 -2.248865e-002  1.096286e-005  9.465082e-005  1.312974e-005  9.372369e-005
                   9.977742e-001 -2.249068e-002 -1.245616e-003  1.892469e-002  5.880942e-006  9.828057e-005  8.259931e-006  9.728356e-005
                  -6.057913e-005  9.378404e-005 -6.484161e-005  9.700367e-005 -7.865429e-004  1.896992e-002  9.982421e-001 -2.245089e-002
                  -5.860102e-005  9.230625e-005 -6.265459e-005  9.542418e-005  9.982401e-001 -2.245031e-002 -1.011997e-003  1.897952e-002
5.8668750000e+007 -1.334874e-003  2.054717e-002  9.978490e-001 -2.371998e-002 -4.622570e-006  1.037765e-004 -3.354293e-006  1.003595e-004
                   9.978464e-001 -2.372458e-002 -1.007645e-003  2.050875e-002 -3.970690e-006  1.019700e-004 -2.702205e-006  9.853652e-005
                  -4.570683e-005  1.579508e-004 -4.788103e-005  1.570998e-004 -1.321733e-003  2.100401e-002  9.975694e-001 -2.324302e-002
                  -4.108937e-005  1.573029e-004 -4.315512e-005  1.563639e-004  9.975661e-001 -2.323995e-002 -1.579970e-003  2.101395e-002
6.2412500000e+007 -1.135501e-003  2.124375e-002  9.979235e-001 -2.584548e-002 -3.980003e-005  1.548819e-004 -3.955555e-005  1.573816e-004
                   9.979242e-001 -2.584995e-002 -7.958741e-004  2.121347e-002 -4.168894e-005  1.551047e-004 -4.146748e-005  1.576169e-004
                  -6.588136e-006  1.316492e-004 -6.262837e-006  1.321368e-004 -1.321226e-003  2.177479e-002  9.974426e-001 -2.529094e-002
                  -6.197350e-006  1.344550e-004 -5.896809e-006  1.349293e-004  9.974372e-001 -2.528781e-002 -1.576871e-003  2.180007e-002
6.6156250000e+007 -1.761432e-003  2.291779e-002  9.971817e-001 -2.698035e-002  2.345227e-005  2.226446e-004  2.666329e-005  2.237364e-004
                   9.971858e-001 -2.698066e-002 -1.373674e-003  2.292551e-002  2.089577e-005  2.217107e-004  2.412007e-005  2.228326e-004
                   4.630347e-005  1.860932e-004  4.449216e-005  1.851245e-004 -1.467198e-003  2.319811e-002  9.971182e-001 -2.670233e-002
                   4.960700e-005  1.859218e-004  4.793095e-005  1.850509e-004  9.971175e-001 -2.669973e-002 -1.799226e-003  2.320574e-002
6.9900000000e+007 -2.042320e-003  2.411706e-002  9.967712e-001 -2.863375e-002 -5.078209e-005  1.009592e-004 -4.610289e-005  1.025477e-004
                   9.967722e-001 -2.863519e-002 -1.625207e-003  2.407132e-002 -5.461018e-005  9.854027e-005 -4.994917e-005  1.003137e-004
                  -4.240144e-005  9.199209e-005 -4.600587e-005  8.920973e-005 -1.386285e-003  2.455959e-002  9.970385e-001 -2.816964e-002
                  -4.026804e-005  9.234593e-005 -4.384260e-005  8.965953e-005  9.970378e-001 -2.817091e-002 -1.748890e-003  2.455867e-002
7.3643750000e+007 -2.169221e-003  2.558115e-002  9.965233e-001 -2.998948e-002 -2.039146e-005  2.507552e-004 -1.992033e-005  2.507658e-004
                   9.965262e-001 -2.998944e-002 -1.684487e-003  2.555077e-002 -2.885799e-005  2.499261e-004 -2.848386e-005  2.499139e-004
                   7.608151e-006  2.089136e-004  2.176592e-006  2.085944e-004 -1.894414e-003  2.538992e-002  9.963615e-001 -3.016334e-002
                   8.703650e-006  2.092620e-004  3.164998e-006  2.090211e-004  9.963598e-001 -3.015914e-002 -2.286881e-003  2.540179e-002
7.7387500000e+007 -1.806376e-003  2.670286e-002  9.967062e-001 -3.167873e-002 -4.275071e-005  1.220855e-004 -3.888327e-005  1.252212e-004
                   9.967114e-001 -3.167825e-002 -1.356063e-003  2.670754e-002 -4.492650e-005  1.234050e-004 -4.101772e-005  1.265029e-004
                  -4.457416e-005  1.290813e-004 -4.598535e-005  1.291258e-004 -1.873016e-003  2.649223e-002  9.962158e-001 -3.189687e-002
                  -4.279846e-005  1.285834e-004 -4.418673e-005  1.285635e-004  9.962125e-001 -3.189551e-002 -2.278090e-003  2.648626e-002
8.1131250000e+007 -2.038231e-003  2.738419e-002  9.963633e-001 -3.385267e-002  9.508567e-006  1.833188e-004  1.606325e-005  1.861199e-004
                   9.963633e-001 -3.385438e-002 -1.473895e-003  2.733364e-002  4.939906e-006  1.833439e-004  1.145324e-005  1.863911e-004
                  -1.587536e-005  1.805532e-004 -2.074367e-005  1.810936e-004 -1.769006e-003  2.732265e-002  9.961312e-001 -3.388220e-002
                  -9.547466e-006  1.835904e-004 -1.432325e-005  1.841659e-004  9.961244e-001 -3.388128e-002 -2.212942e-003  2.734226e-002
8.4875000000e+007 -2.003788e-003  2.913990e-002  9.962288e-001 -3.490355e-002  3.281922e-005  1.694339e-004  3.670667e-005  1.657457e-004
                   9.962312e-001 -3.490349e-002 -1.419096e-003  2.913351e-002  2.835157e-005  1.696594e-004  3.231022e-005  1.659484e-004
                   1.044483e-004  1.558903e-004  1.032616e-004  1.565487e-004 -1.357108e-003  3.031661e-002  9.963397e-001 -3.369516e-002
                   1.063705e-004  1.555865e-004  1.053303e-004  1.561198e-004  9.963386e-001 -3.369693e-002 -1.847774e-003  3.037187e-002
8.8618750000e+007 -1.876381e-003  3.057290e-002  9.961623e-001 -3.629151e-002  2.454075e-005  1.786998e-004  2.795366e-005  1.797789e-004
                   9.961706e-001 -3.629338e-002 -1.301256e-003  3.057988e-002  2.051003e-005  1.795779e-004  2.386920e-005  1.804906e-004
                   2.918934e-005  1.758310e-004  2.401296e-005  1.774307e-004 -1.939148e-003  3.112662e-002  9.955587e-001 -3.574058e-002
                   3.259128e-005  1.754582e-004  2.726881e-005  1.770964e-004  9.955519e-001 -3.573807e-002 -2.458930e-003  3.113497e-002
9.2362500000e+007 -2.322136e-003  3.237827e-002  9.955876e-001 -3.732309e-002 -3.622864e-006  2.258998e-004 -1.286526e-007  2.253553e-004
                   9.955943e-001 -3.732336e-002 -1.617102e-003  3.237040e-002 -8.819958e-006  2.270530e-004 -5.126407e-006  2.264689e-004
                  -7.028013e-006  1.760565e-004 -1.406700e-005  1.789641e-004 -1.506358e-003  3.267139e-002  9.957680e-001 -3.702902e-002
                  -4.513044e-006  1.739752e-004 -1.144763e-005  1.769530e-004  9.957606e-001 -3.702152e-002 -2.087384e-003  3.267766e-002
9.6106250000e+007 -1.771269e-003  3.356735e-002  9.959561e-001 -3.895284e-002  4.456915e-006  2.059784e-004  8.112740e-006  2.064239e-004
                   9.959638e-001 -3.894865e-002 -1.026360e-003  3.358730e-002 -2.253694e-006  2.023934e-004  1.356836e-006  2.028747e-004
                   2.102227e-005  1.819843e-004  1.715688e-005  1.794695e-004 -1.015574e-003  3.396708e-002  9.960277e-001 -3.856886e-002
                   2.510287e-005  1.847426e-004  2.109642e-005  1.820520e-004  9.960201e-001 -3.856777e-002 -1.654655e-003  3.395646e-002
9.9850000000e+007 -2.248398e-003  3.421932e-002  9.952898e-001 -4.115872e-002  1.105167e-005  2.576631e-004  1.875345e-005  2.601314e-004
                   9.952940e-001 -4.116233e-002 -1.461706e-003  3.417772e-002  6.218726e-006  2.588902e-004  1.399577e-005  2.610806e-004
                  -5.229210e-005  2.102228e-004 -5.589773e-005  2.135058e-004 -1.530558e-003  3.512319e-002  9.952692e-001 -4.025225e-002
                  -4.518339e-005  2.136131e-004 -4.880095e-005  2.165851e-004  9.952627e-001 -4.024800e-002 -2.231300e-003  3.509768e-002
1.0359375000e+008 -1.723496e-003  3.656550e-002  9.956379e-001 -4.165213e-002  2.635558e-005  1.767663e-004  3.070062e-005  1.773551e-004
                   9.956454e-001 -4.164977e-002 -8.510625e-004  3.651043e-002  2.135851e-005  1.775746e-004  2.568111e-005  1.781101e-004
                   1.677812e-005  1.577158e-004  1.122342e-005  1.605133e-004 -5.293787e-004  3.642865e-002  9.960065e-001 -4.179144e-002
                   2.012316e-005  1.583605e-004  1.474127e-005  1.608292e-004  9.959934e-001 -4.178722e-002 -1.329839e-003  3.637907e-002
1.0733750000e+008 -1.547240e-003  3.776465e-002  9.955935e-001 -4.328664e-002  3.235790e-005  2.602557e-004  3.842215e-005  2.609613e-004
                   9.956024e-001 -4.328113e-002 -6.624384e-004  3.770919e-002  2.447706e-005  2.596840e-004  3.067607e-005  2.605043e-004
                   3.561844e-005  2.429931e-004  2.797982e-005  2.418488e-004 -1.079261e-003  3.775223e-002  9.952245e-001 -4.327068e-002
                   4.367846e-005  2.428279e-004  3.602883e-005  2.417381e-004  9.952116e-001 -4.326895e-002 -1.887709e-003  3.775819e-002
1.1108125000e+008 -1.339523e-003  3.959456e-002  9.956083e-001 -4.428425e-002  4.210904e-005  2.466907e-004  4.709223e-005  2.449428e-004
                   9.956144e-001 -4.428367e-002 -3.735993e-004  3.954335e-002  3.478145e-005  2.478932e-004  3.982570e-005  2.462439e-004
                   3.557163e-005  2.368182e-004  2.916789e-005  2.380512e-004 -9.543896e-004  3.984703e-002  9.950860e-001 -4.400880e-002
                   3.952661e-005  2.356480e-004  3.332345e-005  2.367875e-004  9.950740e-001 -4.400324e-002 -1.817524e-003  3.985479e-002
1.1482500000e+008 -1.608424e-003  4.030452e-002  9.951354e-001 -4.640680e-002  3.607816e-005  2.309928e-004  4.304051e-005  2.293724e-004
                   9.951377e-001 -4.640193e-002 -5.651040e-004  4.026058e-002  2.828630e-005  2.332256e-004  3.535152e-005  2.315221e-004
                  -3.719027e-006  2.215976e-004 -1.079702e-005  2.241664e-004 -6.418824e-004  4.085280e-002  9.951013e-001 -4.580830e-002
                   4.754727e-006  2.213076e-004 -2.511066e-006  2.240792e-004  9.950906e-001 -4.580408e-002 -1.612455e-003  4.091582e-002
1.1856875000e+008 -1.684507e-003  4.208994e-002  9.948308e-001 -4.744705e-002  1.245517e-007  3.309819e-004  8.542336e-006  3.285724e-004
                   9.948390e-001 -4.744628e-002 -5.886750e-004  4.205660e-002 -8.592498e-006  3.299958e-004 -7.683411e-008  3.276494e-004
                  -2.896383e-005  3.011699e-004 -3.551008e-005  3.009355e-004 -6.683171e-004  4.306465e-002  9.947734e-001 -4.643632e-002
                  -1.923406e-005  3.015021e-004 -2.579176e-005  3.011772e-004  9.947644e-001 -4.642534e-002 -1.735836e-003  4.311829e-002
1.2231250000e+008 -1.706531e-003  4.363381e-002  9.945949e-001 -4.872495e-002 -5.479648e-005  2.944646e-004 -4.614007e-005  2.965598e-004
                   9.946078e-001 -4.872768e-002 -5.118160e-004  4.361999e-002 -6.519492e-005  2.957252e-004 -5.695992e-005  2.980346e-004
                  -9.862139e-006  2.381583e-004 -1.830353e-005  2.357886e-004 -4.333556e-004  4.414731e-002  9.947304e-001 -4.819891e-002
                  -4.599843e-008  2.395479e-004 -8.546305e-006  2.373149e-004  9.947135e-001 -4.819480e-002 -1.544535e-003  4.417394e-002
1.2605625000e+008 -1.325925e-003  4.518806e-002  9.947257e-001 -5.004634e-002 -1.338453e-005  2.147411e-004 -7.139097e-007  2.112146e-004
                   9.947337e-001 -5.003570e-002 -1.028374e-004  4.510621e-002 -2.112534e-005  2.165676e-004 -8.008313e-006  2.133150e-004
                   5.061950e-006  2.802256e-004 -3.818624e-006  2.836518e-004 -4.731417e-004  4.540236e-002  9.944072e-001 -4.980142e-002
                   1.342827e-005  2.760483e-004  4.592150e-006  2.797046e-004  9.943885e-001 -4.980015e-002 -1.616269e-003  4.538438e-002
1.2980000000e+008 -1.315344e-003  4.600218e-002  9.945192e-001 -5.203069e-002 -5.104791e-005  2.456665e-004 -3.732034e-005  2.474623e-004
                   9.945372e-001 -5.202420e-002  3.797911e-005  4.599266e-002 -5.655059e-005  2.440113e-004 -4.288397e-005  2.453345e-004
                  -4.976835e-005  2.610730e-004 -4.972509e-005  2.578309e-004 -5.351901e-004  4.648095e-002  9.939815e-001 -5.150992e-002
                  -4.175641e-005  2.640643e-004 -4.182936e-005  2.603647e-004  9.939744e-001 -5.150513e-002 -1.836598e-003  4.656554e-002
1.3354375000e+008 -1.627882e-003  4.718583e-002  9.939331e-001 -5.371860e-002  4.623131e-005  2.895602e-004  5.752473e-005  2.905885e-004
                   9.939474e-001 -5.370860e-002 -2.527432e-004  4.711167e-002  3.178063e-005  2.914165e-004  4.341451e-005  2.926662e-004
                  -1.363344e-005  2.728998e-004 -2.171494e-005  2.746204e-004 -2.850592e-004  4.678413e-002  9.939332e-001 -5.401338e-002
                  -4.860502e-006  2.694993e-004 -1.291654e-005  2.708147e-004  9.939255e-001 -5.400355e-002 -1.615912e-003  4.694267e-002
1.3728750000e+008 -1.789590e-003  4.910059e-002  9.935357e-001 -5.461993e-002  7.538090e-005  2.802396e-004  8.779675e-005  2.826984e-004
                   9.935533e-001 -5.461792e-002 -2.927978e-004  4.905588e-002  6.226763e-005  2.836117e-004  7.480248e-005  2.859429e-004
                  -4.901376e-007  2.804137e-004 -1.238720e-005  2.808960e-004 -3.729165e-004  4.869444e-002  9.935537e-001 -5.497188e-002
                   6.656457e-006  2.732892e-004 -4.785692e-006  2.741909e-004  9.935369e-001 -5.497203e-002 -1.706451e-003  4.877713e-002
1.4103125000e+008 -1.328132e-003  4.986292e-002  9.936966e-001 -5.669210e-002 -1.236913e-010  2.828318e-004  1.294701e-005  2.863128e-004
                   9.937080e-001 -5.668980e-002  1.604054e-004  4.983041e-002 -1.040765e-005  2.837259e-004  2.833571e-006  2.869808e-004
                   1.963524e-005  2.954106e-004  6.795051e-006  3.008979e-004  1.951456e-004  4.990517e-002  9.937426e-001 -5.657879e-002
                   2.756751e-005  2.960282e-004  1.496013e-005  3.020673e-004  9.937230e-001 -5.656241e-002 -1.300752e-003  5.004750e-002
