# Hz S RI R 50
976060000	-0.528865143874381	-0.602767857028739	0.387578399914665	-0.359719380432965	5.69025600267814E-04	-1.74244656937768E-05	1.50077654709075E-04	6.37738738798663E-05
			0.388696261327899	-0.35998310186745	-0.50904450269788	-0.618250709096672	5.28319561832303E-04	-5.87512045840812E-05	4.26718024924151E-04	1.84580555704445E-05
			5.85190158394645E-04	-5.62988389220839E-05	5.19659403545828E-04	-6.07178150661132E-05	-0.508423242763504	-0.630950676180071	0.386555233442428	-0.351355864627331
			1.78478275834322E-04	8.72203051514427E-05	4.5081787303063E-04	2.9726819900488E-05	0.385825279427116	-0.350739396734629	-0.531137641368454	-0.604687110429655
976310000	-0.530199741082675	-0.60177127361343	0.387732915107421	-0.360809084373288	5.77395459059766E-04	-3.54205626307778E-05	1.5906564221885E-04	7.99121875322872E-05
			0.388346098872013	-0.36085171033254	-0.508515074305417	-0.616832520972766	5.50857129407024E-04	-7.07237082019835E-05	3.97698972187189E-04	4.08050806530458E-05
			5.38555265334525E-04	9.29648410945657E-06	5.4063891238818E-04	-9.72932018443494E-05	-0.507781387236606	-0.630504994599716	0.386619707865625	-0.351427128874635
			1.6759666267043E-04	7.96512341611611E-05	4.10353627828224E-04	7.06318547990911E-05	0.385502354356943	-0.351973431346146	-0.531183289515408	-0.606770425911601
976560000	-0.528360493588062	-0.600416590511113	0.387928453211607	-0.361509599252637	5.67771390030633E-04	-3.03552221211354E-05	1.62679753614066E-04	6.47646273764458E-05
			0.387411690217448	-0.362001443072911	-0.510525331937007	-0.616034072329975	5.71164689841402E-04	-1.13158786412825E-04	4.10767438730006E-04	6.05456896460205E-05
			5.82948685768322E-04	-2.78527264323649E-05	5.29894233370045E-04	-1.05423708232058E-04	-0.504416508048907	-0.629805412824499	0.385756014012283	-0.353724195425647
			1.7838746998267E-04	7.46012493549147E-05	4.55101854387586E-04	3.1557134415583E-05	0.386687626606291	-0.351684807260083	-0.534657534910426	-0.6046110045595
976810000	-0.531036091951975	-0.600578856559521	0.387519486457391	-0.362527110367773	5.87213159614489E-04	-5.96648457890149E-05	1.62048801455345E-04	2.20443678130473E-05
			0.38783069891153	-0.3627447619242	-0.509934650664243	-0.614935584684268	5.35344975856883E-04	-1.16604787416424E-04	4.17813801677301E-04	5.43361876502246E-05
			5.82138082894241E-04	-3.65709029059099E-05	5.34921898054866E-04	-1.1133597124778E-04	-0.507853533850677	-0.629791534994618	0.386203642071772	-0.353630503580775
			1.50534848284949E-04	7.55610735262476E-05	4.16006352898068E-04	4.39761598925929E-05	0.385810899901546	-0.352348333874887	-0.53453268971232	-0.602871682281639
977060000	-0.530549468667553	-0.5981633020529	0.38807294226857	-0.363314295259938	5.76778843609426E-04	-4.24739297015696E-05	1.68670999878827E-04	9.20970469313518E-05
			0.387890887297567	-0.363694445883081	-0.510371073077919	-0.614440431682958	5.74986656994652E-04	-1.45389592287546E-04	4.31367098997452E-04	6.53148572715398E-05
			6.07062455832706E-04	-4.46586873797417E-05	5.72080535444581E-04	-1.27818559397134E-04	-0.509058675388027	-0.629239724414852	0.387312262500838	-0.354322456978624
			1.72977545206501E-04	3.4220593902321E-05	4.29799140426228E-04	6.69564361417747E-05	0.386701916353904	-0.354396365720302	-0.534459092333204	-0.606071766708322
977310000	-0.529613852059002	-0.597938661712556	0.386959280773741	-0.363911764096089	5.77440181582942E-04	-4.57413308254964E-05	1.83538745677741E-04	7.86512888276049E-05
			0.387451360023896	-0.364733511373305	-0.510881194230278	-0.613541358728816	5.77976516650415E-04	-1.13063670467611E-04	4.21287051289379E-04	8.64587529113889E-05
			5.9189443242007E-04	-3.57949736130287E-05	5.59900962693162E-04	-1.3008986805167E-04	-0.509665395439882	-0.626958863628734	0.385906108679751	-0.354681737876833
			1.74924578598328E-04	5.26238027757331E-05	4.10059018847859E-04	8.27267372734895E-05	0.38553484799456	-0.354962696386855	-0.533113271350708	-0.603261481978931
977560000	-0.531091458966862	-0.597378141753283	0.386859592576834	-0.365078050207327	5.71715839023059E-04	-4.83939219085693E-05	1.69665845781539E-04	5.59461264676414E-05
			0.387377118755228	-0.36520453645937	-0.511463885825162	-0.612529300311828	5.31870366365147E-04	-1.71202311428109E-04	4.41735328139858E-04	6.04385099336375E-05
			5.57594845960896E-04	-1.85558920065508E-05	5.51499798444708E-04	-1.78393088090648E-04	-0.507915870882664	-0.627735871573604	0.386692244949215	-0.355240034996742
			1.60383220580884E-04	4.86771157667037E-05	4.39046753956773E-04	9.38006294962795E-05	0.385620450047217	-0.354387652150556	-0.535692924540742	-0.602629030572041
977810000	-0.530622005129965	-0.59572614263625	0.386870509642359	-0.365307450911628	5.76575669654037E-04	-4.57729150688455E-05	1.38599212406844E-04	4.70237233930239E-05
			0.387237653247272	-0.365700663211678	-0.511215987532579	-0.610730244750882	5.42101817227105E-04	-1.61043598717223E-04	4.41832424768735E-04	7.57329616402823E-05
			5.67806530770258E-04	-5.78059925430684E-05	5.24249246868739E-04	-1.82160363007783E-04	-0.51020780638304	-0.625431802868274	0.385647705768968	-0.354665178705771
			1.41520987334211E-04	6.49582947705183E-05	4.40589449273498E-04	5.59453177460166E-05	0.385435720420946	-0.356321602290604	-0.533256012895185	-0.60232174748047
978060000	-0.531417981450564	-0.595073700475155	0.386506266964186	-0.366299112350528	5.79297840353217E-04	-3.44754245046343E-05	1.6198589529671E-04	5.83185088856865E-05
			0.38696762089451	-0.367335763828669	-0.511754518208087	-0.610273059247005	5.51272883150011E-04	-1.68528216524644E-04	4.17152863788331E-04	6.66554014226395E-05
			5.77058190177066E-04	-3.56750888319403E-05	5.44438721855797E-04	-1.65887919355417E-04	-0.511747098607961	-0.626175924023259	0.386328399457182	-0.357389215030267
			1.66369832072989E-04	6.29013069063298E-05	3.85440161939059E-04	6.77588779574296E-05	0.386670128666644	-0.357063256200031	-0.535922801986802	-0.600441944252346
978310000	-0.53203030065847	-0.595152744895333	0.38630357955435	-0.367980466682352	5.60366099319053E-04	-1.24184886269992E-05	1.58335532007501E-04	3.63422236782419E-05
			0.386879286093581	-0.367528717090912	-0.511784726187137	-0.60905962177658	5.06933846430475E-04	-2.03414304478144E-04	4.30399889858384E-04	9.53298469283952E-05
			5.95204557501313E-04	-4.15179236269352E-05	5.04175407813191E-04	-1.70170397430926E-04	-0.510751443020074	-0.625507549210288	0.387102458364114	-0.357553926028396
			1.57541398058528E-04	4.03049839529017E-05	4.329993711005E-04	8.00472640819628E-05	0.385530933763263	-0.356954147080009	-0.534065970872593	-0.600793077204124
978560000	-0.531745856590646	-0.593504274977541	0.385177458139342	-0.368650320721845	5.5023712037283E-04	-6.05977826057739E-05	1.52076234338042E-04	6.17279738315854E-05
			0.386817872206253	-0.368879506464744	-0.512442821764784	-0.608638496910823	5.10252392444659E-04	-1.85240888438866E-04	4.24014647322804E-04	1.07557782530955E-04
			5.59380867578903E-04	-6.25304547998875E-05	5.05981312316591E-04	-1.68343087272388E-04	-0.512205143297571	-0.624433784064412	0.386206515156361	-0.358701221683654
			1.54826522478595E-04	3.69745804763892E-05	4.10466525072836E-04	1.07786137754291E-04	0.387096363773092	-0.357975537494476	-0.535713360077366	-0.59754271825904
978810000	-0.532090538189724	-0.593031443312289	0.385326063778248	-0.368787993560356	5.52585868204116E-04	-8.17573618752221E-05	1.33414144055453E-04	4.41753603745522E-05
			0.385880948374998	-0.369681689344778	-0.511655290703971	-0.607636827590926	5.31222686320051E-04	-1.85682488026386E-04	4.53644650766731E-04	7.12938863396273E-05
			5.61869963832417E-04	-7.16523919878911E-05	5.04437905055821E-04	-1.86100932133581E-04	-0.51228902603904	-0.626121193939593	0.385772355758105	-0.359121872243432
			1.35717103549194E-04	5.92483385065517E-05	4.51577027410705E-04	7.37742024138906E-05	0.385606405140575	-0.358994559158645	-0.536450115894439	-0.594981190326912
979060000	-0.531090323285249	-0.592076075427912	0.385484142884383	-0.370311575487244	5.4334379214955E-04	-4.94355940964855E-05	1.50928396982802E-04	3.12538454846676E-05
			0.385018771147553	-0.370462788838935	-0.51247290581357	-0.605987531131961	5.41453108020133E-04	-1.71021098040002E-04	4.40192815107516E-04	1.08737217072145E-04
			5.56506759251637E-04	-6.99149694591912E-05	5.47020145993618E-04	-1.54257521205382E-04	-0.512077267392675	-0.622843594544646	0.385446264876623	-0.360026827034524
			1.52213122356583E-04	3.5391700515657E-05	4.42844774874782E-04	9.77480319638855E-05	0.387286864418186	-0.360172000229532	-0.536343882269349	-0.595703469416741
979310000	-0.531945941511423	-0.591126423859784	0.384910897114884	-0.370890486560176	5.54432876007577E-04	-7.57653931250662E-05	1.33974290626699E-04	3.61041121058912E-05
			0.38545198326226	-0.370840870958255	-0.511300212200119	-0.606355483213384	5.40229002129329E-04	-1.71229896016365E-04	4.47047430417942E-04	8.63199388526078E-05
			5.87998285149222E-04	-4.84969951236915E-05	5.46767407930949E-04	-1.6534884371867E-04	-0.511415669766641	-0.621511083602536	0.38639638946429	-0.361366752685486
			1.18774155145627E-04	2.26046198148757E-05	4.26290373604501E-04	9.77726180006269E-05	0.385659240147837	-0.359597773654016	-0.537518822166577	-0.595455282399147
979560000	-0.530997235617091	-0.589017107781139	0.384970775403491	-0.37190198490738	5.6857260980292E-04	-9.65528592633678E-05	1.16232994457286E-04	5.86939524347692E-05
			0.384955719645515	-0.372090938505962	-0.51202023844727	-0.605073462896282	5.58294363308392E-04	-1.84046481510768E-04	4.32747597684399E-04	8.15675448923847E-05
			5.46119915398184E-04	-9.35507454371307E-05	5.66721125768986E-04	-1.86540449797262E-04	-0.511595790094818	-0.620580889412326	0.385981984840978	-0.361845725048112
			1.43233144280391E-04	8.04492462906335E-05	4.41420488531974E-04	1.06793181421395E-04	0.385284889570392	-0.361117022882034	-0.537339906912379	-0.592869462333356
979810000	-0.532185741825983	-0.589030436559323	0.383643080975723	-0.372232310024482	5.28925906382855E-04	-8.98496094225874E-05	1.25858255173776E-04	6.73429949106529E-05
			0.383550543032621	-0.372678749251096	-0.510762140819715	-0.604033242716795	5.3216095933581E-04	-1.56736421563896E-04	4.56574472860442E-04	6.62413091772837E-05
			5.30835994601269E-04	-9.63460372095896E-05	5.63671005281166E-04	-1.63622611697395E-04	-0.512459675765628	-0.619495203116481	0.386769644329403	-0.362601178617682
			1.3503801027539E-04	7.55483578742175E-05	4.44864303492157E-04	9.60196656529978E-05	0.385179151813709	-0.362001150689295	-0.536272346371434	-0.593676243509115
980060000	-0.530949774840031	-0.589285833852495	0.383183604267579	-0.372772681150706	5.49546732410548E-04	-1.11857721331811E-04	1.3808845939688E-04	7.50052486335601E-05
			0.383695016026018	-0.373323945831077	-0.511500837366704	-0.602830705903227	5.51840754728042E-04	-1.40861436279172E-04	4.63821086877906E-04	5.99440040830122E-05
			5.24331146240735E-04	-1.36583831211349E-04	5.55309919654172E-04	-1.14669627982986E-04	-0.513731234456831	-0.618468647551234	0.385900698204527	-0.363833912704673
			1.3618036879828E-04	5.39175118834452E-05	4.5058833160532E-04	6.24209644461997E-05	0.384617528841287	-0.362295456809967	-0.538106346497355	-0.591644139314833
980310000	-0.531780668652106	-0.587961043726227	0.383322384460336	-0.373108611752275	5.15576918563177E-04	-8.69568899667716E-05	1.39203850598771E-04	6.41983463082857E-05
			0.383009048951994	-0.373549467714202	-0.511064495584439	-0.602805525146589	5.68731630274373E-04	-1.3952811839642E-04	4.43289290214229E-04	2.70118838863464E-05
			5.25836024238047E-04	-1.18565095009765E-04	5.71809144818748E-04	-1.44355534151619E-04	-0.514463123184015	-0.61909149223689	0.38528546673336	-0.363860629386904
			1.72414025778839E-04	7.40980509976414E-05	4.32770300806809E-04	1.27448723292354E-05	0.385932054029445	-0.365339365541503	-0.539375282422683	-0.593383033834966
980560000	-0.530177698995302	-0.588014662094517	0.382524086025111	-0.375044000603459	4.90874490899617E-04	-1.03152586518372E-04	1.58555547617524E-04	1.03309649923436E-04
			0.382567667622482	-0.373941084004534	-0.512135788526217	-0.602628000749068	6.0261854380259E-04	-1.35473377096996E-04	4.09296696203212E-04	4.24464057961138E-05
			4.66723402137679E-04	-1.04337297728298E-04	6.12202618273805E-04	-1.32209101994082E-04	-0.514463328181544	-0.618208917802283	0.384889125566154	-0.365750128560698
			1.60057287702509E-04	8.38273399481303E-05	4.09848580453272E-04	4.38167539641323E-05	0.385841567295964	-0.365306284351343	-0.539018828662421	-0.589447452925105
980810000	-0.530165851031833	-0.586582881686804	0.38201695252762	-0.374265117535774	4.63515581431247E-04	-8.03814595858703E-05	1.60138119750493E-04	5.69233968577653E-05
			0.382944141524962	-0.374337271214886	-0.510433765281596	-0.603635010468751	6.09739523807028E-04	-1.64712142088191E-04	4.38775445979967E-04	3.2259631489958E-05
			4.71549140231229E-04	-6.65438962848389E-05	6.13405783952977E-04	-1.50061927767746E-04	-0.515400185617004	-0.616843572364431	0.38490717500762	-0.365675460679638
			1.6299710193679E-04	5.759346683281E-05	4.41592881331754E-04	7.40746255677128E-05	0.384800387206871	-0.366042344219695	-0.537089777038	-0.590352090877476
981060000	-0.530672105713807	-0.585867084358779	0.381876556358655	-0.374490397363953	4.59831829301862E-04	-9.97514572550179E-05	1.49382693845487E-04	1.02994670647435E-04
			0.381896939366741	-0.374640841476709	-0.510960123500797	-0.601796998699698	6.3605033685801E-04	-1.48966020191345E-04	4.41170253385511E-04	1.73959570137557E-05
			4.64417383446152E-04	-9.83311957839287E-05	6.26475203516234E-04	-1.63971316987948E-04	-0.515033516630311	-0.615608649335967	0.385895946107775	-0.366967753002122
			1.28243037864557E-04	8.12314607772095E-05	4.31659377556403E-04	7.37087298146145E-06	0.385273213552072	-0.366565194604571	-0.537486632945476	-0.587621300154642
981310000	-0.531876621509793	-0.58720325035571	0.38038579688451	-0.37414504485174	4.43125087231743E-04	-9.41055548835458E-05	1.84804149007953E-04	9.8749051162516E-05
			0.382935367172237	-0.375128961689376	-0.510331883626544	-0.601816753794863	6.4331436572685E-04	-1.25966154828245E-04	4.31315467088068E-04	2.26745152001013E-05
			4.22320828979742E-04	-7.88632701076996E-05	6.67578392298584E-04	-1.55050242264686E-04	-0.512761319375697	-0.612659398728547	0.383767314288331	-0.367948176866342
			1.60161160625606E-04	8.66205178681271E-05	4.19068738085819E-04	8.25664024415199E-06	0.383618541100356	-0.366851474671854	-0.54035141360888	-0.588112503412017
981560000	-0.531167301943614	-0.58547851489606	0.381751140260675	-0.375199041658302	4.40385906164997E-04	-8.72679172560597E-05	1.68354616005592E-04	1.0770906529901E-04
			0.381014093824234	-0.375254962852538	-0.511218926068959	-0.602220265077241	6.9015890318761E-04	-1.35082769231067E-04	4.0804958715726E-04	2.34251249280158E-05
			4.2561741056923E-04	-9.62983630976733E-05	6.6771280415674E-04	-1.77303135165041E-04	-0.515704403971269	-0.612955605970442	0.385328964906422	-0.368837406426077
			1.50441378204447E-04	1.08213701870973E-04	4.08604275544308E-04	4.67161637686944E-06	0.383709912513619	-0.368449667194002	-0.538970426840408	-0.588224126047181
981810000	-0.533087906009674	-0.585415343078677	0.380038904492317	-0.374451825854987	3.9997790080763E-04	-5.5200706493596E-05	1.86161612102367E-04	7.19076095290494E-05
			0.380673728245322	-0.375134374381089	-0.510719614064389	-0.601599727452978	6.8548289281024E-04	-1.77069063863026E-04	4.08071786087963E-04	4.81034549572345E-07
			4.1352149931239E-04	-6.51814033158717E-05	7.02992866572831E-04	-1.68405009000116E-04	-0.514008114524066	-0.613541544027803	0.384235996512037	-0.368838093184081
			1.7165174478346E-04	1.1679166356554E-04	4.07143584166648E-04	-9.69451628976503E-07	0.382957288468229	-0.369411232361111	-0.536441622932339	-0.587220414787198
982060000	-0.53193056178181	-0.584183007961905	0.380906773195862	-0.3760805528866	3.78938323922717E-04	-5.29127620576992E-05	1.83642403297556E-04	1.19473870565528E-04
			0.381470098978426	-0.376112808516703	-0.512156357405523	-0.601491525361557	7.438345314439E-04	-1.74802276747184E-04	3.58864529243331E-04	-2.40998338963192E-05
			3.80851372546569E-04	-6.90810171335111E-05	7.29930017111951E-04	-1.82555693956089E-04	-0.514750171326808	-0.611490770937681	0.383231745022016	-0.371046266777326
			1.92969386707404E-04	1.04668055872707E-04	3.88077685007456E-04	2.82724132603243E-06	0.382548081082933	-0.369836505191226	-0.53880739722453	-0.584250980652712
982310000	-0.532582681097579	-0.58546754284239	0.380454785310324	-0.376295292045039	3.79327095448331E-04	-2.93403127512668E-05	2.05070768704644E-04	8.04688373480123E-05
			0.381667484976483	-0.376498903845959	-0.511969405379329	-0.601021608937487	7.69451498615751E-04	-1.65260994941187E-04	3.50792248565517E-04	-4.8075436619212E-06
			3.70522380956023E-04	-5.28098015094709E-05	7.59652630256984E-04	-1.69453841264522E-04	-0.515737918395167	-0.613418793314561	0.382178244214556	-0.371603575236061
			1.93419874747708E-04	9.6349730021243E-05	3.21086373136581E-04	1.42641743683447E-05	0.382190468638282	-0.371924521622642	-0.538867497950992	-0.582117499897644
982560000	-0.533752204621257	-0.584402212866563	0.38079543119676	-0.376587802798179	3.54236271048634E-04	-4.57113000169262E-06	2.18387660490121E-04	8.62110975089836E-05
			0.380523302763871	-0.377246900452905	-0.512749753780136	-0.601104614936091	8.29265278321006E-04	-2.40345686310644E-04	3.07095026659268E-04	-2.10674933647232E-07
			3.86554685446413E-04	-7.46373107153565E-06	7.7998356137379E-04	-2.1160553508883E-04	-0.514422681337499	-0.611558354610906	0.382207948961842	-0.372130726989226
			2.29689017763034E-04	8.90502880846512E-05	3.25414483181702E-04	1.95279396591806E-05	0.381037324137459	-0.371613286164041	-0.537790520212825	-0.58108225739135
982810000	-0.533551203366225	-0.584856324878851	0.381130922357854	-0.37614838588228	3.66137997933467E-04	-5.64680250503959E-06	2.24039946734029E-04	5.3588427282395E-05
			0.381599522750588	-0.376867891397721	-0.5135719539721	-0.600499811404778	8.26984061914594E-04	-2.40538179044745E-04	2.56925176316693E-04	1.89583902027168E-05
			3.64982882963998E-04	-1.28871901635552E-05	8.01227345595687E-04	-2.2180428579329E-04	-0.513805593480367	-0.612549619981969	0.380495355868147	-0.372286735630359
			2.17720864250976E-04	9.51285589936455E-05	2.55927546045299E-04	2.81636083928067E-06	0.38085655016671	-0.373325700747568	-0.537786578531855	-0.581410592065503
983060000	-0.534262694224616	-0.582860805318949	0.381301666920024	-0.377064704965876	3.37998877462236E-04	2.33239928963894E-05	2.47865818026995E-04	7.92818667917076E-05
			0.381742610791435	-0.377571314495451	-0.513618433015082	-0.599648478393759	8.188455551379E-04	-3.30893300722981E-04	2.55898606545122E-04	4.65475875245702E-06
			3.72134840641759E-04	3.46740646483487E-05	8.26720611202199E-04	-2.69915777958418E-04	-0.515709411458133	-0.610672223210978	0.38177037624999	-0.372997920812289
			2.33362305836694E-04	5.56975494495075E-05	2.67069673399457E-04	5.91376596660779E-05	0.380086970686333	-0.372936954158922	-0.539163812959557	-0.584083237949231
983310000	-0.534843699998353	-0.581641558096596	0.381251632738534	-0.376992210148571	3.44647848849698E-04	6.61183381096456E-05	2.80173155565308E-04	3.22558839650116E-05
			0.381952808287735	-0.378066424892948	-0.513984124898265	-0.600040230841113	8.61731661205377E-04	-3.40423336996847E-04	2.29536707833381E-04	6.65737920084684E-05
			3.40410814287969E-04	5.5608026876411E-05	8.47285962728845E-04	-3.27898286841796E-04	-0.513950733432357	-0.60942409298791	0.380320147865002	-0.37263614087802
			2.46518101240151E-04	8.07996358840977E-05	2.12391157748104E-04	6.10186471213278E-05	0.380514356655298	-0.372704091808008	-0.538027816334332	-0.580950586218033
983560000	-0.533989436158763	-0.580886038446155	0.381850670646417	-0.378553879115933	3.44926087289123E-04	8.33182570681472E-05	2.70257286005127E-04	2.2925126689745E-05
