# Hz S RI R 50
1942000000	-0.952820368405286	9.24009952685786E-02	1.27968175325967E-02	-0.01943732165401			1.19850381171396E-02	-1.88409953234292E-02	-0.953711319682709	8.46665338372698E-02
1942625000	-0.952810709927978	0.093550851761084	1.27533785391503E-02	-1.94190789729908E-02			1.19604330125335E-02	-1.87976696001425E-02	-0.953704360492042	8.57256339987274E-02
1943250000	-0.952796859968655	9.47478886354464E-02	1.27051186332976E-02	-1.94070331698357E-02			1.19319287886711E-02	-1.87650867674554E-02	-0.953659567183117	8.67821481924505E-02
1943875000	-0.952760115709249	9.58683729852721E-02	1.26647262678701E-02	-1.93838190157971E-02			1.19038294737294E-02	-1.87167911000553E-02	-0.953565601787073	8.78755037901681E-02
1944500000	-0.952641457401663	9.69947870234622E-02	1.26218613627976E-02	-1.93553255785395E-02			1.18879899618455E-02	-1.86730644344767E-02	-0.953529306317365	0.089033781865329
1945125000	-0.95261035271698	9.82017818973456E-02	1.25903714366827E-02	-1.93362329444435E-02			1.18654499604214E-02	-1.86244819443246E-02	-0.953376911592803	9.00729913820932E-02
1945750000	-0.952450885366409	9.94245199265187E-02	1.25551751433932E-02	-1.93115098133146E-02			1.18456586722219E-02	-0.018593431210421	-0.953255944239349	9.11716737982893E-02
1946375000	-0.952345918606763	0.100611920268318	1.25155761450652E-02	-1.92867332140804E-02			1.18238533878686E-02	-1.85427004247126E-02	-0.953132230902191	9.22991672772675E-02
1947000000	-0.952307264299473	0.101790415596747	1.24788119812631E-02	-1.92619429938911E-02			1.18226401424785E-02	-1.84971152265467E-02	-0.953059319709592	9.33252679049154E-02
1947625000	-0.952178765462347	0.102998604997413	1.24485326612159E-02	-1.92404983072346E-02			1.18154974467494E-02	-1.84491233681982E-02	-0.953092713229543	9.45113038982874E-02
1948250000	-0.95200298037403	0.104279258924288	1.24172020623896E-02	-1.92097980364478E-02			1.18083455368651E-02	-1.84052864068071E-02	-0.952962570347797	9.56299737127845E-02
1948875000	-0.951786999641914	0.105448079523074	1.23913436246201E-02	-0.019184446449591			1.18046553992787E-02	-1.83701828455937E-02	-0.952857965611477	9.67763724971044E-02
1949500000	-0.951661240683005	0.106666409093282	1.23669170078106E-02	-1.91553059258349E-02			1.18033471710764E-02	-1.83347007171625E-02	-0.952766574461588	9.79332740768328E-02
1950125000	-0.951487175595335	0.107901584402291	1.23439540921111E-02	-1.91444503777213E-02			1.18035261512233E-02	-1.82945564318813E-02	-0.952681118882235	9.90233484062622E-02
1950750000	-0.951233253530924	0.109147262226321	1.23221938237217E-02	-1.91179612514846E-02			0.011807950503703	-1.82540547078723E-02	-0.952585213257363	0.100232090176827
1951375000	-0.9509951147479	0.110288216600065	0.012303412377004	-1.90944801077772E-02			1.18118850683677E-02	-1.82188961494066E-02	-0.952309091461531	0.101454680255308
1952000000	-0.950722938754238	0.111448872170834	0.012281549700655	-1.90832168626796E-02			1.18073510615974E-02	-1.81922357431705E-02	-0.952211924412749	0.102560715269156
1952625000	-0.950533934799675	0.112653294497353	1.22607784591181E-02	-1.90710900781342E-02			1.18240340342403E-02	-1.81653553653745E-02	-0.952018269409876	0.103637521672735
1953250000	-0.950296519194836	0.113812231557336	1.22449922703477E-02	-1.90648305931788E-02			1.18294124879395E-02	-1.81481197407601E-02	-0.951895850252188	0.104808942753433
1953875000	-0.950023556459694	0.114960704243037	1.22229921575004E-02	-0.019046055886709			1.18270570161612E-02	-1.81149557713658E-02	-0.951748649831898	0.105952751257178
1954500000	-0.949869568883835	0.116141967242357	1.21947345876832E-02	-1.90500216499636E-02			1.18306085226241E-02	-1.81009961693422E-02	-0.951490427982878	0.107170884425906
1955125000	-0.949578396288491	0.117233811611874	1.21670257371933E-02	-1.90385418210281E-02			1.18262392106402E-02	-1.80875043425269E-02	-0.951310737990702	0.108192609178803
1955750000	-0.949287547855266	0.118410407977867	0.012134200595125	-1.90309948366069E-02			1.18314967657297E-02	-1.80651548186697E-02	-0.951107903302723	0.10942505756041
1956375000	-0.949010878356447	0.119477723841485	1.21070551606682E-02	-1.90242228647739E-02			1.18303555432165E-02	-1.80435126872344E-02	-0.950893814615639	0.110540835393863
1957000000	-0.9487012336308	0.120703118105318	1.20735897839983E-02	-1.90148415756632E-02			1.18270570366755E-02	-1.80297704119399E-02	-0.950667058872939	0.111706356235864
1957625000	-0.948551788701328	0.121799312493364	1.20358987292679E-02	-1.90029001232199E-02			1.18223268574499E-02	-1.80086768743002E-02	-0.950524941567551	0.112732469158717
1958250000	-0.948220808463065	0.122921557131597	1.20108200085368E-02	-1.89952560280364E-02			1.18267234523121E-02	-1.79916894995533E-02	-0.950275348424028	0.113821825831745
1958875000	-0.947966090088559	0.124073024038522	1.19797211138341E-02	-1.89864523333153E-02			1.18267867494287E-02	-1.79848400798628E-02	-0.950023139493506	0.114995494865063
1959500000	-0.947715192711686	0.125082228985706	0.011945573521126	-1.89825496615147E-02			1.18148866761416E-02	-1.79657028003142E-02	-0.94989815050302	0.116045323456266
1960125000	-0.947422524712405	0.126098907220829	1.19019252420016E-02	-1.89691927496894E-02			1.18156836136831E-02	-1.79501716328358E-02	-0.949639748304539	0.117111368275037
1960750000	-0.947208691540668	0.127246123776282	1.18710033055104E-02	-1.89588887126302E-02			1.18104178016449E-02	-0.017931850103651	-0.94934273690627	0.118231565730765
1961375000	-0.94703289061256	0.128258718266607	1.18352286532314E-02	-1.89528507379389E-02			1.18120608089625E-02	-1.79160993256615E-02	-0.949159232977189	0.119315602314748
1962000000	-0.946818984703278	0.129270025831036	1.18010849737045E-02	-1.89459220744397E-02			1.18095080452841E-02	-1.79135622416366E-02	-0.94900900301691	0.120395594545466
1962625000	-0.946649620896483	0.130470543390826	1.17593839156787E-02	-1.89412309309823E-02			0.011802406331365	-0.017903896358287	-0.948837218066727	0.121410140442938
1963250000	-0.946391041965817	0.131434475387029	1.17233441768739E-02	-0.018921982987627			1.17986046969863E-02	-1.78933333583063E-02	-0.948721649330899	0.122539157532889
1963875000	-0.946311500027854	0.132576129027543	1.16778403296789E-02	-1.89095351330674E-02			1.17849414765884E-02	-1.78784964739238E-02	-0.948481612002644	0.123620561238108
1964500000	-0.94602651929557	0.133623443854993	1.16347650671151E-02	-1.89020324177448E-02			1.17789801517978E-02	-1.78680067221683E-02	-0.94845111205078	0.124694488068667
1965125000	-0.945916142004005	0.134776066231541	1.15959502386057E-02	-0.018896388982984			1.17683463704778E-02	-1.78659922728803E-02	-0.948251133581771	0.125817578091692
1965750000	-0.945777920049651	0.13588211539402	0.011550822972202	-1.88715561119434E-02			1.17617490398518E-02	-1.78414556404213E-02	-0.948107910683054	0.127036262309921
1966375000	-0.945665507524584	0.137039341022082	1.15045316359771E-02	-0.018847847742038			1.17522732667123E-02	-1.78288009348275E-02	-0.947998847319366	0.128194907026411
1967000000	-0.945549255261648	0.138282678881086	1.14557138412152E-02	-1.88430487940261E-02			1.17437243428249E-02	-1.78112012354957E-02	-0.947873757880184	0.129481695945258
1967625000	-0.945452906782337	0.139518007120617	0.011418528866889	-1.88177146937623E-02			1.17328358451791E-02	-1.78053761730549E-02	-0.947665855643569	0.130735747867297
1968250000	-0.945281372488854	0.140864871722175	0.011381145568892	-1.87971520270702E-02			1.17305639681829E-02	-1.77939330222254E-02	-0.947536815179234	0.132075904990662
1968875000	-0.94513301647455	0.142196914906608	1.13374894223919E-02	-1.87785507156327E-02			1.17240192235461E-02	-1.77793926800039E-02	-0.947274282352838	0.133460696310563
1969500000	-0.944889572327504	0.143651496995987	1.13048070006429E-02	-1.87664633679329E-02			1.17216272805815E-02	-1.77754777681765E-02	-0.94696221330938	0.134936938088135
1970125000	-0.944585118654179	0.145104619493648	1.12585125822877E-02	-1.87501991852488E-02			1.17158866706264E-02	-1.77774872974214E-02	-0.946634044364349	0.136512181462174
1970750000	-0.94424449861509	0.146778622029877	1.12195964885741E-02	-0.018744683602817			1.17064772622666E-02	-1.77782910660522E-02	-0.946135900736227	0.138327921588262
1971375000	-0.943765406846933	0.148728135473216	1.11746060445456E-02	-1.87557808265401E-02			1.17010288504632E-02	-1.77898043279631E-02	-0.945546471576086	0.140395856195631
1972000000	-0.942685305240182	0.151259397999038	1.11213440278958E-02	-1.87908006050935E-02			1.16808649648236E-02	-1.78559167660523E-02	-0.944130912513432	0.14337096854043
1972625000	-0.938264913634267	0.155180810260997	1.09003393323531E-02	-1.89341503371862E-02			1.15093022566821E-02	-1.80205038053033E-02	-0.938763390049386	0.14799893283789
1973250000	-0.934779623076432	0.142417283563014	1.04739808546824E-02	-1.82470004872669E-02			1.10636912761302E-02	-1.73678806690002E-02	-0.930172693810431	0.130826089891736
1973875000	-0.94182922215143	0.147289530956404	1.09315015697099E-02	-1.82712553398227E-02			1.15671863042183E-02	-1.73823438700876E-02	-0.942725440653791	0.135047518551037
1974500000	-0.941181538010388	0.15069750536627	1.09342711811827E-02	-1.83107013596341E-02			1.16054764114019E-02	-1.74324744257362E-02	-0.943080180815018	0.137548839985568
1975125000	-0.941049535105062	0.150536611382176	1.09579583812252E-02	-1.82989119825352E-02			1.16634615650834E-02	-1.74309609601664E-02	-0.944554068670295	0.140926235918728
1975750000	-0.940870723846716	0.153684858260381	1.09284782325276E-02	-1.83773186028467E-02			1.16636617212238E-02	-1.75295538551102E-02	-0.942449850626547	0.144518144861497
1976375000	-0.939340672948799	0.151937709034454	1.07633207994659E-02	-1.81963393526344E-02			1.15202267854384E-02	-1.73793730284421E-02	-0.938571383528903	0.140084665335378
1977000000	-0.94126695396144	0.153951847261775	1.09156636826741E-02	-1.81674091119489E-02			1.17118362912257E-02	-1.73604228767086E-02	-0.943577541259382	0.141408006181133
1977625000	-0.941160305285759	0.15569193541099	1.09263448131206E-02	-1.81749480361122E-02			1.17469739600072E-02	-1.73812962499294E-02	-0.944367797432725	0.14378639425969
1978250000	-0.941043940330579	0.156857583061726	1.09194238865396E-02	-1.81828948319648E-02			1.17700946033458E-02	-1.74142223080064E-02	-0.944464673101042	0.146031872016772
1978875000	-0.940996474377181	0.158594052992646	1.09110048409269E-02	-1.81859620222374E-02			1.17945199737192E-02	-1.74441727128662E-02	-0.944254249895114	0.147876699006316
1979500000	-0.94056747300448	0.160062655495064	1.09034664146304E-02	-1.81822843932041E-02			1.18105013550723E-02	-1.74504409684361E-02	-0.943749448757352	0.149492073169826
1980125000	-0.940042087043786	0.161534526627392	1.08765847707775E-02	-0.018192793295517			1.18262060537759E-02	-1.74871706321665E-02	-0.943197210868909	0.15105544100613
1980750000	-0.939376930362753	0.162804712926585	1.08501104835341E-02	-1.81986460548916E-02			1.18313094113768E-02	-1.75284545860677E-02	-0.942409325523429	0.152676498199581
1981375000	-0.938373188609552	0.163130891376464	1.07781656471709E-02	-1.81769664356415E-02			1.17707496697974E-02	-1.75352377044961E-02	-0.940420910144952	0.152809328960482
1982000000	-0.938986827555054	0.164076140155471	1.08052870157937E-02	-1.81473849595467E-02			1.18331466741903E-02	-1.75191455351266E-02	-0.941989857791921	0.152968834738714
1982625000	-0.938757258974132	0.165428484653175	1.07936865799962E-02	-1.81704244904782E-02			0.011847728614528	-1.75731712695426E-02	-0.942067431295629	0.15442694932787
1983250000	-0.938548875412051	0.166379074478273	1.07754658527393E-02	-1.81845309747262E-02			1.18532568616811E-02	-1.76112988391383E-02	-0.942141785343578	0.155951236391189
1983875000	-0.938633428143111	0.167684781352355	1.07564878914631E-02	-1.82222035624813E-02			1.18531237817224E-02	-1.76810501129247E-02	-0.941865622043039	0.157526429079011
1984500000	-0.938292078368825	0.169187257593588	1.07245335933941E-02	-1.82986033023738E-02			1.18552568808361E-02	-1.77924561459252E-02	-0.941449476509773	0.158963531554805
1985125000	-0.937864532567656	0.170703845083933	1.06196044970287E-02	-1.85369290195309E-02			1.17956721874442E-02	-1.80702189758996E-02	-0.940944310423344	0.160538246039887
1985750000	-0.937270638587176	0.171291147548249	9.89353823351413E-03	-1.80536281955937E-02			0.01106073435143	-1.76547373606628E-02	-0.940242035600163	0.161328136897367
1986375000	-0.937296989693685	0.173060778846582	1.03500032016567E-02	-1.79290502065199E-02			0.011532760244079	-1.75450985917371E-02	-0.940120013739189	0.163188388421047
1987000000	-0.936593085627688	0.174995769415124	0.010379945145597	-1.80030341147602E-02			1.15880929746445E-02	-0.017646802497791	-0.939158905724769	0.165238556645684
1987625000	-0.934590758562131	0.177151288663916	1.03082846893673E-02	-1.80963924765784E-02			1.15395547038603E-02	-1.77733998603963E-02	-0.936646932141172	0.167674599939585
1988250000	-0.929224751914688	0.174988052605961	9.98926593914401E-03	-1.80612173197719E-02			1.12185718156586E-02	-1.77933489499181E-02	-0.929144525972852	0.165861401532323
1988875000	-0.934749764973069	0.171855987656611	1.00189321150322E-02	-1.77969395806131E-02			1.12562655465789E-02	-1.75436008059945E-02	-0.935404635583779	0.158085810201924
1989500000	-0.936082914894528	0.174612288488726	0.010104034317988	-1.75590355629955E-02			1.13577173207505E-02	-1.73195661279405E-02	-0.939015315646184	0.161233293109972
1990125000	-0.936231378185094	0.175683191380231	1.02185360124396E-02	-1.75633226875297E-02			0.011487040733021	-1.73668148408298E-02	-0.940169916371767	0.163932272685778
1990750000	-0.937136682579716	0.177594399374042	1.02504775614064E-02	-1.75872919969087E-02			1.15496729672952E-02	-1.74226845022526E-02	-0.940216465455286	0.166172469256957
1991375000	-0.93707544365666	0.179483539439786	1.02445143185099E-02	-1.76019690786549E-02			1.15561828997387E-02	-1.74713020646028E-02	-0.940008493452701	0.167975057145489
1992000000	-0.936887432108079	0.18110195269509	1.02225286514756E-02	-1.76007717532046E-02			1.15421098307732E-02	-1.75089555569863E-02	-0.939765694327252	0.169521079630668
1992625000	-0.936693482282117	0.18259722372785	1.02071695958601E-02	-1.75908233868138E-02			1.15306081972325E-02	-1.75366857904437E-02	-0.939480665232837	0.170982851274968
1993250000	-0.936466160043506	0.184060361886454	0.010173557712254	-1.75756035422366E-02			1.15209385721602E-02	-1.75628234458344E-02	-0.939296603255975	0.17236961866704
1993875000	-0.936200868166281	0.185538764726958	1.01532097956226E-02	-1.75518705135315E-02			1.15085743150468E-02	-1.75888393214263E-02	-0.939120701222161	0.17377566843139
1994500000	-0.935847777323074	0.186919768743504	1.00923022435373E-02	-1.75466090585456E-02			1.14546672768957E-02	-1.76175915697858E-02	-0.938616475127848	0.175111922847382
1995125000	-0.935559664315972	0.188327699977718	1.00689609140208E-02	-0.017469556551521			1.14401563799606E-02	-0.017577700614036	-0.938404544998977	0.176330133007712
1995750000	-0.935173882145052	0.189650541249473	1.00571588176292E-02	-1.74423693792788E-02			1.14465546978378E-02	-1.75887402768738E-02	-0.93812311661889	0.177599713551369
1996375000	-0.934864250862444	0.191061493847977	1.00415074508792E-02	-1.74084764434414E-02			1.14170782042817E-02	-1.76014551901458E-02	-0.937823525793831	0.178824272191672
1997000000	-0.93446141364693	0.192364373387238	1.00379256824863E-02	-1.73729309607537E-02			1.14227013345011E-02	-1.76047360932299E-02	-0.937556397360659	0.180067583670495
1997625000	-0.934102554594655	0.193700275846497	0.010020508726003	-1.73519539031189E-02			1.14061876465301E-02	-1.76191864350493E-02	-0.937308082593525	0.181372935186754
1998250000	-0.933709606260235	0.194956509344536	1.00148296875213E-02	-1.73288592893304E-02			1.14049187768288E-02	-0.017636119391858	-0.93690482035541	0.18257280497979
1998875000	-0.933172597132382	0.196191713888261	1.00014389948249E-02	-1.73091688073591E-02			1.13891148366272E-02	-0.017666968664006	-0.936594271902687	0.183908994236371
1999500000	-0.932867608884658	0.197439239794481	9.98921924733981E-03	-1.72964023214094E-02			1.13756052896192E-02	-1.76915536793731E-02	-0.936254921776916	0.185172983194364
2000125000	-0.932437207762234	0.198841542296593	9.96415385974106E-03	-1.72928208662618E-02			1.13605282540864E-02	-1.77233837127704E-02	-0.93585573179634	0.186429399913788
2000750000	-0.931953597237338	0.200023437243421	9.95202379098364E-03	-1.72971716334475E-02			1.13333124914579E-02	-1.77809389471128E-02	-0.935394563409253	0.187810778217391
2001375000	-0.93141443635485	0.201393877166382	9.89022435294824E-03	-1.73526238927169E-02			1.12721487868985E-02	-0.017873889273869	-0.934826328527422	0.189098753658472
2002000000	-0.930699019170987	0.202552016521186	9.64234315318747E-03	-1.73806842955674E-02			1.09986233457251E-02	-1.79641498340152E-02	-0.934151300085587	0.190291830675771
2002625000	-0.93031235113297	0.203482128643679	9.59066430330017E-03	-1.69954394570777E-02			1.09198853436229E-02	-1.76004905205195E-02	-0.933646859511187	0.191213790152866
2003250000	-0.929820115389035	0.204810260303164	9.74416038972657E-03	-1.69512948890588E-02			1.10636102001359E-02	-1.75911763935624E-02	-0.933243808209477	0.192521828362004
2003875000	-0.929168813266651	0.205862929983985	9.76828941799516E-03	-1.69566404975176E-02			1.10940333405941E-02	-0.017627309236261	-0.932520546448173	0.193679303293195
2004500000	-0.928435167497468	0.206894830820883	9.76047903927252E-03	-1.69363080769179E-02			1.10778706913518E-02	-1.76512164615692E-02	-0.931702692240798	0.194550344956741
2005125000	-0.927737613485539	0.207603560015411	9.7430767181549E-03	-0.016902335027488			1.10549791549721E-02	-1.76565192273759E-02	-0.930972854502359	0.195256655071984
2005750000	-0.927296130291446	0.208136722126907	9.73685618027102E-03	-1.68643907554668E-02			1.10293500559572E-02	-1.76511570088656E-02	-0.930573546056922	0.195773238624863
2006375000	-0.927032506954427	0.208789641589559	9.74368833542749E-03	-1.68235350978824E-02			0.011024313623723	-1.76513965299269E-02	-0.930290151849183	0.196303522496272
2007000000	-0.927000526549157	0.209380590749189	9.74706276646793E-03	-1.67948927344057E-02			1.10090466809088E-02	-1.76581546867492E-02	-0.930099652285973	0.19694570735078
2007625000	-0.927073343287279	0.21022486174375	9.75081692549597E-03	-0.016761499140015			1.09964198982692E-02	-1.76635917219253E-02	-0.930088570214625	0.197679438027355
2008250000	-0.927228459368149	0.211222081375027	9.76750445970712E-03	-1.67450358727243E-02			0.010994578079741	-1.76741013445942E-02	-0.930159036206391	0.198529900172523
2008875000	-0.927248132098167	0.212328685689673	9.77475547172733E-03	-1.67399965588952E-02			1.09864094206627E-02	-1.77065419703272E-02	-0.930262816381105	0.199487756312565
2009500000	-0.927168352336654	0.213415220401436	9.75599426841529E-03	-1.67210596147819E-02			1.09599333333513E-02	-1.77306644268944E-02	-0.930180844586349	0.20060708565382
2010125000	-0.927173129575799	0.214619376248329	9.75575318042636E-03	-1.67081131646544E-02			1.09232116302405E-02	-0.017756559859702	-0.930216615616028	0.201678473856909
2010750000	-0.927039905579183	0.21582422913657	9.74030157939697E-03	-1.66921231890564E-02			1.09014191232398E-02	-1.77772375414894E-02	-0.930065294374894	0.202785807737402
2011375000	-0.927027983081045	0.216953286837595	9.72531814025556E-03	-1.66790407667251E-02			1.08544249915373E-02	-1.77989552284846E-02	-0.92998739778563	0.203975644967125
2012000000	-0.926954748331372	0.218273096621599	9.71365657256618E-03	-1.66679162940789E-02			1.08159183883113E-02	-1.78148099758397E-02	-0.929807863266381	0.205140331735824
2012625000	-0.926838732442036	0.219517033484064	9.68575146306826E-03	-1.66449342369646E-02			1.07671310771812E-02	-1.78357389906201E-02	-0.9297766290543	0.206288384478794
2013250000	-0.926706481655919	0.220866653515009	9.67176026252087E-03	-1.66223226510727E-02			1.07282474165544E-02	-1.78475072953897E-02	-0.929712870305096	0.207529452234617
2013875000	-0.926485145900995	0.222208661759454	9.65637333582297E-03	-1.66050451205079E-02			1.06818217488607E-02	-1.78636108677637E-02	-0.929467215989781	0.208782882857648
