!HP8753
# HZ S RI R 50
30000      1.0001831     -0.0022583      0.0000086     -0.0000104     -0.0000099     -0.0000374      1.0000610     -0.0015259
1904981      0.9998474     -0.0026550     -0.0000004      0.0001005      0.0000065      0.0000989      0.9997559     -0.0030518
3779963      0.9994812     -0.0050964      0.0000013      0.0001809     -0.0000087      0.0001809      0.9994812     -0.0037537
5654944      0.9993591     -0.0075989      0.0000264      0.0002801      0.0000300      0.0002748      0.9982910     -0.0079346
7529925      0.9999695     -0.0101624      0.0000270      0.0003576      0.0000139      0.0003521      0.9986877     -0.0102844
9404906      0.9994507     -0.0129395     -0.0000434      0.0005615     -0.0000380      0.0005592      0.9995117     -0.0137329
11279888      0.9992065     -0.0151062      0.0000037      0.0005780      0.0000011      0.0005777      0.9989624     -0.0146484
13154869      0.9995422     -0.0176697      0.0000263      0.0006880      0.0000320      0.0006842      0.9982300     -0.0177917
15029850      0.9995422     -0.0200195     -0.0000125      0.0007900     -0.0000125      0.0007796      0.9989319     -0.0214844
16904832      0.9993591     -0.0228271      0.0000455      0.0008570      0.0000494      0.0008732      0.9989929     -0.0231934
18779812      0.9994507     -0.0261230      0.0000100      0.0009301     -0.0000024      0.0009679      0.9990845     -0.0258484
20654794      0.9991455     -0.0284424      0.0000556      0.0010732      0.0000253      0.0010791      0.9987183     -0.0285645
22529776      0.9992065     -0.0311279      0.0000416      0.0011375      0.0000443      0.0011225      0.9990234     -0.0310059
24404756      0.9993896     -0.0338745      0.0000339      0.0012554      0.0000486      0.0012686      0.9991455     -0.0339966
26279738      0.9988403     -0.0364380      0.0000173      0.0013227      0.0000122      0.0013369      0.9989014     -0.0365601
28154718      0.9986572     -0.0389404      0.0000172      0.0014244      0.0000398      0.0014238      0.9989014     -0.0391846
30029700      0.9985352     -0.0412598      0.0000473      0.0015019      0.0000713      0.0015078      0.9990234     -0.0418701
31904682      0.9988403     -0.0435791      0.0000391      0.0016427      0.0000380      0.0016431      0.9983521     -0.0440063
33779664      0.9979858     -0.0465698      0.0000416      0.0017213      0.0000554      0.0017439      0.9988403     -0.0470581
35654644      0.9985352     -0.0487061      0.0000783      0.0018311      0.0000713      0.0018300      0.9985352     -0.0494995
37529624      0.9980469     -0.0513916      0.0000813      0.0019150      0.0000701      0.0019183      0.9982300     -0.0523682
39404608      0.9981689     -0.0538330      0.0000713      0.0019792      0.0000706      0.0019867      0.9983215     -0.0548401
41279588      0.9980469     -0.0564575      0.0001009      0.0021169      0.0001080      0.0021238      0.9982300     -0.0571289
43154568      0.9979248     -0.0590210      0.0000803      0.0021832      0.0001061      0.0021806      0.9979248     -0.0600586
45029552      0.9974976     -0.0618896      0.0001154      0.0022500      0.0001020      0.0022414      0.9976807     -0.0622559
46904532      0.9976807     -0.0637817      0.0001276      0.0023506      0.0001526      0.0023572      0.9973145     -0.0648804
48779512      0.9974976     -0.0664673      0.0001416      0.0024207      0.0001338      0.0024321      0.9972534     -0.0673828
50654492      0.9970398     -0.0689392      0.0001234      0.0025489      0.0001214      0.0025560      0.9970398     -0.0698547
52529476      0.9970398     -0.0714417      0.0001262      0.0026175      0.0001389      0.0026290      0.9970703     -0.0723267
54404456      0.9963989     -0.0741577      0.0001657      0.0027279      0.0001758      0.0027326      0.9966431     -0.0751038
56279436      0.9960327     -0.0765991      0.0002052      0.0027318      0.0001930      0.0027589      0.9962769     -0.0772400
58154420      0.9960632     -0.0789185      0.0001980      0.0029010      0.0002019      0.0029261      0.9964600     -0.0796509
60029400      0.9957275     -0.0814819      0.0002140      0.0029621      0.0002270      0.0029830      0.9957886     -0.0820923
61904380      0.9955139     -0.0840454      0.0001957      0.0031168      0.0002009      0.0031291      0.9956665     -0.0841064
63779364      0.9949036     -0.0867920      0.0002059      0.0032240      0.0002168      0.0032489      0.9957275     -0.0873413
65654344      0.9951172     -0.0888672      0.0002203      0.0033472      0.0002452      0.0033748      0.9952393     -0.0895691
67529328      0.9950256     -0.0914307      0.0002424      0.0033789      0.0002503      0.0033720      0.9950562     -0.0918884
69404304      0.9945679     -0.0943604      0.0002749      0.0035051      0.0002785      0.0035151      0.9952087     -0.0943909
71279288      0.9943237     -0.0964966      0.0002760      0.0035673      0.0002939      0.0035751      0.9946899     -0.0966797
73154272      0.9941101     -0.0991821      0.0002856      0.0036808      0.0003114      0.0036851      0.9944153     -0.0992432
75029248      0.9935303     -0.1015625      0.0002835      0.0037664      0.0002999      0.0037909      0.9937439     -0.1015625
76904232      0.9935303     -0.1042175      0.0003543      0.0038605      0.0003333      0.0038593      0.9938049     -0.1041565
78779216      0.9933167     -0.1067505      0.0003293      0.0039172      0.0003300      0.0039291      0.9933167     -0.1067200
80654192      0.9932251     -0.1093750      0.0003419      0.0040393      0.0003252      0.0040550      0.9932251     -0.1093750
82529176      0.9919434     -0.1113892      0.0004158      0.0041323      0.0004086      0.0041578      0.9924316     -0.1115112
84404160      0.9920654     -0.1140137      0.0004101      0.0042028      0.0003908      0.0042264      0.9924316     -0.1140747
86279136      0.9923096     -0.1166992      0.0004201      0.0042961      0.0004172      0.0043101      0.9920044     -0.1170654
88154120      0.9919434     -0.1192017      0.0004253      0.0044103      0.0004156      0.0044231      0.9917603     -0.1191406
90029104      0.9917603     -0.1218262      0.0004313      0.0044901      0.0004382      0.0044980      0.9915771     -0.1223145
91904080      0.9910278     -0.1239014      0.0004616      0.0045583      0.0004537      0.0045848      0.9907837     -0.1246338
93779064      0.9911499     -0.1266479      0.0004930      0.0046606      0.0004942      0.0046747      0.9907227     -0.1273804
95654040      0.9905396     -0.1295166      0.0004947      0.0047288      0.0004771      0.0047538      0.9904785     -0.1299438
97529024      0.9906006     -0.1318359      0.0005243      0.0048547      0.0005178      0.0048783      0.9897461     -0.1328125
99404008      0.9901123     -0.1345215      0.0005395      0.0049365      0.0005057      0.0049503      0.9893188     -0.1355591
101278984      0.9896240     -0.1364136      0.0005527      0.0049777      0.0005164      0.0050123      0.9886475     -0.1381836
103153968      0.9894409     -0.1392212      0.0005736      0.0051005      0.0005510      0.0051198      0.9884644     -0.1406250
105028952      0.9890747     -0.1420898      0.0005658      0.0051975      0.0005488      0.0052307      0.9880981     -0.1437378
106903928      0.9888916     -0.1446533      0.0006294      0.0052869      0.0005989      0.0053108      0.9872437     -0.1463013
108778912      0.9882202     -0.1471558      0.0006404      0.0053737      0.0006323      0.0053959      0.9870605     -0.1487427
110653896      0.9876709     -0.1494141      0.0006456      0.0054862      0.0006518      0.0055206      0.9866943     -0.1515503
112528872      0.9873962     -0.1517639      0.0006979      0.0055239      0.0007036      0.0055768      0.9862976     -0.1541138
114403856      0.9872437     -0.1546326      0.0006912      0.0056372      0.0006888      0.0056949      0.9854736     -0.1570129
116278840      0.9867859     -0.1570435      0.0007298      0.0057247      0.0007246      0.0057576      0.9853821     -0.1595459
118153816      0.9862671     -0.1598511      0.0007429      0.0057960      0.0007362      0.0058527      0.9846191     -0.1623535
120028800      0.9857788     -0.1619873      0.0007920      0.0059257      0.0008078      0.0059438      0.9837646     -0.1644897
121903784      0.9855957     -0.1649780      0.0008178      0.0060420      0.0008101      0.0060735      0.9838257     -0.1666870
123778760      0.9846802     -0.1670532      0.0008426      0.0061319      0.0008373      0.0061548      0.9826355     -0.1698914
125653744      0.9846191     -0.1697998      0.0008776      0.0062139      0.0008793      0.0062425      0.9827576     -0.1720276
127528728      0.9835205     -0.1721802      0.0009034      0.0062978      0.0009263      0.0063181      0.9818420     -0.1753540
129403704      0.9834290     -0.1745300      0.0009353      0.0064015      0.0009508      0.0064366      0.9814758     -0.1770325
131278688      0.9833374     -0.1774597      0.0009351      0.0064676      0.0009477      0.0065145      0.9810181     -0.1798706
133153672      0.9823914     -0.1799011      0.0009801      0.0065591      0.0009947      0.0066056      0.9809875     -0.1824036
135028656      0.9821777     -0.1824341      0.0010026      0.0066364      0.0010157      0.0066521      0.9801025     -0.1851196
136903632      0.9813843     -0.1851807      0.0010443      0.0067396      0.0010448      0.0067892      0.9793091     -0.1875000
138778608      0.9813232     -0.1873779      0.0010762      0.0068154      0.0010843      0.0068226      0.9788208     -0.1896973
140653600      0.9805908     -0.1896362      0.0010715      0.0069385      0.0010943      0.0069709      0.9790039     -0.1927490
142528576      0.9801025     -0.1927490      0.0011382      0.0070009      0.0011435      0.0070367      0.9784546     -0.1955566
144403552      0.9796143     -0.1952515      0.0011258      0.0070996      0.0011592      0.0071201      0.9780273     -0.1980591
146278544      0.9788818     -0.1977539      0.0011735      0.0071745      0.0012021      0.0072069      0.9772949     -0.2008057
148153520      0.9788818     -0.2000122      0.0011888      0.0072589      0.0012112      0.0072994      0.9773560     -0.2036133
150028496      0.9788208     -0.2027588      0.0012507      0.0073781      0.0012674      0.0073915      0.9771118     -0.2063599
151903488      0.9780273     -0.2055664      0.0012279      0.0074592      0.0012817      0.0074887      0.9763184     -0.2088623
153778464      0.9776611     -0.2080078      0.0012884      0.0075388      0.0013223      0.0075727      0.9760742     -0.2120361
155653440      0.9770508     -0.2102051      0.0013123      0.0076256      0.0013461      0.0076580      0.9754028     -0.2145386
157528432      0.9770508     -0.2128906      0.0013428      0.0076904      0.0013652      0.0077281      0.9749756     -0.2171021
159403408      0.9766235     -0.2152710      0.0013752      0.0077920      0.0014286      0.0078387      0.9746704     -0.2192993
161278384      0.9760132     -0.2175293      0.0014157      0.0078840      0.0014524      0.0079079      0.9739990     -0.2222290
163153376      0.9755554     -0.2206726      0.0014462      0.0079923      0.0014625      0.0080090      0.9737244     -0.2247925
165028352      0.9749146     -0.2226257      0.0014715      0.0080509      0.0015073      0.0081029      0.9732361     -0.2270203
166903328      0.9746094     -0.2251587      0.0014896      0.0081382      0.0015206      0.0081716      0.9728088     -0.2301636
168778320      0.9742432     -0.2274475      0.0015736      0.0082183      0.0015893      0.0082583      0.9725952     -0.2325439
170653296      0.9738464     -0.2302246      0.0015659      0.0083251      0.0016003      0.0083523      0.9721680     -0.2351379
172528272      0.9731445     -0.2329102      0.0016117      0.0083990      0.0016441      0.0084610      0.9713745     -0.2376709
174403264      0.9722900     -0.2346802      0.0016708      0.0084724      0.0016937      0.0085287      0.9706421     -0.2399292
176278240      0.9719849     -0.2369995      0.0016804      0.0085707      0.0017223      0.0086184      0.9705200     -0.2424927
178153216      0.9702148     -0.2401733      0.0017958      0.0087538      0.0017643      0.0087862      0.9689941     -0.2462158
180028192      0.9709473     -0.2420044      0.0018215      0.0088329      0.0018330      0.0088625      0.9700928     -0.2469482
181903184      0.9700317     -0.2450562      0.0018501      0.0089359      0.0018635      0.0089588      0.9688721     -0.2508545
183778160      0.9700928     -0.2472534      0.0019131      0.0089779      0.0019188      0.0090218      0.9691162     -0.2524414
185653136      0.9679565     -0.2497559      0.0019388      0.0090828      0.0019293      0.0091372      0.9675293     -0.2558594
187528128      0.9686279     -0.2518311      0.0019751      0.0091228      0.0019817      0.0092039      0.9676514     -0.2573242
189403104      0.9674988     -0.2550354      0.0019770      0.0092344      0.0020008      0.0093050      0.9673767     -0.2610168
191278080      0.9664612     -0.2577209      0.0020652      0.0093246      0.0020595      0.0093689      0.9664612     -0.2636414
193153072      0.9655151     -0.2590332      0.0020800      0.0093970      0.0020838      0.0094442      0.9652710     -0.2654419
195028048      0.9657288     -0.2615967      0.0021477      0.0094910      0.0021400      0.0095549      0.9650574     -0.2678528
196903024      0.9650574     -0.2646484      0.0021672      0.0095778      0.0021787      0.0096292      0.9644775     -0.2706299
198778016      0.9638062     -0.2673035      0.0022340      0.0096622      0.0022516      0.0097203      0.9638367     -0.2736206
200652992      0.9624939     -0.2690735      0.0022540      0.0097332      0.0022779      0.0097976      0.9625244     -0.2762451
202527968      0.9625244     -0.2710266      0.0023022      0.0098033      0.0023293      0.0098624      0.9623108     -0.2779236
204402960      0.9618530     -0.2738342      0.0023046      0.0098772      0.0023680      0.0099397      0.9610291     -0.2805786
206277936      0.9613037     -0.2769470      0.0023804      0.0099792      0.0024099      0.0100384      0.9605408     -0.2834778
208152912      0.9600830     -0.2788086      0.0024185      0.0100493      0.0024552      0.0101204      0.9598999     -0.2857666
210027904      0.9592896     -0.2808228      0.0024781      0.0101366      0.0025129      0.0102186      0.9587402     -0.2877502
211902880      0.9596252     -0.2833557      0.0024896      0.0102172      0.0025482      0.0103068      0.9589233     -0.2903748
213777856      0.9579773     -0.2868652      0.0025682      0.0102839      0.0026073      0.0103564      0.9583435     -0.2930298
215652848      0.9573975     -0.2885437      0.0025811      0.0103602      0.0026183      0.0104566      0.9572754     -0.2945557
217527824      0.9571838     -0.2908936      0.0026517      0.0104561      0.0026908      0.0105352      0.9564514     -0.2972412
219402800      0.9563904     -0.2935791      0.0027094      0.0105295      0.0027456      0.0106077      0.9558105     -0.2996521
221277792      0.9553528     -0.2959290      0.0027313      0.0106015      0.0027733      0.0106740      0.9552612     -0.3019104
223152768      0.9544067     -0.2979126      0.0027809      0.0106835      0.0027947      0.0107560      0.9540710     -0.3040466
225027744      0.9541626     -0.3003540      0.0027966      0.0107608      0.0028601      0.0108390      0.9535217     -0.3059998
226902736      0.9535217     -0.3031006      0.0028529      0.0108328      0.0029020      0.0109243      0.9531860     -0.3086853
228777712      0.9517822     -0.3053284      0.0029287      0.0108986      0.0029478      0.0109859      0.9519958     -0.3105164
230652688      0.9510803     -0.3073425      0.0029774      0.0109901      0.0029807      0.0110908      0.9515381     -0.3125305
232527680      0.9511414     -0.3098755      0.0029950      0.0110631      0.0030193      0.0111437      0.9510803     -0.3143311
234402656      0.9503174     -0.3128052      0.0030131      0.0111408      0.0030532      0.0112247      0.9504089     -0.3168335
236277632      0.9492798     -0.3148193      0.0031009      0.0112276      0.0030928      0.0112872      0.9493713     -0.3192139
238152624      0.9483948     -0.3166809      0.0031533      0.0112858      0.0031376      0.0113811      0.9485168     -0.3205566
240027600      0.9478149     -0.3188782      0.0031943      0.0113487      0.0031881      0.0114427      0.9479675     -0.3226013
241902576      0.9476929     -0.3213806      0.0032234      0.0114398      0.0032263      0.0115409      0.9476013     -0.3251648
243777568      0.9460449     -0.3247375      0.0032592      0.0115247      0.0032554      0.0116091      0.9464417     -0.3281860
245652544      0.9445801     -0.3267822      0.0033646      0.0115838      0.0033154      0.0116763      0.9447632     -0.3300171
247527520      0.9449463     -0.3280945      0.0033689      0.0116453      0.0033517      0.0117550      0.9443665     -0.3316650
249402512      0.9441223     -0.3317261      0.0033922      0.0117307      0.0033922      0.0118227      0.9437866     -0.3345337
251277488      0.9424133     -0.3342285      0.0034928      0.0118346      0.0034389      0.0119324      0.9431458     -0.3373413
253152464      0.9412842     -0.3365479      0.0035005      0.0118928      0.0034666      0.0120039      0.9413757     -0.3395996
255027456      0.9405823     -0.3383179      0.0035706      0.0119915      0.0035586      0.0121107      0.9405212     -0.3419800
256902432      0.9406128     -0.3412476      0.0036025      0.0120478      0.0035748      0.0121570      0.9396973     -0.3445129
258777408      0.9391174     -0.3442078      0.0036793      0.0121331      0.0036359      0.0121861      0.9385376     -0.3474426
260652400      0.9378967     -0.3459778      0.0037026      0.0122018      0.0036750      0.0123305      0.9372559     -0.3497925
262527376      0.9372864     -0.3482971      0.0037766      0.0122724      0.0037370      0.0123925      0.9363708     -0.3526917
264402352      0.9362793     -0.3511353      0.0038242      0.0123439      0.0037923      0.0124664      0.9351501     -0.3554993
266277344      0.9350586     -0.3539124      0.0038586      0.0124335      0.0038333      0.0125251      0.9338684     -0.3577271
268152320      0.9343262     -0.3558044      0.0039101      0.0124950      0.0038886      0.0125971      0.9324341     -0.3605652
270027296      0.9337158     -0.3582764      0.0039554      0.0125899      0.0039511      0.0126953      0.9310303     -0.3629456
271902272      0.9331055     -0.3611755      0.0039949      0.0126696      0.0039973      0.0127711      0.9301758     -0.3659973
273777248      0.9316101     -0.3637390      0.0041008      0.0127716      0.0040665      0.0128641      0.9289856     -0.3686218
275652256      0.9308167     -0.3658752      0.0041189      0.0127983      0.0041103      0.0128851      0.9275513     -0.3708191
277527232      0.9300537     -0.3679199      0.0041504      0.0128937      0.0041504      0.0129910      0.9266968     -0.3731689
279402208      0.9295044     -0.3707886      0.0041895      0.0129747      0.0042114      0.0130501      0.9257813     -0.3758545
281277184      0.9282837     -0.3741455      0.0042725      0.0130644      0.0042839      0.0131149      0.9242554     -0.3786011
283152160      0.9265137     -0.3753662      0.0043182      0.0131273      0.0043192      0.0131617      0.9226685     -0.3807373
285027136      0.9270020     -0.3772583      0.0043707      0.0132103      0.0044107      0.0132618      0.9226074     -0.3828735
286902144      0.9263306     -0.3803101      0.0044203      0.0132885      0.0044575      0.0133410      0.9216309     -0.3857422
