# Hz S RI R 50
10000000	0.999625466900919	-2.13663784693377E-02	1.3816978655004E-04	1.49006225765646E-03			1.3343258964206E-04	1.4758086031578E-03	0.999754645919744	-2.26525166831769E-02
13118750	0.999639894944957	-2.79357202668045E-02	8.23974325866286E-05	1.81263130144016E-03			7.69973356507785E-05	1.79861335775912E-03	0.999448862845371	-2.95045712775163E-02
16237500	0.999428281910976	-0.034674072381838	1.19514158468887E-04	2.24553180562128E-03			1.16556914542527E-04	2.22379154172755E-03	0.999337089519527	-3.63411074765806E-02
19356250	0.998632126992434	-4.10988832421419E-02	1.3901572218396E-04	2.59941795834731E-03			1.19297430705856E-04	2.6052070978283E-03	0.998823198821708	-4.35397782007345E-02
22475000	0.998707341647435	-0.047582780212153	1.36781666541322E-04	3.03916956773962E-03			1.40316387837045E-04	3.01551189212486E-03	0.998391362206391	-5.03887785115822E-02
25593750	0.997899334451269	-5.45722751995052E-02	1.84182044295881E-04	3.48927937823192E-03			1.85079635242539E-04	3.46676849942142E-03	0.99825893928446	-5.71556946574014E-02
28712500	0.997529321709073	-6.09179309993181E-02	2.69576001959186E-04	3.94062207933485E-03			2.52756222924506E-04	3.91207422568947E-03	0.997394053321056	-6.41378244339792E-02
31831250	0.997452962193146	-0.067586548541089	3.13697276376499E-04	4.32688227995476E-03			2.7142133202275E-04	4.30970304124497E-03	0.997417831406911	-7.05854707334064E-02
34950000	0.996677466183701	-0.074666900515764	4.46443264810684E-04	4.82943528466509E-03			4.23959552094714E-04	4.77258544194797E-03	0.996575320628104	-7.83153712147574E-02
38068750	0.996301546854919	-8.06304726016444E-02	4.60745953272727E-04	5.11886730025698E-03			4.19270219507302E-04	5.10269734040523E-03	0.99531557140068	-8.52674337486143E-02
41187500	0.99570477501544	-8.74162916093489E-02	5.58085000135392E-04	5.59704299235307E-03			5.53906191743316E-04	5.5728596853922E-03	0.99519989133254	-0.091634010505099
44306250	0.995408115310727	-9.41506317963803E-02	5.93720489576629E-04	6.04500285397528E-03			5.51382718917696E-04	6.02779650568819E-03	0.994409437558176	-0.098883295498265
47425000	0.994242687481895	-0.100292508901777	7.13531213949838E-04	6.52104363299059E-03			7.11188655557099E-04	6.53233606167022E-03	0.993550938201356	-0.105226077174846
50543750	0.993636073245325	-0.106689267037973	7.09213175230589E-04	6.84503470543582E-03			6.65709523884687E-04	0.006842563989986	0.993236814914766	-0.11212417971439
53662500	0.992429400445283	-0.114159459501056	8.08066810573748E-04	7.27693404030927E-03			7.43120896001513E-04	7.28338948449646E-03	0.992210600719168	-0.119551093856522
56781250	0.992018869210268	-0.120217212141481	9.97422927997157E-04	7.73209473011529E-03			9.90046413446188E-04	7.74522342003732E-03	0.990954599442545	-0.12609678342447
59900000	0.991097914806376	-0.126782417557484	1.04118622038198E-03	8.09751068852705E-03			1.01134258696471E-03	8.10820271162121E-03	0.989714204831259	-0.132860306045702
63018750	0.989287600527303	-0.132969712762349	1.40900721335124E-03	8.48652538897898E-03			1.40501336176008E-03	8.51593295890936E-03	0.98856974597566	-0.140138920340159
66137500	0.989010204298475	-0.139857072942375	1.26904800444262E-03	8.98595287197152E-03			1.26030953203201E-03	8.98123894576624E-03	0.98830173568323	-0.146354363453646
69256250	0.988429960377707	-0.146489589255007	1.3976782637638E-03	9.33404099152864E-03			1.39080184463772E-03	9.35255071535993E-03	0.986986595115308	-0.153252488069017
72375000	0.986906233961733	-0.153157922161473	1.62236970679115E-03	9.72391747433817E-03			1.59991379936618E-03	9.72856999444084E-03	0.985161509307623	-0.160085368307612
75493750	0.986075218339989	-0.159494989039477	1.68034796423093E-03	1.01018953494917E-02			1.64370575798944E-03	1.01191007364617E-02	0.984887021444673	-0.166893354303111
78612500	0.984709234050792	-0.166425904115431	1.82983057124625E-03	1.05433006465474E-02			1.80458875116986E-03	0.010590027858495	0.983498292078732	-0.174162719368141
81731250	0.983706678087274	-0.172499713451948	1.89359895474473E-03	1.08948432149996E-02			1.92940557485396E-03	1.09326224221205E-02	0.982074832300013	-0.180205855665395
84850000	0.982565924028564	-0.178945665938085	2.05355137025626E-03	1.13711232922505E-02			2.04317761230507E-03	1.13817944697551E-02	0.980898827933541	-0.187147618653951
87968750	0.981099399763207	-0.185479700587597	2.24633993672338E-03	0.011680294529174			2.26301293498216E-03	1.17021818783362E-02	0.979805167722649	-0.194234756408504
91087500	0.980255861796444	-0.192084198850897	2.37700780414256E-03	1.20973019747149E-02			2.41337473362589E-03	1.20654824607245E-02	0.977771323256812	-0.200921762703837
94206250	0.978693030941567	-0.198402128296594	2.53539250894949E-03	1.25630327196256E-02			2.56298782010654E-03	1.25576625759257E-02	0.976828483491535	-0.207816844115135
97325000	0.977209468502437	-0.204708599972448	2.71698789955781E-03	1.29881943395696E-02			2.73194466208203E-03	1.29838560971561E-02	0.9750270380577	-0.214889948516469
100443750	0.975794758243894	-0.210974377827125	2.90237563326208E-03	1.34224844631441E-02			2.93869085165461E-03	1.33873475714793E-02	0.973250261611819	-0.221376081255183
103562500	0.974552272747312	-0.217373896419493	3.07820191088911E-03	1.37244139155766E-02			3.06899915502036E-03	1.37102598439929E-02	0.972064310358477	-0.227833792722315
106681250	0.972946647296973	-0.224349112974523	3.30500082390575E-03	1.41906998056872E-02			3.31893179300161E-03	1.41680023071331E-02	0.970239178648577	-0.234634155243713
109800000	0.971126121848019	-0.230601367707599	3.51002884293774E-03	1.45493388379996E-02			3.53733800133013E-03	1.45131365213997E-02	0.968772514107691	-0.241305495554933
112918750	0.969696610514433	-0.237331394782281	3.73630002295544E-03	1.50173396327015E-02			3.75261790927552E-03	0.014983475030748	0.966899341087978	-0.248470943313061
116037500	0.968223993171047	-0.243238256848684	3.88566606643055E-03	0.015318069464213			3.92005246685399E-03	1.52570225425178E-02	0.965176410183847	-0.25526676092764
119156250	0.966580921657828	-0.249558320612804	3.99126413033095E-03	1.56852737708618E-02			4.0017416994193E-03	1.56268666501926E-02	0.963475784302003	-0.26154628620056
122275000	0.964915522256757	-0.256450215876114	4.31350051838615E-03	1.60893622161476E-02			4.31175994770144E-03	1.59870935776448E-02	0.961421672698236	-0.267906214064704
125393750	0.962751544252515	-0.262786795296957	4.56326796776828E-03	1.65573957336357E-02			4.56342775252371E-03	1.64591788187575E-02	0.959551976565727	-0.275351602581085
128512500	0.961326635833063	-0.268534697342013	4.70480644660328E-03	1.68696991129023E-02			4.69849189198737E-03	1.67708385287211E-02	0.957666246398107	-0.281178032367062
131631250	0.959749096925757	-0.274924300645459	4.98419903763893E-03	1.71953619879079E-02			4.97098097472063E-03	1.71200926202889E-02	0.956010404192088	-0.287761278549802
134750000	0.956765421040185	-0.280508890175675	5.46291706332578E-03	1.74554263485188E-02			5.4593711013834E-03	1.73594003852854E-02	0.952391510153703	-0.293516193590854
137868750	0.955466328692963	-0.287360670900036	5.56278422360666E-03	1.78870970277073E-02			5.53753262024944E-03	1.78409601178775E-02	0.952035130346693	-0.301139802974469
140987500	0.953859195523606	-0.29362017125186	5.7738407034743E-03	1.82654444697761E-02			5.72740503976359E-03	1.82165656899668E-02	0.949402348362527	-0.307141099754273
144106250	0.951177267647599	-0.299435391019918	5.96449921743317E-03	1.85726793400236E-02			5.96747709391822E-03	1.84864864278444E-02	0.94686978041208	-0.313498332136664
147225000	0.949580504309667	-0.306197842643285	6.34643366128847E-03	1.88830239847747E-02			6.33278605381338E-03	1.88196319598069E-02	0.944948623273005	-0.320335978061296
150343750	0.947817815958763	-0.312613165654144	6.57488101024609E-03	1.93147657753184E-02			6.57844048541844E-03	1.92512866104169E-02	0.943030662386548	-0.327487382829568
153462500	0.945158418699383	-0.318158749587476	6.8197689995749E-03	1.97393719982362E-02			6.80203858717505E-03	1.96955225170661E-02	0.940696605620665	-0.332804948521931
156581250	0.943487052336057	-0.324925369055714	6.99275649590356E-03	1.99329654630745E-02			6.94319509183044E-03	1.98867201856441E-02	0.938021874116844	-0.339586058890635
159700000	0.941382985795458	-0.330955051933515	0.007329733913517	2.04167889147413E-02			7.29583541512405E-03	2.02899746139188E-02	0.936124503046821	-0.346371359071088
162818750	0.938701499845727	-0.336849782765085	7.66343556725666E-03	2.05560375395997E-02			7.63633484812859E-03	2.04575933891899E-02	0.933384961242633	-0.35196252211501
165937500	0.936339993177458	-0.343712151747527	7.89770156547364E-03	2.10018738075354E-02			7.86827921951604E-03	0.020902292479088	0.930933223786345	-0.35878465697388
169056250	0.934599125212469	-0.349679668514837	8.21269164355851E-03	2.13715062942078E-02			8.16588339976376E-03	2.12740082913396E-02	0.928456738961653	-0.364963345972915
172175000	0.932141983819718	-0.355474702170823	8.48669262504436E-03	2.16699042368388E-02			8.45435680148515E-03	2.15634189525293E-02	0.925684017703747	-0.371189997697391
175293750	0.929823394626536	-0.361513826824181	8.78291323238851E-03	2.21051198299255E-02			8.73541259498582E-03	2.19665486216966E-02	0.923692430187489	-0.377335190518492
178412500	0.927064173101579	-0.367621493753472	9.11460675609246E-03	2.23198843275738E-02			9.06936980628741E-03	2.22392148065366E-02	0.921253455213332	-0.384449788991177
181531250	0.924675926082308	-0.373875139786628	9.37043230059261E-03	2.26496133235153E-02			9.31501823281927E-03	2.25520991114977E-02	0.91784766691948	-0.39020226414282
184650000	0.922124887001614	-0.379458835168252	9.70420059478064E-03	2.29809122130024E-02			9.61779758514849E-03	2.29048089554499E-02	0.915329075581706	-0.396071467223104
187768750	0.919201512677632	-0.386192010426774	1.00622668294243E-02	0.023232982418857			9.95982718002511E-03	2.31394270795712E-02	0.912474559867641	-0.403138917894888
190887500	0.916710991249661	-0.391429956893736	1.04524846221076E-02	2.35511193146904E-02			1.03113064085111E-02	2.34259615909591E-02	0.909539023309776	-0.408544939714658
194006250	0.914558463630772	-0.397607896035333	1.07044255673265E-02	2.38648545437366E-02			1.06142246361047E-02	2.37597184347414E-02	0.906845359724569	-0.414955138260029
197125000	0.911511439800186	-0.403696276409957	1.11079061272692E-02	2.42252508967533E-02			0.010996782937023	2.40780073874931E-02	0.903955906662586	-0.421964328757819
200243750	0.909337998581638	-0.409314650773198	1.13321675971363E-02	2.43685296895863E-02			0.011240363831516	2.42264968631197E-02	0.901025422040316	-0.427529169927511
203362500	0.906047101934559	-0.415591092840132	1.17666578826917E-02	0.024785336455366			1.15732399643857E-02	2.46416104811428E-02	0.898304799869228	-0.433943671805504
206481250	0.901881786719739	-0.421666243405449	1.23325527326952E-02	2.50469581702723E-02			1.21913240099295E-02	2.49215235088171E-02	0.892990948316371	-0.439355564102007
209600000	0.900721219543544	-0.426793194127471	1.23172640199558E-02	2.53139297212096E-02			1.21299916577926E-02	2.51303473091511E-02	0.892377601724721	-0.445351674538333
212718750	0.898000020601402	-0.433393936491153	1.28760718799991E-02	0.025620593721629			1.26524004334228E-02	2.54848945566266E-02	0.889246195859426	-0.451956884191622
215837500	0.894681557028946	-0.4384751119353	1.30748813656878E-02	2.58047099867597E-02			1.28755625558139E-02	2.56766397115122E-02	0.885039465547185	-0.457388647820763
218956250	0.891796001507236	-0.444721926842804	1.34657868597726E-02	2.60929584600898E-02			1.32506679106271E-02	2.59855640490794E-02	0.882981876900495	-0.463843560017352
222075000	0.888793094694054	-0.450683872269269	1.38127838936581E-02	2.63918168758267E-02			1.36354078877831E-02	2.62912472848643E-02	0.879924367594814	-0.470181009785789
225193750	0.88609953693866	-0.455844389219391	1.42019998722722E-02	2.64675725073016E-02			1.39793223471058E-02	2.63581482350679E-02	0.875680938546832	-0.475740680836292
228312500	0.88286142920893	-0.46222311495791	1.45725389241303E-02	2.69164671615306E-02			1.43453956397307E-02	2.68138492397402E-02	0.872539950636301	-0.481685203082847
231431250	0.880053446661283	-0.468126934840912	1.49256257617906E-02	0.027122335805229			1.46832493471982E-02	2.70593889625315E-02	0.87003422738732	-0.488159697918443
234550000	0.876656487132327	-0.473395782443321	1.52914255069507E-02	2.72726313539514E-02			1.50354047278028E-02	2.72408601629261E-02	0.86627049123759	-0.493341471738437
237668750	0.873397416149867	-0.479124994791026	1.57034487976996E-02	2.75263934616514E-02			1.54532960980939E-02	2.75256735106495E-02	0.862888136157949	-0.49998701466408
240787500	0.870384505957675	-0.485102024807099	0.016131812369892	2.77881489597255E-02			1.58744340118851E-02	2.78036592851585E-02	0.859243337909234	-0.506086746991048
243906250	0.866548771360326	-0.490568193366678	0.016372690240617	2.80841728831802E-02			1.60829725221564E-02	2.81317076222176E-02	0.855566325314798	-0.510883553250979
247025000	0.86353372619388	-0.496051779966917	1.69427192660072E-02	2.82022745870379E-02			1.66563094853741E-02	2.82720909069012E-02	0.852439655745566	-0.516956933668721
250143750	0.860409950018107	-0.502421134542701	1.72710080102102E-02	2.83901940553727E-02			1.69556250669437E-02	2.84920512917243E-02	0.848270442546879	-0.523445833669705
253262500	0.857036927837616	-0.507460596047979	0.017776991885874	2.86838876223715E-02			1.75032032637052E-02	2.87399062926425E-02	0.844717571764766	-0.528419949336341
256381250	0.853305153311784	-0.513307429735005	1.80989447329626E-02	2.88338584700018E-02			1.78351453775555E-02	2.89718003154627E-02	0.841560068818443	-0.534293618725539
259500000	0.849953523925465	-0.519300556440547	1.84791156770971E-02	2.90433715684025E-02			1.82299460475954E-02	2.91306667925145E-02	0.837525849745406	-0.540846069657493
262618750	0.84638058567249	-0.524093822512689	1.89205794099093E-02	2.91324009310579E-02			1.86534290179057E-02	2.92356260155087E-02	0.834015543070359	-0.54502273932592
265737500	0.842841240623352	-0.52930087434372	1.92902615857915E-02	2.94694641799946E-02			1.90476965915653E-02	2.95786848156551E-02	0.830214956876862	-0.551340192531942
268856250	0.838835607764546	-0.535560511019901	1.96976431969894E-02	2.95747983227461E-02			1.94741888501923E-02	2.96991460986413E-02	0.825722056434886	-0.557798961568609
271975000	0.835949005238185	-0.540548920746387	1.99768848015369E-02	2.98190355585149E-02			0.019790436883715	2.99566939353121E-02	0.822452838608141	-0.562588888898188
275093750	0.832417169814842	-0.54618942255022	2.04156937646329E-02	3.00689200588181E-02			2.02287867376843E-02	3.01365950088961E-02	0.818200036162243	-0.568708812110552
278212500	0.826170520457881	-0.551830497969517	2.08573422810128E-02	3.02447919313139E-02			2.06947294234433E-02	3.03582285815461E-02	0.811585746471462	-0.574420669017141
281331250	0.824666134208756	-0.556902766346275	2.11599645172051E-02	3.04026299953879E-02			2.10473361222233E-02	0.03048725425473	0.810351080798192	-0.579479728335943
284450000	0.821095730571066	-0.562418377118804	2.15990194903583E-02	3.05912587524524E-02			2.14966224601262E-02	3.07041898089501E-02	0.80627967638811	-0.584913079818741
287568750	0.816912254617729	-0.566860749221851	2.20090523286403E-02	3.08292301389257E-02			2.19871793862995E-02	3.09558565739268E-02	0.801800199679181	-0.590385690510714
290687500	0.813780332207473	-0.572829358849821	0.02238689546546	3.08984946948049E-02			2.23166956293271E-02	3.10451449996907E-02	0.798604148929324	-0.595654847574742
293806250	0.809637151813149	-0.578448963420473	2.27945501987337E-02	3.10638268429496E-02			2.27674113465334E-02	3.12063729925323E-02	0.793886777456938	-0.601628599564134
296925000	0.806107179718324	-0.582924712339198	0.023116009655684	3.11203533025066E-02			2.31090697235932E-02	3.12186373317131E-02	0.789707787258259	-0.605992822762346
300043750	0.801481319195261	-0.58836294528063	0.023565833255543	0.031353888126127			2.35594443262096E-02	3.15159289070355E-02	0.786246931973744	-0.61140630320141
303162500	0.797584939768926	-0.593601210319792	2.40467573137509E-02	3.15120944517476E-02			2.40654619552772E-02	0.03164434761173	0.781479697517825	-0.617586156564367
306281250	0.793946266524226	-0.598472144302122	0.024411725253056	3.16315592819524E-02			2.43928995404804E-02	3.17581396897541E-02	0.776960044992403	-0.622127507832573
309400000	0.790121947335009	-0.604251747114522	2.49613528998511E-02	3.17906981655483E-02			2.49377561375136E-02	3.19081404232836E-02	0.773086357624541	-0.627513793695594
312518750	0.785794840535383	-0.609456028148539	2.55225999381302E-02	3.19154317519874E-02			2.55286475196993E-02	3.20270925537512E-02	0.768450657013036	-0.633271066467035
315637500	0.781869905960966	-0.613407148594601	2.59524826563646E-02	0.031985492777561			2.59430696676958E-02	3.20162129732964E-02	0.763957810144011	-0.637650326059274
318756250	0.777556819484689	-0.619221389961467	2.63504861371549E-02	3.21915846868972E-02			2.63139560707216E-02	3.22555794992783E-02	0.760035448903115	-0.643274046438412
321875000	0.773685426102175	-0.624302955935703	2.68561843283352E-02	0.032342377667057			2.67736246606684E-02	3.23528623583653E-02	0.755815241177889	-0.648683576066994
324993750	0.769567937943775	-0.628863220553842	2.72087115179743E-02	3.23017123780945E-02			2.71119686618093E-02	3.23207625753584E-02	0.750814243256269	-0.653172826456272
328112500	0.765039394903812	-0.634086090107563	0.027807598696223	3.25558607122581E-02			2.77148761103195E-02	3.25383368326057E-02	0.746032146347454	-0.658381438472955
331231250	0.760527351983248	-0.639524044341648	2.82303532961906E-02	3.26677544576569E-02			0.028111552048534	3.26381282991449E-02	0.741177565689172	-0.66382339440211
334350000	0.757003654399734	-0.643982107328038	2.86908546108155E-02	3.28862726767859E-02			2.85887459585636E-02	3.28677855488722E-02	0.737565895442259	-0.668507563481954
337468750	0.752348948681294	-0.648795917791151	2.92396994825126E-02	0.032852902294148			2.91160099065884E-02	3.27823001760895E-02	0.73261792998189	-0.673485417550524
340587500	0.747974716193635	-0.654255573723485	2.97396344170997E-02	3.30416095524075E-02			2.95768612345449E-02	3.29409422399569E-02	0.727757239245503	-0.678559005308232
343706250	0.743840567392953	-0.65820225108311	3.01856837170518E-02	3.31725613642562E-02			3.00434598760061E-02	3.30980547505843E-02	0.723854463244952	-0.683055135822273
346825000	0.739367778742763	-0.663264917287991	0.030737841453668	0.033192855641264			3.05895462379758E-02	3.30643519167119E-02	0.718695530234944	-0.687982565054866
349943750	0.733288575575628	-0.668145108953316	3.10963992175976E-02	3.31641561875354E-02			3.09335538521821E-02	3.30518190206063E-02	0.711495858702624	-0.69298603629797
353062500	0.730905786465664	-0.672727204738462	3.15913443062351E-02	3.33241993075191E-02			0.031379256258493	3.32023477848291E-02	0.709412962057385	-0.69706737413017
356181250	0.72664898918458	-0.677496602977186	3.20133629663309E-02	0.033379029351125			3.18180864863585E-02	3.32502307065988E-02	0.704951601813762	-0.702148812148423
359300000	0.721410906516843	-0.681537036698107	0.032560367826687	3.34033059442741E-02			3.23883654036577E-02	3.32519027022655E-02	0.699366924778315	-0.706273242077008
362418750	0.717872140102724	-0.686738823441532	3.29808085567804E-02	3.34722892172637E-02			3.27833171669242E-02	3.33618375251288E-02	0.69531733503131	-0.711295859014125
365537500	0.712746595610474	-0.691304323656374	3.34782747251196E-02	0.033459757501159			3.32696219435347E-02	3.33435473592113E-02	0.690287949099669	-0.71636073235663
368656250	0.708060556857273	-0.695848898640723	3.39595864630337E-02	3.33863635149464E-02			3.37105803284959E-02	3.32717496136888E-02	0.685121996933519	-0.720042089808134
371775000	0.703916841079272	-0.700467529819619	0.034422731415691	0.033454348754553			3.42103593169624E-02	3.33811914436531E-02	0.680449389808617	-0.725234251548276
374893750	0.699076337349044	-0.704522830904997	3.49379868205809E-02	3.34824958936706E-02			3.47526438576517E-02	3.34441727970138E-02	0.675303286915116	-0.730016900928205
