!SF2182D
# HZ S RI R 50
80000000      0.9285278     -0.3548584      0.0000958      0.0000757      0.0001049      0.0000581      0.9030457     -0.4159851
80075000      0.9288025     -0.3549500      0.0001074      0.0000670      0.0001124      0.0000472      0.9027710     -0.4165039
80150000      0.9285278     -0.3554382      0.0001090      0.0000308      0.0001213      0.0000341      0.9030151     -0.4171753
80225000      0.9284058     -0.3555603      0.0000998      0.0000107      0.0001121      0.0000015      0.9024048     -0.4176941
80300000      0.9282227     -0.3562012      0.0001057     -0.0000021      0.0001078     -0.0000015      0.9021606     -0.4179993
80375000      0.9279785     -0.3560791      0.0000821     -0.0000371      0.0000937     -0.0000351      0.9020996     -0.4183044
80450000      0.9280090     -0.3566589      0.0000328     -0.0000633      0.0000387     -0.0000475      0.9021912     -0.4186096
80525000      0.9278870     -0.3567810      0.0000015     -0.0000643     -0.0000084     -0.0000443      0.9019165     -0.4190674
80600000      0.9276123     -0.3571167     -0.0000302     -0.0000145     -0.0000216     -0.0000131      0.9014893     -0.4194336
80675000      0.9274597     -0.3573914     -0.0000214      0.0000114     -0.0000352      0.0000009      0.9014282     -0.4198303
80750000      0.9274597     -0.3581238     -0.0000020      0.0000099     -0.0000088     -0.0000060      0.9013367     -0.4203491
80825000      0.9273987     -0.3582153     -0.0000523     -0.0000236     -0.0000438      0.0000006      0.9008484     -0.4208679
80900000      0.9272461     -0.3587341     -0.0000814      0.0000048     -0.0000756      0.0000295      0.9009399     -0.4210815
80975000      0.9270935     -0.3591614     -0.0000879      0.0000365     -0.0000526      0.0000404      0.9005127     -0.4213867
81050000      0.9269714     -0.3594971     -0.0000640      0.0000452     -0.0000571      0.0000622      0.9004517     -0.4220886
81125000      0.9268799     -0.3599548     -0.0000624      0.0000691     -0.0000563      0.0000716      0.8999634     -0.4223633
81200000      0.9266052     -0.3602905     -0.0000413      0.0000710     -0.0000616      0.0000688      0.9000854     -0.4228516
81275000      0.9262390     -0.3604431     -0.0000515      0.0000962     -0.0000553      0.0000771      0.8999939     -0.4231873
81350000      0.9266052     -0.3606567     -0.0000390      0.0001154     -0.0000378      0.0001043      0.8994141     -0.4236145
81425000      0.9262390     -0.3610535     -0.0000293      0.0001165     -0.0000269      0.0001023      0.8992615     -0.4241638
81500000      0.9260559     -0.3614807     -0.0000359      0.0001238     -0.0000279      0.0001120      0.8991089     -0.4244995
81575000      0.9258728     -0.3618774     -0.0000120      0.0001362     -0.0000216      0.0001260      0.8991699     -0.4246521
81650000      0.9255981     -0.3621521      0.0000022      0.0001476     -0.0000050      0.0001287      0.8985596     -0.4251404
81725000      0.9252930     -0.3624573      0.0000036      0.0001134      0.0000049      0.0001459      0.8982849     -0.4256287
81800000      0.9253540     -0.3630066      0.0000074      0.0001461     -0.0000068      0.0001347      0.8978271     -0.4261169
81875000      0.9252319     -0.3633423      0.0000412      0.0001429      0.0000224      0.0001485      0.8979187     -0.4264832
81950000      0.9252319     -0.3636475      0.0000522      0.0001063      0.0000449      0.0001157      0.8973083     -0.4268188
82025000      0.9250793     -0.3637695      0.0000422      0.0001258      0.0000339      0.0001082      0.8970947     -0.4269714
82100000      0.9244385     -0.3641663      0.0000311      0.0001193      0.0000405      0.0001127      0.8970947     -0.4273376
82175000      0.9242249     -0.3644104      0.0000443      0.0001233      0.0000592      0.0001322      0.8971558     -0.4275208
82250000      0.9242859     -0.3648376      0.0000799      0.0001196      0.0000856      0.0001522      0.8963623     -0.4278564
82325000      0.9237366     -0.3648071      0.0000870      0.0001291      0.0000980      0.0001367      0.8960266     -0.4284363
82400000      0.9236145     -0.3652954      0.0000981      0.0001000      0.0001187      0.0000986      0.8960266     -0.4284668
82475000      0.9237671     -0.3652039      0.0000988      0.0000886      0.0001140      0.0000938      0.8958130     -0.4285889
82550000      0.9239807     -0.3657227      0.0001213      0.0000959      0.0001456      0.0000843      0.8959351     -0.4287720
82625000      0.9235535     -0.3659668      0.0001732      0.0000693      0.0001702      0.0000780      0.8954468     -0.4289856
82700000      0.9235535     -0.3661499      0.0001751      0.0000259      0.0001774      0.0000178      0.8954773     -0.4295044
82775000      0.9236755     -0.3663635      0.0001404     -0.0000287      0.0001666     -0.0000107      0.8957520     -0.4297485
82850000      0.9236450     -0.3668823      0.0001346     -0.0000403      0.0001375     -0.0000244      0.8954468     -0.4303589
82925000      0.9235535     -0.3671875      0.0000936     -0.0000765      0.0001115     -0.0000636      0.8955688     -0.4307556
83000000      0.9235535     -0.3677368      0.0000790     -0.0000857      0.0000726     -0.0000681      0.8950500     -0.4311218
83075000      0.9233398     -0.3681335      0.0000461     -0.0000717      0.0000469     -0.0000844      0.8950195     -0.4315491
83150000      0.9231873     -0.3683167      0.0000065     -0.0000914      0.0000161     -0.0000923      0.8947754     -0.4323730
83225000      0.9229736     -0.3687744     -0.0000417     -0.0000716     -0.0000250     -0.0000774      0.8946228     -0.4325562
83300000      0.9229431     -0.3691406     -0.0000547     -0.0000459     -0.0000278     -0.0000446      0.8943481     -0.4327087
83375000      0.9228516     -0.3694763     -0.0000319     -0.0000517     -0.0000343     -0.0000492      0.8942566     -0.4332581
83450000      0.9225464     -0.3698730     -0.0000648     -0.0000564     -0.0000776     -0.0000740      0.8941040     -0.4336243
83525000      0.9224548     -0.3702087     -0.0000959     -0.0000168     -0.0000960     -0.0000213      0.8939819     -0.4340515
83600000      0.9221802     -0.3706055     -0.0000887      0.0000113     -0.0000991      0.0000210      0.8937988     -0.4344788
83675000      0.9216919     -0.3709717     -0.0000949      0.0000128     -0.0000987      0.0000228      0.8934021     -0.4348145
83750000      0.9220581     -0.3710632     -0.0001114      0.0000543     -0.0001193      0.0000416      0.8932495     -0.4353027
83825000      0.9219055     -0.3714294     -0.0000917      0.0000698     -0.0001074      0.0000775      0.8934631     -0.4353027
83900000      0.9216614     -0.3719788     -0.0000784      0.0001076     -0.0000707      0.0000806      0.8928833     -0.4361267
83975000      0.9215088     -0.3725281     -0.0000807      0.0000838     -0.0000605      0.0001016      0.8929138     -0.4365845
84050000      0.9215088     -0.3727722     -0.0000899      0.0000917     -0.0000905      0.0000934      0.8927307     -0.4368591
84125000      0.9212036     -0.3727417     -0.0000904      0.0001235     -0.0000798      0.0001163      0.8925781     -0.4373779
84200000      0.9212952     -0.3735962     -0.0000500      0.0001581     -0.0000527      0.0001535      0.8922729     -0.4379883
84275000      0.9210510     -0.3738098     -0.0000408      0.0001688     -0.0000373      0.0001603      0.8920288     -0.4382935
84350000      0.9208679     -0.3739319     -0.0000114      0.0001670     -0.0000179      0.0001855      0.8919373     -0.4384766
84425000      0.9208984     -0.3745117     -0.0000009      0.0001570     -0.0000051      0.0001833      0.8915710     -0.4388733
84500000      0.9206238     -0.3750305      0.0000082      0.0001715      0.0000059      0.0001586      0.8915100     -0.4392395
84575000      0.9206543     -0.3751221      0.0000419      0.0001687      0.0000221      0.0001597      0.8913879     -0.4400330
84650000      0.9205627     -0.3756714      0.0000629      0.0001559      0.0000460      0.0001556      0.8909607     -0.4398499
84725000      0.9201355     -0.3757935      0.0000717      0.0001613      0.0000645      0.0001639      0.8910522     -0.4405823
84800000      0.9200134     -0.3764038      0.0000760      0.0001602      0.0000912      0.0001538      0.8905334     -0.4408875
84875000      0.9197998     -0.3764038      0.0001090      0.0001352      0.0001136      0.0001291      0.8901672     -0.4413757
84950000      0.9195862     -0.3770142      0.0001142      0.0001265      0.0001188      0.0001094      0.8901978     -0.4414978
85025000      0.9194336     -0.3773193      0.0001135      0.0000782      0.0001241      0.0000839      0.8901367     -0.4422302
85100000      0.9191589     -0.3777161      0.0000912      0.0000484      0.0001022      0.0000439      0.8896790     -0.4420471
85175000      0.9194336     -0.3782959      0.0000617      0.0000538      0.0000707      0.0000548      0.8896484     -0.4428406
85250000      0.9190369     -0.3784790      0.0000871      0.0000662      0.0000716      0.0000603      0.8894653     -0.4429321
85325000      0.9189453     -0.3784790      0.0000748      0.0000618      0.0000789      0.0000762      0.8889771     -0.4433899
85400000      0.9187622     -0.3788147      0.0000922      0.0000799      0.0000968      0.0000696      0.8887024     -0.4439697
85475000      0.9185486     -0.3791199      0.0001029      0.0000475      0.0001079      0.0000564      0.8884277     -0.4442749
85550000      0.9185486     -0.3796692      0.0001047      0.0000359      0.0001145      0.0000212      0.8884277     -0.4449158
85625000      0.9181824     -0.3799133      0.0000868      0.0000124      0.0000936      0.0000038      0.8879700     -0.4450989
85700000      0.9180603     -0.3804932      0.0000641     -0.0000081      0.0000736     -0.0000081      0.8876953     -0.4456482
85775000      0.9178772     -0.3806458      0.0000554     -0.0000209      0.0000401     -0.0000103      0.8874817     -0.4458008
85850000      0.9175720     -0.3812256      0.0000412      0.0000049      0.0000419      0.0000008      0.8871765     -0.4462280
85925000      0.9172363     -0.3813171      0.0000470     -0.0000058      0.0000524      0.0000011      0.8869629     -0.4465637
86000000      0.9173279     -0.3818970      0.0000492     -0.0000082      0.0000277     -0.0000405      0.8866577     -0.4468994
86075000      0.9170837     -0.3818054      0.0000062     -0.0000592      0.0000064     -0.0000314      0.8865356     -0.4473267
86150000      0.9167480     -0.3825073     -0.0000064     -0.0000189     -0.0000331     -0.0000289      0.8862610     -0.4476624
86225000      0.9165955     -0.3829041     -0.0000232     -0.0000112     -0.0000335     -0.0000136      0.8861694     -0.4483032
86300000      0.9164429     -0.3828430     -0.0000470      0.0000057     -0.0000511     -0.0000052      0.8857727     -0.4483337
86375000      0.9159546     -0.3833008     -0.0000598      0.0000106     -0.0000583      0.0000149      0.8856201     -0.4485168
86450000      0.9160767     -0.3836060     -0.0000509      0.0000401     -0.0000507      0.0000213      0.8853760     -0.4488831
86525000      0.9160156     -0.3838501     -0.0000729      0.0000415     -0.0000723      0.0000227      0.8852844     -0.4491882
86600000      0.9158020     -0.3840637     -0.0000820      0.0000344     -0.0000802      0.0000505      0.8850098     -0.4494629
86675000      0.9156494     -0.3846741     -0.0000988      0.0000811     -0.0000930      0.0000658      0.8847961     -0.4500732
86750000      0.9155884     -0.3844910     -0.0001058      0.0001106     -0.0001167      0.0001206      0.8847046     -0.4500427
86825000      0.9157104     -0.3847961     -0.0000739      0.0001513     -0.0000803      0.0001357      0.8846436     -0.4505005
86900000      0.9154358     -0.3852234     -0.0000159      0.0001451      0.0000051      0.0001489      0.8844299     -0.4505920
86975000      0.9152832     -0.3856506     -0.0000029      0.0001252     -0.0000070      0.0001319      0.8844604     -0.4512329
87050000      0.9152527     -0.3857422      0.0000073      0.0001376      0.0000036      0.0001340      0.8842468     -0.4514771
87125000      0.9150696     -0.3862915     -0.0000022      0.0001250      0.0000060      0.0001374      0.8840942     -0.4519043
87200000      0.9152832     -0.3866272      0.0000152      0.0001321      0.0000099      0.0001197      0.8836670     -0.4522400
87275000      0.9147034     -0.3870239      0.0000209      0.0001289      0.0000386      0.0001286      0.8835754     -0.4527283
87350000      0.9147339     -0.3872681      0.0000176      0.0001426      0.0000258      0.0001135      0.8833008     -0.4532776
87425000      0.9147034     -0.3875732      0.0000161      0.0001244     -0.0000020      0.0001424      0.8835144     -0.4538269
87500000      0.9147339     -0.3880615      0.0000544      0.0001378      0.0000248      0.0001383      0.8832703     -0.4541931
87575000      0.9144592     -0.3881226      0.0000557      0.0001356      0.0000381      0.0001269      0.8831177     -0.4543762
87650000      0.9145813     -0.3887329      0.0000524      0.0001253      0.0000653      0.0001379      0.8828430     -0.4551697
87725000      0.9142151     -0.3892212      0.0000747      0.0001257      0.0000726      0.0001368      0.8826599     -0.4553223
87800000      0.9139709     -0.3895874      0.0001018      0.0001305      0.0000952      0.0001297      0.8823547     -0.4560242
87875000      0.9137268     -0.3899841      0.0001025      0.0001062      0.0001166      0.0001151      0.8823242     -0.4562683
87950000      0.9135742     -0.3901367      0.0001150      0.0000922      0.0001162      0.0001001      0.8816833     -0.4568176
88025000      0.9132690     -0.3905945      0.0001400      0.0000679      0.0001381      0.0000628      0.8815918     -0.4572144
88100000      0.9133301     -0.3907776      0.0001486      0.0000289      0.0001579      0.0000183      0.8809509     -0.4573364
88175000      0.9131470     -0.3911743      0.0001249      0.0000066      0.0001294     -0.0000020      0.8809814     -0.4577332
88250000      0.9129333     -0.3914490      0.0000763      0.0000048      0.0000940     -0.0000044      0.8807983     -0.4581909
88325000      0.9129944     -0.3916016      0.0000775      0.0000101      0.0000723      0.0000026      0.8806458     -0.4586792
88400000      0.9125977     -0.3921204      0.0000853      0.0000121      0.0000926      0.0000054      0.8807373     -0.4591980
88475000      0.9125671     -0.3923645      0.0000911     -0.0000319      0.0000956     -0.0000329      0.8802795     -0.4591980
88550000      0.9125061     -0.3928223      0.0000645     -0.0000592      0.0000697     -0.0000613      0.8800049     -0.4599304
88625000      0.9124451     -0.3932190      0.0000647     -0.0000499      0.0000545     -0.0000552      0.8797913     -0.4602966
88700000      0.9120178     -0.3937683      0.0000259     -0.0000615      0.0000478     -0.0000751      0.8796082     -0.4606018
88775000      0.9118958     -0.3941040     -0.0000143     -0.0000839     -0.0000245     -0.0000779      0.8790894     -0.4611206
88850000      0.9119568     -0.3944092     -0.0000495     -0.0000631     -0.0000484     -0.0000669      0.8792114     -0.4612427
88925000      0.9118652     -0.3946228     -0.0000680     -0.0000551     -0.0000651     -0.0000645      0.8791199     -0.4616699
89000000      0.9115906     -0.3954468     -0.0000925     -0.0000608     -0.0000984     -0.0000465      0.8788147     -0.4622192
89075000      0.9114380     -0.3951416     -0.0001234     -0.0000335     -0.0001205     -0.0000283      0.8784180     -0.4626465
89150000      0.9111938     -0.3959045     -0.0001334      0.0000169     -0.0001531      0.0000217      0.8782043     -0.4630127
89225000      0.9110413     -0.3959045     -0.0001246      0.0000482     -0.0001273      0.0000370      0.8781433     -0.4634705
89300000      0.9109192     -0.3962402     -0.0001339      0.0000521     -0.0001277      0.0000672      0.8776550     -0.4638672
89375000      0.9107971     -0.3967590     -0.0001398      0.0000719     -0.0001308      0.0000997      0.8775940     -0.4642639
89450000      0.9106140     -0.3971863     -0.0001218      0.0001068     -0.0001383      0.0001139      0.8773193     -0.4645386
89525000      0.9104614     -0.3972473     -0.0001274      0.0001524     -0.0001285      0.0001504      0.8769531     -0.4650574
89600000      0.9104919     -0.3980103     -0.0001100      0.0001689     -0.0001121      0.0001802      0.8767700     -0.4657288
89675000      0.9100952     -0.3982849     -0.0000983      0.0001923     -0.0001194      0.0001831      0.8764648     -0.4658813
89750000      0.9098206     -0.3986206     -0.0000800      0.0002252     -0.0000665      0.0002306      0.8761902     -0.4662476
89825000      0.9098206     -0.3989868     -0.0000462      0.0002234     -0.0000368      0.0002473      0.8760071     -0.4665222
89900000      0.9096069     -0.3994446     -0.0000006      0.0002411      0.0000009      0.0002402      0.8758850     -0.4671326
89975000      0.9092407     -0.3996887      0.0000011      0.0002240      0.0000021      0.0002363      0.8755188     -0.4673157
90050000      0.9093323     -0.4000854      0.0000434      0.0002443      0.0000447      0.0002512      0.8753357     -0.4678650
90125000      0.9088745     -0.4002380      0.0000762      0.0002464      0.0000682      0.0002576      0.8748779     -0.4684753
90200000      0.9089661     -0.4004211      0.0001034      0.0002572      0.0000949      0.0002540      0.8746033     -0.4685364
90275000      0.9085999     -0.4010315      0.0001358      0.0002446      0.0001409      0.0002517      0.8742981     -0.4691772
90350000      0.9084167     -0.4016418      0.0001884      0.0001850      0.0001901      0.0001959      0.8742065     -0.4690857
90425000      0.9085083     -0.4017944      0.0001943      0.0001652      0.0002004      0.0001396      0.8737183     -0.4696655
90500000      0.9081116     -0.4020386      0.0002026      0.0001098      0.0001947      0.0001254      0.8736877     -0.4702148
90575000      0.9077759     -0.4023132      0.0002086      0.0000993      0.0002021      0.0001037      0.8731689     -0.4705200
90650000      0.9075012     -0.4028931      0.0001981      0.0000424      0.0001964      0.0000533      0.8730164     -0.4711304
90725000      0.9076233     -0.4030457      0.0001941      0.0000193      0.0001784      0.0000104      0.8727417     -0.4714355
90800000      0.9071655     -0.4036255      0.0001728     -0.0000020      0.0001698      0.0000096      0.8723755     -0.4720764
90875000      0.9070435     -0.4039001      0.0001634     -0.0000110      0.0001594     -0.0000040      0.8718567     -0.4721375
90950000      0.9065247     -0.4039917      0.0001442     -0.0000402      0.0001491     -0.0000253      0.8715210     -0.4722290
91025000      0.9065552     -0.4044495      0.0001185     -0.0000698      0.0001246     -0.0000675      0.8711243     -0.4728394
91100000      0.9060364     -0.4045410      0.0000853     -0.0000737      0.0001020     -0.0000815      0.8707886     -0.4725647
91175000      0.9059143     -0.4043884      0.0000671     -0.0000457      0.0000827     -0.0000411      0.8708496     -0.4726868
91250000      0.9058838     -0.4045715      0.0000950     -0.0000498      0.0000769     -0.0000422      0.8708191     -0.4726563
91325000      0.9062805     -0.4049988      0.0000922     -0.0000807      0.0000958     -0.0000863      0.8711243     -0.4730225
91400000      0.9057922     -0.4054260      0.0000658     -0.0001529      0.0000632     -0.0001559      0.8708801     -0.4738464
91475000      0.9057922     -0.4057617     -0.0000132     -0.0001768     -0.0000318     -0.0001739      0.8705750     -0.4743042
