# Hz S RI R 50
1336360000	0.485978972349193	-0.630361156020085	0.428173463114604	0.335882530581505	5.88481086864553E-03	0.018374986236804	6.72899041099424E-03	1.73105614282515E-02
			0.428334654854281	0.336329856678443	0.521115242235691	-0.606748621006207	5.43831302948707E-03	1.72428846232987E-02	4.3375989297979E-03	1.63688670991098E-02
			5.86775676079621E-03	1.83959942501078E-02	5.47446651399797E-03	1.72593943368252E-02	0.53834650959291	-0.603929426330453	0.416803670341124	0.34715146606497
			6.71907521168484E-03	1.73131963229862E-02	4.37488058863599E-03	1.63801427044831E-02	0.416634484858918	0.347192891880772	0.511729425030451	-0.620658559402149
1336672500	0.485832214822512	-0.630381210568057	0.428387261124534	0.335898851400278	5.89134297036253E-03	0.018378607926922	6.73244414933609E-03	1.73243489999297E-02
			0.428538768476369	0.336362655776477	0.520958642218086	-0.606793500654995	5.45260572612597E-03	1.72445208474974E-02	4.34719484213428E-03	1.63702704066959E-02
			5.86116318464877E-03	1.83956123450017E-02	5.48140026497196E-03	1.72663911351909E-02	0.538166272995687	-0.603971276978176	0.417005493985932	0.347072158352324
			6.72789977424414E-03	1.73332021427774E-02	4.38249808745527E-03	1.63881489691098E-02	0.416810153191765	0.347285880025964	0.511535720366341	-0.620717416315224
1336985000	0.485456098648624	-0.630479060591138	0.428548375448086	0.335867211209414	5.90084423722911E-03	1.83793921647789E-02	6.73791792954689E-03	1.73383115054245E-02
			0.428681104227635	0.336324147827413	0.520733083639235	-0.606748584435007	5.4537134063049E-03	1.72372761104053E-02	4.35495865021736E-03	1.63691932963049E-02
			5.88012935606867E-03	1.83963405206803E-02	5.48102101641386E-03	1.72519924003963E-02	0.537903800843161	-0.6040008660962	0.417275249097953	0.347151865511927
			6.73393727834377E-03	1.73383673083884E-02	4.38828454555572E-03	1.63989221243071E-02	0.416949221715743	0.347240235293263	0.511283978519423	-0.620862982604995
1337297500	0.48530976837263	-0.630492251114019	0.428646434730654	0.335819144306569	5.90438497128698E-03	1.83823986693028E-02	6.76546734078828E-03	1.73509978160796E-02
			0.428769686745344	0.336298901504014	0.520633363840987	-0.606799464043656	5.46148996366167E-03	1.72340193532994E-02	4.3504794473594E-03	0.016376914861149
			5.87672735745867E-03	0.01840148038342	5.47942491499869E-03	1.72434476430686E-02	0.5376674642929	-0.604104349114894	0.417493582350535	0.347212796897202
			6.74276521509626E-03	1.73457487144424E-02	4.38915164906351E-03	1.63971847456134E-02	0.417237479501649	0.347206773410479	0.511104687153705	-0.620993845468646
1337610000	0.485069373676596	-0.63065221258056	0.428850395363001	0.335815493124215	5.9144130496028E-03	1.83863190616359E-02	6.7790440255597E-03	1.73585134377106E-02
			0.428952377864317	0.336315492504992	0.52035148955408	-0.606808977787212	5.46244220974794E-03	1.72268333723093E-02	4.36193256968506E-03	1.63712151223564E-02
			5.90075876608687E-03	1.83976984408872E-02	5.48029623647537E-03	1.72419053381433E-02	0.53751823096266	-0.604066238221902	0.417583119231652	0.34714226543523
			6.76634656216905E-03	1.73568209900492E-02	4.40697980816986E-03	1.64023188718427E-02	0.417391829159795	0.347236260758929	0.510765879306846	-0.621044009326848
1337922500	0.484813122075102	-0.630656850870573	0.42888680645578	0.335861235197995	5.92690370237882E-03	1.83886114989301E-02	6.78908328958661E-03	1.73614257258481E-02
			0.429037175295018	0.336266341444999	0.520302967757281	-0.606773718424463	5.4509762983449E-03	1.72209324150727E-02	4.36242621381158E-03	0.016369190185942
			5.90790134732395E-03	1.84079416028465E-02	5.47577077192071E-03	1.72354349335108E-02	0.537277584601457	-0.60413908054541	0.417784645833866	0.347129510387377
			6.78034346862218E-03	1.73489701879205E-02	4.40563347934763E-03	1.63905182822094E-02	0.417599787679666	0.347281819665139	0.510543194868101	-0.621093651315315
1338235000	0.484686343821621	-0.630729737797543	0.429098398342347	0.335885283628564	5.9373994345715E-03	1.83851640542277E-02	6.80320782449188E-03	1.73545442690734E-02
			0.42922546505208	0.33632936265899	0.520171407670492	-0.606944680157389	5.45005137407314E-03	1.72254009569598E-02	4.3732174984973E-03	1.63770146031732E-02
			5.90811572259039E-03	1.83959429877102E-02	5.47245494321703E-03	1.72387830488841E-02	0.537194818357874	-0.604310544710747	0.418043312619227	0.347270404946866
			6.78697578385198E-03	1.73518837633796E-02	4.39804891136482E-03	1.63971069053482E-02	0.417924609318248	0.347309706438033	0.510416919901792	-0.620996142739361
1338547500	0.484380522647235	-0.630736675006166	0.429204530891349	0.335897072446457	5.93977768622048E-03	1.83853660508994E-02	6.81950196671002E-03	0.01735119533809
			0.429373115406025	0.336360236093345	0.519971799557247	-0.607006249714108	5.43998408384469E-03	0.017241258226779	4.37693397041617E-03	1.63683073936793E-02
			5.92141402956546E-03	1.84014561382631E-02	5.46487286364113E-03	1.72446514050663E-02	0.537007356708035	-0.604355640990764	0.418180150688194	0.34718349937991
			0.006803466501523	1.73556201184564E-02	4.40725238718424E-03	1.63821626885358E-02	0.418041439458328	0.34724658789568	0.510042392484112	-0.621082524610654
1338860000	0.484137746463742	-0.630835867661887	0.429477924914888	0.335945047853841	5.94670362380343E-03	1.83912560348163E-02	6.82730183191915E-03	1.73220961517543E-02
			0.429603848855589	0.336363587503331	0.519814804859488	-0.607099529339345	5.4532909950846E-03	1.72498552200358E-02	4.37259385519943E-03	1.63754270990414E-02
			5.91647742737801E-03	1.84109622659812E-02	5.47198222610767E-03	1.72616639223013E-02	0.536657922407732	-0.604395605197145	0.418389685301158	0.347184075437011
			6.82040525857337E-03	1.73393459171189E-02	4.40211081585785E-03	1.63872134843856E-02	0.41816888267691	0.347232099966221	0.509846764766996	-0.620998799291678
1339172500	0.484072755185782	-0.630890082600887	0.429732501422026	0.335967824160749	5.95688466280021E-03	1.83882386975398E-02	6.83260149599681E-03	1.73219623911844E-02
			0.429775923143015	0.336408089930544	0.519559129678427	-0.607156683630611	5.45451211094647E-03	1.72536097579886E-02	4.38678364966962E-03	1.63744942819308E-02
			5.93203206841948E-03	1.84050603662087E-02	5.48145633012009E-03	1.72822167902226E-02	0.53647198552648	-0.604291020460764	0.418472393239245	0.347207476427033
			6.81878225563976E-03	1.73228249095485E-02	4.41685210916444E-03	1.63979472924075E-02	0.418265514842389	0.347259151703371	0.509600855634593	-0.62108345241235
1339485000	0.48364887884896	-0.630883197037639	0.429810375218742	0.335925621021255	5.96303518202098E-03	1.84041333860401E-02	6.83710135362235E-03	1.73091205082694E-02
			0.42991250606361	0.336338140647465	0.519289316714245	-0.607186361929911	5.47043842864941E-03	1.72619903985515E-02	4.40937464862572E-03	1.63594672290501E-02
			5.94195144069223E-03	1.84090080246609E-02	5.49475422267052E-03	1.72786177591217E-02	0.536231548414431	-0.604316166272662	0.418698422594619	0.347170254811359
			6.82461551291278E-03	1.73132157825859E-02	4.44415381772251E-03	1.63865758106551E-02	0.418426404702909	0.347240372751068	0.509461494048161	-0.620942874012724
1339797500	0.483515847848748	-0.630992711443611	0.430052920556764	0.335926237696925	5.97228235462754E-03	1.84072072939441E-02	6.8420343203258E-03	1.72992915204458E-02
			0.430128606958275	0.33632612670806	0.519020523920696	-0.60718051007377	5.49557983968493E-03	1.72644562489274E-02	4.41585263638986E-03	1.63425976934179E-02
			5.95484430770246E-03	1.84302652075625E-02	5.51202195134242E-03	0.017282153056012	0.536110735901891	-0.604500518516328	0.41886186186123	0.347210083756172
			6.83129324851916E-03	1.73093203773694E-02	4.44534519316573E-03	1.63586351899198E-02	0.41855004966982	0.347299370737402	0.509265072379827	-0.620918513045772
1340110000	0.48321611049502	-0.631122594831377	0.430104994938345	0.335845313057155	5.99347886713664E-03	1.84229659431297E-02	6.84212587113048E-03	0.017285055571581
			0.43037561874384	0.336187599446046	0.518779071278353	-0.607118464135709	5.51133686045268E-03	1.72584398128996E-02	4.41619492044649E-03	1.63316618050966E-02
			5.97716780805621E-03	1.84369909502388E-02	5.52532752913161E-03	1.72802824505607E-02	0.535874228652361	-0.604561732120539	0.418974833553835	0.347167428943633
			6.82136999099868E-03	1.72857505936897E-02	4.44839005681539E-03	1.63448115504559E-02	0.418718604958862	0.347297044143306	0.509088296985505	-0.620808789168664
1340422500	0.483132459645846	-0.631060616047265	0.430252044134175	0.335785909812031	6.01866914815865E-03	1.84223511328912E-02	6.82534832723188E-03	1.72746490822291E-02
			0.430423146107387	0.336256362565626	0.518582893873183	-0.607131607424359	5.52336901787608E-03	1.72477925768765E-02	4.4129102705245E-03	1.62899995672916E-02
			5.99636808272984E-03	0.018447488703325	5.54033844682436E-03	1.72565385364836E-02	0.535702272870124	-0.604681242695383	0.41913685640612	0.347256270786362
			6.81988654792629E-03	1.72838507022618E-02	4.44341222344533E-03	1.63119280130282E-02	0.418878392569164	0.347401013388349	0.50918510182645	-0.620859295005536
1340735000	0.483004443064808	-0.631112948484399	0.430414739891532	0.335851223674885	6.03062148536388E-03	1.84246846641687E-02	6.81439446036335E-03	1.72821340441779E-02
			0.430511902584693	0.33632512728574	0.518516753334381	-0.606937227947767	5.52920191566252E-03	1.72205556266533E-02	4.39658624315148E-03	1.62762500277634E-02
			6.00634332501584E-03	1.84355876774457E-02	5.54571356049824E-03	0.017243723200739	0.53540974411153	-0.604772002672734	0.419222335008485	0.347299328090877
			6.80034999477041E-03	1.72925870621948E-02	4.42838885515095E-03	1.63002520522319E-02	0.419054935432957	0.347393167459663	0.509078593056233	-0.62087025479514
1341047500	0.48262014537305	-0.631337119401513	0.430544438127234	0.335836482110723	6.06018306167238E-03	1.84200148221293E-02	6.81929319442056E-03	1.72832087309311E-02
			0.430716866588352	0.336309422347885	0.518452661789126	-0.607012400008072	5.52804537796073E-03	1.72014946424703E-02	4.36396940734795E-03	1.62636703796246E-02
			6.02912044999745E-03	1.84406605551619E-02	5.54167248196407E-03	1.72194749450301E-02	0.53513105008775	-0.60479268827638	0.419436492459192	0.347398503473023
			6.80935740743251E-03	1.72930309010536E-02	4.39534205942177E-03	1.62816256646119E-02	0.419233053320769	0.347434750507436	0.508887102446879	-0.620907130262906
1341360000	0.482559562033229	-0.631368173542344	0.430643179483535	0.33593107771507	6.07829068217408E-03	1.84184937707831E-02	6.81088085537728E-03	1.72885970345043E-02
			0.430823886416212	0.336426026424088	0.518408924269967	-0.607043253415631	5.51647496288159E-03	1.71886211873109E-02	4.35342697529516E-03	1.62692691586296E-02
			6.05158879201647E-03	1.84304282975477E-02	5.51995761370325E-03	1.72089855140757E-02	0.534945977459432	-0.604847393847141	0.41961688471036	0.347463364098656
			6.80243000727898E-03	1.72992319920084E-02	4.38680950769578E-03	1.62901908396317E-02	0.419376774771343	0.347464704603493	0.508749276984582	-0.621037051359963
1341672500	0.482317918065878	-0.631291297781181	0.430821779585878	0.335867258076826	6.08358865617774E-03	0.018400950242577	6.8224819306074E-03	0.017301774480747
			0.430884805750469	0.336449439205339	0.518364159618129	-0.60713517721032	5.49249900665788E-03	1.72061465425345E-02	0.004328547289614	0.016269358240192
			6.04900696670068E-03	1.84186406191881E-02	5.51738473846609E-03	1.72107372960945E-02	0.534788697898523	-0.60491083349333	0.419899644395999	0.347480859935719
			6.79931669962533E-03	1.73103901949407E-02	4.36879163136684E-03	1.62876781510731E-02	0.419620125903848	0.347582266721166	0.508664426688529	-0.621267684225875
1341985000	0.48197771227833	-0.631318562610551	0.431016052652252	0.336064902843385	6.08904401293934E-03	1.83953342390625E-02	6.82233916148168E-03	0.017304612035659
			0.431129775053826	0.336546129739882	0.518259915299154	-0.60722728306662	5.48361300038752E-03	1.71974153567739E-02	4.31766802487785E-03	1.62774701932832E-02
			6.0703023027092E-03	1.84097117848111E-02	5.49261518243228E-03	1.72191580199172E-02	0.534571301775874	-0.605048141430661	0.420056793214706	0.347520643455305
			6.81273201513907E-03	1.73007631765764E-02	4.34543262554724E-03	1.63097929800077E-02	0.419811158816414	0.347641311431707	0.508442588601619	-0.621299804721917
1342297500	0.481844513265995	-0.631477248673452	0.43131500567228	0.336128019545042	6.10375115091246E-03	0.018389857615407	6.83138243485155E-03	1.72982479170391E-02
			0.431357847654292	0.336471631738222	0.518134045757407	-0.607381744704057	5.48119420865135E-03	0.017221309197397	4.32023782592783E-03	1.62896819455816E-02
			6.07323498759477E-03	1.84089713381347E-02	5.50520998078621E-03	1.72348445910699E-02	0.534364331590412	-0.605123682665919	0.420225617531951	0.347496355008678
			6.81803529583491E-03	1.73071483324313E-02	4.33918496009403E-03	0.016314107678112	0.420096118539422	0.347571696823335	0.508188128374945	-0.621605191607888
1342610000	0.481538987501006	-0.631490279319072	0.431412769186598	0.335990182886098	6.10545142472487E-03	1.83823488902936E-02	6.84080424023116E-03	0.017291887806975
			0.431522552445717	0.336511199116078	0.517753636912416	-0.60743689141512	5.48693615553987E-03	1.72206790844806E-02	4.31548644127485E-03	1.62974424084719E-02
			6.09375573404662E-03	1.84066605955418E-02	5.50690212982999E-03	0.017240672683607	0.534103965262564	-0.605033742921169	0.420321292848778	0.34757439639024
			6.82679691007312E-03	1.72959420619484E-02	4.35048686640486E-03	1.63216950354704E-02	0.420222377604549	0.347662285150744	0.508040173647187	-0.621327410584334
1342922500	0.481296376801116	-0.631546636415188	0.431575552417363	0.336061223424435	6.11674149835789E-03	0.018388156386963	6.8441293336011E-03	1.72889285915953E-02
			0.431696707963866	0.336453386143658	0.517696155483047	-0.607633161713085	5.49234178346358E-03	1.72325290172379E-02	4.33487864445463E-03	1.62919431473702E-02
			6.09175859993916E-03	1.83968053142677E-02	5.51279294812554E-03	1.72561067643094E-02	0.533912845694419	-0.605209103966445	0.42053116657662	0.347619595548642
			6.82645540390828E-03	1.72912518991997E-02	4.36184266484942E-03	1.63088710344042E-02	0.420337105705869	0.347688642090991	0.507785574065776	-0.621471506015901
1343235000	0.481100063801306	-0.631649107644522	0.431754932933052	0.336121962681172	6.13965623749601E-03	1.83898267468457E-02	6.85487017065299E-03	1.72779316611742E-02
			0.431991348509639	0.336532465986412	0.5174781395401	-0.607652247157658	5.51548323610144E-03	1.72337592853831E-02	4.3216794086975E-03	1.62825887362025E-02
			6.11277445418966E-03	1.84065136520044E-02	5.53510323743912E-03	1.72575197906693E-02	0.53369767766171	-0.605283948580864	0.420748837461294	0.347720481915278
			6.83811480090204E-03	1.72848514580717E-02	4.35839137095667E-03	1.63012054900239E-02	0.42055411855699	0.34775938355233	0.50758493758929	-0.621519097953557
1343547500	0.480781158025638	-0.631676908847534	0.431944573639613	0.336117820762835	6.15191689993119E-03	1.83855806275368E-02	6.83353450663913E-03	1.72669044765128E-02
			0.432119730068387	0.336521452884693	0.517207823075426	-0.607691285151705	5.52578910782707E-03	1.72251070860607E-02	4.30663074576618E-03	1.62658718175782E-02
			6.13143891111628E-03	1.83942576269625E-02	5.53456094640485E-03	1.72476903520458E-02	0.533484941292551	-0.605416107281542	0.420891357587938	0.34770898692766
			6.82053842251696E-03	1.72683823480288E-02	4.34578017160547E-03	1.62857600462574E-02	0.420761108794841	0.347829262280147	0.507445275577168	-0.621491914731626
1343860000	0.480682534844833	-0.631803964365794	0.432104040322719	0.336051856576802	6.16250270604455E-03	1.83737152522868E-02	6.83397162658802E-03	1.72729799916879E-02
			0.432300368262976	0.336452383867408	0.516913579706441	-0.607658109768987	5.52749560747739E-03	1.72186887343151E-02	4.30194401762733E-03	1.62410401778113E-02
			6.1442560394552E-03	1.83908516518231E-02	5.5413929931284E-03	1.72310468000947E-02	0.533137233932537	-0.605489833435994	0.421114184734641	0.34782576953958
			6.80441060883275E-03	1.72721894699674E-02	4.34034058779433E-03	1.62651154030332E-02	0.420940771146139	0.347728318017276	0.507391960347781	-0.621609369520142
1344172500	0.480396672344389	-0.631925697205069	0.432150911240982	0.336258721486073	6.17887201561072E-03	1.83647210379467E-02	6.82077661662281E-03	1.72622085116518E-02
			0.432422057807655	0.336594919808319	0.516891513001655	-0.607662007697996	5.51589327012891E-03	1.71969366677018E-02	4.27869254738732E-03	1.62386604928862E-02
			6.15338463832332E-03	0.018370300713209	5.53903606497082E-03	1.72054721963106E-02	0.532960522844356	-0.605416807646274	0.42134425655487	0.347837514273726
			6.80711482719404E-03	1.72795141872258E-02	4.30097269442377E-03	1.62538819517694E-02	0.421092269687545	0.347988162768723	0.507226058107434	-0.621734454044948
1344485000	0.480150806298641	-0.631844557133382	0.432449685818023	0.336188089731388	6.19160138570447E-03	1.83454324271524E-02	6.80915216596715E-03	1.72782650785311E-02
			0.432626054880973	0.336600410761442	0.516790409981203	-0.607885717676623	5.51341666469251E-03	1.71903322049661E-02	4.24164762511622E-03	1.62381530765205E-02
			6.16813335207934E-03	1.83559303290873E-02	5.52561998412334E-03	1.72076909318752E-02	0.532689854891546	-0.605548542246012	0.421521274781481	0.347919594186777
			6.80075655960058E-03	1.72772586037267E-02	4.27535102355262E-03	1.62668386234236E-02	0.421397991413919	0.348035658895862	0.507085893948955	-0.621767335139482
1344797500	0.480070743487937	-0.631940283068399	0.432677329244529	0.336269774812787	6.18263757797626E-03	1.83401375661956E-02	6.80799787263841E-03	1.72829190013562E-02
			0.432885539576435	0.336645925107252	0.516619016945821	-0.607925161077442	5.5013871452828E-03	1.72159415694873E-02	4.22889584769784E-03	1.62593638408468E-02
			6.16397659294364E-03	1.83500396967917E-02	5.51873133566022E-03	1.72126376702586E-02	0.532550074343525	-0.605544812047016	0.421778473265023	0.347947944817114
			6.79942186609756E-03	1.72919917408453E-02	4.26498338449272E-03	1.62822927790833E-02	0.421557387001778	0.348083498471695	0.506808769973152	-0.622027533121839
1345110000	0.479661177412471	-0.631959812859748	0.432858612043106	0.33629030719571	6.19397600186881E-03	1.83207499451109E-02	6.8198519174219E-03	1.72908040553449E-02
			0.433022469905534	0.336645636985224	0.516422238586595	-0.60805939655514	5.49151659965142E-03	1.72035709043562E-02	4.20892933539231E-03	1.62763158293075E-02
			6.16456414918878E-03	1.83330746580514E-02	5.50410057192265E-03	1.72171192615437E-02	0.532111497489422	-0.605637194847952	0.42202118715845	0.347999112670616
			6.80296413460103E-03	1.72966856771309E-02	4.2388724187297E-03	1.62916965299329E-02	0.421703695673706	0.347952066621924	0.506644148330604	-0.622069911166946
1345422500	0.479403033539624	-0.631987798887697	0.432953029402958	0.336274713983622	6.19816919481251E-03	1.83176733055809E-02	6.81021630123094E-03	1.72938481017777E-02
			0.433205633727186	0.336586715135401	0.516184505249558	-0.608130034239486	5.47844996098525E-03	1.72175119738451E-02	4.20373972099314E-03	1.62907097027103E-02
			6.18172518134818E-03	1.83266964664366E-02	5.50243623311025E-03	1.72293811252916E-02	0.531997677289573	-0.605588619238196	0.422206609173616	0.347870364499391
			6.79768482818438E-03	1.73094999245162E-02	4.24024253409856E-03	1.63189154055865E-02	0.421999286411174	0.348073731543236	0.506413063370065	-0.622210268299244
1345735000	0.479231883973643	-0.631989737305724	0.433294960773537	0.336253181654992	6.19342265012538E-03	1.83189948149759E-02	6.81669613285935E-03	1.73094431330879E-02
			0.433418821197132	0.336649041298592	0.516073655115132	-0.608382043616711	5.48066803348632E-03	1.72267774775816E-02	4.21221874879947E-03	1.63020036779982E-02
			6.17554801885501E-03	1.83338596962951E-02	5.50584470331072E-03	1.72463724565918E-02	0.531812140126667	-0.605706702185973	0.42242885695883	0.347969859653435
			6.78669308014932E-03	0.017310839610886	4.23057748370669E-03	1.63251514590059E-02	0.42220278695056	0.348064366610734	0.506300828065372	-0.622368544659791
