# Hz S RI R 50
383920000	0.573978507259638	-0.801038115978686	-3.35898565268468E-04	-1.79541669208946E-04			-3.28793712504818E-04	-2.09807667671923E-04	0.592085857091288	-0.789353256656716
383982500	0.574327425606743	-0.801380128878209	-3.77903629607137E-04	-2.15073158539998E-04			-3.79736146734297E-04	-1.98253415756827E-04	0.592823832053701	-0.790118125990465
384045000	0.574002986461069	-0.801586979143631	-3.77180052604707E-04	-2.30549346259429E-04			-3.58396798839857E-04	-2.00488908277628E-04	0.592040994497621	-0.792342814374776
384107500	0.574997736808449	-0.802308077957599	-3.58252783071931E-04	-2.20977474148493E-04			-3.51267767954079E-04	-1.93755181097871E-04	0.592049463369001	-0.790478845410047
384170000	0.573070215858775	-0.802378661356629	-3.63561423092392E-04	-1.91927391159162E-04			-3.44030641932779E-04	-1.94489307906542E-04	0.591431379749252	-0.791117810420774
384232500	0.573365333996624	-0.801923631746367	-3.49564057691215E-04	-2.06056076317784E-04			-3.28759919128538E-04	-2.0321080220009E-04	0.591495480735226	-0.791229283619789
384295000	0.572648858435211	-0.802973491127511	-3.4417989507934E-04	-2.13451941098012E-04			-3.57282959077215E-04	-1.71887515811572E-04	0.591540848767287	-0.791622144361608
384357500	0.5713278545426	-0.803293740404742	-3.71498137669973E-04	-1.66817986216745E-04			-3.47282595819535E-04	-2.10207141438817E-04	0.590476349508888	-0.793130143483001
384420000	0.571421928804457	-0.803543549212173	-3.6884453538274E-04	-1.98249582725312E-04			-3.50621357903708E-04	-2.181898008472E-04	0.590359733643907	-0.792687290848563
384482500	0.57145700423394	-0.802801987187512	-3.32241634462854E-04	-2.08459620385905E-04			-3.36710921785834E-04	-1.79445905338053E-04	0.589140093701088	-0.793231721272511
384545000	0.571677266914214	-0.804090190326522	-3.73506756753977E-04	-2.01603936953635E-04			-3.51359696096728E-04	-2.27168631431436E-04	0.588817445962346	-0.791392256041387
384607500	0.570648432380108	-0.804291711076248	-3.58009512781169E-04	-1.93185778568982E-04			-3.59261308728067E-04	-1.90395879012975E-04	0.587673978160628	-0.792486993685278
384670000	0.570643538730044	-0.804114610995166	-3.61313081130681E-04	-2.10188176447387E-04			-3.62717847329636E-04	-2.14325334223056E-04	0.588938101117942	-0.794824999026931
384732500	0.569639734987916	-0.803935076856279	-3.63007600964846E-04	-2.40076370398907E-04			-3.68506283023102E-04	-1.99431099337362E-04	0.587646839417203	-0.793550595040418
384795000	0.569470600317014	-0.804310061411987	-3.57704079533123E-04	-2.07521359350561E-04			-3.93335811660357E-04	-2.09927730314191E-04	0.588340557040893	-0.79319236619616
384857500	0.57011253861878	-0.806055734315912	-3.79365341431606E-04	-1.91090911332519E-04			-3.65212856588655E-04	-1.85844611206868E-04	0.587752543346666	-0.793411453432581
384920000	0.569185676250765	-0.805674476509877	-3.57027946915856E-04	-2.13185463791829E-04			-3.5516854731758E-04	-2.09268990956023E-04	0.587681025815111	-0.794557830788431
384982500	0.56742366577447	-0.805834574561492	-3.75177416769665E-04	-2.20668994561191E-04			-3.85695591736219E-04	-2.19858102199934E-04	0.586915489537873	-0.794452550571188
385045000	0.567709854130009	-0.80594651294447	-3.69869218358749E-04	-2.25407020906737E-04			-3.685456670008E-04	-2.3328183594768E-04	0.585467731287663	-0.791961049001547
385107500	0.568091138263548	-0.807356532470936	-3.96102843649177E-04	-2.37501460753393E-04			-3.82094669294548E-04	-2.08610078253316E-04	0.585168330592556	-0.794242805191715
385170000	0.567609497377994	-0.807362792822121	-4.08557147321574E-04	-2.2988495831889E-04			-3.86075784982067E-04	-1.8946741483684E-04	0.583690989809362	-0.794856623439714
385232500	0.565888899212365	-0.807189725099723	-3.66906349716218E-04	-1.98874172220681E-04			-4.01949771178619E-04	-2.14689975329024E-04	0.583676681641223	-0.795102049643303
385295000	0.565410960785343	-0.807032456352268	-3.63238703364834E-04	-1.8933429518561E-04			-4.0067241835634E-04	-2.0586521448802E-04	0.584165714697346	-0.795241428743808
385357500	0.566157317921494	-0.807989362884217	-3.76856690474814E-04	-2.1916991731181E-04			-3.55672550372391E-04	-1.95911736751784E-04	0.584301077772762	-0.795451362615704
385420000	0.564697322506379	-0.808777273906379	-3.76393562573979E-04	-2.3670249776371E-04			-3.81196891207214E-04	-2.08393801792932E-04	0.583688200528244	-0.795908390209679
385482500	0.564769836702727	-0.807677284201477	-3.9280039510318E-04	-1.92542615252573E-04			-3.80596228794084E-04	-2.16401360307649E-04	0.581972926109104	-0.795285912178671
385545000	0.563375637573916	-0.808268359163613	-3.61234055547181E-04	-2.25230148400623E-04			-3.50455587016895E-04	-2.03253552258086E-04	0.58167939411349	-0.79634778039787
385607500	0.564226916180144	-0.808716655324847	-4.06017216282044E-04	-2.32036515740328E-04			-4.03551095287481E-04	-2.00377528760656E-04	0.58142434625142	-0.794974465944611
385670000	0.5639740677188	-0.809456154230052	-3.84130037232261E-04	-2.06152888889276E-04			-3.78678395428259E-04	-2.06543197967386E-04	0.582195365749062	-0.796997400646033
385732500	0.562358939991331	-0.808520053721993	-3.98993641544156E-04	-2.31453512282376E-04			-3.72236935571666E-04	-2.29145482257044E-04	0.580878757562507	-0.798160816855928
385795000	0.562657095071854	-0.809596392644775	-4.21845572173888E-04	-2.16609794770911E-04			-4.05135258100233E-04	-2.3984139844236E-04	0.581805615469939	-0.797520359918267
385857500	0.562184552601317	-0.809600481520755	-4.00046735296759E-04	-2.19231000194426E-04			-4.05397118303082E-04	-2.00427735076461E-04	0.579466305111662	-0.797451938230484
385920000	0.561989812009377	-0.809297814377579	-3.87216982986817E-04	-1.70213255525193E-04			-3.88122842488483E-04	-1.86823246850365E-04	0.579958026092579	-0.797456057016165
385982500	0.561897340522431	-0.809524630305803	-4.0068404405263E-04	-1.99673097571195E-04			-3.99430088571311E-04	-1.63327849369151E-04	0.579264616922558	-0.799610660236088
386045000	0.560034612436274	-0.809942724958897	-3.99366546639041E-04	-1.6593070036662E-04			-4.21897764522976E-04	-1.69623787608641E-04	0.57966938718933	-0.798845113338586
386107500	0.559941862169302	-0.809095727199185	-3.8739337857752E-04	-1.63638880374017E-04			-3.79297820698559E-04	-1.92059025845672E-04	0.578271549275631	-0.798682697044446
386170000	0.560341485553181	-0.809157855624223	-3.96381702440604E-04	-1.83941120703326E-04			-3.7411427270702E-04	-1.75540423892535E-04	0.578712299992994	-0.798786991440594
386232500	0.55986734467393	-0.811417365289931	-3.93084195281215E-04	-1.76190662824874E-04			-3.83223390179401E-04	-1.87639679352643E-04	0.578462918999872	-0.799733705155316
386295000	0.55952684384038	-0.810573038461822	-3.79375401361476E-04	-1.70866874579411E-04			-3.69152704204907E-04	-1.78427108410918E-04	0.57759144849594	-0.799877936331465
386357500	0.559214144604675	-0.811353544227748	-3.65249136539916E-04	-2.06029358925157E-04			-3.55758064582232E-04	-1.99019162762774E-04	0.577108271535649	-0.799180309409501
386420000	0.5586919086016	-0.810617790855958	-3.69986912541865E-04	-2.17281176585279E-04			-4.0008422445158E-04	-2.13460062536777E-04	0.57552778585518	-0.799665479405365
386482500	0.557279058638594	-0.811318034929549	-3.98737429202147E-04	-2.22065419078468E-04			-3.72451031325533E-04	-2.14072592442022E-04	0.575878591095522	-0.801789988431096
386545000	0.557455417685522	-0.81131653961667	-3.83430681330651E-04	-1.92923091338368E-04			-3.93870653749636E-04	-2.00052573788734E-04	0.574269757056558	-0.798905977903236
386607500	0.555778612284494	-0.81151689018296	-3.70724175009743E-04	-1.95876968724316E-04			-3.79361170256232E-04	-2.16522205352849E-04	0.573567797015802	-0.801578050876553
386670000	0.556191169935314	-0.812096642348158	-3.85005125310391E-04	-2.26236648240616E-04			-3.55290735074872E-04	-1.7957946176601E-04	0.573289333592665	-0.8004071668149
386732500	0.556458122646819	-0.813963365478438	-4.01159093402028E-04	-2.18511449174461E-04			-4.1505041190484E-04	-2.0022914407615E-04	0.572809252548437	-0.802205536856987
386795000	0.554626226793093	-0.811628187412669	-4.2354965130144E-04	-1.88256886956149E-04			-4.33651703320708E-04	-1.94492508653268E-04	0.572169472662394	-0.801808145629632
386857500	0.554378700866603	-0.812345521148681	-4.23478297183645E-04	-1.76286180029491E-04			-4.29348859237393E-04	-1.47717003757479E-04	0.573439548690208	-0.802217332292547
386920000	0.555241344134931	-0.812974832198447	-3.68076576968278E-04	-1.44733397212047E-04			-3.94391207146527E-04	-1.55953939347647E-04	0.572364052180573	-0.800738610828624
386982500	0.553967108374366	-0.812520165927343	-3.799377749726E-04	-1.78836670778529E-04			-3.79696686729409E-04	-1.90171552134746E-04	0.570878451924159	-0.800027520415918
387045000	0.553270716331992	-0.812520241415734	-3.7058742850993E-04	-1.69978310808247E-04			-3.66212092681277E-04	-1.81604544515456E-04	0.571980804605539	-0.80151576203795
387107500	0.551947686226322	-0.811836365639943	-3.5318751380522E-04	-2.20050195786117E-04			-3.87767239902042E-04	-2.02371892308228E-04	0.570984633453803	-0.800601211071278
387170000	0.553119642493627	-0.813296119979393	-3.4930525988391E-04	-1.97673478599477E-04			-3.68141747475347E-04	-2.1603761948222E-04	0.571626157904506	-0.802679344441768
387232500	0.552716921047073	-0.814057334604221	-3.73168389050333E-04	-2.55474177948348E-04			-3.90745974669573E-04	-1.95879037745941E-04	0.569221831330561	-0.80167902889332
387295000	0.551634114515972	-0.81349741981339	-3.782393705279E-04	-2.23531080541334E-04			-3.80129215290847E-04	-2.25119997953117E-04	0.569710912726128	-0.800622977771983
387357500	0.551103960245501	-0.814814292312814	-3.88136780585574E-04	-2.34826846480819E-04			-3.97268360525566E-04	-2.10307887910039E-04	0.570582361453235	-0.801970823121775
387420000	0.552369606316526	-0.814386588892648	-4.08278764533814E-04	-2.04697810003485E-04			-4.42158966955095E-04	-2.19005240529673E-04	0.568982811531774	-0.802289919856625
387482500	0.550778007439093	-0.813070112582658	-3.80942421808476E-04	-2.18295559765448E-04			-3.9758787938679E-04	-1.99300926734304E-04	0.569704486287045	-0.801489010837681
387545000	0.551208749963212	-0.814458605829062	-4.27733677292658E-04	-2.11879784044766E-04			-3.90709501197265E-04	-2.06799683799794E-04	0.568857344832256	-0.800435727842593
387607500	0.550066498440371	-0.813804135490768	-4.0958146503957E-04	-1.93547570741944E-04			-4.21994623286072E-04	-2.59708003919756E-04	0.568482828522658	-0.802361855491359
387670000	0.549729147038234	-0.815564659780518	-4.20875063268248E-04	-2.07245830184599E-04			-4.23458923747095E-04	-2.13470429861842E-04	0.568646977475349	-0.80174973199795
387732500	0.549370757495541	-0.814714914164999	-4.36968884571448E-04	-1.80946864548708E-04			-4.4340171656888E-04	-1.71620802860714E-04	0.569057883957392	-0.803938623908332
387795000	0.549842530957493	-0.816289079658475	-4.60868794352099E-04	-1.72736769710631E-04			-4.53088816857244E-04	-1.66844083191278E-04	0.567776132024068	-0.803630770537722
387857500	0.549188825645987	-0.817060101916249	-4.17588386958893E-04	-1.62627662880874E-04			-4.06231919820943E-04	-1.97169366511939E-04	0.566876087208127	-0.804001689076664
387920000	0.54802994900347	-0.816597633755589	-4.01182383740688E-04	-1.70940164980637E-04			-4.37223018322287E-04	-1.77086861292936E-04	0.565675206530164	-0.80404114045531
387982500	0.547936572433207	-0.81739549456367	-4.09457215735332E-04	-1.29918018721309E-04			-4.02931080247654E-04	-1.66223601498066E-04	0.566827952109899	-0.804085801082252
388045000	0.546336750399658	-0.816779433253945	-3.54694236524498E-04	-1.67309958677326E-04			-3.78832234580866E-04	-1.68058030669188E-04	0.56834201996264	-0.803753305607067
388107500	0.545518756890923	-0.816358681187174	-3.71990548564445E-04	-1.6844332594759E-04			-3.4106912856562E-04	-2.07408635992122E-04	0.566111024955086	-0.805805923148492
388170000	0.545616491248821	-0.816305867271911	-3.73580104102898E-04	-2.05565938567135E-04			-3.64359963881352E-04	-2.30167294933495E-04	0.564870355408769	-0.805443840799125
388232500	0.544833495850052	-0.81928990461593	-4.07954950215296E-04	-2.57065955655762E-04			-3.77350843609827E-04	-2.26842601725887E-04	0.56445189055436	-0.805856768095109
388295000	0.543222568023632	-0.816660390012296	-4.07809229067985E-04	-2.04583310481885E-04			-4.09398590890358E-04	-2.16378824791618E-04	0.563378492103816	-0.805779224739552
388357500	0.544198544308459	-0.818233906359062	-4.23785229798661E-04	-1.8574157525279E-04			-4.21580178938514E-04	-2.08924810019782E-04	0.564196344917509	-0.805516274452239
388420000	0.543137831867974	-0.818318734627705	-4.09859495276119E-04	-1.76725263284264E-04			-4.04803277184824E-04	-2.07790474241278E-04	0.564514026290572	-0.807546607385852
388482500	0.543124901078197	-0.818345594823214	-3.88822825304536E-04	-1.9179139029746E-04			-3.64410628700142E-04	-2.10989144439306E-04	0.561906595006817	-0.806700552695262
388545000	0.541571554065396	-0.818142652153645	-3.95640180518051E-04	-1.81295895841975E-04			-4.19571441454252E-04	-1.84411773268701E-04	0.562108093306564	-0.806937608607332
388607500	0.541695811290106	-0.818539953970044	-4.13276554941913E-04	-1.84633927504371E-04			-4.17148476590238E-04	-2.00020936654112E-04	0.561751129187216	-0.806895938282091
388670000	0.540394176939683	-0.817282586391397	-4.10241682351767E-04	-1.79907640777195E-04			-3.91963629573393E-04	-1.81116575101337E-04	0.559466394082188	-0.80832458397094
388732500	0.539754573267732	-0.819378562118892	-3.9771545055716E-04	-1.62331478216375E-04			-4.13687835844671E-04	-1.51991335031445E-04	0.559196426302709	-0.808716672021185
388795000	0.540292238861668	-0.818908654419696	-3.82434755835471E-04	-1.79769420661465E-04			-3.72912071603946E-04	-1.74682147894151E-04	0.56032435771815	-0.807921536336104
388857500	0.537682708415275	-0.817748021134647	-3.81853895881293E-04	-1.56037517400611E-04			-3.64936519751321E-04	-1.80015336686413E-04	0.559678028586526	-0.807713212794478
388920000	0.538342892040215	-0.819059114099329	-3.78973819163528E-04	-1.91992632949536E-04			-3.47976376259841E-04	-2.36511425700229E-04	0.558650533585534	-0.809090253017731
388982500	0.538365541185733	-0.818551755858701	-3.87236468274019E-04	-2.22480901056672E-04			-3.9908431799369E-04	-2.00794053545231E-04	0.557615652589716	-0.808443356698574
389045000	0.536922421664911	-0.816579778990655	-3.92657080751699E-04	-2.24865272503596E-04			-4.21889020760179E-04	-1.9565684334901E-04	0.556182767792181	-0.808627763625763
389107500	0.537156219893028	-0.818681480686167	-4.15000603646007E-04	-2.15558155535574E-04			-3.94434210126692E-04	-2.49193551914348E-04	0.556271663493169	-0.807653282805809
389170000	0.536268930992532	-0.818710792352221	-4.14148941655371E-04	-2.10162776832414E-04			-3.78436850431932E-04	-2.09295931021249E-04	0.55457867209389	-0.807936026130257
389232500	0.535945598606306	-0.81921871358398	-4.02087546017377E-04	-1.83108059897637E-04			-4.04217545102159E-04	-1.66737371485937E-04	0.554678533418799	-0.809659503785209
389295000	0.535066585431742	-0.818334974815807	-3.9805197874957E-04	-2.04599109782125E-04			-3.85796174884417E-04	-1.97472585322219E-04	0.554155321109455	-0.808438194707555
389357500	0.534356145912445	-0.818403855891478	-3.68346415769966E-04	-2.07622416125424E-04			-3.63738979021958E-04	-2.02792326142049E-04	0.553738177914591	-0.807951934591302
389420000	0.534234630664401	-0.818754383279025	-3.80740472132008E-04	-2.41416438536487E-04			-3.50878114360365E-04	-2.50739917271002E-04	0.552560988277456	-0.808903275554477
389482500	0.53313190458944	-0.819286358407426	-3.86182385672748E-04	-2.44642997169041E-04			-3.44532135561171E-04	-2.60633295105526E-04	0.552233909863824	-0.807235571040356
389545000	0.532752198873495	-0.81890982575984	-3.77006950592523E-04	-2.43539859063941E-04			-3.7352744777295E-04	-2.66171670335974E-04	0.551041561873628	-0.806710674902706
389607500	0.53126555712716	-0.818039782337734	-4.09708619989555E-04	-2.43782399057626E-04			-3.9696329302752E-04	-2.47326547706486E-04	0.551649687350506	-0.806677142035401
389670000	0.530877712719581	-0.816781642734097	-4.57618645819171E-04	-2.59313878816277E-04			-4.74121440869703E-04	-2.51746361891199E-04	0.5509485885582	-0.80697453138564
389732500	0.531936733325527	-0.818846086859888	-5.0258584297945E-04	-1.9568188850433E-04			-5.02384027540368E-04	-1.93616043355516E-04	0.548296220217174	-0.80620085877462
389795000	0.531153072220309	-0.817467867395865	-4.7108278806475E-04	-1.10970126435957E-04			-4.92701000065967E-04	-1.41685289764355E-04	0.550426438258433	-0.805012633189067
389857500	0.529706134637572	-0.815349203040687	-4.03878869581337E-04	-1.26063059661003E-04			-4.30005005786598E-04	-1.36679517976381E-04	0.549842496705516	-0.804531847386995
389920000	0.530446417481306	-0.816470643218349	-3.57588511545569E-04	-1.52198203978734E-04			-3.67587781866701E-04	-1.48176882941024E-04	0.549732571784565	-0.805089239428268
389982500	0.530653043716513	-0.816118285274222	-3.66073446121688E-04	-1.87180596652583E-04			-3.1636227774853E-04	-1.94004583439245E-04	0.550588693492841	-0.805466375199627
390045000	0.52880380198225	-0.814799228062429	-3.18283686571016E-04	-2.114668301036E-04			-3.28455075790871E-04	-2.25153258979836E-04	0.550326110521871	-0.804943473138275
390107500	0.528280614099689	-0.814549080069537	-3.71354346911023E-04	-2.5834330666692E-04			-3.54118081750366E-04	-2.42452397922696E-04	0.550496204799725	-0.803244423446185
390170000	0.529772358545203	-0.815121688025391	-3.64100669603221E-04	-2.62474823440252E-04			-3.83118233197738E-04	-2.58567610576247E-04	0.55060845326079	-0.804307995573441
390232500	0.529897720603946	-0.815171016990546	-3.91849656812886E-04	-2.75496421594127E-04			-4.12024034302765E-04	-2.58994665561541E-04	0.552196578675998	-0.804447879218635
390295000	0.53028092900749	-0.815391939537723	-4.22356765169248E-04	-3.05053078192337E-04			-4.34989179719602E-04	-2.76238676345221E-04	0.550591124046191	-0.803203653036509
390357500	0.530265778743874	-0.814715124829859	-4.74493622115352E-04	-2.25702145998534E-04			-4.6770790655597E-04	-2.24258453119886E-04	0.551258935026969	-0.804805527529332
390420000	0.530909849259988	-0.81501319890012	-4.1282113945552E-04	-1.57783642687939E-04			-4.12964582557601E-04	-2.00909688295908E-04	0.550040107452315	-0.805462217376517
390482500	0.531359178689269	-0.815035890823484	-3.56240264746014E-04	-2.00498968673516E-04			-3.21872693196572E-04	-2.08422539448972E-04	0.550639673462082	-0.806931556833507
390545000	0.531613605677173	-0.816151246990697	-3.40875133899911E-04	-2.81287766752287E-04			-3.28973790798932E-04	-3.01166753001819E-04	0.550231491444548	-0.807914922496096
390607500	0.531925890273717	-0.817448580467269	-4.38118111611347E-04	-3.3889444971172E-04			-4.43741949097895E-04	-3.35824384000251E-04	0.551020719005766	-0.807366259973033
390670000	0.531511197531277	-0.817475772210579	-5.04554457075609E-04	-2.9252383298304E-04			-5.22023964201358E-04	-3.14856551253055E-04	0.550316772040341	-0.809088296459462
390732500	0.531031580643097	-0.818098568340046	-4.80866832021973E-04	-2.18794486324142E-04			-4.91055707884809E-04	-2.35590847175592E-04	0.550034524711439	-0.809807124578678
390795000	0.531071637894137	-0.818183173322295	-4.40082801387573E-04	-2.24691093337487E-04			-4.64282479610099E-04	-2.36493990330527E-04	0.550210484904199	-0.809984996124133
390857500	0.530748799403461	-0.818430050434066	-4.54254769292158E-04	-2.44586919889511E-04			-4.29070750790736E-04	-2.78694412836565E-04	0.549389409667444	-0.810247443876119
390920000	0.531256828032139	-0.819278099706501	-4.84583390676667E-04	-2.57271233189281E-04			-5.06475972153496E-04	-2.3331040036377E-04	0.549008351172715	-0.810672840745008
390982500	0.530537002870005	-0.820025338913913	-4.85515399080357E-04	-1.89526785784916E-04			-4.99288343339977E-04	-1.81329916905106E-04	0.54638277830588	-0.811392872046137
391045000	0.529575793090412	-0.820646686172971	-4.71338688937701E-04	-1.47360430853175E-04			-4.83317017050325E-04	-1.57188616740122E-04	0.545537158747583	-0.811557932873198
