# Hz S RI R 50
800000000	0.256292074092381	-0.937936014131143	2.33287042863107E-02	5.49294239719933E-03			2.32266429145213E-02	5.57202883768497E-03	0.226507798117897	-0.939530196527267
802000000	0.254157323922067	-0.935970829762653	2.32320243179674E-02	5.44407223553231E-03			2.32595134391951E-02	5.51751946663166E-03	0.224712103173169	-0.941630410056357
804000000	0.249454363856881	-0.938628101799067	2.34113907017568E-02	5.40052284187969E-03			2.33980734218158E-02	5.3954821113037E-03	0.22151349597536	-0.943601466838443
806000000	0.247049199643217	-0.941105799621125	2.33883026023494E-02	5.33123269759248E-03			2.34519581788494E-02	5.36126791193445E-03	0.218133162929568	-0.942967556436663
808000000	0.241891875311342	-0.943088041965846	2.35116839038375E-02	5.25279744466658E-03			2.33965690193771E-02	5.3273519032535E-03	0.212000005642191	-0.940375089602097
810000000	0.239752063985854	-0.94045778984802	2.35471769956086E-02	5.16708245158525E-03			2.35140439589378E-02	5.21533166931432E-03	0.208387632742556	-0.942584706212322
812000000	0.236291527955252	-0.942520843173107	2.35042216589754E-02	5.08106773186519E-03			2.36119260229528E-02	5.18732949153582E-03	0.208412472554252	-0.943368682734231
814000000	0.23553042523843	-0.944725765819186	2.37146369841921E-02	5.07583098922744E-03			2.35772763845538E-02	5.07289164304554E-03	0.203845241851763	-0.943157183145711
816000000	0.229108301150769	-0.945345542291792	2.37732333386534E-02	4.93313834670928E-03			0.023743203146385	4.99300127431831E-03	0.199337047802391	-0.946741891808523
818000000	0.227723373313097	-0.946004249032529	2.37259315104589E-02	4.90328764921786E-03			2.37498221725569E-02	4.93927006061099E-03	0.199918307687452	-0.945888519897824
820000000	0.22354004047704	-0.941668229595729	2.38161591255865E-02	4.83928302168478E-03			2.38271731635807E-02	4.91648936275227E-03	0.194617097753225	-0.94565172929735
822000000	0.219639447439975	-0.946714531280694	0.023796778491994	4.76738283978708E-03			2.38445445952009E-02	4.86652022627438E-03	0.192871259526419	-0.946515641988382
824000000	0.216433906213867	-0.946149155208124	2.39489696100594E-02	4.79279667621983E-03			2.39604206055763E-02	4.77704087371583E-03	0.187914669577142	-0.945223955536217
826000000	0.213964134645628	-0.943227326570633	2.39811657827071E-02	4.59356145147529E-03			2.39769342841983E-02	4.61795763253715E-03	0.183915300063071	-0.947496651814569
828000000	0.211318674059465	-0.947778804821331	2.40863671590488E-02	4.47987079036123E-03			0.023946679927282	4.49600628557225E-03	0.182159556365145	-0.948514262277177
830000000	0.207767095403338	-0.949562242517239	2.41280923688665E-02	4.48932547711706E-03			2.40676931880171E-02	4.55336192520817E-03	0.17758249018704	-0.948832319274744
832000000	0.205695837866957	-0.949324290051324	2.42029664268867E-02	4.39563372410535E-03			2.42036684920549E-02	4.4220097187837E-03	0.175944730051769	-0.948594908851544
834000000	0.200709513064856	-0.94945970850941	2.43440015106747E-02	4.35518533829972E-03			2.42169005196596E-02	4.31150180635708E-03	0.170207040019493	-0.948445101148555
836000000	0.198610363040582	-0.952567855555589	2.42575840364773E-02	4.21960815415055E-03			2.42660599326394E-02	4.26667703774966E-03	0.168868387647374	-0.949369999977794
838000000	0.195521385738089	-0.951605432010528	2.43833829903554E-02	4.18745932315352E-03			2.43478359135163E-02	4.21815460830446E-03	0.166709012938602	-0.949162391692773
840000000	0.192252914480948	-0.951849717415097	0.024444960428214	4.11491421330124E-03			2.43808632635912E-02	4.18136816780886E-03	0.164150381706793	-0.952307968216475
842000000	0.189623854773317	-0.951046947326172	2.45102973540679E-02	4.11010664638002E-03			2.44447266419822E-02	4.10561482379051E-03	0.159238949793182	-0.952221911720317
844000000	0.186744714940121	-0.951729500791971	2.45069866193553E-02	3.92932334767417E-03			2.44989241992502E-02	3.9782717262857E-03	0.155933579318405	-0.949708806543551
846000000	0.18356640561399	-0.951826307014944	2.46425614312867E-02	3.89874441135612E-03			2.45931168280583E-02	3.92051564554894E-03	0.152023315695504	-0.95254214283801
848000000	0.180140273601889	-0.951656371800137	0.024639706915994	3.8723701384339E-03			2.45967954314457E-02	3.7850970737286E-03	0.146661940729701	-0.950784215486776
850000000	0.17702987339442	-0.952835410253356	2.47310623888452E-02	3.74878461994895E-03			2.46942643805336E-02	3.7449745198324E-03	0.148174620799149	-0.9544752395494
852000000	0.171205080970428	-0.955057958283432	2.47663220515391E-02	3.62954988796174E-03			2.47746158067675E-02	3.71152845160062E-03	0.14456430147952	-0.953447728711339
854000000	0.17029028220457	-0.952803883348897	2.47840970520296E-02	3.67051300085291E-03			0.024785701577098	3.66229180662108E-03	0.139674661160896	-0.953803016599094
856000000	0.165427106316774	-0.955910069619703	2.48189064489766E-02	3.49966016268042E-03			2.48833571975229E-02	3.58724608267412E-03	0.138159046164311	-0.954100685998043
858000000	0.162649429616674	-0.955278070928842	2.49104516901984E-02	3.48226635752041E-03			0.024876535052699	3.52693790772621E-03	0.134220096371195	-0.954834629516086
860000000	0.159542267696233	-0.955973734945949	2.49877655619689E-02	3.31855543151206E-03			2.49832459162341E-02	3.32493536852415E-03	0.129049027103136	-0.956008452057159
862000000	0.155587437339819	-0.955316134139998	2.49785695975591E-02	3.29492272856927E-03			2.49932284617894E-02	3.29628929950277E-03	0.125207996950027	-0.955900232662793
864000000	0.154274484416428	-0.95509605651365	2.51538321347508E-02	3.29334795343816E-03			2.51142163395564E-02	3.21374219457172E-03	0.125186933287364	-0.956145651019074
866000000	0.151001148863998	-0.957669099918536	2.51483960647477E-02	3.14315980847223E-03			2.51119976584966E-02	3.18433624685522E-03	0.120638433139716	-0.956338636205546
868000000	0.146210235806456	-0.957689820266405	0.025239357081077	3.0503596858422E-03			2.51081730929545E-02	3.03537559206545E-03	0.117849473572022	-0.95570960865999
870000000	0.143022136095694	-0.957168854448	2.52838072756997E-02	3.01493050087025E-03			2.53434216875942E-02	3.0266824670478E-03	0.112229691208557	-0.95895033633049
872000000	0.140047005844257	-0.959258653401846	0.025259863640815	2.83810503529225E-03			2.52150796772381E-02	2.86780387886616E-03	0.110427218305334	-0.957876412253978
874000000	0.137481050176746	-0.959376639929233	2.53891556103412E-02	2.81930256718948E-03			2.53643275834142E-02	2.91924766572534E-03	0.110074723887621	-0.960177217851616
876000000	0.132774397640324	-0.957987704501904	2.53923998435536E-02	2.85150317683598E-03			2.53919646639729E-02	2.78169459442454E-03	0.103499269669122	-0.960984822652556
878000000	0.129890178491082	-0.958239229935397	2.54106464236444E-02	2.63161967754514E-03			2.54228998648144E-02	2.5794561081145E-03	0.103221527294623	-0.957884196244691
880000000	0.125591005992121	-0.959966305218515	0.025521880479297	2.58469389899136E-03			2.54615899009351E-02	0.002642847130408	9.77113895142719E-02	-0.958230389053708
882000000	0.122789498014775	-0.959947508902556	2.55386332179255E-02	2.47063103642717E-03			2.55114076018716E-02	2.52537083456067E-03	9.67574605934939E-02	-0.958158492566133
884000000	0.118902784551164	-0.959669346062802	2.55671109672896E-02	2.4979160336685E-03			2.56265148425243E-02	2.43773722019191E-03	9.04585318950237E-02	-0.960908494747967
886000000	0.114619151398732	-0.960313625128433	2.57015981607663E-02	2.3804431719804E-03			2.56248356216955E-02	2.36823383752195E-03	8.90015482663396E-02	-0.958943428791601
888000000	0.113163063384106	-0.962036734633632	2.57287920014062E-02	2.25527621501986E-03			2.56621918259779E-02	2.3809362819559E-03	8.50006372531573E-02	-0.963449051308612
890000000	0.110374805027516	-0.961072716038818	2.57556292893282E-02	2.07779083988689E-03			2.57473175257381E-02	2.16088630348523E-03	8.25644148177069E-02	-0.960324322895604
892000000	0.105358747753926	-0.960574972179391	2.58093883983678E-02	2.0630124517875E-03			2.58196338003043E-02	2.09670966134394E-03	8.01143872600676E-02	-0.96035605599843
894000000	0.104817837529444	-0.961069847039463	2.58476953408636E-02	2.02942076734772E-03			2.58039130625108E-02	2.0037693165949E-03	7.25092082582731E-02	-0.962477259668258
896000000	9.84435381338894E-02	-0.962718924068849	2.59221024374893E-02	2.0246810579208E-03			2.58516105144292E-02	1.93547433768058E-03	7.22821255910921E-02	-0.961194607492788
898000000	9.55857424913196E-02	-0.961440572567783	2.59620074441638E-02	1.91995218718548E-03			2.59998054353787E-02	1.94971065814752E-03	6.93336592350122E-02	-0.960314636438168
900000000	9.25197219068115E-02	-0.962554326396637	2.60414484197787E-02	1.76619526742828E-03			2.59609010076139E-02	1.77608801513546E-03	6.54075402681312E-02	-0.962781933541479
902000000	0.090290030068238	-0.961270316297926	2.61293984435657E-02	1.79640501934475E-03			2.59559030786051E-02	1.79168244076541E-03	6.39447633274048E-02	-0.960604002074174
904000000	8.44518134190389E-02	-0.962113165758015	2.60448200214595E-02	1.59625839987673E-03			2.60702506122368E-02	1.67108933788453E-03	6.11353367079403E-02	-0.961007489777835
906000000	8.21627471649893E-02	-0.962400799055486	2.62139894956669E-02	1.52438309393178E-03			2.61089613559552E-02	1.57647674366232E-03	5.54797203069798E-02	-0.962791058560742
908000000	8.13066404402823E-02	-0.961204182204719	2.62227421612716E-02	1.40738327499662E-03			2.61056666011041E-02	1.44088830902326E-03	5.34007640024662E-02	-0.960310317421825
910000000	7.67092064339157E-02	-0.960630651892673	2.62956027721507E-02	1.46876148992241E-03			2.61510813745879E-02	1.39564096589382E-03	4.98149611726421E-02	-0.961100538419758
912000000	7.47988529946667E-02	-0.961470078833964	0.026290016966244	1.28783000286173E-03			2.62344194338911E-02	1.36131866781113E-03	4.66789445511025E-02	-0.961638949382096
914000000	6.99986834853993E-02	-0.965077542831037	2.62903262668422E-02	1.23238989743104E-03			2.62637034960536E-02	1.23834221853227E-03	4.32761224118677E-02	-0.963015564107349
916000000	6.71265365671914E-02	-0.963154984377265	2.63930336886198E-02	1.04213908316677E-03			2.63270859744358E-02	1.19517430649383E-03	3.92138638886661E-02	-0.961812235720697
918000000	6.05232187313152E-02	-0.96655084646797	2.64011511062898E-02	1.02020349305216E-03			2.63521591002026E-02	1.06102052908575E-03	3.57374218620606E-02	-0.961406660776774
920000000	6.16454600352384E-02	-0.967695367930212	2.64854757391681E-02	9.71439949662328E-04			2.64005718322669E-02	9.86672826879052E-04	3.33398511326213E-02	-0.963165401559546
922000000	5.88460691142208E-02	-0.964317145128132	2.64926855609355E-02	9.59701532327347E-04			2.64280903873472E-02	8.83626088474326E-04	3.08391513469862E-02	-0.963046116292972
924000000	5.40833092503764E-02	-0.961363188750159	2.65568690314445E-02	8.36702441358192E-04			2.65588274003769E-02	8.44192951492398E-04	0.026181607252407	-0.961744051555145
926000000	5.03459357452326E-02	-0.962247151002109	2.66002828448663E-02	7.43592678160339E-04			2.65812567584277E-02	6.85385628162088E-04	2.26472457418144E-02	-0.962471949871967
928000000	4.69540112380804E-02	-0.965232140534133	2.66866996795135E-02	6.64600061581047E-04			2.65756129781174E-02	6.88142798581456E-04	2.10362086278496E-02	-0.96213594778589
930000000	4.35004646997119E-02	-0.967251501570026	2.66740616242932E-02	5.56563309478393E-04			2.66653328724055E-02	5.49889665870738E-04	1.74830310305019E-02	-0.96316702936841
932000000	4.06012022818812E-02	-0.961648613237198	2.67918683244161E-02	4.91543952444608E-04			2.67564845648988E-02	4.19013152034615E-04	1.43924133885546E-02	-0.965872042931858
934000000	3.69468116167984E-02	-0.968799038416109	2.68310678615149E-02	3.70990829062302E-04			2.67649178814939E-02	4.65769195620451E-04	1.23555930991165E-02	-0.964943362896485
936000000	3.40308111016039E-02	-0.963664550834878	2.68572304872947E-02	3.49136628456343E-04			2.67881525219431E-02	3.5951293633909E-04	9.84679762130563E-03	-0.963849587816557
938000000	2.93505822241752E-02	-0.965647518172586	2.69058088899042E-02	2.46867406123823E-04			2.67995478173384E-02	2.42848669983065E-04	5.20272093246442E-03	-0.962915461463409
940000000	0.026322448331183	-0.96355677567801	2.69173530792296E-02	1.2051324762613E-04			2.69032966246091E-02	1.46274517304821E-04	8.10400522300385E-04	-0.961753924093552
942000000	2.31706409121481E-02	-0.962138760857675	2.70004244854602E-02	1.01176582328676E-04			2.69253236111523E-02	9.52491237633416E-05	2.48320956297983E-04	-0.965571488451986
944000000	0.021454783177926	-0.967197684557623	2.70467388838982E-02	-4.21637356638984E-05			2.70045161018928E-02	-1.72833015072546E-05	-5.14480844461902E-03	-0.963286912785185
946000000	1.61165185378997E-02	-0.963066700117003	2.70333569009126E-02	-8.89424468200174E-05			0.027055444105567	-1.08816684152556E-04	-7.6589800951434E-03	-0.962901435689844
948000000	1.14482259913884E-02	-0.96303610613317	2.70531132508812E-02	-1.8012645129272E-04			2.70457608264681E-02	-1.52822986275816E-04	-1.13430140347079E-02	-0.964244497335709
950000000	9.00009516338778E-03	-0.968441798388817	0.027149388134546	-3.69836569461519E-04			2.71227746331671E-02	-2.78701437867072E-04	-1.20375204703919E-02	-0.963456011402771
952000000	6.63240881384779E-03	-0.964411988345162	2.72674873348904E-02	-3.55427494678628E-04			2.72004374669546E-02	-3.03003771197682E-04	-1.64870889586871E-02	-0.962252426063093
954000000	4.14088383335416E-03	-0.965669067738669	2.72158987378508E-02	-5.24536566027657E-04			2.72577758779567E-02	-4.8806542688714E-04	-1.89957769361943E-02	-0.961960561262497
956000000	-1.48376989947725E-03	-0.962427831274749	2.72804089818802E-02	-5.14666529832456E-04			2.72758114077839E-02	-5.49874523180448E-04	-2.27303512936593E-02	-0.963207473200746
958000000	-5.40073338710581E-03	-0.963627499649082	0.027323379502464	-6.72454249360268E-04			2.72297285359911E-02	-6.3978937330701E-04	-2.57860075690745E-02	-0.961126942551855
960000000	-5.30826576758522E-03	-0.964052339498949	2.73815928373546E-02	-6.92502401229861E-04			2.73654715938962E-02	-7.30077795646052E-04	-3.05525628483974E-02	-0.964163906098969
962000000	-9.76667617381966E-03	-0.961354583346051	2.73170699037555E-02	-7.62192305446403E-04			2.73480410401536E-02	-8.00997473509792E-04	-3.40626635274803E-02	-0.962403234602627
964000000	-1.38418303759439E-02	-0.962906229993536	0.027465155805046	-9.27179262983814E-04			2.74462024976858E-02	-8.59482932329434E-04	-3.53742809571311E-02	-0.961670414730277
966000000	-1.56239979620857E-02	-0.963934673044637	2.74706535302428E-02	-1.02520479927267E-03			2.74779685891012E-02	-8.9231213516217E-04	-3.90037871159997E-02	-0.961940137147674
968000000	-1.86133100285454E-02	-0.964205894109422	2.75798952294755E-02	-1.13386110938955E-03			2.74942995557301E-02	-1.09643968992365E-03	-4.29066875483569E-02	-0.960974093880285
970000000	-2.33405323275837E-02	-0.962803835606426	2.75117223820996E-02	-1.16393595858614E-03			2.75462596860596E-02	-1.21421629078031E-03	-4.47921735075763E-02	-0.963079201278777
972000000	-2.71707258016442E-02	-0.962516762362226	0.027578306594488	-1.32901549254685E-03			2.75321965611986E-02	-1.28043611273065E-03	-4.79152476961891E-02	-0.960634847408451
974000000	-3.04957114602856E-02	-0.963606154317868	2.76293577093597E-02	-1.36969255167339E-03			2.76064895577365E-02	-1.38359144438141E-03	-5.08795042664314E-02	-0.960466176113793
976000000	-0.033871688075686	-0.963181251468631	2.76259964653168E-02	-1.48530571664549E-03			2.76163037100725E-02	-1.52070327152367E-03	-5.45409945890289E-02	-0.964392142052926
978000000	-3.55045931848094E-02	-0.96414510884463	2.77392315964198E-02	-1.68707801958365E-03			2.77286552681395E-02	-1.63076825967332E-03	-5.77337826252036E-02	-0.961011882579839
980000000	-3.89741910359532E-02	-0.962858610165837	2.77742141731802E-02	-1.70209612053248E-03			2.77198436447977E-02	-1.7110575473223E-03	-6.14606384606518E-02	-0.96071639552213
982000000	-4.16765704567348E-02	-0.962252965665041	2.78220144046328E-02	-1.79452863680022E-03			2.77641613898442E-02	-1.81642726445902E-03	-6.48739655795453E-02	-0.959883188288368
984000000	-4.71390686218341E-02	-0.96263006380754	2.78108144056679E-02	-1.97097507936486E-03			2.77148212506413E-02	-1.98839200366241E-03	-6.85663307185528E-02	-0.960322704160532
986000000	-4.92567146437468E-02	-0.961905266651319	2.78936539792134E-02	-1.98927175271192E-03			2.78625557743518E-02	-1.91268910183427E-03	-7.10401172151301E-02	-0.961124419128602
988000000	-5.15347650807479E-02	-0.964015518118836	2.79062991493532E-02	-2.02270851245691E-03			2.78756359039842E-02	-2.07350103442356E-03	-7.35217443152684E-02	-0.960893638591895
990000000	-5.67111878059453E-02	-0.961653893279635	2.79722910464961E-02	-2.24188351635953E-03			2.79734806876787E-02	-2.26348627486084E-03	-7.79541689328986E-02	-0.962547962064912
992000000	-5.90207126229812E-02	-0.961876983425028	2.78788114098625E-02	-0.002245153747172			2.78980922045676E-02	-2.25752246885904E-03	-7.99045539260272E-02	-0.958569148320713
994000000	-5.98024112208998E-02	-0.962871018319799	2.79893993376219E-02	-2.37598484552638E-03			2.79467261858223E-02	-2.44818979415927E-03	-8.29696143276128E-02	-0.959321091855952
996000000	-6.61672521738216E-02	-0.961613791690958	2.80626225332606E-02	-2.50837487680944E-03			2.79967787568736E-02	-2.40736017738337E-03	-8.58894131526016E-02	-0.958253825291332
998000000	-0.068800688990215	-0.959100567694272	2.80738544717195E-02	-2.47178698808518E-03			2.81308923580545E-02	-2.61207140263175E-03	-8.93982642511599E-02	-0.960747588629983
1000000000	-7.16273778384106E-02	-0.959597787746946	2.80507426162034E-02	-2.66004937983624E-03			2.80805690246488E-02	-2.60035814668784E-03	-0.090294657556528	-0.960185807843863
1002000000	-7.41492135762088E-02	-0.959743839079318	2.81362199672025E-02	-2.73186916724877E-03			2.80000720331279E-02	-2.76689759762336E-03	-0.096323113834368	-0.954430456194766
1004000000	-7.66730697327934E-02	-0.962390965374306	2.82351628880541E-02	-2.89393420987108E-03			2.81753810905491E-02	-2.86461699351096E-03	-9.83690077197883E-02	-0.960906791997592
1006000000	-8.11018603129334E-02	-0.95890379753177	2.81815489291013E-02	-2.96465963279043E-03			2.81300261336353E-02	-2.93668101805957E-03	-0.100687390453432	-0.957400547744513
1008000000	-8.45223577444447E-02	-0.958832814022069	2.82821978717571E-02	-3.09666147743535E-03			2.82094332419137E-02	-3.03000371806546E-03	-0.104405088169196	-0.957610756258588
1010000000	-8.61898596064605E-02	-0.958715857379734	0.028249702018736	-3.09858822963777E-03			2.82812006304094E-02	-3.11289150477531E-03	-0.107859589337778	-0.957992889517868
1012000000	-9.15531798605853E-02	-0.956274698447342	2.82956056449745E-02	-3.24037215061609E-03			2.82852590229338E-02	-3.20194103459499E-03	-0.110118342789764	-0.956329904436612
1014000000	-0.094665722542589	-0.956757100209305	2.82950546441079E-02	-3.34713747187838E-03			2.82782085080103E-02	-3.37872178051263E-03	-0.115635497702286	-0.956533695881824
1016000000	-0.100557970771945	-0.955640226382075	2.82522638059776E-02	-3.49754418260811E-03			2.82732735134015E-02	-3.32349387257187E-03	-0.11508054644337	-0.955679398413126
1018000000	-0.101710898768834	-0.95471851755873	2.83552540155703E-02	-3.54441361676265E-03			2.82863518752695E-02	-3.51321512494071E-03	-0.117551866311638	-0.954545021131411
1020000000	-0.100954753876633	-0.956963219460943	0.028372957245529	-3.6573731040085E-03			2.83335743937105E-02	-3.60149319352044E-03	-0.12443923501829	-0.952176244152972
1022000000	-0.102451927157282	-0.957445755562829	2.84259225808748E-02	-3.75759273772445E-03			2.83357189361835E-02	-3.71061099436476E-03	-0.127814128513725	-0.953101791063745
1024000000	-0.111674788400913	-0.955234553734647	2.84082369270595E-02	-3.86259685852013E-03			2.83921264716018E-02	-3.80411785105844E-03	-0.129026346919628	-0.955496811464703
1026000000	-0.109621336778111	-0.955663798278563	2.85137006410185E-02	-3.90924163638893E-03			2.83335892077371E-02	-3.86076135932021E-03	-0.129943769865198	-0.952348477728481
1028000000	-0.116006106944282	-0.952915230060416	2.85132540011106E-02	-4.10026686698018E-03			0.028452575896068	-4.05669326774435E-03	-0.137524109921631	-0.951178546855578
