# Hz S RI R 50
1031800000	-0.10162606967912	-0.880722838878743	0.377432834759139	-0.054423837709714	3.89380148097288E-05	2.23514896007685E-04	3.02482139769042E-04	6.01867288863247E-04
			0.379552809417401	-5.48249074251028E-02	-0.112564723915629	-0.906267683604547	3.12354421547347E-04	6.20889911554295E-04	2.73873853952351E-03	-2.2808153699742E-04
			6.11801152129521E-05	1.94145967758681E-04	2.8050687018423E-04	5.61102245931904E-04	-6.67903416528447E-02	-0.884093414135343	0.372451711159776	-4.67880331974835E-02
			2.98537939291437E-04	5.6925044389351E-04	2.77482254149019E-03	-2.33666876912179E-04	0.371790032701277	-0.0471928673615	-9.34863570509866E-02	-0.887087538608713
1032112500	-0.102949741934576	-0.878994856143808	0.379526357328919	-5.44472416008662E-02	-6.09062130602602E-05	1.7840847187012E-04	3.8686296028861E-04	6.02809843651356E-04
			0.37864508052518	-5.50344135321021E-02	-0.112599813129952	-0.910816146209454	2.58518634838694E-04	5.61591555458403E-04	2.7858952280649E-03	-1.37318731550718E-04
			6.26464266137834E-05	2.25262068016682E-04	1.66927579479333E-04	6.5584933049803E-04	-6.72264892084847E-02	-0.886273148575904	0.371751807433535	-4.68305253536375E-02
			3.64731675753007E-04	5.99368014943186E-04	2.77370401315858E-03	-2.48011759953952E-04	0.371762670870626	-4.81173711422088E-02	-9.29869318099201E-02	-0.886615148424513
1032425000	-0.102125136237302	-0.88029996847874	0.378843530622526	-5.45833437499664E-02	-5.51185861252034E-06	1.47225596648745E-04	3.24954882323948E-04	5.54281175375635E-04
			0.379284149755031	-5.50072172588633E-02	-0.11264768146131	-0.908073779621784	2.96316783694113E-04	4.96689765246142E-04	2.7361902402793E-03	-2.03237451392138E-04
			9.79435614167851E-05	1.87759751399011E-04	2.86757977182813E-04	5.65885774097092E-04	-6.67452819399348E-02	-0.88251939914171	0.371620004659279	-4.82649688162763E-02
			2.18348159293823E-04	5.63971208986142E-04	2.6935588296641E-03	-2.17263210284208E-04	0.371124838835904	-0.048036112398678	-9.43476640751321E-02	-0.884494195891428
1032737500	-0.103402059490478	-0.87893920064198	0.377766104075505	-5.41502182902601E-02	1.90739030371777E-05	1.08098752879148E-04	2.95525503502994E-04	6.3767897500864E-04
			0.378746794620136	-5.48339638762555E-02	-0.112457405900723	-0.904918054502565	2.31354360673654E-04	5.82709900736409E-04	2.91924521817373E-03	-1.27774641565828E-04
			9.35926179199571E-05	1.99799006231909E-04	2.50021436109229E-04	5.48285560226135E-04	-6.63964865118598E-02	-0.884572441208331	0.372021295688177	-4.71775216191954E-02
			3.0184741584437E-04	5.67066346241839E-04	2.74911646134866E-03	-2.005034262935E-04	0.371590984095016	-4.71259960830269E-02	-9.53010161588059E-02	-0.887045905150645
1033050000	-0.1020058436602	-0.87806701319544	0.377789883882797	-5.42641612253018E-02	2.75242713271265E-05	1.4335119906419E-04	4.05028501771925E-04	5.05479423296576E-04
			0.377334316130336	-5.55652960499008E-02	-0.113078588720607	-0.907149705229324	1.92052773067317E-04	6.083324690104E-04	2.75595854759329E-03	-1.60791349629951E-04
			-3.75081982592759E-05	1.6589416163958E-04	3.21109799303931E-04	6.02375001013747E-04	-6.70037268020217E-02	-0.886307336257034	0.371013575360879	-4.82371301362491E-02
			3.32204878843918E-04	5.81724270233576E-04	2.76638459835438E-03	-2.30413333394915E-04	0.371720201118019	-4.74899043814193E-02	-0.0928093266481	-0.883620385517117
1033362500	-0.103448096392064	-0.878878157662657	0.377945697979832	-0.054259157658902	-2.58802183902446E-05	1.52705487842957E-04	3.3567310371573E-04	5.27181753941536E-04
			0.377788637139488	-5.49412393125684E-02	-0.113615994700429	-0.907352432859463	2.29978381572562E-04	5.95362061447229E-04	2.82367197731093E-03	-1.94354604169029E-04
			2.65696382483954E-05	1.97882566535091E-04	3.40666927910844E-04	5.71949652784037E-04	-6.82318082606219E-02	-0.884958402594204	0.371088002733001	-0.047871292079715
			3.24457637325987E-04	5.35333337825389E-04	2.72538437507426E-03	-2.34817946721678E-04	0.371184788695996	-4.79497425148003E-02	-9.73638904640823E-02	-0.886367125639616
1033675000	-0.103376917667337	-0.878760445115355	0.378508729985331	-5.51723546552048E-02	3.53732101450512E-05	1.36203903543309E-04	2.69805511190963E-04	5.90339027807144E-04
			0.378005188085173	-5.59427629691891E-02	-0.113873705565111	-0.9075454284063	2.84106594391105E-04	5.71782133055368E-04	2.82000680638218E-03	-2.78747582956406E-04
			7.36703897515086E-06	2.03155596060685E-04	2.59540042174896E-04	6.08631319462173E-04	-6.71622536315274E-02	-0.883203791590782	0.372012078778654	-0.048589187965717
			2.60014244015843E-04	6.29471592877949E-04	2.78038523732219E-03	-1.54912469833436E-04	0.371031535432891	-4.83391898809528E-02	-9.95021894858015E-02	-0.8862036004346
1033987500	-0.10270246545922	-0.88096027729353	0.378362954081078	-5.49344201617313E-02	-4.18921257373441E-06	1.66998348226428E-04	3.34991094029728E-04	5.64098491644697E-04
			0.37861211458369	-0.05475037892162	-0.113843411818317	-0.911405261323883	2.93567205531613E-04	6.22187181922672E-04	2.75208271261112E-03	-2.14294526408802E-04
			6.1143308772329E-05	1.74937368727423E-04	2.87317760890515E-04	6.00870126723949E-04	-6.78975617379818E-02	-0.884370594738847	0.37199046874269	-4.78680219371196E-02
			2.69746779203648E-04	6.16978480702034E-04	2.70928477838322E-03	-1.81112326070287E-04	0.371587247852566	-4.77261382570404E-02	-9.50134883656114E-02	-0.886737320377729
1034300000	-0.103399531176791	-0.878574605871098	0.377173327416297	-5.54671819997336E-02	7.14667862021775E-05	1.45672267657973E-04	2.73134245027238E-04	5.63997363501872E-04
			0.377595960062795	-5.49227012130109E-02	-0.114534045708692	-0.908165202915531	2.96175307163833E-04	6.43112391364237E-04	2.70861165903104E-03	-1.75075050152425E-04
			8.53153702460976E-05	1.34159946800545E-04	2.1255972535271E-04	4.92814040878025E-04	-7.07314458202738E-02	-0.886360081909502	0.371700588666713	-4.83939704923394E-02
			3.21586922332931E-04	5.41393239564413E-04	2.81160345696972E-03	-2.07034599607447E-04	0.371563104966098	-0.047990961793959	-0.099008422603316	-0.885795221793989
1034612500	-0.10395927608291	-0.878564215288411	0.378240386959403	-5.44332821909191E-02	3.03991945240772E-05	1.55131530402426E-04	2.63812782002104E-04	6.53402449276936E-04
			0.37827535576663	-5.52550486501137E-02	-0.115815297994871	-0.909647749286085	2.2274674597554E-04	5.64481968926529E-04	2.7489223179655E-03	-2.16820459222881E-04
			4.3636700073725E-05	1.82369696674106E-04	4.03346838572223E-04	4.62699784543808E-04	-6.79124000456132E-02	-0.884499904498982	0.370715819348981	-0.049289433593272
			2.64374787742227E-04	6.10101127554407E-04	2.72857295119456E-03	-2.59488338627862E-04	0.371911293447504	-4.90558093537067E-02	-0.097763702590315	-0.883695833890218
1034925000	-0.104406998227993	-0.877234875872405	0.377829841729605	-5.55458091628637E-02	1.50656228574413E-05	1.26125868342963E-04	2.64991505598897E-04	5.76676746652521E-04
			0.378224683255682	-5.57249367927056E-02	-0.115574618540872	-0.907100913850742	2.56138572976317E-04	5.68011249573042E-04	2.71753583764402E-03	-1.93053219623133E-04
			-3.7303507475896E-05	1.20605702578668E-04	3.55223605037602E-04	5.26021295902666E-04	-6.85405718856625E-02	-0.88631311743205	0.371784998756478	-4.87501242174877E-02
			2.78495640582778E-04	5.65473129106718E-04	2.72967267385405E-03	-2.07211483458823E-04	0.372078119580753	-4.78122156061083E-02	-9.88944326327468E-02	-0.885613780516763
1035237500	-0.105222518461231	-0.879152785010777	0.380344520952907	-5.47456122805442E-02	4.75793270918398E-05	1.76153279059142E-04	2.59255518258518E-04	5.00737608475461E-04
			0.378901623495171	-5.58314878211716E-02	-0.114917196818889	-0.913047646131493	2.23812113873952E-04	5.56259177704154E-04	2.70327119263017E-03	-1.93044641091411E-04
			-8.83170579666938E-06	1.37660012748069E-04	2.73379087649685E-04	5.72682943680273E-04	-6.90496204775731E-02	-0.886256109341179	0.371723308685281	-4.90597089934862E-02
			2.78190429195954E-04	5.1531119939502E-04	2.79317319924538E-03	-2.20025773312291E-04	0.371693683617228	-4.89216063289174E-02	-9.63785015605502E-02	-0.885372627958965
1035550000	-0.106659759135948	-0.879252389249675	0.378713124659703	-5.61216697645809E-02	3.57840237073056E-05	1.70813637994036E-04	0.00032194734762	5.67355135404302E-04
			0.378765590178205	-5.61725619383992E-02	-0.117422769470695	-0.909456170310654	2.33783225691472E-04	5.45081552980932E-04	2.71092825397653E-03	-1.14455782245427E-04
			-6.25045868792844E-05	1.44928848373621E-04	2.92913660409905E-04	5.39220535204973E-04	-7.05703352296913E-02	-0.88413292570065	0.371723425253832	-4.82444774822837E-02
			2.14987009705424E-04	5.80509008275013E-04	2.7955669049124E-03	-2.08993685229126E-04	0.371756593940182	-4.90562634299936E-02	-9.82436600949137E-02	-0.884784231227125
1035862500	-0.105047910434205	-0.878581319790155	0.377797099446626	-5.58912228559299E-02	3.48515045860752E-05	1.25133263521547E-04	2.95386738314061E-04	5.18693370105582E-04
			0.378481505916017	-5.61763734571311E-02	-0.116539229455186	-0.907813783516123	2.46254934250604E-04	6.68718403867349E-04	2.74436432166988E-03	-1.83458553094264E-04
			6.70235646058278E-06	1.11595414774589E-04	2.44071291390642E-04	5.74443758101675E-04	-7.15862277378192E-02	-0.885168211198806	0.371506529526947	-4.94905365611656E-02
			2.95535101392525E-04	5.85578840137054E-04	2.68288624716785E-03	-2.55992081110141E-04	0.372041735951522	-0.049116888393974	-9.85420080391753E-02	-0.884064705707848
1036175000	-0.10576083872334	-0.880180344022754	0.379084455494599	-5.54119209032148E-02	7.90497195797234E-06	1.37470607336706E-04	3.5549522837009E-04	5.14620465928085E-04
			0.378774475623437	-5.61488525104331E-02	-0.116103108450025	-0.909325311649988	3.02682417409632E-04	4.83352025013012E-04	2.79354578242812E-03	-1.36662662181646E-04
			-5.37351147776962E-05	1.70664014387743E-04	2.97224665115848E-04	5.80115721516393E-04	-7.19464873019494E-02	-0.884309911907089	0.372547045805735	-4.87176334429969E-02
			2.69049131658577E-04	5.88127176082211E-04	2.88419811833445E-03	-2.73447789707767E-04	0.371296371933826	-4.92910938833755E-02	-0.100280585902459	-0.888423691808852
1036487500	-0.106367713036251	-0.878511515296449	0.379366762446459	-5.65305754564166E-02	-3.33985403480791E-05	1.49802634899915E-04	3.14656882738913E-04	5.7653365010704E-04
			0.379104869120988	-5.57780018335347E-02	-0.118231259512517	-0.908987661723234	3.40126662671105E-04	5.78942849682419E-04	2.82798953299543E-03	-8.80330153297582E-05
			-5.87727865780219E-06	1.29201148562363E-04	2.3417948401519E-04	5.51169651298384E-04	-7.12687046229939E-02	-0.885889398875582	0.37281766615666	-4.96638280131886E-02
			2.89300482136279E-04	6.06365153070835E-04	2.7752869302182E-03	-2.16730385789763E-04	0.372383557869955	-4.96290753863799E-02	-9.99299815057602E-02	-0.885686102362025
1036800000	-0.107459859519199	-0.878997877091037	0.378953410581542	-5.61067886224941E-02	-2.16847095380656E-05	1.18030012897052E-04	2.96701704686667E-04	6.41248255048474E-04
			0.379040150656936	-5.65531627606403E-02	-0.117490733456214	-0.908480566681421	2.87743741280571E-04	4.88440049718092E-04	2.77366106897725E-03	-2.12688165949283E-04
			-2.18696866998508E-05	1.58506135684338E-04	2.67684379882865E-04	5.63800577029893E-04	-0.073053454246623	-0.886773028164717	0.372042250074891	-4.93155731810135E-02
			2.85097483792043E-04	5.77507117676704E-04	2.77824977767854E-03	-2.36994175341831E-04	0.371995753063742	-4.97937642454519E-02	-9.92949900351529E-02	-0.884601329340498
1037112500	-0.107212165840806	-0.878346638640345	0.379124548708421	-5.73886281857487E-02	8.59169300027799E-05	1.29074640201588E-04	3.51531590747304E-04	5.69071466575484E-04
			0.379572250264907	-5.64812501684225E-02	-0.119752157441831	-0.909233168067857	2.66648803611803E-04	5.87031045499042E-04	2.76388117828986E-03	-1.56540219438524E-04
			4.04491800189127E-05	4.03779073257009E-05	2.91290597146808E-04	6.04076643765529E-04	-7.11240944713989E-02	-0.885445762829622	0.372117427102899	-4.94637530536977E-02
			3.09748133419925E-04	5.62660916486171E-04	2.7902330705728E-03	-2.55164497651345E-04	0.372302967978593	-4.93085579200485E-02	-0.101116648305507	-0.886157078085609
1037425000	-0.1098489179713	-0.878133948126574	0.379855318964468	-5.65994833831882E-02	3.61106556042386E-05	1.5991868915795E-04	3.08499330519991E-04	5.91244224940699E-04
			0.379057237401336	-5.78154239675316E-02	-0.117665017886846	-0.910048359871254	1.71999968085584E-04	5.92139171666595E-04	2.71132283998029E-03	-2.9925697705055E-04
			4.66741408150021E-05	8.82430272397221E-05	1.93498593979682E-04	6.19725751351408E-04	-7.23931401689331E-02	-0.885519255211844	0.372206691717173	-4.95608660767897E-02
			2.86814202186606E-04	5.60031901689973E-04	2.79937556437119E-03	-2.39413621229316E-04	0.372429359205941	-4.96489542934772E-02	-0.100952337923243	-0.885607686692061
1037737500	-0.108312248276228	-0.877412493927064	0.379759525473139	-5.65206772075925E-02	9.70839591405176E-06	1.49902839924658E-04	3.54757663939139E-04	5.97459124616264E-04
			0.379069117230155	-0.05743831445854	-0.119267668691686	-0.909539772180404	2.48526408932491E-04	6.38853655497301E-04	2.74766275119485E-03	-2.96703374344752E-04
			1.46304093211135E-05	8.5916969707052E-05	2.24683100110432E-04	6.40495004646182E-04	-7.40753265225159E-02	-0.8850697350041	0.372190010059197	-4.98157112318148E-02
			2.89742307213194E-04	5.80969584453193E-04	2.81277565482343E-03	-1.30297688588208E-04	0.372864082950316	-5.00731469395255E-02	-0.101896897060644	-0.885449587427718
1038050000	-0.107908309320464	-0.877115457914518	0.380599582803348	-5.68140775986763E-02	-4.61767001904503E-06	1.17925903451102E-04	2.43059913264317E-04	5.5469815591385E-04
			0.37929029534053	-5.69159511835423E-02	-0.12058639578002	-0.910182356201206	2.29720519217889E-04	6.72393364567244E-04	2.75814656836318E-03	-1.21218023858464E-04
			1.11962393677296E-04	1.26848696395601E-04	2.62682750850827E-04	5.60243747597348E-04	-7.48058321098656E-02	-0.884962019317224	0.371869768834686	-5.01458135488615E-02
			3.73493841387784E-04	4.70300548401723E-04	2.66811905461229E-03	-2.75497585665478E-04	0.372089731134625	-4.99562641485656E-02	-0.101935062743945	-0.882686132573271
1038362500	-0.108556372962168	-0.877085084949217	0.379719698131673	-5.67998698205182E-02	1.65725060994678E-05	1.48582886770165E-04	3.37338384303913E-04	5.51048640550527E-04
			0.378816992561432	-5.74913767451663E-02	-0.118150914368796	-0.907737857166657	1.96331478913279E-04	5.546892901724E-04	2.78350139979859E-03	-1.78853636489262E-04
			6.04320801206073E-05	1.50643635590341E-04	2.68436935498039E-04	5.09761179046463E-04	-7.47231722913365E-02	-0.886346720610134	0.372111059759236	-5.07072164273615E-02
			3.31355772742931E-04	5.46772320913616E-04	2.8335008976512E-03	-2.94198107936594E-04	0.373624067186348	-5.02119432879113E-02	-0.103293290934507	-0.883706322857804
1038675000	-0.109000000395311	-0.877413675660703	0.379049545168225	-5.79359207722778E-02	-1.52411034227521E-05	1.63232401389392E-04	2.7312751236742E-04	5.4580601763831E-04
			0.379766778128375	-5.77698525209919E-02	-0.12007872740922	-0.90632454294154	2.66536540282369E-04	5.53905307669903E-04	2.78863688769542E-03	-2.99646740063203E-04
			-8.34210806038297E-06	2.48358328116102E-04	2.31422707232969E-04	6.07522608681967E-04	-7.47238136481326E-02	-0.885198859278828	0.373138570067825	-4.97605217775989E-02
			2.65271915307603E-04	6.29464252399678E-04	2.7501045370243E-03	-2.46507974647372E-04	0.371597866288807	-4.96701032457704E-02	-0.102006309587943	-0.885761724260992
1038987500	-0.109383997411481	-0.878315648462522	0.379093218621693	-5.76302695865624E-02	-1.07122423366353E-05	1.26389064291871E-04	2.73140430963095E-04	5.56195642309905E-04
			0.379272212224649	-5.82598282311905E-02	-0.121968900908511	-0.908129287809337	2.12358107361089E-04	5.96624864367686E-04	2.68666527151025E-03	-2.34492155321427E-04
			1.12332622804883E-05	1.42527153775113E-04	2.12039810308822E-04	5.05472311044192E-04	-7.37992449659981E-02	-0.882574865497346	0.372791862796909	-5.05422882070733E-02
			3.51564859554793E-04	5.73886308421228E-04	2.82045064249449E-03	-2.71458816754437E-04	0.372343737301716	-0.050232158711987	-0.104160657163522	-0.885145538158936
1039300000	-0.111686292307489	-0.877913517142927	0.37974504329048	-0.058004139647421	1.058099272608E-04	8.64190032694765E-05	2.64020717645729E-04	5.80820168994908E-04
			0.379943803889164	-5.82056049969083E-02	-0.12102637395523	-0.909980937570737	2.92464147603061E-04	5.43028223749362E-04	2.74952557891101E-03	-2.18382255562054E-04
			-5.60713687979581E-05	1.27110433861292E-04	1.89599271738737E-04	5.64238803906377E-04	-7.53117454329942E-02	-0.885577217992191	0.372684234825288	-5.07164485011464E-02
			3.06678338451131E-04	5.7248140956521E-04	2.85295574728035E-03	-2.59442191629645E-04	0.373185215291628	-5.04141099207512E-02	-0.103373975425048	-0.885921889373089
1039612500	-0.110439351094708	-0.878451035818353	0.378926795779056	-5.83426748032393E-02	-3.83532446114837E-05	1.30929127296829E-04	2.57923305576784E-04	5.26837619532245E-04
			0.379561622997452	-5.85265417312639E-02	-0.123208425017662	-0.907372710753147	3.18072191467992E-04	5.55511459209967E-04	2.83571100853138E-03	-2.92502912146656E-04
			6.63868604370793E-06	1.4678899047145E-04	2.21795976402377E-04	5.58130657908223E-04	-7.69935545904233E-02	-0.885106141696805	0.372799356350805	-5.06717785958131E-02
			3.02707141029487E-04	5.05581352220476E-04	2.6990046456797E-03	-2.65509624552748E-04	0.373244178163129	-5.07780396677098E-02	-0.104860710791036	-0.885182642929294
1039925000	-0.112421833424446	-0.878426045251771	0.380214448198933	-5.85429618353559E-02	-4.47342840126973E-05	1.0388536146995E-04	2.32814094914078E-04	6.12695858003424E-04
			0.380003211978199	-5.87383146675842E-02	-0.123212446200489	-0.90664450664555	2.83588895514552E-04	5.16890179792477E-04	2.77057560558389E-03	-2.04430607597928E-04
			-6.2561836516576E-05	1.18670999512644E-04	2.80632674520207E-04	5.67248216198965E-04	-0.075950551100182	-0.885075596659284	0.37355745083988	-5.01406095711486E-02
			2.26259483230679E-04	5.54237209448492E-04	2.83456517812539E-03	-1.56498676736476E-04	0.373096322864203	-5.02882625039964E-02	-0.101775771407998	-0.883380240450211
1040237500	-0.11163069156451	-0.876966349174408	0.37981627412013	-5.83483806834961E-02	-4.22385830314638E-05	5.14729678996874E-05	2.6354764284891E-04	6.44665484598715E-04
			0.380039829791589	-5.81025969805412E-02	-0.122430573139112	-0.908249795729624	1.92057502449176E-04	5.95619849344701E-04	2.74002251988199E-03	-2.42064787552898E-04
			2.38521947825127E-05	1.51996576119475E-04	2.04420297261949E-04	5.73486778044161E-04	-7.75732343537777E-02	-0.885655705139528	0.37351772995116	-5.12853897751583E-02
			1.71136976083419E-04	5.61556017760301E-04	2.8038748884999E-03	-2.3923695433877E-04	0.373065338478693	-5.08463084393652E-02	-0.105801476018253	-0.88321460818674
1040550000	-0.111429864651158	-0.879138771831468	0.380851147930183	-5.84179822197254E-02	4.28920995170247E-05	8.93393809496025E-05	2.75102808461612E-04	5.74822249212857E-04
			0.380723968321197	-5.91749483495181E-02	-0.124227919588157	-0.907058624055364	2.03492419265719E-04	5.96755673675482E-04	2.78400589477526E-03	-2.36419575055347E-04
			3.87810325141761E-05	1.23755271423213E-04	2.89444480165323E-04	5.23002221525711E-04	-7.73901064582394E-02	-0.887670545827783	0.373047974351396	-5.13405958559613E-02
			2.76359364122664E-04	5.26619498606636E-04	2.75490624695358E-03	-2.76172671378037E-04	0.373479828939607	-5.12487230087288E-02	-0.104870052128719	-0.882194010243916
1040862500	-0.111951502470777	-0.877492038138506	0.380554054176825	-5.84516372124432E-02	-6.8146756478406E-06	9.1806602404501E-05	3.50318856669214E-04	6.20595540074738E-04
			0.380500725154102	-5.88667787061181E-02	-0.123254703835548	-0.908383346414208	2.02801909818787E-04	6.78564157178906E-04	2.77100199106465E-03	-2.5704605887092E-04
			1.57179650617239E-05	1.8716573116833E-04	2.20831360793633E-04	5.45787409160771E-04	-7.75492714208246E-02	-0.88387920167165	0.373667993709866	-5.20480970838977E-02
