# Hz S RI R 50
976060000	-0.537271452849785	-0.609294316940002	0.374108078196019	-0.355042751433538	4.40932569877268E-04	7.68896470245005E-05	1.10916842102268E-04	3.81377237849112E-05
			0.373677412915362	-0.354924620226503	-0.531371150061629	-0.614069280844137	4.73586243448554E-04	1.09642808737317E-06	4.60708868141699E-04	-3.7658617781236E-05
			4.39152561581916E-04	9.89600017255642E-05	4.50008227530211E-04	-2.84929501948075E-05	-0.523721823023573	-0.611583513654277	0.386916507879914	-0.359983454395792
			1.46330877045837E-04	3.68583399399873E-05	4.44950308999357E-04	-5.92837176301093E-05	0.386287750679017	-0.359591844982392	-0.521872720936862	-0.606555831143567
976310000	-0.537953212072297	-0.608404344593861	0.3733841813313	-0.355581148817689	4.58612418083628E-04	5.65535839458857E-05	1.24541465137149E-04	3.20383593716524E-05
			0.373911054989631	-0.356012492045173	-0.531011013035743	-0.613927748603731	4.67115761619352E-04	-7.63312936880623E-05	4.5542365532276E-04	-2.4103390229291E-05
			4.08573021906419E-04	7.73593931828952E-05	4.61353664381432E-04	-5.95835871355297E-05	-0.525873062225906	-0.611769343225293	0.387443676915295	-0.360186432703462
			1.21704703558571E-04	3.37613143222171E-05	4.69994621515614E-04	-2.1295870342138E-05	0.386172406682291	-0.361243674582338	-0.524485728358014	-0.608089736792457
976560000	-0.537052297531059	-0.607928300647828	0.373942305452608	-0.356596135695474	4.18323377663237E-04	7.599910748398E-05	1.40022636585414E-04	1.10831049516439E-05
			0.373052298612349	-0.356934831180901	-0.532455653465004	-0.612544890168042	4.58611577436523E-04	-9.32177335326003E-05	4.45571408966514E-04	-2.35997040404691E-05
			4.0843791342788E-04	4.17132610109598E-05	4.92351937398219E-04	-8.30472240001699E-05	-0.521955510129318	-0.611958386268091	0.386491760961924	-0.362211810802251
			1.2348258555722E-04	8.11292858625481E-06	4.73380350439332E-04	-2.02818545579512E-05	0.387513201850582	-0.360643754627273	-0.525727488543254	-0.60784952483103
976810000	-0.539550820281126	-0.60784521146392	0.373765348062155	-0.357070889588197	4.15468362692915E-04	7.2805599076845E-05	1.47430888887815E-04	2.534348845826E-05
			0.374194552916421	-0.357429336115656	-0.532749575191764	-0.611942145626564	4.766370148038E-04	-1.10747369117301E-04	4.6284512196843E-04	-1.80958063531042E-05
			4.4200893558775E-04	8.94683663409174E-05	4.44694687215453E-04	-1.2681489730119E-04	-0.525379858610176	-0.61161861913464	0.386690996314359	-0.362085718687589
			1.50975651207206E-04	7.84616139156725E-06	4.46574206166537E-04	-2.66516475759174E-05	0.386062072443361	-0.361035334481576	-0.525607803670442	-0.605804344529303
977060000	-0.539461895927046	-0.606443759926394	0.374062274782231	-0.358217892752452	4.39152617565721E-04	8.30527280450402E-05	1.34210655130558E-04	3.31921242859693E-05
			0.374311722690172	-0.358484274870396	-0.532540925886167	-0.610736899224173	4.72615827551584E-04	-1.12396591312362E-04	4.17043039772265E-04	-9.11365684418037E-06
			4.22325555990904E-04	4.90878298938364E-05	4.63425796256337E-04	-1.26880983618847E-04	-0.525310364505143	-0.610564250939101	0.388092358783644	-0.362940854559909
			1.30989545943019E-04	5.61738294115295E-05	4.52009862476804E-04	-2.22980737299807E-05	0.387773289659525	-0.363084015720599	-0.526761919598716	-0.606305600944691
977310000	-0.538392795206279	-0.606379101992802	0.373057471234851	-0.358770200068155	4.47809444580197E-04	8.53038678874669E-05	1.58009929644565E-04	3.68838143825545E-05
			0.373527825388072	-0.35954143389595	-0.533500532080148	-0.609842988070144	4.97932131867881E-04	-1.23936150115888E-04	4.46903828682809E-04	-2.33503788185127E-05
			4.31865203658163E-04	6.99343750739468E-05	4.47181634774268E-04	-1.51750469829864E-04	-0.528299180111191	-0.609763423846588	0.386934132545719	-0.363195579870782
			1.45233213447893E-04	2.27169264148281E-05	4.19577194371304E-04	2.10064186728174E-05	0.386225370221921	-0.363970390992232	-0.527243540283791	-0.604042805473846
977560000	-0.540288710151114	-0.60513001882297	0.373620306720782	-0.360117699362347	4.1062102084547E-04	7.11335098105198E-05	1.41264952447871E-04	4.81125009421875E-05
			0.373077486126925	-0.360135710848982	-0.533045682709778	-0.608667750959942	4.88854595430043E-04	-1.40122980542612E-04	4.38847379265545E-04	2.76200798958497E-05
			4.19779288772554E-04	8.38957548374674E-05	4.74726802520125E-04	-1.64855612123886E-04	-0.52441244610502	-0.608973250668206	0.387401946783608	-0.36400207292455
			1.33373728571206E-04	1.31455997148751E-05	4.42897672718566E-04	1.03728614994474E-05	0.386945983738355	-0.3630094335951	-0.527677367273606	-0.602327362709297
977810000	-0.539256362352048	-0.602994686765181	0.373101223631366	-0.360177734491432	4.38469015952954E-04	4.94955749697981E-05	1.28741223149834E-04	1.10431355222952E-05
			0.372983399461271	-0.360298001722454	-0.533495052601518	-0.607069344430335	4.3628512469392E-04	-1.76452863425312E-04	4.60225057313191E-04	-1.11606013119252E-05
			4.43238909494975E-04	7.50675331639096E-05	4.72507728220965E-04	-1.76487770024644E-04	-0.528166119123344	-0.608119236856234	0.386778785022564	-0.36345059035215
			1.45042251586874E-04	5.33394111651665E-05	4.72953677878993E-04	7.32582726293357E-06	0.386144294906894	-0.36519016888775	-0.527399930772714	-0.603389993612324
978060000	-0.539587851635061	-0.602476256323088	0.372970270467135	-0.360906585243413	4.50000631407854E-04	1.02722196547225E-04	1.20078765366725E-04	-7.42961400684283E-06
			0.373535995277261	-0.361583976272714	-0.533502713792486	-0.607105303881331	4.4831147149071E-04	-1.71888176335577E-04	4.85985951263573E-04	1.36203760655518E-05
			4.41692086644468E-04	8.59635411720247E-05	4.4330255453021E-04	-1.83305134511017E-04	-0.52763530916684	-0.607879320046098	0.387092590071321	-0.366074020187028
			1.33220136467366E-04	9.23751599397494E-06	4.33016179750428E-04	4.83063696188269E-05	0.387850632616641	-0.366463945223538	-0.526420212358727	-0.599723832511188
978310000	-0.540305375571337	-0.60189852517451	0.372464543532137	-0.362266637567616	4.46954412825113E-04	5.8601828007132E-05	1.38833502987695E-04	1.96843438189156E-05
			0.372636166175632	-0.361891672810997	-0.534433965487312	-0.605109388206309	4.50509421313843E-04	-1.41513059318902E-04	4.78858218900674E-04	5.25909631058473E-06
			4.07027843189725E-04	6.28229424603738E-05	4.1942617409801E-04	-1.82508409170828E-04	-0.526814642877487	-0.607698229761686	0.388098427693377	-0.366578682591059
			1.1064164731133E-04	1.70055305233799E-05	4.92884851591253E-04	2.05462845122628E-05	0.386539893256372	-0.366241815067287	-0.527509589709852	-0.601850763050472
978560000	-0.540695065614022	-0.601518128735673	0.372047729729366	-0.36326645051273	4.47608777598627E-04	6.17797730983939E-05	1.63860570476745E-04	7.29423874381307E-06
			0.372780960203653	-0.363491786058675	-0.534339626336644	-0.605156874041619	4.41754039830933E-04	-1.79258281128469E-04	4.81169578333246E-04	-1.16284692483234E-05
			4.39644565327142E-04	6.34269726582393E-05	4.44100904739406E-04	-1.86764881901354E-04	-0.525576937989118	-0.606812737960617	0.386882794882146	-0.367812860748945
			1.3165221131952E-04	5.44958823857192E-06	4.61485664834692E-04	2.0864353002274E-05	0.387997261714376	-0.366798955429496	-0.527635888579753	-0.598629059405651
978810000	-0.540589750006754	-0.600796807681613	0.371695792811207	-0.362924823191342	4.46718332958382E-04	6.74199961602106E-05	1.34340964231749E-04	3.44641288745485E-05
			0.372255149000778	-0.363882815651622	-0.533790147944144	-0.604260971977833	4.19988279713203E-04	-1.7995672105917E-04	4.81386216510718E-04	1.6089360849549E-05
			4.41154249644728E-04	6.02833711368713E-05	4.27500449205568E-04	-1.73841204946792E-04	-0.526619871424911	-0.605007381854477	0.386594241467776	-0.368130703902092
			1.32584367607596E-04	1.03183494739411E-05	5.03255306218053E-04	2.86584698037055E-05	0.38687830878811	-0.367878158964965	-0.530254957133304	-0.597485531963922
979060000	-0.539746085183612	-0.599939528921014	0.371605830388026	-0.364656299877328	4.34516197211928E-04	3.11725517795806E-05	1.4194204974737E-04	9.15188258993765E-06
			0.371255115209667	-0.365045881620439	-0.534758757381459	-0.603480619212362	4.43326169716759E-04	-1.66360151843202E-04	4.88716586992283E-04	1.35902572902472E-05
			4.16270996932551E-04	4.54047952358382E-05	4.31832980912692E-04	-1.73132454708363E-04	-0.527986689069914	-0.603755726727089	0.386178226247881	-0.368748668353202
			1.28528295786234E-04	2.88382246370985E-05	4.95307026476134E-04	8.28011882481504E-06	0.38828259901025	-0.369023076572359	-0.52892076073648	-0.59673855638637
979310000	-0.540989294380998	-0.599848008350867	0.371419542802772	-0.365326013576522	4.13041358371694E-04	2.84753400798845E-05	1.18566489724943E-04	4.09672774652127E-05
			0.372049456699609	-0.36540007920711	-0.533562175971148	-0.602333493853224	4.02918154339057E-04	-1.61638802824541E-04	4.53392371388078E-04	1.03514277295894E-05
			4.21397979373048E-04	3.50996952455983E-05	4.17473528181342E-04	-1.41313701271605E-04	-0.527439395930754	-0.602631869987533	0.387263348787541	-0.37013247141226
			1.29459678584506E-04	2.66447953680795E-05	4.98204176068254E-04	6.56290571802934E-06	0.386428719106393	-0.368702003380124	-0.529430846717194	-0.597098560703443
979560000	-0.540436746349073	-0.597801282393387	0.371488755950549	-0.366253865332641	4.16844625589163E-04	2.99159019839643E-05	1.01059064219538E-04	2.44996890822747E-05
			0.371528436048569	-0.366649684644198	-0.53427272978239	-0.601919215675228	4.41373094798756E-04	-1.29530589654124E-04	4.72328131656739E-04	9.98943659982808E-06
			4.40091729450744E-04	3.2787621778712E-05	4.29375079814314E-04	-1.51558332303691E-04	-0.526584408578589	-0.603566023017225	0.386701737882915	-0.370581813083453
			1.13684526082229E-04	2.52079293772933E-05	4.48916514438237E-04	2.57119694854969E-05	0.386042234942713	-0.370304030691613	-0.529384059227795	-0.596886329287416
979810000	-0.540887439442375	-0.596008233131666	0.370646504608443	-0.366056264910561	4.15334712017834E-04	1.46984579134579E-05	1.35535455477893E-04	3.22601341764518E-05
			0.369816438849043	-0.366760894987524	-0.533578327758709	-0.600561714422144	4.32989514809268E-04	-1.76109016152701E-04	4.82674762611841E-04	-1.48880010749465E-06
			3.96757670100647E-04	5.01827786561159E-05	4.88434645524301E-04	-1.73207139043839E-04	-0.529862831860371	-0.601086108297055	0.38720050386761	-0.371642761681858
			1.15785314615107E-04	2.6530790185978E-05	4.53392016095626E-04	-3.2752283017668E-05	0.385469748364187	-0.371236169067837	-0.529527993347766	-0.594919365067263
980060000	-0.539856794366522	-0.596723277760603	0.370091097704033	-0.367479540426786	3.92181678520244E-04	3.62594315705778E-05	1.22137037446706E-04	6.40068828330684E-05
			0.370369859749322	-0.367336194987216	-0.534464711998551	-0.59959858492233	4.44310260661833E-04	-1.44789690009689E-04	4.9408512442143E-04	-1.75268574002353E-05
			3.98432094247719E-04	8.85932687188478E-06	4.34513603086437E-04	-1.31973542616821E-04	-0.530577412762634	-0.599329863798992	0.386498899107663	-0.3726810623218
			1.24666064554824E-04	5.64270847563218E-05	4.6772158219693E-04	-5.27578734541514E-05	0.384826085558479	-0.371470201402437	-0.530317815075055	-0.592565878558909
980310000	-0.540711741484933	-0.59578637345064	0.369668716228947	-0.367844585895933	3.7480971788619E-04	1.89620051099418E-05	8.9449856640145E-05	4.07819439369578E-05
			0.369792856390185	-0.367688052308728	-0.533745274601397	-0.599141520346094	4.79812519158395E-04	-1.58080055774295E-04	4.87230786024751E-04	-1.37892168558428E-05
			3.68120916927887E-04	1.1916090597015E-05	4.61901099640057E-04	-1.53775441757695E-04	-0.531328668404718	-0.600314285551513	0.385831614366041	-0.372567135780223
			1.31606159406594E-04	4.79113712260911E-05	4.80593822040944E-04	-2.53438854779617E-05	0.38589976119751	-0.374429647686232	-0.531502774771857	-0.593347006175265
980560000	-0.539969957503785	-0.595376234273528	0.368842787291528	-0.368995836841762	3.68728300174726E-04	1.80719106739642E-05	1.1705755502443E-04	2.71772777098997E-05
			0.369525333369243	-0.368421847014996	-0.534359410967884	-0.599015338669711	4.70145875513596E-04	-1.1048894463274E-04	4.69561956169152E-04	-4.22937988214554E-05
			3.57082954803014E-04	2.70288025183825E-05	4.58059153678371E-04	-1.39359739779025E-04	-0.529477318693636	-0.598999640307777	0.385448522238601	-0.374798212463606
			1.27959276344688E-04	5.27142663540054E-05	4.6519682192198E-04	-1.26635817871564E-05	0.386254614616754	-0.374247082485947	-0.53154314050778	-0.591821710886622
980810000	-0.539483610335032	-0.594274285430352	0.369011450743614	-0.369091102817605	3.2728031216888E-04	3.03974758207157E-05	1.22067156203247E-04	5.56341320130863E-05
			0.369496448413069	-0.36894696339804	-0.533425800527889	-0.600311830827575	4.9617023599772E-04	-1.49835797008766E-04	4.68187255555411E-04	-2.31154976679327E-05
			3.69906986694132E-04	1.08374259457795E-05	5.02583989042374E-04	-1.26669953970254E-04	-0.530132335307592	-0.59741156281328	0.385136850544226	-0.374820717348929
			1.35657914480614E-04	4.32025371772768E-05	4.71371851543941E-04	-3.66958775661916E-05	0.385219969088135	-0.374858458876732	-0.530235128362899	-0.593030085608475
981060000	-0.539668928572774	-0.594009980937601	0.368849222275871	-0.368898206038097	3.39117788799743E-04	4.21665982752273E-05	1.15072620727602E-04	3.06865520686502E-05
			0.368563964515629	-0.369061555581978	-0.533563190271381	-0.598886367525794	5.15117415433799E-04	-1.31803270773929E-04	4.45926080660955E-04	-5.55390626651164E-05
			3.45510111886513E-04	3.01997568998488E-05	5.07721335094477E-04	-1.43912695624171E-04	-0.531413220403848	-0.597013740948313	0.386454507338876	-0.375868428882418
			1.36940852865853E-04	3.04559118437042E-05	4.71518507260626E-04	-3.4670708289229E-05	0.385778195913525	-0.375941488702223	-0.530622941903784	-0.590962305352758
981310000	-0.541161865903999	-0.595106282701612	0.36754893217758	-0.368668683272622	3.17985135978776E-04	4.72317929881728E-05	1.13653096728571E-04	3.78276685240799E-05
			0.368983378882264	-0.369386370437393	-0.533068951128152	-0.59763732972715	5.20458716762788E-04	-1.30482176938277E-04	4.59889156680878E-04	-6.38710123628427E-05
			3.37445496631713E-04	2.35167537254815E-05	5.13280071813217E-04	-1.07129886115893E-04	-0.53105127734928	-0.594599308104233	0.384393141648623	-0.376399997096536
			1.07102447451657E-04	6.4627368259495E-05	4.52030530517018E-04	-2.7135941325465E-05	0.383518859379816	-0.376387612195284	-0.530831346026018	-0.587819010125348
981560000	-0.540571573764112	-0.593445286784359	0.368509212382223	-0.369406935489403	3.30207117716568E-04	2.25026982988209E-05	9.25738323515088E-05	7.95297864807044E-05
			0.368115832073749	-0.369510450968187	-0.533868324096556	-0.598416762477564	5.22991221412022E-04	-1.23823980406325E-04	4.45627172403507E-04	-8.38482361035565E-05
			3.27382557939191E-04	1.76535290352089E-05	5.27599611971877E-04	-1.27914729258318E-04	-0.530932492328107	-0.595191982348956	0.385801730587817	-0.377883584705738
			1.09848615581515E-04	7.3629740566277E-05	4.61701739192974E-04	-5.76308756315482E-05	0.384152495931486	-0.377915876268977	-0.531510202576427	-0.589566400927844
981810000	-0.541627790978767	-0.593917314988243	0.3667466399766	-0.369026710559121	3.06090514033401E-04	3.28431482840929E-05	1.4008430187857E-04	6.72862885678465E-05
			0.368045953881475	-0.369180909248537	-0.533241577280578	-0.598178383740073	5.5834817943898E-04	-1.20336790331862E-04	4.08791712022887E-04	-1.13638936104963E-04
			3.04456945340241E-04	5.19619328229985E-07	5.90467997152981E-04	-1.07687370297291E-04	-0.529960010216251	-0.594133827707805	0.384648064486102	-0.377846881876669
			1.46405508984675E-04	9.14129887587473E-05	4.32136597068298E-04	-1.09251637883829E-04	0.383157450069637	-0.378718552262923	-0.529525075488337	-0.589311251760665
982060000	-0.541234801154402	-0.591724475986613	0.367745996146671	-0.370999449738614	2.65339260620916E-04	-2.5398100138453E-06	1.67222273982885E-04	7.9840408085315E-05
			0.367877438292145	-0.3704338912339	-0.534844404948203	-0.597780565171663	6.16031431308049E-04	-1.12136169041438E-04	4.13637642253988E-04	-1.13806389199241E-04
			2.78418064579381E-04	9.36242065886964E-06	6.18318268019071E-04	-1.22626234995201E-04	-0.529120888393337	-0.594072635135824	0.383563512425756	-0.379658053785344
			1.66375944732314E-04	6.05816556257761E-05	3.94436440016711E-04	-1.10951562235503E-04	0.382747158634036	-0.379127844814756	-0.530380904400337	-0.585403487982845
982310000	-0.541913583450909	-0.592416922353189	0.367250632086254	-0.370518887536497	2.43593300442471E-04	6.52351682941912E-05	2.10637752016059E-04	7.00045003433582E-05
			0.36763692714879	-0.37076972647701	-0.534698643424712	-0.59772346586207	6.87018000723208E-04	-1.45934943789367E-04	3.64716076760583E-04	-7.76169895034855E-05
			2.40232913719193E-04	5.75780096845087E-05	6.57054514597959E-04	-1.89292753215193E-04	-0.531607356527879	-0.59262279240986	0.382467870097763	-0.380582677347985
			1.85837125384336E-04	6.19219103921767E-05	3.24659132318962E-04	-7.6514304394478E-05	0.382321434817008	-0.380585325017303	-0.532128255372754	-0.585220481730643
982560000	-0.542619238669908	-0.592881076962067	0.367906241526472	-0.370490873213579	2.68358299954419E-04	8.25554039138631E-05	1.68771787294947E-04	4.57041042995301E-05
			0.367487967145906	-0.371025678035191	-0.534657852893586	-0.597529779200071	6.95890412912312E-04	-1.89256260085855E-04	3.43725518597244E-04	-5.90824702905284E-05
			2.3583417082255E-04	8.94182826334091E-05	6.99922789788974E-04	-1.76459762012867E-04	-0.530583500404231	-0.591872261288007	0.382359623906327	-0.380773351597368
			1.72939669829102E-04	4.32107450564807E-05	3.23945031296015E-04	-5.66633082264575E-05	0.381303713332967	-0.38034795712366	-0.530129737044723	-0.584092886356465
982810000	-0.543367399405102	-0.592221145577649	0.367916733246058	-0.370289673068065	2.34924354149684E-04	1.11795638447313E-04	1.90157457983089E-04	1.00407492925006E-04
			0.3675993368222	-0.371217247442907	-0.535589372766563	-0.598037642560052	7.44863935087483E-04	-2.3016661567352E-04	3.13136674150271E-04	-5.95300777536487E-05
			2.30535060662643E-04	1.05333564917109E-04	7.12359371735519E-04	-2.17741656570424E-04	-0.531387664064961	-0.593384992547873	0.38045278806047	-0.381253541298878
			1.95430726780035E-04	6.45651894758403E-05	2.9808565388581E-04	-7.14966834338045E-05	0.380579348873106	-0.382751244089427	-0.53212817483927	-0.583253732717685
983060000	-0.54446483359284	-0.591058797869675	0.368338462451851	-0.37180815690202	2.44202236892049E-04	1.47516069332729E-04	2.06288446209388E-04	4.66519864460791E-05
			0.368123870672287	-0.37189121754889	-0.536532014679827	-0.596363302570542	7.65322925661088E-04	-2.72588240372572E-04	2.84012646895677E-04	-4.51771417202924E-05
			2.10281220394551E-04	1.05540919069649E-04	7.33993727441367E-04	-2.49961823003556E-04	-0.530478318776288	-0.592365971858924	0.382107311834078	-0.381923981872279
			2.06755078416961E-04	1.79474463899496E-05	2.47224714200461E-04	-2.18704125104235E-05	0.380564049710802	-0.382331710071869	-0.530829265634201	-0.58495660443693
983310000	-0.54355410265747	-0.58988378578194	0.367828502841301	-0.371408524280418	2.18258386192242E-04	1.61618903530089E-04	2.29677466235546E-04	2.07857437358388E-05
			0.369234507712338	-0.372194486115009	-0.536579455131718	-0.59601290614756	7.46036807079166E-04	-2.95883980066812E-04	2.65560117425533E-04	4.66738371612565E-06
			2.09689511299352E-04	1.71665104393438E-04	7.59971419842974E-04	-3.10601516315879E-04	-0.52965135351684	-0.591052743436051	0.380166108111085	-0.381424245882888
			2.24775742642631E-04	3.93482757584843E-06	2.44345220135938E-04	-6.36375342424532E-06	0.380565323597734	-0.382189993243655	-0.531158493359699	-0.582714846154568
983560000	-0.543687066150393	-0.588704274521724	0.36841015452751	-0.372448207311099	2.4166495948849E-04	2.09769119256994E-04	2.08468317071896E-04	-5.04353383664628E-06
			0.368610438167794	-0.372318246351586	-0.538288327957921	-0.596004473469722	7.60174637441777E-04	-3.79411526458487E-04	2.51937127472498E-04	5.27477979332939E-05
