!HP8753
# HZ S RI R 50
525000000     -0.2956543     -0.8970337     -0.0006249      0.0001613     -0.0006261      0.0001639     -0.2910156     -0.9031982
525249984     -0.2991943     -0.8966064     -0.0006255      0.0001466     -0.0006406      0.0001484     -0.2950439     -0.9026489
525500000     -0.3027954     -0.8956299     -0.0006149      0.0001203     -0.0006165      0.0001036     -0.2988281     -0.9017334
525750016     -0.3063354     -0.8942261     -0.0005815      0.0000849     -0.0006033      0.0000787     -0.3024902     -0.9000854
526000000     -0.3095703     -0.8921509     -0.0005457      0.0000218     -0.0005661      0.0000104     -0.3057251     -0.8982544
526249984     -0.3123779     -0.8901367     -0.0005443     -0.0000175     -0.0005468     -0.0000244     -0.3085938     -0.8956909
526500000     -0.3150635     -0.8887329     -0.0005165     -0.0001025     -0.0005094     -0.0001020     -0.3101196     -0.8928833
526750016     -0.3168945     -0.8848877     -0.0005054     -0.0001855     -0.0004929     -0.0002024     -0.3131714     -0.8901367
527000000     -0.3189087     -0.8824463     -0.0005413     -0.0003549     -0.0005504     -0.0003534     -0.3146973     -0.8872070
527249984     -0.3198242     -0.8781738     -0.0006537     -0.0004166     -0.0006651     -0.0004305     -0.3161621     -0.8839111
527500000     -0.3203735     -0.8759766     -0.0007324     -0.0004780     -0.0007318     -0.0004724     -0.3150024     -0.8809204
527750016     -0.3205566     -0.8745117     -0.0008098     -0.0004826     -0.0008298     -0.0004926     -0.3143921     -0.8795776
528000000     -0.3214111     -0.8722534     -0.0009087     -0.0005235     -0.0008888     -0.0005258     -0.3143921     -0.8783569
528249984     -0.3223267     -0.8699951     -0.0009168     -0.0006135     -0.0009294     -0.0006176     -0.3150024     -0.8778687
528500000     -0.3227539     -0.8670654     -0.0011219     -0.0006469     -0.0011288     -0.0006458     -0.3169556     -0.8762817
528750016     -0.3218994     -0.8655396     -0.0011955     -0.0005749     -0.0011952     -0.0005988     -0.3173828     -0.8735962
529000000     -0.3220215     -0.8638306     -0.0012657     -0.0006061     -0.0012502     -0.0006088     -0.3176880     -0.8723145
529249984     -0.3225708     -0.8618774     -0.0012251     -0.0006471     -0.0012289     -0.0006554     -0.3188477     -0.8710938
529500000     -0.3231812     -0.8590088     -0.0014365     -0.0008507     -0.0014467     -0.0008287     -0.3209229     -0.8685303
529750016     -0.3225708     -0.8569946     -0.0016714     -0.0008307     -0.0016924     -0.0008373     -0.3215942     -0.8647461
530000000     -0.3222656     -0.8546143     -0.0019962     -0.0007526     -0.0019940     -0.0007561     -0.3215942     -0.8607178
530249984     -0.3221436     -0.8516235     -0.0021116     -0.0006791     -0.0021372     -0.0006964     -0.3210449     -0.8566284
530500000     -0.3197021     -0.8489990     -0.0023422     -0.0005771     -0.0023402     -0.0005765     -0.3195801     -0.8528442
530750016     -0.3193970     -0.8470459     -0.0026534     -0.0005890     -0.0026792     -0.0005656     -0.3176880     -0.8482056
531000000     -0.3187866     -0.8435059     -0.0030586     -0.0003744     -0.0030924     -0.0003659     -0.3145142     -0.8429565
531249984     -0.3143921     -0.8372192     -0.0037186      0.0000129     -0.0037822      0.0000720     -0.3070679     -0.8373413
531500000     -0.3048706     -0.8374023     -0.0038953      0.0013087     -0.0038851      0.0013859     -0.2953491     -0.8379517
531750016     -0.3019409     -0.8402100     -0.0033299      0.0020020     -0.0032986      0.0020542     -0.2895508     -0.8426514
532000000     -0.2988281     -0.8414917     -0.0028441      0.0023401     -0.0028147      0.0023872     -0.2846680     -0.8482666
532249984     -0.2949829     -0.8412476     -0.0024433      0.0026733     -0.0024179      0.0027047     -0.2824707     -0.8530884
532500000     -0.2864380     -0.8451538     -0.0018516      0.0032288     -0.0017821      0.0032731     -0.2798462     -0.8569336
532750016     -0.2846069     -0.8532104     -0.0009239      0.0031464     -0.0008655      0.0031430     -0.2786865     -0.8640747
533000000     -0.2854004     -0.8599854     -0.0003836      0.0027170     -0.0003489      0.0027045     -0.2799072     -0.8707886
533249984     -0.2871704     -0.8627319     -0.0001550      0.0024505     -0.0001122      0.0024722     -0.2836914     -0.8744507
533500000     -0.2860718     -0.8686523      0.0002327      0.0022670      0.0002630      0.0022560     -0.2844849     -0.8768921
533750016     -0.2894897     -0.8754883      0.0005233      0.0017859      0.0005667      0.0017720     -0.2865601     -0.8821411
534000000     -0.2946777     -0.8794556      0.0005323      0.0013471      0.0005409      0.0013527     -0.2907104     -0.8862915
534249984     -0.2986450     -0.8825073      0.0005222      0.0010675      0.0005350      0.0010513     -0.2951050     -0.8890991
534500000     -0.3044434     -0.8851929      0.0004120      0.0007852      0.0004289      0.0007679     -0.2994385     -0.8909912
534750016     -0.3104858     -0.8875122      0.0002861      0.0005507      0.0002976      0.0005648     -0.3040771     -0.8927002
535000000     -0.3153687     -0.8865356      0.0001363      0.0004390      0.0001334      0.0004263     -0.3095093     -0.8934937
535249984     -0.3201904     -0.8864136      0.0000216      0.0003691     -0.0000024      0.0003660     -0.3146362     -0.8933716
535500000     -0.3246460     -0.8843994     -0.0000790      0.0002815     -0.0000868      0.0002831     -0.3201294     -0.8922729
535750016     -0.3293457     -0.8839722     -0.0002215      0.0002233     -0.0002207      0.0002374     -0.3240356     -0.8910522
536000000     -0.3342285     -0.8823242     -0.0003641      0.0002292     -0.0003445      0.0002475     -0.3281250     -0.8891602
536249984     -0.3383789     -0.8798218     -0.0004279      0.0002410     -0.0004310      0.0002688     -0.3326416     -0.8872070
536500000     -0.3422241     -0.8767700     -0.0004995      0.0002871     -0.0005059      0.0002872     -0.3366699     -0.8840942
536750016     -0.3452759     -0.8732300     -0.0005449      0.0003377     -0.0005303      0.0003313     -0.3399048     -0.8806763
537000000     -0.3473511     -0.8687134     -0.0005738      0.0003013     -0.0005613      0.0003054     -0.3427734     -0.8765259
537249984     -0.3486938     -0.8652954     -0.0006155      0.0003156     -0.0006281      0.0003315     -0.3441162     -0.8719482
537500032     -0.3498535     -0.8623657     -0.0006820      0.0003305     -0.0006797      0.0003521     -0.3452148     -0.8685303
537750016     -0.3512573     -0.8582153     -0.0006985      0.0003185     -0.0007002      0.0003317     -0.3464966     -0.8637695
538000000     -0.3510132     -0.8544922     -0.0008245      0.0003743     -0.0008489      0.0004019     -0.3460693     -0.8583374
538249984     -0.3518066     -0.8513184     -0.0007887      0.0004258     -0.0007948      0.0004539     -0.3436890     -0.8547974
538499968     -0.3514404     -0.8475342     -0.0009188      0.0004418     -0.0009130      0.0004498     -0.3411865     -0.8524170
538750016     -0.3492432     -0.8452148     -0.0009561      0.0006123     -0.0009654      0.0006610     -0.3387451     -0.8522949
539000000     -0.3493652     -0.8438721     -0.0008854      0.0006211     -0.0009076      0.0006483     -0.3388672     -0.8515625
539249984     -0.3520508     -0.8403320     -0.0009381      0.0006948     -0.0009435      0.0006884     -0.3408203     -0.8491211
539500032     -0.3502197     -0.8331299     -0.0010419      0.0008018     -0.0010337      0.0008326     -0.3394775     -0.8444824
539750016     -0.3457031     -0.8291016     -0.0009147      0.0009292     -0.0009187      0.0009561     -0.3366699     -0.8425293
540000000     -0.3406982     -0.8273926     -0.0008761      0.0008881     -0.0008902      0.0009012     -0.3350830     -0.8409424
540249984     -0.3387451     -0.8282471     -0.0010482      0.0009700     -0.0010432      0.0010021     -0.3331299     -0.8402100
540499968     -0.3365479     -0.8244629     -0.0010343      0.0012039     -0.0010380      0.0012169     -0.3328857     -0.8380127
540750016     -0.3319092     -0.8222656     -0.0010003      0.0014247     -0.0009834      0.0014675     -0.3321533     -0.8348389
541000000     -0.3244629     -0.8217773     -0.0008122      0.0015243     -0.0008166      0.0015439     -0.3272705     -0.8293457
541249984     -0.3200684     -0.8254395     -0.0006747      0.0017484     -0.0006934      0.0017781     -0.3198242     -0.8288574
541500032     -0.3178711     -0.8264160     -0.0003642      0.0018760     -0.0003445      0.0018764     -0.3145752     -0.8282471
541750016     -0.3101807     -0.8265381     -0.0001100      0.0018146     -0.0001214      0.0018226     -0.3062744     -0.8281250
542000000     -0.3049316     -0.8345947      0.0002000      0.0018818      0.0002165      0.0018620     -0.2963867     -0.8339844
542249984     -0.3035889     -0.8410645      0.0004749      0.0018065      0.0004878      0.0018132     -0.2908936     -0.8439941
542499968     -0.3028564     -0.8472900      0.0007479      0.0015397      0.0007718      0.0015242     -0.2907715     -0.8542480
542750016     -0.3046875     -0.8547363      0.0009553      0.0013309      0.0009532      0.0013249     -0.2933350     -0.8630371
543000000     -0.3096924     -0.8588867      0.0010229      0.0009439      0.0010217      0.0009179     -0.2982178     -0.8687744
543249984     -0.3115234     -0.8603516      0.0009432      0.0007015      0.0009414      0.0006939     -0.3027344     -0.8713379
543500032     -0.3132324     -0.8646240      0.0008303      0.0005474      0.0008349      0.0005553     -0.3052979     -0.8753662
543750016     -0.3162842     -0.8688965      0.0008131      0.0004457      0.0008082      0.0004244     -0.3088379     -0.8792725
544000000     -0.3206787     -0.8719482      0.0007677      0.0003469      0.0007771      0.0003371     -0.3135986     -0.8813477
544249984     -0.3256836     -0.8729248      0.0007286      0.0002195      0.0007303      0.0002155     -0.3184814     -0.8829346
544499968     -0.3287354     -0.8748779      0.0006596      0.0001178      0.0006652      0.0001140     -0.3223877     -0.8841553
544750016     -0.3327637     -0.8758545      0.0005462      0.0000415      0.0005434      0.0000337     -0.3269043     -0.8848877
545000000     -0.3370361     -0.8768311      0.0004979      0.0000194      0.0004913      0.0000176     -0.3309326     -0.8856201
545249984     -0.3417969     -0.8774414      0.0004649     -0.0000269      0.0004630     -0.0000335     -0.3352051     -0.8857422
545500032     -0.3466797     -0.8771973      0.0003872     -0.0000758      0.0003707     -0.0000691     -0.3395996     -0.8852539
545750016     -0.3510742     -0.8765869      0.0003776     -0.0000960      0.0003383     -0.0000942     -0.3437500     -0.8846436
546000000     -0.3555908     -0.8747559      0.0003515     -0.0001288      0.0003323     -0.0001263     -0.3479004     -0.8835449
546249984     -0.3592529     -0.8730469      0.0002895     -0.0001565      0.0002814     -0.0001483     -0.3519287     -0.8820801
546499968     -0.3632813     -0.8710938      0.0002664     -0.0001864      0.0002577     -0.0001781     -0.3563232     -0.8798828
546750016     -0.3670654     -0.8684082      0.0002362     -0.0001833      0.0002129     -0.0001841     -0.3596191     -0.8773193
547000000     -0.3699951     -0.8648682      0.0002311     -0.0002001      0.0002181     -0.0002161     -0.3630371     -0.8742676
547249984     -0.3728027     -0.8612061      0.0001964     -0.0002546      0.0001973     -0.0002386     -0.3656006     -0.8708496
547500032     -0.3745117     -0.8577881      0.0001877     -0.0002757      0.0001854     -0.0002820     -0.3681641     -0.8670654
547750016     -0.3763428     -0.8538818      0.0001965     -0.0002759      0.0001868     -0.0002786     -0.3697510     -0.8626709
548000000     -0.3770752     -0.8491211      0.0002224     -0.0003516      0.0002094     -0.0003566     -0.3709717     -0.8585205
548249984     -0.3762207     -0.8446045      0.0002033     -0.0004615      0.0001866     -0.0004720     -0.3717041     -0.8533936
548499968     -0.3747559     -0.8413086      0.0001664     -0.0005617      0.0001483     -0.0005839     -0.3709717     -0.8481445
548750016     -0.3739014     -0.8398438      0.0000533     -0.0006200      0.0000476     -0.0006264     -0.3685303     -0.8444824
549000000     -0.3741455     -0.8363037      0.0000240     -0.0007032      0.0000054     -0.0007231     -0.3670654     -0.8415527
549249984     -0.3714600     -0.8317871     -0.0001561     -0.0007244     -0.0001588     -0.0007080     -0.3635254     -0.8356934
549500032     -0.3684692     -0.8308105     -0.0001023     -0.0007460     -0.0001210     -0.0007848     -0.3576050     -0.8342896
549750016     -0.3666382     -0.8284302     -0.0003588     -0.0008251     -0.0003717     -0.0008065     -0.3536377     -0.8339844
550000000     -0.3632202     -0.8246460     -0.0003549     -0.0008413     -0.0004056     -0.0008636     -0.3489380     -0.8339844
550249984     -0.3561401     -0.8247070     -0.0005416     -0.0008517     -0.0005530     -0.0008524     -0.3436279     -0.8359375
550499968     -0.3515015     -0.8264160     -0.0006729     -0.0007612     -0.0006830     -0.0007539     -0.3402100     -0.8391724
550750016     -0.3466187     -0.8294067     -0.0007796     -0.0007421     -0.0008145     -0.0007189     -0.3377686     -0.8433838
551000000     -0.3432617     -0.8350220     -0.0007866     -0.0004903     -0.0007734     -0.0004926     -0.3363037     -0.8484497
551249984     -0.3436890     -0.8406982     -0.0008031     -0.0005974     -0.0008418     -0.0006054     -0.3387451     -0.8526611
551500032     -0.3460693     -0.8436890     -0.0009373     -0.0004796     -0.0009583     -0.0004873     -0.3408813     -0.8543701
551750016     -0.3461304     -0.8451538     -0.0009067     -0.0003813     -0.0009210     -0.0003976     -0.3418579     -0.8554077
552000000     -0.3453369     -0.8485718     -0.0009581     -0.0003231     -0.0009820     -0.0003394     -0.3419189     -0.8566895
552249984     -0.3471680     -0.8533325     -0.0009375     -0.0001824     -0.0009362     -0.0001867     -0.3420410     -0.8596191
552499968     -0.3500366     -0.8558350     -0.0008764     -0.0001882     -0.0008613     -0.0001898     -0.3435059     -0.8619995
552750016     -0.3529663     -0.8574829     -0.0008740     -0.0001885     -0.0008585     -0.0001748     -0.3455811     -0.8645630
553000000     -0.3547974     -0.8585205     -0.0009521     -0.0001992     -0.0009717     -0.0001959     -0.3472290     -0.8654785
553249984     -0.3570557     -0.8618774     -0.0009200     -0.0000158     -0.0009167     -0.0000139     -0.3483276     -0.8681030
553500032     -0.3607788     -0.8624268     -0.0008089     -0.0000129     -0.0007955     -0.0000191     -0.3516846     -0.8704224
553750016     -0.3635864     -0.8632202     -0.0007823     -0.0000614     -0.0007548     -0.0000689     -0.3547974     -0.8709106
554000000     -0.3664551     -0.8643188     -0.0008032     -0.0000763     -0.0007992     -0.0001019     -0.3571777     -0.8727417
554249984     -0.3695679     -0.8648071     -0.0008163     -0.0000249     -0.0008050     -0.0000395     -0.3601074     -0.8731079
554499968     -0.3723755     -0.8653564     -0.0007830      0.0000075     -0.0007828      0.0000017     -0.3621826     -0.8745728
554750016     -0.3750000     -0.8650513     -0.0007214      0.0000178     -0.0007359      0.0000130     -0.3660889     -0.8743286
555000000     -0.3779297     -0.8653564     -0.0007371     -0.0000005     -0.0007231      0.0000000     -0.3690186     -0.8747559
555249984     -0.3809204     -0.8653564     -0.0006836      0.0000443     -0.0006711      0.0000192     -0.3726196     -0.8747559
555500032     -0.3841553     -0.8649292     -0.0006577     -0.0000020     -0.0006492     -0.0000080     -0.3756714     -0.8742676
555750016     -0.3870850     -0.8641968     -0.0006381      0.0000228     -0.0006126      0.0000340     -0.3786621     -0.8732300
556000000     -0.3900757     -0.8634033     -0.0005418      0.0000368     -0.0005421      0.0000162     -0.3812866     -0.8723755
556249984     -0.3926392     -0.8624878     -0.0004826     -0.0000245     -0.0004734     -0.0000323     -0.3840942     -0.8711548
556499968     -0.3956299     -0.8610229     -0.0004608     -0.0000719     -0.0004570     -0.0000656     -0.3869019     -0.8700562
556750016     -0.3981934     -0.8593750     -0.0004078     -0.0000844     -0.0003982     -0.0001079     -0.3894653     -0.8683472
557000000     -0.4006348     -0.8572388     -0.0003086     -0.0001628     -0.0002674     -0.0001784     -0.3917847     -0.8667603
557249984     -0.4030762     -0.8558960     -0.0002502     -0.0003219     -0.0002650     -0.0003490     -0.3939819     -0.8646851
557500032     -0.4049683     -0.8533325     -0.0002662     -0.0004415     -0.0002832     -0.0004560     -0.3960571     -0.8628540
557750016     -0.4064331     -0.8507080     -0.0002836     -0.0005730     -0.0002656     -0.0005682     -0.3976440     -0.8605347
558000000     -0.4075928     -0.8482666     -0.0003106     -0.0007671     -0.0002986     -0.0007893     -0.3992920     -0.8582153
558249984     -0.4087524     -0.8450928     -0.0003930     -0.0009723     -0.0003864     -0.0009977     -0.4005127     -0.8556519
558499968     -0.4093018     -0.8428955     -0.0005775     -0.0011668     -0.0005715     -0.0011749     -0.4016113     -0.8527832
558750016     -0.4088745     -0.8399658     -0.0007905     -0.0013592     -0.0007703     -0.0013865     -0.4015503     -0.8502808
559000000     -0.4086914     -0.8375244     -0.0011780     -0.0015481     -0.0011960     -0.0015708     -0.4014893     -0.8472290
559249984     -0.4055176     -0.8353271     -0.0017149     -0.0014522     -0.0017239     -0.0014441     -0.4003906     -0.8439331
559500032     -0.4039917     -0.8356323     -0.0019655     -0.0011866     -0.0019716     -0.0011842     -0.3977051     -0.8434448
559750016     -0.4035645     -0.8363037     -0.0022780     -0.0009767     -0.0022805     -0.0009670     -0.3956299     -0.8429565
560000000     -0.4029541     -0.8357544     -0.0025735     -0.0006962     -0.0025828     -0.0006661     -0.3940430     -0.8423462
560249984     -0.4010010     -0.8357544     -0.0027976     -0.0001321     -0.0028007     -0.0001185     -0.3915405     -0.8425293
560499968     -0.4002686     -0.8373413     -0.0027012      0.0004152     -0.0026790      0.0004722     -0.3900146     -0.8447876
560750016     -0.3999023     -0.8392944     -0.0022467      0.0008843     -0.0022198      0.0009191     -0.3889160     -0.8477173
561000000     -0.4014282     -0.8412476     -0.0018999      0.0008884     -0.0019003      0.0009209     -0.3907471     -0.8508301
561249984     -0.4019165     -0.8421021     -0.0017332      0.0010015     -0.0017155      0.0010232     -0.3922119     -0.8520508
561500032     -0.4027710     -0.8435059     -0.0014461      0.0010896     -0.0013933      0.0010778     -0.3939819     -0.8539429
561750016     -0.4050903     -0.8449707     -0.0011976      0.0009243     -0.0011845      0.0009277     -0.3960571     -0.8552856
562000000     -0.4072266     -0.8455811     -0.0011307      0.0008662     -0.0011207      0.0008598     -0.3991699     -0.8556519
562249984     -0.4092407     -0.8458862     -0.0010656      0.0007853     -0.0010625      0.0008097     -0.4013062     -0.8557739
562499968     -0.4111328     -0.8459473     -0.0010086      0.0007719     -0.0010072      0.0007896     -0.4031982     -0.8554688
562750016     -0.4129639     -0.8461914     -0.0009538      0.0007294     -0.0009385      0.0007686     -0.4053345     -0.8549194
563000000     -0.4145508     -0.8463745     -0.0009097      0.0007425     -0.0009074      0.0007488     -0.4067993     -0.8549194
