# Hz S RI R 50
45000000	0.683856806286346	-0.673793734968	-2.09549416339929E-04	2.13791219963781E-04			-2.20166130726244E-04	2.24760616409912E-04	0.708647657853667	-0.671131393835273
45062500	0.682844804062272	-0.67471662389426	4.86947243791711E-05	3.21840361961328E-04			4.02733171153333E-05	3.26543055876141E-04	0.707689269245191	-0.672181988439915
45125000	0.681373857017409	-0.675395866131457	2.27279267556484E-04	1.35915264348184E-04			2.23963970146014E-04	1.74166123023835E-04	0.706937635511807	-0.672428181332839
45187500	0.679893737827469	-0.67610762716244	2.48979779633385E-04	-4.5743421817271E-05			2.32984989779297E-04	-4.70479905310493E-05	0.706290389866439	-0.673622588775117
45250000	0.678732259185667	-0.67584419258782	1.40345165726354E-04	-1.5110242917684E-04			1.06970201985273E-04	-1.62808024488332E-04	0.705395985129586	-0.674390559975379
45312500	0.677803902157341	-0.676651286028612	-3.23774808377839E-05	-1.45457918648037E-04			1.57296849010575E-06	-1.95692703619088E-04	0.704652413645509	-0.674999932141042
45375000	0.676924679131835	-0.677286863469012	-4.94939506831021E-05	-1.55456989806398E-04			-4.47239183819048E-05	-1.29685133546924E-04	0.703943027591647	-0.675359320660407
45437500	0.675301105387544	-0.677507749397327	-8.25140107307303E-05	-1.03690358824881E-04			-1.03662490700317E-04	-1.05314540322386E-04	0.703041051297184	-0.676185927191088
45500000	0.674538753300084	-0.677732626674905	-1.33653417843809E-04	-4.70112738723234E-05			-1.43666811998704E-04	-9.3058715000411E-06	0.702468719218194	-0.677088898218709
45562500	0.673695981931027	-0.677981062267733	-1.67647889095788E-04	6.68222836178429E-05			-1.5009142097516E-04	4.27420778617047E-05	0.701745436047616	-0.677919215462631
45625000	0.672195416094049	-0.678491202666517	-9.30860444161233E-05	8.87172976301672E-05			-1.19869926048911E-04	1.18004177012963E-04	0.700524135715696	-0.678330196613679
45687500	0.670401406230906	-0.67853611732684	-3.55847930579741E-05	8.61951086616023E-05			-5.37378194473388E-05	1.11725750031281E-04	0.699552387019719	-0.67897279355081
45750000	0.669114815751953	-0.677618006897263	9.16556105445365E-06	1.61880094023768E-04			1.44550559440275E-05	1.21870955491057E-04	0.699073883031196	-0.679764824010717
45812500	0.668608597831462	-0.6772218068977	1.57893995359445E-04	6.14595195095687E-05			1.06992297303614E-04	7.12717162810257E-05	0.698053863854672	-0.67983183932521
45875000	0.668380377282374	-0.676828513371159	1.47027874562221E-04	-4.5716143353463E-05			1.31638320614082E-04	-4.35177717127213E-05	0.697333157796486	-0.680412097122485
45937500	0.668574110134107	-0.676418901527989	1.1851596887089E-04	-1.13460936387503E-04			1.44050552476201E-04	-1.1601422525409E-04	0.696738627423309	-0.680543235676405
46000000	0.668949147163923	-0.677051300787586	1.1216694088179E-05	-2.26410541111406E-04			2.39892132017602E-05	-2.00897917586726E-04	0.695913619942892	-0.681230651612483
46062500	0.668770289603206	-0.677914608642202	-1.91825728059099E-04	-1.69239223700986E-04			-2.05238354728312E-04	-1.84055550600072E-04	0.695485063261361	-0.682247829369199
46125000	0.668730478934503	-0.678138833798711	-1.97409532322589E-04	6.00104042091509E-05			-2.11906490732011E-04	6.35797823838121E-05	0.694690015185083	-0.68245013559993
46187500	0.66864888106494	-0.679360103631633	-1.09207924205525E-04	1.12466519032544E-04			-8.73658895710268E-05	9.90723476462217E-05	0.69391040014717	-0.683262837754261
46250000	0.667571969832232	-0.680316733878596	-1.0980102066527E-04	5.9377683581018E-05			-7.03767543144822E-05	1.25072918521726E-04	0.693155933016787	-0.683774703050438
46312500	0.666567982157208	-0.681428784241608	-8.17453601679475E-05	1.34270604513762E-04			-8.06709386504772E-05	1.22068716654463E-04	0.692670626248659	-0.684917566892061
46375000	0.665205386865046	-0.681807709094611	6.36797333039453E-06	2.27720798367606E-04			3.32268404236165E-05	2.07966818719638E-04	0.691839602322059	-0.685479444723134
46437500	0.664438318380626	-0.681796531202643	1.69451632859238E-04	1.67777655502103E-04			1.76670894396891E-04	1.62438204631469E-04	0.690902704368774	-0.685816625205679
46500000	0.663970409460577	-0.682163474934858	2.59609809912605E-04	2.60475217934736E-05			2.62337538965417E-04	-3.38086887843275E-05	0.690683982624797	-0.68625057680736
46562500	0.663518281370453	-0.682359164655889	1.89304401023512E-04	-1.24225818829269E-04			2.11334421568019E-04	-1.15572621683409E-04	0.689829917258673	-0.687010248166542
46625000	0.662430787540869	-0.682792542318884	9.78600644714886E-05	-1.57503262048103E-04			1.26029478338578E-04	-1.7080202620943E-04	0.689435917256885	-0.687560894711443
46687500	0.662032058418106	-0.683325487079156	1.0833751681702E-05	-2.16939047857304E-04			4.15924215628832E-05	-1.9633217303757E-04	0.688547992221643	-0.688112721680219
46750000	0.661722928742526	-0.683541379897883	-1.0205144158032E-04	-2.19669201551767E-04			-7.01861460157989E-05	-2.2031855379026E-04	0.688050763123516	-0.688694791975873
46812500	0.661104453425233	-0.684246167103398	-1.46195868357211E-04	-1.34293803532049E-04			-1.42205918672274E-04	-1.66554968897648E-04	0.687960807248437	-0.689652437186877
46875000	0.660742513357235	-0.684630916443862	-1.82543405972293E-04	-8.67136055460321E-05			-1.84090239421101E-04	-8.92098065211977E-05	0.687115748976807	-0.690498348586016
46937500	0.659770179797961	-0.685598280951532	-2.06106241418451E-04	-3.30306641549702E-05			-2.0672239308804E-04	-9.74201019189994E-06	0.685997521814092	-0.691305273748419
47000000	0.658976918640403	-0.685795939284533	-2.46308439674756E-04	3.30647171739879E-05			-2.19031755956722E-04	7.98604604404126E-05	0.68544377875271	-0.692145913374395
47062500	0.658584639625999	-0.686125196433156	-1.59708650161871E-04	2.37052794066441E-04			-1.75236410237791E-04	2.07929309413002E-04	0.684641161330474	-0.692862201407612
47125000	0.657604838316898	-0.686628781326513	-8.18535518023885E-06	2.15488723055548E-04			-3.91679658408005E-05	2.19614553452195E-04	0.683593534878697	-0.693600095860687
47187500	0.65737450420867	-0.686916121303592	7.8837222902073E-05	1.8523317654766E-04			8.59533756553381E-05	1.62312781973458E-04	0.682735694023485	-0.693801595560238
47250000	0.65684448584607	-0.68692441512859	1.79778068474184E-04	1.65269639991791E-04			1.91288650013876E-04	1.41039500601054E-04	0.682144337102717	-0.694289947488928
47312500	0.656312369722094	-0.687927706626682	2.22770485870818E-04	6.8279139645265E-06			2.74104609379581E-04	-6.00542459155862E-06	0.681490231091851	-0.694680732451368
47375000	0.655940564152242	-0.688732440443432	1.86715498098863E-04	-1.77781775709261E-04			2.58832759146143E-04	-1.41530247392715E-04	0.681396245776569	-0.694956499011982
47437500	0.655010449129692	-0.689321635182172	9.3584282765555E-05	-2.64982219244298E-04			9.80563388552917E-05	-2.20034430290657E-04	0.680450605477231	-0.696031655282661
47500000	0.654593610406045	-0.689429242617417	-4.09637114830428E-05	-2.31034302963071E-04			-6.17539075306096E-05	-2.33937010211831E-04	0.679963178944165	-0.696667272308026
47562500	0.653876716840492	-0.690261243247775	-1.73068099468493E-04	-1.20878770625813E-04			-1.39124772687793E-04	-1.51065280123126E-04	0.679621398121281	-0.697441641932981
47625000	0.653435450519147	-0.690946598039336	-1.17250980960968E-04	-8.60190412456813E-05			-1.53498834390002E-04	-6.2113759299369E-05	0.678902062444807	-0.698175796101332
47687500	0.652473026924794	-0.691212964604664	-1.5020296157481E-04	-4.47706770518446E-05			-1.11853508341876E-04	-3.43429795394594E-05	0.67827416856069	-0.698987028353164
47750000	0.651882764729246	-0.691930361591256	-1.75734026659216E-04	3.74465469538613E-05			-1.1457472007869E-04	2.76128387460578E-05	0.677819759108656	-0.699581854508912
47812500	0.651304782714114	-0.692241491140289	-1.07542100536109E-04	5.54654137280582E-05			-1.07516921787871E-04	7.43514693836668E-05	0.67714553056375	-0.700470014730746
47875000	0.650179146004614	-0.692624154139056	-3.92056612407146E-05	6.90958836019411E-05			-6.82044311768327E-05	1.22915154708831E-04	0.675990427586497	-0.701175806569925
47937500	0.649640544177779	-0.693443242532306	-1.16532663390417E-05	1.10990032943727E-04			-2.29422145016237E-05	8.20045105868655E-05	0.675551399556773	-0.702046624528237
48000000	0.648561804535952	-0.693015662594155	1.47050454014047E-05	1.49089664282276E-04			2.33860029568536E-05	1.22247079187182E-04	0.674805891581085	-0.702843410501577
48062500	0.649438260018808	-0.69287882617081	1.50476283436722E-04	1.13998874867356E-04			1.22439076531109E-04	7.13062236322434E-05	0.673616221775395	-0.703215207809425
48125000	0.649368108352594	-0.694378119400498	1.90686222345524E-04	-4.93772020447646E-06			1.83800484659974E-04	-1.94922591037238E-08	0.673225029247051	-0.704433656099461
48187500	0.648469872826445	-0.694922455248394	1.40449943256709E-04	-9.97416331091885E-05			1.08014703623139E-04	-9.34766615720499E-05	0.672283899660106	-0.704934779040424
48250000	0.647870843877465	-0.695330247546868	-2.12884521267543E-05	-1.71105081139441E-04			1.9176580158763E-05	-1.76501974820349E-04	0.671742914573358	-0.706163134235215
48312500	0.647590050208959	-0.696522160692261	-9.37589251971952E-05	-1.37755382822066E-04			-1.00778920696749E-04	-1.52563132878513E-04	0.670862415010469	-0.706795890844599
48375000	0.647299809454565	-0.697289385148563	-1.65186725798311E-04	-7.86571536112245E-05			-1.84071094247296E-04	-6.41595957499621E-05	0.670329230595803	-0.707357880164627
48437500	0.646090036795006	-0.69816635089789	-2.19597453220438E-04	-1.16794772304362E-05			-2.07643388943142E-04	4.13645994576458E-05	0.669867966344254	-0.708167904655962
48500000	0.645445720135795	-0.69901841755031	-1.48559600354921E-04	1.05294381220792E-04			-1.57675480229672E-04	9.98283386926786E-05	0.668450071858382	-0.708401363219808
48562500	0.644650513702238	-0.699191354058286	-9.92703138403546E-05	1.63734672978899E-04			-1.11673468930551E-04	2.08521478939765E-04	0.66781745983016	-0.709490526257805
48625000	0.643470190099028	-0.699572583259603	-1.21547887969707E-05	1.99313949248851E-04			6.42987969049646E-05	2.06815598727388E-04	0.667455689164027	-0.710010168750596
48687500	0.643471315896414	-0.700150242974595	9.17105425467895E-05	1.75917821871617E-04			5.2537972316449E-05	1.87459339322909E-04	0.666829151417354	-0.710415746506372
48750000	0.642686608950991	-0.7012435817045	1.82959987894422E-04	8.33533606642869E-05			1.8400372442062E-04	1.10745295212489E-04	0.665985805437457	-0.711622959511134
48812500	0.642296519806895	-0.701547677602777	2.06990616474688E-04	2.65123566873649E-05			1.88973972549145E-04	5.71957871536533E-06	0.665445800140348	-0.712549350018945
48875000	0.641315002750716	-0.702148621918561	2.15065834452193E-04	-7.58547567631518E-05			1.99457710025626E-04	-6.59807466870033E-05	0.664798264507406	-0.713148765974382
48937500	0.640408127185931	-0.702839078908642	1.03571571080766E-04	-2.11237447486473E-04			1.19990412701577E-04	-2.0504467895052E-04	0.664064681826366	-0.714072487205018
49000000	0.639829249606127	-0.703787071257899	-1.144892945657E-05	-2.84791016323476E-04			-5.87239657850319E-05	-2.2318089424987E-04	0.663089922291149	-0.714493817965116
49062500	0.639134577759309	-0.7043016963318	-1.40836603816083E-04	-2.18087933218222E-04			-1.08538710171039E-04	-2.19811874588217E-04	0.662442030117162	-0.715871019087778
49125000	0.63856047646946	-0.704658550517905	-2.01743862264837E-04	-9.53885639655429E-05			-1.82462584576449E-04	-8.24044256323745E-05	0.66131682485884	-0.716389367387609
49187500	0.637147376337324	-0.705591815356701	-1.91301549372082E-04	-1.45996848496046E-05			-1.83657143090033E-04	9.12635741806821E-06	0.660438879523881	-0.716784205061385
49250000	0.635884668130103	-0.705592040124109	-1.75853997631655E-04	2.95512018463493E-05			-1.80212239318446E-04	7.79681697665075E-05	0.65994884350602	-0.717403178496723
49312500	0.635630102920205	-0.705736473104987	-9.91986308329169E-05	8.78124123614472E-05			-1.02229121353665E-04	9.21106086887584E-05	0.659000536249112	-0.71838388491904
49375000	0.634830122909515	-0.70594554341095	-6.80058398584804E-05	1.39099318691675E-04			-2.35324559427915E-05	6.45846982649373E-05	0.65850099751156	-0.718682391439563
49437500	0.634622131103913	-0.706535636038516	-1.74267803141443E-05	1.0451619867314E-04			-4.4350372390072E-05	1.05984314163367E-04	0.657594212699816	-0.719730008298771
49500000	0.634343500483154	-0.706430974191362	2.42335625685328E-05	9.60435946148763E-05			2.01309078486381E-05	9.58879983807628E-05	0.65681866208295	-0.720568174896844
49562500	0.634084194277583	-0.707225422563624	3.91009087041743E-05	4.67084737212662E-05			3.26183573302741E-05	4.0614441714968E-05	0.656014536594906	-0.721266674005932
49625000	0.63380889102097	-0.707757553600154	5.1848680178112E-05	4.30524477496067E-05			4.25426892775458E-05	2.09002346261067E-05	0.655122897001394	-0.722223672300705
49687500	0.633056674179	-0.709061272327709	2.13409355371969E-05	4.3291666882162E-05			1.95000472820573E-05	2.79323353877486E-05	0.654195995794874	-0.722615809236913
49750000	0.631918249044238	-0.709596645056038	3.15186595224648E-05	4.44731044843824E-05			3.47659814622394E-05	3.05945745922614E-05	0.65340180126166	-0.723489478995412
49812500	0.631363491576716	-0.709417785113195	3.64269063465143E-05	-1.82555919371359E-05			6.9017925442415E-05	-4.94990681552546E-06	0.652479984384433	-0.724339008509424
49875000	0.630933482135333	-0.710365713960509	2.37732028025834E-05	-3.01176830053125E-05			2.67438790904381E-05	-1.00569315104186E-05	0.652062737694087	-0.724574355565846
49937500	0.630997826712974	-0.711208573114554	1.35246616320623E-05	-1.0191189489337E-04			-3.09840539924202E-05	-1.09652305571609E-04	0.651141182679638	-0.725678385754738
50000000	0.630334499476258	-0.712100819117528	-8.09088308551159E-05	-4.55887766274486E-05			-8.91623580789574E-05	-7.46638691323657E-05	0.650392750559314	-0.726391885397279
50062500	0.629991968833076	-0.71300360354188	-1.055076591793E-04	2.84339287414508E-05			-1.18899594005562E-04	3.21426826997567E-05	0.649611058335907	-0.727126573376432
50125000	0.629179990791709	-0.714031147748168	-6.469678229833E-05	9.7942301795286E-05			-8.72293237747835E-05	1.04993289617399E-04	0.648547390224349	-0.727788706203748
50187500	0.62787875424676	-0.715166310178369	-1.11836108500522E-05	7.92515373258167E-05			-2.26905810659836E-05	8.12236373712808E-05	0.64780644283658	-0.728748746538897
50250000	0.626714770701993	-0.716024065912374	7.75598710256283E-05	1.25004415918098E-04			6.72577925079409E-05	9.57217534336187E-05	0.646626328587663	-0.729416551213388
50312500	0.625047332827097	-0.716273116382995	1.03383851324771E-04	4.19582748688306E-05			9.90467933399035E-05	4.25432199781157E-05	0.646255212622948	-0.729831608885296
50375000	0.624067680124135	-0.715939252116508	1.23330742658761E-04	-4.41798448365397E-06			1.22177327587403E-04	3.80077516146747E-06	0.644780026663563	-0.730364179024617
50437500	0.623667889976721	-0.715867217286363	7.43053458158385E-05	-4.90376783261376E-05			8.63066542051155E-05	-4.94694417503519E-05	0.644230056155665	-0.730935636552811
50500000	0.623411175607675	-0.71645540262052	7.38713933064509E-05	-1.03129517603554E-04			3.33736363580084E-05	-6.85368456463735E-05	0.643140376198303	-0.731363301044659
50562500	0.623364708368351	-0.716379723250288	7.7343717153958E-06	-1.38788703262469E-04			-3.31905084249175E-06	-1.19103626738923E-04	0.64273190840328	-0.732022128934907
50625000	0.623030421919235	-0.716664349323006	-3.37283329933686E-05	-7.94004002630978E-05			-8.73013613256992E-05	-1.20708934612283E-04	0.642392649518195	-0.733154488672775
50687500	0.622737444845429	-0.718107828991076	-9.39946504780044E-05	-2.44820311813816E-05			-9.35949458809512E-05	-7.91412293553347E-05	0.641251491100088	-0.733312215351073
50750000	0.622459527184456	-0.719217234564356	-9.50299034724669E-05	-1.91059093241129E-05			-1.05383983491233E-04	-3.8291433390949E-05	0.640052432464183	-0.734499506359211
50812500	0.621647669882392	-0.720161633233703	-8.38137365960943E-05	-2.14231746179235E-05			-1.08363331400049E-04	5.44457002476114E-05	0.639388872155693	-0.734515823532806
50875000	0.620673646234186	-0.720995367104329	-4.55475794241932E-05	4.71198716816715E-05			-6.32807857728267E-05	7.67941125198994E-05	0.638726590601699	-0.735628367991587
50937500	0.619658128511133	-0.721702651520189	-3.05075715946982E-05	5.29522236995547E-05			-7.44399534643543E-05	4.14423793244943E-05	0.63803858787039	-0.736390442591256
51000000	0.618658324991123	-0.722323207016981	-2.14445033128904E-05	6.16686882071663E-05			-7.07439324880671E-05	5.17253697726335E-05	0.637203048348084	-0.736943568195095
51062500	0.617575300055582	-0.723056855289596	1.69977532262668E-05	1.1380813235551E-04			2.99672272975582E-05	7.53745153920866E-05	0.635944641925597	-0.737645340244477
51125000	0.616475908568487	-0.723393608595802	9.1041795627755E-05	-4.56157890222475E-06			7.16310372056585E-05	1.40189023489045E-05	0.635232869031359	-0.738236079422078
51187500	0.615741256879156	-0.723464063513346	7.60326606504127E-05	-6.08930087293869E-05			5.47361103128789E-05	-8.22202906989442E-05	0.634695183191678	-0.739105595108695
51250000	0.615404212589288	-0.723512255632248	-1.35871578305907E-05	-7.11571585441112E-05			-2.42885222868191E-06	-3.34667369743466E-05	0.633497809477548	-0.739698511961186
51312500	0.615106327395509	-0.724003238083242	-7.06860515632321E-05	-4.88631993475448E-05			-6.12429836181482E-05	-2.13214589392073E-05	0.632820455861761	-0.740439092728414
51375000	0.614630106721006	-0.724912271904367	-7.07092468779784E-05	-1.35693717712709E-06			-7.70719107237845E-05	-3.96788852575888E-05	0.631636337016814	-0.74122990356261
51437500	0.614081593856196	-0.726113820883151	-1.12422290355781E-04	4.79383800666274E-05			-6.77601231772531E-05	6.56321621106597E-06	0.630658082107191	-0.741752316449334
51500000	0.613027586823885	-0.72720378330592	-3.29241222510537E-05	7.3661255549447E-05			-5.82651312336025E-05	6.72634114426196E-05	0.629962322539161	-0.742362854639347
51562500	0.611383680178326	-0.727401958039881	-1.09589291521839E-04	1.06265978529924E-04			-1.19781021413166E-04	4.90853791950094E-05	0.628836294634165	-0.742286842740202
51625000	0.610428199637014	-0.727679224885297	-2.39384332588152E-05	1.36293240005561E-04			1.78576450269942E-05	9.96344539026081E-05	0.628358036067064	-0.743648559386637
51687500	0.609585685530153	-0.72780861944899	-1.91702041465326E-06	9.85808338815667E-05			-1.88048153104036E-05	1.30926333965818E-04	0.627559003640385	-0.743844103323773
51750000	0.608921077294816	-0.7273881354019	6.23858404589856E-05	1.21879791361463E-04			7.09964320373175E-05	1.20692455984395E-04	0.626765233711687	-0.744735208926194
51812500	0.608743510240463	-0.727343946342418	1.25177105871217E-04	1.07748267500038E-04			1.04320399779256E-04	9.7520339601712E-05	0.625972407642065	-0.745444876581395
51875000	0.608899483767141	-0.727703604998465	1.60456975169153E-04	-1.69518470328443E-05			1.46430916550034E-04	-7.13114311510306E-06	0.624988934968394	-0.745873672025636
51937500	0.608774360034485	-0.728721500362266	1.03547084038916E-04	-6.25950650065883E-05			1.2836761083648E-04	-7.49618102579287E-05	0.624282213816188	-0.74645194433563
52000000	0.608378454443985	-0.72952446142148	1.02108566581048E-04	-8.53732891235155E-05			7.34467384573861E-05	-7.91510170940095E-05	0.623549257520529	-0.74702919378046
52062500	0.607736986723808	-0.729582362543346	6.84619059017763E-05	-1.03471734967307E-04			6.12723141870796E-05	-9.42289643917161E-05	0.622462735091728	-0.747664992341113
52125000	0.607541994760215	-0.730723547141788	2.95239224937861E-05	-1.63358376473777E-04			1.93863146886545E-07	-1.9267917858652E-04	0.622087857287159	-0.748318648299781
52187500	0.606940927310674	-0.731931696438832	-8.36833479554415E-05	-1.63447604708183E-04			-7.38120880659351E-05	-1.6099030320555E-04	0.621025808814329	-0.748935552356963
52250000	0.606315224364943	-0.732745409947294	-1.13978212938543E-04	-7.00919994263902E-05			-9.99111200876164E-05	-9.2604475695185E-05	0.620269364830948	-0.749379746863296
