# Hz S RI R 50
1940000000	-0.55071794553822	0.758155566911329	-1.94477440934021E-02	-2.02188149914973E-02			-1.95118723239978E-02	-2.02589971838229E-02	-0.698607984078418	0.636150702087376
1940625000	-0.549343555294978	0.759141412957643	-1.94719727312083E-02	-2.01744467504103E-02			-1.95125557833105E-02	-2.02145827811043E-02	-0.695541591987489	0.637852805310332
1941250000	-0.549100317312919	0.760107162174564	-1.95407484466903E-02	-2.01580606988877E-02			-1.95889023010032E-02	-2.01588009996498E-02	-0.697407453031814	0.638174535686762
1941875000	-0.547104129785798	0.759698877103564	-1.95407291079089E-02	-2.00416499583003E-02			-1.96199451406237E-02	-2.01274084179331E-02	-0.697198853342842	0.638513890820866
1942500000	-0.545960556781825	0.762001262487789	-1.95632481062259E-02	-2.00433864961426E-02			-1.96254199982996E-02	-2.00490307524329E-02	-0.694890123970503	0.640201925613345
1943125000	-0.545159992059881	0.762567382555693	-1.95752573910243E-02	-1.99806381742204E-02			-1.96108300413044E-02	-1.99462485513516E-02	-0.694277575397905	0.63964409550449
1943750000	-0.54389845746291	0.763887302933281	-1.95657665766552E-02	-1.99166230099854E-02			-1.96471390258284E-02	-1.99520166257039E-02	-0.693325689104992	0.641654578051243
1944375000	-0.542712525846975	0.764264008032856	-1.95593028717402E-02	-1.98571364555481E-02			-1.96268456729287E-02	-1.98863796704773E-02	-0.692685353356341	0.642480576898206
1945000000	-0.542213153306454	0.765697888131905	-1.95691704727192E-02	-1.98130682836002E-02			-1.96598188862696E-02	-1.98284080327281E-02	-0.691342596394982	0.643114702549974
1945625000	-0.540354325249085	0.764640907947528	-0.019554506109896	-0.019744952618334			-1.96031755127489E-02	-1.97617246109529E-02	-0.690151657478607	0.644745207639901
1946250000	-0.539824588064784	0.766271783255449	-1.95712834208234E-02	-1.96553100592657E-02			-1.96143426411927E-02	-1.96656144767378E-02	-0.689403601941832	0.645713515730025
1946875000	-0.538087340375554	0.767886939748256	-1.95497525774852E-02	-1.96450925149538E-02			-1.96424142796791E-02	-0.01967665467086	-0.688034766725809	0.647764507125395
1947500000	-0.536423807255226	0.768853883895131	-0.019557104667964	-0.019580145359619			-1.96032190049743E-02	-0.019643994787058	-0.68723926757989	0.647083940243468
1948125000	-0.535639183051913	0.769775635322766	-1.95481122436503E-02	-1.95400075955232E-02			-1.95874904690143E-02	-1.96137008947293E-02	-0.686062502142568	0.649675790782015
1948750000	-0.534232492467291	0.771173455504268	-0.019521064547501	-1.95425007757392E-02			-1.96182887656815E-02	-1.95454696517395E-02	-0.686303687705164	0.649742346746351
1949375000	-0.532675379530294	0.770801008585473	-1.95454936072663E-02	-1.95459513545472E-02			-1.96197579060098E-02	-1.94711998423917E-02	-0.686217085427795	0.650236036945705
1950000000	-0.531118869567065	0.771792990530542	-1.95359098655182E-02	-1.94330128451519E-02			-1.95801203369242E-02	-1.94505098346153E-02	-0.683493700137517	0.651437246286693
1950625000	-0.530987217971631	0.774171821519676	-1.95076260612848E-02	-0.019462876472905			-1.96154469130829E-02	-1.95014098168629E-02	-0.683748073821908	0.653079457564766
1951250000	-0.529092908645734	0.774879951048293	-1.95528898901957E-02	-1.93668475791517E-02			-1.96469674074993E-02	-0.019380198715075	-0.682897186211415	0.653248577606889
1951875000	-0.527978956010079	0.775331791183662	-1.95288953696763E-02	-1.93424346915836E-02			-1.95646347487849E-02	-0.01939181193089	-0.681001534074482	0.654280890049579
1952500000	-0.526496604441168	0.775664963023379	-1.95291914218734E-02	-0.019245665295884			-1.96042621521969E-02	-1.93249807521964E-02	-0.681241525938418	0.654527514586836
1953125000	-0.524541559200285	0.776002113414739	-1.95277823780236E-02	-1.93001817881096E-02			-1.95842499718089E-02	-1.93242129133368E-02	-0.680257761726842	0.656124843341197
1953750000	-0.523505321507173	0.777314948782232	-1.95085845840498E-02	-1.92404059091631E-02			-1.95983850212778E-02	-0.019323991793317	-0.678087180408312	0.656853703413542
1954375000	-0.52164731399878	0.778383792175158	-1.95409415336173E-02	-0.01930792260213			-1.96215871326546E-02	-1.92935981029382E-02	-0.677495872825854	0.657196681596495
1955000000	-0.521157740174014	0.779383677288347	-1.96002223784147E-02	-1.92095705359483E-02			-1.95745368956536E-02	-1.92764686350054E-02	-0.676747250659497	0.658715357681631
1955625000	-0.518346920366158	0.779330732457888	-1.95818704508637E-02	-0.019180479639197			-1.96440489492128E-02	-1.92514323512943E-02	-0.675006729461456	0.66039696579018
1956250000	-0.519200287760873	0.780889657197743	-1.96471402035173E-02	-1.91382558421899E-02			-1.96379303350597E-02	-1.91769144787136E-02	-0.675071344691615	0.661540236502196
1956875000	-0.516819800338798	0.781001148642468	-1.96513997433623E-02	-1.92034132036096E-02			-1.97373286000556E-02	-1.91986991035296E-02	-0.674071674743029	0.661727741073459
1957500000	-0.515864038191199	0.78279366933391	-1.96597629953614E-02	-1.91310039676744E-02			-1.97411287837907E-02	-1.91497769929355E-02	-0.673915201809626	0.663657490513836
1958125000	-0.515035384231215	0.783230908581484	-1.96566426030917E-02	-1.91136087791484E-02			-1.97378348965584E-02	-1.91323477333483E-02	-0.671614999134086	0.663227836771628
1958750000	-0.513340387886269	0.784056343748053	-0.019725737319896	-1.90398631590395E-02			-1.97345684576026E-02	-0.01904488308372	-0.670988664751222	0.665157932002945
1959375000	-0.510131171237686	0.783775471773153	-0.019714924885261	-1.90079842908452E-02			-1.97843518331294E-02	-1.89997494280862E-02	-0.670091738035257	0.665128634355452
1960000000	-0.510056796249159	0.785237533144524	-1.97221591689348E-02	-1.89394837036402E-02			-1.98256811502731E-02	-1.89555839638474E-02	-0.66812320505401	0.667030138555114
1960625000	-0.507911960699236	0.787323996958501	-1.97676093120961E-02	-1.89163047587395E-02			-1.98388623092714E-02	-0.018932896421288	-0.667915211182341	0.666992770948436
1961250000	-0.507149363249629	0.787365395538457	-1.98043252823648E-02	-1.88670928639533E-02			-1.98153801527799E-02	-1.88995585165867E-02	-0.667130916618642	0.667304749514231
1961875000	-0.505556130660144	0.787579580463415	-1.98108347298865E-02	-1.87703131505145E-02			-1.98839410327382E-02	-1.88433113145757E-02	-0.666968076980786	0.66787973247096
1962500000	-0.504712012174342	0.788196587955758	-1.98613639718277E-02	-1.87511501757312E-02			-1.99046583719705E-02	-1.87971931513891E-02	-0.664848563449368	0.669744940082854
1963125000	-0.503749719616943	0.788547279633871	-1.98798874189737E-02	-1.86770157386227E-02			-1.99202558250512E-02	-1.87568018785979E-02	-0.664117191314557	0.66961880583038
1963750000	-0.501689802507704	0.790586636732601	-1.98545547969288E-02	-1.86059302555533E-02			-1.99486993442899E-02	-1.86954802473103E-02	-0.663056031245678	0.671621461943913
1964375000	-0.500507334818359	0.790111474775726	-1.99255767997341E-02	-1.85137275715781E-02			-1.99398410268741E-02	-1.86327236420763E-02	-0.663138018180412	0.671650306282786
1965000000	-0.499905327214115	0.790440427513478	-1.98872468705669E-02	-1.84857204478214E-02			-1.99794035967566E-02	-1.86057122760138E-02	-0.662532973008315	0.674100722516974
1965625000	-0.499105362671577	0.792234507843858	-1.99206000412577E-02	-1.84875541172591E-02			-1.99933153732004E-02	-0.018491935306115	-0.660416312060975	0.674745522393703
1966250000	-0.497892649056735	0.792371575355764	-1.99315844586257E-02	-1.83768369639664E-02			-1.99799276318878E-02	-1.84513232133533E-02	-0.660186876403025	0.675327339320608
1966875000	-0.494287725940574	0.793179775823185	-1.99521886678843E-02	-1.83490370728348E-02			-1.99769319861273E-02	-1.84329884743232E-02	-0.658081907735359	0.676196627937381
1967500000	-0.495044363914844	0.793525156745584	-1.99187316829959E-02	-1.82915954475457E-02			-2.00065617549473E-02	-1.83173356651787E-02	-0.657095491730499	0.677886424678217
1968125000	-0.492988267114707	0.795602286770539	-1.99250582520848E-02	-1.82506770951647E-02			-2.00311521064351E-02	-1.82998706355686E-02	-0.657006397833617	0.678492326573378
1968750000	-0.491471695690861	0.795465959165853	-1.99883769506048E-02	-1.81832341905502E-02			-2.00075803576136E-02	-1.82322929301547E-02	-0.654196437259698	0.680405486036654
1969375000	-0.489176240193914	0.796979771071212	-1.99813023214417E-02	-1.81490382627781E-02			-2.00345208427352E-02	-1.82428010710076E-02	-0.654906989939284	0.679476967983422
1970000000	-0.488756776274318	0.798389105236283	-2.00449177483754E-02	-0.018067437816115			-2.00084816988794E-02	-1.81029057177424E-02	-0.652665192556928	0.682846736887081
1970625000	-0.486914816130826	0.799189645374376	-0.020027721041083	-1.80720019839314E-02			-2.01071913385517E-02	-1.80909897959043E-02	-0.650676103648557	0.684263934588452
1971250000	-0.484927791081888	0.800929774867476	-0.020174692727145	-1.78493579503942E-02			-0.020149700295616	-1.78928039293044E-02	-0.645471695964749	0.681365844823476
1971875000	-0.480817209609359	0.801093022528872	-1.99051619521971E-02	-1.78387817824876E-02			-0.019951789792392	-1.78993133832385E-02	-0.650644126456278	0.679453555211382
1972500000	-0.477219153955904	0.801218226248548	-2.00916743750376E-02	-1.78185180317249E-02			-2.00935159063721E-02	-1.78393683982467E-02	-0.650376544805554	0.68297052627172
1973125000	-0.478219653104295	0.78875878280022	-1.98447458677163E-02	-1.75559569071076E-02			-1.98916983298579E-02	-1.75949270994623E-02	-0.648139400258046	0.684059552293436
1973750000	-0.483865121623511	0.798383091351424	-1.98229090211517E-02	-1.76431618498999E-02			-0.019889796263302	-1.76998673887318E-02	-0.645305291632404	0.684249325033483
1974375000	-0.480011994134897	0.80085300595688	-1.98289429427815E-02	-1.76311930894972E-02			-1.98642151059216E-02	-1.77829117361171E-02	-0.646641787078351	0.681426219437239
1975000000	-0.477725498182504	0.797355180775017	-1.97929347363737E-02	-1.76095570515092E-02			-1.98680108340993E-02	-1.76021256905647E-02	-0.647770906856476	0.686948134445797
1975625000	-0.47903199893592	0.801399795474863	-1.97417193877988E-02	-1.76507940705606E-02			-1.98563451408573E-02	-1.76689055130714E-02	-0.645493731408488	0.687488789877778
1976250000	-0.477761964334361	0.801073943307068	-0.01978484164151	-1.75926010882784E-02			-1.98342198397696E-02	-1.76852580119279E-02	-0.64485869274067	0.688609705242787
1976875000	-0.4756864667613	0.804351847946279	-1.98058511509744E-02	-1.76177647673815E-02			-1.98848226926241E-02	-1.76887610599593E-02	-0.64440956738149	0.687856327343952
1977500000	-0.474717638282106	0.805310901335993	-1.98263592893089E-02	-0.017587234035098			-0.019886507686404	-1.76510293228684E-02	-0.642875433921688	0.691109483972817
1978125000	-0.472166279876334	0.805435653097033	-1.98012360722657E-02	-0.017600570225443			-1.98563569316954E-02	-0.017616391964361	-0.641525892280791	0.691876118485439
1978750000	-0.472667335615549	0.80756860764848	-1.98700280090228E-02	-1.75453179901186E-02			-1.98796177422231E-02	-1.76008558256054E-02	-0.641466615783095	0.692297230402674
1979375000	-0.469893272712454	0.807935089976545	-1.98502354289729E-02	-1.75520997909079E-02			-0.019920391458589	-1.75948390502612E-02	-0.638994231151951	0.695022510234673
1980000000	-0.468664829834355	0.808692179767803	-1.99533495762772E-02	-1.74862609325031E-02			-1.99463975383179E-02	-1.75897394287844E-02	-0.637573959344253	0.696020813146305
1980625000	-0.465665635676863	0.808816899551866	-1.99213679013589E-02	-0.01752417699885			-1.99702858516449E-02	-1.75640125758676E-02	-0.636726137657539	0.694453224512408
1981250000	-0.465544893872669	0.80955894145609	-1.99752685450922E-02	-0.017490105439794			-0.020067324025618	-1.75012692099844E-02	-0.636777242862001	0.696085016938029
1981875000	-0.464481173151495	0.81052270090575	-2.00297426445587E-02	-1.74355949884181E-02			-0.020069914112	-1.74566130030418E-02	-0.63516074188223	0.696715326533615
1982500000	-0.464064858527509	0.811798466199355	-2.00718531508118E-02	-1.74016533694481E-02			-2.01039313355703E-02	-1.74375913392286E-02	-0.635092902440201	0.697735751038103
1983125000	-0.460941659128623	0.811704752329451	-2.01113700212867E-02	-1.73875641181788E-02			-0.02015179841677	-1.73639465662625E-02	-0.632523881015	0.699916719174359
1983750000	-0.459364874972565	0.813430000014918	-2.01685501175756E-02	-1.73488969734662E-02			-2.02046291316715E-02	-1.74057543337618E-02	-0.632312729240201	0.700135002226152
1984375000	-0.457960026060266	0.813882990399415	-2.03953853780689E-02	-1.73182461895566E-02			-2.04050136126747E-02	-1.73767665038727E-02	-0.631238504939351	0.700320287410221
1985000000	-0.457433632081814	0.813961052870515	-2.05341143605734E-02	-0.016564518900298			-2.05870205360879E-02	-0.016603418299941	-0.628707482132969	0.700771680510918
1985625000	-0.455302702472149	0.814826686087189	-2.00153272474815E-02	-1.68711766308631E-02			-2.00903969491475E-02	-0.016922732567659	-0.627859846449074	0.702619937242904
1986250000	-0.453504312366673	0.815895242734743	-0.020197512818588	-1.68892888745987E-02			-2.02159265812172E-02	-1.69229728134924E-02	-0.624889442646411	0.703953263910807
1986875000	-0.451220917101172	0.817386041461696	-0.020097596354722	-1.67095284124564E-02			-2.01730479596712E-02	-1.67781373791818E-02	-0.623692408928526	0.69815089406921
1987500000	-0.448890710653243	0.817884083960618	-2.01211882086742E-02	-1.67037654578627E-02			-2.01148550736037E-02	-1.67211739217349E-02	-0.627318113598935	0.702192298054261
1988125000	-0.44677127486131	0.8133070545893	-2.02022306543538E-02	-1.65570045918977E-02			-2.02469924812948E-02	-1.66343097456713E-02	-0.627569320826452	0.706120163355731
1988750000	-0.452685889455112	0.815114815350616	-1.99220453937373E-02	-1.65663412698737E-02			-1.99309039990927E-02	-1.66123700906274E-02	-0.625091737057748	0.705704230097622
1989375000	-0.449273329222205	0.817063063976385	-1.99297659682547E-02	-1.66311843361011E-02			-1.99177124207681E-02	-1.66679614812844E-02	-0.625277553274337	0.703959861029817
1990000000	-0.446926667578663	0.817739260798897	-1.99412129147606E-02	-1.66155235117043E-02			-1.99670696807317E-02	-1.66526921711208E-02	-0.624877309551403	0.70673740781875
1990625000	-0.447377815872228	0.820604296889433	-1.99424205319838E-02	-1.66455359565057E-02			-1.99133703393879E-02	-1.66524600911717E-02	-0.623551699739135	0.707515727026384
1991250000	-0.446200226603625	0.821439031157265	-1.99933713883482E-02	-1.65837259315407E-02			-2.00378327439335E-02	-1.66697053105118E-02	-0.622263323667934	0.709980734288809
1991875000	-0.443860269959791	0.822687943838544	-2.00546692869095E-02	-1.64799012927778E-02			-2.00834639759279E-02	-1.65996884852396E-02	-0.619019141035298	0.710593777961559
1992500000	-0.44314296310408	0.823609676547635	-2.00637723435999E-02	-1.64989612397174E-02			-2.00936713111277E-02	-0.016553956294572	-0.619560815253179	0.711829301112445
1993125000	-0.441993105026182	0.82469421102248	-2.00905748517894E-02	-1.64772176687303E-02			-0.020106168279964	-1.65156668443225E-02	-0.617975784797398	0.712966867173706
1993750000	-0.440705318387101	0.826906580941497	-2.01476015402388E-02	-1.64111062517262E-02			-0.020128794692242	-1.64606943123051E-02	-0.617317515824903	0.713306757010729
1994375000	-0.438234159219634	0.825944596173272	-2.00520355030923E-02	-1.63593627060708E-02			-2.01146822282886E-02	-1.63443722222096E-02	-0.615785167594861	0.714685608782298
1995000000	-0.43581281583241	0.826614487981594	-2.00534887764331E-02	-1.62893556087736E-02			-2.00808047759878E-02	-1.63279497809258E-02	-0.615322380055497	0.7152532081524
1995625000	-0.435460072421037	0.827773058345827	-2.00671697353033E-02	-1.62852215438832E-02			-2.00684638929754E-02	-1.62853289680542E-02	-0.613661538469644	0.717103013862357
1996250000	-0.433452291473473	0.828076912359343	-2.00896932679915E-02	-1.61710110822435E-02			-0.020058503997901	-1.62631444459439E-02	-0.612933315665881	0.717370995057164
1996875000	-0.431088857556953	0.828520946275653	-2.00688693925837E-02	-1.61374762489457E-02			-2.00663563460634E-02	-1.62306532199268E-02	-0.611151838202191	0.717721509348633
1997500000	-0.430552662765411	0.830801594863468	-2.00794567814159E-02	-1.60965368006745E-02			-2.00994974337247E-02	-1.62093032462654E-02	-0.610163425438125	0.719964874327168
1998125000	-0.428726364689211	0.829648799539372	-2.00429684808605E-02	-1.60605030996933E-02			-2.00673801991198E-02	-1.61773070098109E-02	-0.609312378975564	0.720080828228497
1998750000	-0.426351808255364	0.829824548299309	-2.00729737972225E-02	-1.60783109651754E-02			-0.020140303224083	-1.61251982393707E-02	-0.609269156649497	0.721806621853283
1999375000	-0.424642002576274	0.831590527096279	-2.00550754750128E-02	-1.60296166918715E-02			-2.01555426845325E-02	-1.60766088266416E-02	-0.606624202656639	0.723149711007933
2000000000	-0.423028448133536	0.831504250835374	-2.01584407161362E-02	-1.60150912787357E-02			-2.01931257112762E-02	-1.60331300545467E-02	-0.605830125695278	0.723081982833482
2000625000	-0.421467820596859	0.832376151770394	-2.02017489764829E-02	-1.58995392726057E-02			-0.020207843808879	-1.59886740828085E-02	-0.605191561153596	0.723547550725895
2001250000	-0.420357495527426	0.831736093498615	-2.02857812991546E-02	-1.57475417364337E-02			-2.03228064001311E-02	-1.57968380282786E-02	-0.603785276545397	0.724779313834606
2001875000	-0.419001841835094	0.83241372498179	-2.00044590077703E-02	-1.56015867224959E-02			-2.00697525042867E-02	-1.56053065043012E-02	-0.601136411331756	0.723838025318151
2002500000	-0.416495872868685	0.833387197256597	-2.00016163607291E-02	-1.56657591686429E-02			-2.00455825455046E-02	-1.57185200604444E-02	-0.60032773739561	0.726944710476495
2003125000	-0.414055082166993	0.833323807417324	-2.00130611519581E-02	-1.56388503644066E-02			-2.00401634445258E-02	-1.57050637638105E-02	-0.598997792639647	0.726781130146707
2003750000	-0.413971857853383	0.83370709148417	-2.00191002880812E-02	-1.56371175668209E-02			-2.00746041172555E-02	-1.56859338372332E-02	-0.597818886226064	0.727315074424822
2004375000	-0.41301333945073	0.83244372445319	-1.99987332428719E-02	-1.55993778916292E-02			-1.99667101078839E-02	-1.56096453440567E-02	-0.597067551687121	0.726783443816935
2005000000	-0.411571318451334	0.833583099033683	-2.00056952267676E-02	-1.55347662542172E-02			-2.00316919116361E-02	-1.56076705852629E-02	-0.596837120695109	0.727149871080677
2005625000	-0.409912988593915	0.833255893015416	-1.99436647739596E-02	-1.55216334278709E-02			-2.00364040025033E-02	-0.015563774490114	-0.595186964785294	0.727908787134157
2006250000	-0.409247468789499	0.833680152255617	-1.99934860141114E-02	-1.54618495455661E-02			-1.99812816708586E-02	-1.55660611035496E-02	-0.595036829686242	0.728879727969573
2006875000	-0.408309206043091	0.834853918449309	-2.00117131608076E-02	-1.54525051861233E-02			-1.99787654873482E-02	-0.01548390526971	-0.593433094627979	0.7291283890291
2007500000	-0.407706612101211	0.835054489299259	-2.00072199491408E-02	-1.54357033788172E-02			-0.019985572125826	-1.54413392089561E-02	-0.593171279142035	0.730111866037491
2008125000	-0.405224478061976	0.834874339681691	-1.99787190716756E-02	-1.52983580964911E-02			-2.00317282749508E-02	-1.54218336588677E-02	-0.592362620767023	0.731245695786408
2008750000	-0.405826825725285	0.83545747840818	-2.00080738216537E-02	-1.53042960821173E-02			-2.00259957874584E-02	-1.53996244432601E-02	-0.592000801803239	0.732294538210832
2009375000	-0.403840360854755	0.835894907869509	-1.99939029107892E-02	-1.52850142535934E-02			-2.00283602450045E-02	-1.53361993285343E-02	-0.589409337133213	0.73358668618713
2010000000	-0.403003589938284	0.837304564112769	-0.020023680489861	-1.51990268771855E-02			-2.00749371601883E-02	-1.53095155337215E-02	-0.589815998128459	0.734032478510711
2010625000	-0.401739102479149	0.838053602585729	-1.99525860770656E-02	-1.51579876326136E-02			-1.99992198486114E-02	-1.52472177142939E-02	-0.589964519138654	0.735022148471938
2011250000	-0.40256614910655	0.838464019502778	-1.99927733596885E-02	-1.51655864216325E-02			-2.00510249121598E-02	-1.52441809015897E-02	-0.587751577944325	0.735740275335167
