# Hz S RI R 50
10000000	0.995144763670354	-9.82827028658309E-02	1.3289331722825E-05	3.43891887708385E-05			-5.95918634693684E-06	2.65407100674459E-05	0.994948569117938	-0.097599596881574
10556250	0.994481454343832	-0.103667620388263	4.96964551213386E-06	1.06767145720266E-04			6.98331625323494E-06	1.04039011172053E-04	0.994616702938839	-0.102960077902071
11112500	0.993721681659661	-0.109383334057495	-4.38010639224371E-06	1.83821996542109E-05			1.14915478676055E-05	-6.13780541038514E-08	0.993896878064754	-0.108084047413283
11668750	0.993378242828322	-0.114791426326978	1.12299827239599E-04	-5.26643597826641E-05			1.02812804124624E-04	-4.53851076479486E-05	0.993764709264985	-0.113514360805707
12225000	0.992503115477737	-0.12015361393494	2.21073282390876E-05	4.83215578845821E-05			2.97834222140916E-05	3.12557314304103E-05	0.992714792130387	-0.118929796716186
12781250	0.992033516532145	-0.125177671272571	4.93215366939599E-05	1.69971396793765E-05			4.09107096567867E-05	3.03462241363495E-05	0.991913615275026	-0.124415737937922
13337500	0.991248875478264	-0.130570571603719	-1.93387518358138E-05	5.14466435374214E-05			-1.54349888249211E-05	4.30693267728651E-05	0.991209409414943	-0.129677073644928
13893750	0.990397100844327	-0.135956170338551	5.09817697252144E-06	6.77249138053107E-06			2.69253622086015E-05	9.18651308461755E-06	0.990344849981549	-0.135017016161337
14450000	0.989905370813189	-0.142244539975114	6.50727858335378E-05	2.03383707493725E-05			8.34261469027043E-05	4.42094717555026E-05	0.989785179477414	-0.140758430618534
15006250	0.988836197633249	-0.147112281595729	-1.22682111067893E-05	4.95947759094108E-05			-8.84675309561254E-06	2.46486679153892E-05	0.989086250503416	-0.146019384731747
15562500	0.988247940408611	-0.152244785661458	2.50597374672239E-05	8.17177564138684E-05			1.08912126307277E-05	6.73064672514006E-05	0.988398940219674	-0.151011583799913
16118750	0.987496177407766	-0.157679558303555	-4.40383733656384E-05	1.47121880164211E-05			-2.03611837802231E-05	7.39346752218863E-06	0.987468100313757	-0.156785183444492
16675000	0.986289047153325	-0.163533416205853	-5.30298994415466E-06	5.92556396444586E-05			3.51294570723529E-06	4.71874230073144E-05	0.986394971434003	-0.161823052890748
17231250	0.985525295823129	-0.168346319858085	1.47116558664983E-05	1.87255675392881E-04			9.28241431348938E-06	1.74371345477229E-04	0.985816035930935	-0.1670409277135
17787500	0.984593729761399	-0.173860820191987	2.12488733603854E-05	9.65467873951071E-05			2.82367737024528E-07	9.07934694882345E-05	0.984504624629889	-0.172258742608392
18343750	0.983057077411217	-0.17942332677933	3.58404992181778E-05	1.20056982596615E-04			1.02122104600834E-05	1.0567880536225E-04	0.983692506994361	-0.177863485824387
18900000	0.982587840111226	-0.184137913102854	9.1871920370695E-05	4.06271350269402E-05			8.89977960831448E-05	1.63585107830644E-05	0.982270106026345	-0.18294543108888
19456250	0.981696761366376	-0.190049864711719	-7.62418120085449E-05	1.19743809997079E-04			-4.04697865392489E-05	8.84940852773013E-05	0.981647691970287	-0.188254365210771
20012500	0.980658584770124	-0.195368166951076	-9.95390543967159E-06	1.58704953383593E-04			1.70365092719585E-05	1.72456825996614E-04	0.980138792861591	-0.193739604662409
20568750	0.979788024633617	-0.20053572465107	2.34244373604335E-05	2.16491149489721E-04			2.39278354053736E-05	2.02953086171385E-04	0.979362207066648	-0.199205118405119
21125000	0.978199189926753	-0.205731986943824	1.07848371216695E-04	1.4841337178173E-04			1.11705418016941E-04	1.46156773432699E-04	0.978317485527421	-0.20400343136052
21681250	0.977322682848199	-0.211117920706472	3.60689372422054E-05	7.26333880237754E-05			5.0737826572802E-05	8.48771809423622E-05	0.977198218327076	-0.209267012046054
22237500	0.975958833017318	-0.216911751390997	1.8014854526423E-05	6.00062990194031E-05			-9.83043883332137E-07	8.15983012629673E-05	0.976326837190539	-0.214506867771319
22793750	0.974776503163609	-0.222123541499705	2.34689746842574E-05	7.71103558702758E-05			3.13322048567303E-05	7.34937768568811E-05	0.974817298659939	-0.22013471335579
23350000	0.973568176919489	-0.227016718086086	1.12513541730219E-06	1.77509667646445E-04			1.10486974869356E-05	1.70290975298382E-04	0.973877089208924	-0.225163345879376
23906250	0.972266448832428	-0.23254600788109	3.12852101510721E-05	1.19565161777926E-04			-2.80385770510923E-06	1.05235227291628E-04	0.972263192470043	-0.230617478240189
24462500	0.971155302095253	-0.237365608692051	5.53186368836234E-05	1.31923924330121E-04			6.49172629655656E-05	1.32123993884567E-04	0.971074153340418	-0.235437497343371
25018750	0.96962532874411	-0.243119854174997	3.92650025080036E-05	1.9704745870016E-04			2.62384307946578E-05	1.74097516907101E-04	0.97016999735936	-0.240860212087926
25575000	0.968743200277295	-0.248061867241045	-3.59204748876031E-06	1.77203869689901E-04			3.16933749620745E-05	1.51856632516534E-04	0.968425501123572	-0.246098959974722
26131250	0.967125672437397	-0.253883136872835	4.49912286530149E-05	1.25841262483432E-04			1.4737980805855E-05	1.23310811406579E-04	0.967096129724417	-0.251279714615501
26687500	0.965160076611418	-0.259248122580721	-2.02501871973089E-05	1.75750362713021E-04			-2.00926570411078E-05	1.69823170685719E-04	0.965829868052879	-0.256593088998977
27243750	0.962300079340616	-0.262087589948651	2.87647252324921E-04	-1.44617213334007E-04			2.79012486955897E-04	-1.50862669655661E-04	0.96379186654407	-0.261528238957277
27800000	0.962897155991001	-0.26861460851144	6.91412868433104E-05	1.30672590782504E-04			4.06474523191387E-05	1.42428980342628E-04	0.962971329986757	-0.26664742654151
28356250	0.961637323031429	-0.273996955624787	3.10046629462405E-05	1.11027956929475E-04			3.27113143734216E-05	1.13696098188353E-04	0.961686213052116	-0.271596663195744
28912500	0.959860736308338	-0.279448710198925	9.94083090274453E-05	8.59326393737399E-05			1.21768952171242E-04	7.2137623675191E-05	0.960007056376086	-0.276575651948635
29468750	0.958219900695194	-0.284360049071351	4.71577793447232E-05	6.23451495149873E-05			8.16989589475824E-05	3.88040920790146E-05	0.958668689599007	-0.281972865402226
30025000	0.957126302761654	-0.289608144697527	5.79375925016173E-05	2.0222589724572E-04			3.33175199114659E-05	1.83114836620942E-04	0.957050610081464	-0.28707989846351
30581250	0.955481658690261	-0.294913177464682	1.14964832079398E-04	2.57958083393958E-04			1.08686969925833E-04	2.75799925333528E-04	0.955200975754977	-0.292345087964394
31137500	0.953921424382951	-0.300031098491082	1.44892433003414E-04	1.67019196005857E-04			1.27216358008087E-04	1.86011814248376E-04	0.953734304407382	-0.297280204091512
31693750	0.952020334885555	-0.304993293188466	5.55998769059431E-05	3.49309804442115E-05			4.86368549484819E-05	2.6632157083049E-05	0.952130204729992	-0.302563714586707
32250000	0.950269403032848	-0.310468976488595	-1.50141846816283E-04	8.71529230829556E-05			-1.32834611315173E-04	8.27421892004457E-05	0.950338591605692	-0.307371411438546
32806250	0.948549746972631	-0.315237139584917	3.43216169693349E-05	8.24359386625799E-05			4.03556376870528E-05	1.20383559386797E-04	0.949091896176055	-0.312593389780696
33362500	0.946792736461039	-0.320879211487421	9.51173866780724E-05	2.58228279744704E-04			8.2059381336656E-05	2.862074436102E-04	0.946450202815665	-0.317485149949606
33918750	0.945257915484303	-0.325459846587398	6.45397062807636E-05	1.9734472129358E-04			6.88931308905388E-05	2.13177404348465E-04	0.945341533312247	-0.32227126462013
34475000	0.943357623976887	-0.330944924575076	1.41457642535163E-04	1.35878603557484E-05			1.10886597412304E-04	-1.31639212316236E-06	0.943597553444777	-0.32773833883371
35031250	0.941481355793521	-0.335738978370537	4.13778950608142E-05	1.73736632326257E-04			7.06436760562177E-05	1.7839859857991E-04	0.941896959590039	-0.332478052021014
35587500	0.939502806021122	-0.341058099340022	7.36687887506978E-05	6.70698645709785E-05			5.43650809393279E-05	9.10915243349444E-05	0.940096207714069	-0.337900288281084
36143750	0.937715190689504	-0.346192546227442	-1.05113565037241E-05	8.06269068097001E-05			-1.3677711406477E-06	5.79649938755326E-05	0.938327393698556	-0.342912907056967
36700000	0.935655087472468	-0.350835441984741	6.57003410081646E-05	4.09094006394761E-05			7.13256781637969E-05	4.15653841310583E-05	0.935936750416301	-0.347472170117433
37256250	0.934484916021329	-0.355912947556278	9.89026320926162E-05	1.1307350880093E-04			1.00219037238804E-04	1.03163064790124E-04	0.934153575962447	-0.352558589982298
37812500	0.932336184309924	-0.360428525963553	-6.2556059753762E-05	-2.07562556325322E-04			-8.42836547483261E-05	-2.30096108551338E-04	0.932364358313433	-0.357360160721692
38368750	0.930402344154318	-0.365741823559709	-4.8413412783165E-05	1.84195810894641E-05			-3.9688959503139E-05	1.09586442178041E-05	0.93057719626622	-0.362380329577608
38925000	0.928205028395729	-0.370378570803528	-9.6154307713313E-05	1.72106376705911E-04			-1.12507604759977E-04	1.67132663048216E-04	0.928698988595047	-0.367056919680562
39481250	0.926279619971499	-0.375612058578958	-6.29174056834791E-05	3.43122383692545E-04			-9.68277456580409E-05	3.53977533615459E-04	0.926493085988291	-0.37180912494418
40037500	0.924422091285237	-0.380356696734728	2.08050801865001E-05	3.37656304514842E-04			-7.76965179719107E-06	3.57550236977322E-04	0.924770577349483	-0.376834782268251
40593750	0.922266383002053	-0.385388464766958	1.29575354024514E-04	1.93031866590593E-04			1.0397402693812E-04	1.70935831586785E-04	0.922919243302598	-0.381692036231308
41150000	0.920233900361183	-0.390160051975623	-4.29651503061359E-06	2.53929594093966E-04			-1.96082145211892E-06	2.44698108418311E-04	0.920626095619229	-0.386558412548391
41706250	0.917994164348676	-0.395072937616496	2.74275959533765E-04	2.24802389079375E-04			2.88949646499854E-04	2.19343842461121E-04	0.918502816108089	-0.391525219846634
42262500	0.916529832571543	-0.400191516770151	5.26406349964611E-05	1.44455263955904E-04			6.17533317537954E-05	1.52203621375515E-04	0.916815057646265	-0.396145988637882
42818750	0.913944346890155	-0.405342678094818	-4.90967139830931E-05	1.92682843134711E-04			-1.53920183008142E-05	1.71343216440475E-04	0.91392601667367	-0.401174427585677
43375000	0.911563868468324	-0.409824452994433	2.14488385486072E-04	1.63928571058606E-04			2.0352400851038E-04	1.62293836393149E-04	0.912108064985242	-0.405979246464563
43931250	0.90903754899728	-0.415111071692871	3.65780683205784E-04	1.17716243213874E-04			3.32193153032453E-04	7.99499744219077E-05	0.909082659718559	-0.41057940122804
44487500	0.907499190545371	-0.419352549605557	4.90833980832384E-05	1.54122932141533E-04			3.8593644344072E-05	1.72179082936963E-04	0.907929072555766	-0.415020520736275
45043750	0.904539639565839	-0.42467179400698	1.07231255985235E-04	2.25553517652639E-04			1.32130990549333E-04	2.35338053607224E-04	0.905357833323972	-0.420527610713035
45600000	0.902912631797557	-0.427949323787614	-3.78338537570419E-05	1.02922725656588E-04			-4.54936492054767E-05	1.19770316994455E-04	0.903345697801356	-0.424551158466789
46156250	0.900437569976568	-0.433200853076992	1.86270695301484E-04	1.97467739345815E-04			2.00811890504402E-04	2.13187127987818E-04	0.900715567536766	-0.429452735618045
46712500	0.897922413964034	-0.438189268376175	4.88487415844417E-06	1.01573614808264E-04			-7.11027282604986E-06	1.09231416967337E-04	0.898719718085214	-0.434122028187603
47268750	0.896022026597701	-0.442767460435097	1.39272666050139E-05	2.99269561493986E-04			-2.08494000110294E-05	2.59271197598018E-04	0.896506711186523	-0.439005438550055
47825000	0.893377828097185	-0.447656527795478	1.10471466903848E-04	2.07341765049324E-04			1.18229444852618E-04	1.73439861261353E-04	0.89404179210972	-0.443823203890352
48381250	0.891100463856566	-0.452206530853241	1.09576376294555E-04	3.84797721687159E-05			1.23962398634826E-04	4.98568660514958E-05	0.891779958898336	-0.44801247734836
48937500	0.888740087342001	-0.456956640413544	4.66619512907659E-05	1.01120904039378E-04			7.19598041735004E-06	1.03930853010786E-04	0.889114395200148	-0.452975257311737
49493750	0.886213221385641	-0.461883528756524	1.51165974751024E-04	2.47123582006051E-04			1.6760771473805E-04	2.25549249996092E-04	0.886617765786079	-0.457490278092208
50050000	0.883467554846438	-0.466616061060251	3.83531776597033E-05	4.20159567317096E-04			4.60453923142387E-05	4.02675358291989E-04	0.884178822135757	-0.461831460253046
50606250	0.881378555630696	-0.470819434175581	7.65335734848966E-05	2.4437421206435E-04			6.48625939933799E-05	2.51284436069829E-04	0.882086687641952	-0.466476787527582
51162500	0.87909574079977	-0.475479563870353	4.1259968720793E-04	2.45273012566089E-04			3.94892337426331E-04	2.35563569797702E-04	0.879280768170192	-0.470767645701992
51718750	0.876319032355603	-0.480253437389407	1.46273266041786E-04	1.01609613510408E-04			1.47940453029893E-04	7.93565916779331E-05	0.877012296542207	-0.475564479170363
52275000	0.873988987512923	-0.485017186636767	8.82563256059377E-05	1.62207007053362E-04			8.49722300630483E-05	1.54155821174043E-04	0.874555343284497	-0.48015970037748
52831250	0.87155681136401	-0.489531294510278	7.40033973506522E-05	1.85485675427411E-04			8.04689150982342E-05	1.49253574404808E-04	0.872188635689963	-0.484702983513922
53387500	0.868727582789003	-0.49419255930142	1.06604099877152E-04	2.28336341010156E-04			6.86749723270242E-05	2.13190804891402E-04	0.869511543704661	-0.489046462905027
53943750	0.865934963099312	-0.498453849850373	1.35384634027036E-04	3.05747566479713E-04			1.3524229998126E-04	3.07597153764673E-04	0.866799417940016	-0.493661487540609
54500000	0.862837897484637	-0.501874212972488	2.7018342427124E-04	3.66295586389242E-05			2.85066946924798E-04	4.53020601917325E-05	0.863888646425725	-0.497830469799139
55056250	0.861168508359728	-0.507078414048937	1.40189822894401E-04	2.46612301053365E-04			1.5901051164447E-04	2.36067164836536E-04	0.861704360772115	-0.502649496658191
55612500	0.858181005698573	-0.511506819031094	2.71585876294409E-04	1.66213274662833E-04			2.63065400215551E-04	1.49252535543508E-04	0.859496823114326	-0.506543101150046
56168750	0.85528348184295	-0.516349447745344	2.05658285994277E-05	7.85919950659634E-05			4.29670995661918E-05	7.59108119471019E-05	0.85646496527559	-0.511369805675609
56725000	0.853186238839767	-0.520244812545916	-2.73240495902905E-05	2.64130824126885E-04			-1.92389203512434E-05	2.69609262843191E-04	0.85322458859107	-0.514952136238068
57281250	0.850453625890381	-0.524776269211193	1.27188540592151E-04	2.69531313814005E-04			1.17519664621745E-04	2.68852506968089E-04	0.851154591771902	-0.51980512614686
57837500	0.847107667588931	-0.529036792985291	2.37908016934202E-04	1.45681311935644E-05			2.2901230706475E-04	1.18305210659446E-05	0.848279175268307	-0.524028735356653
58393750	0.844865024976795	-0.533512775843844	4.68041394705938E-05	8.40423234472684E-05			1.71040931302708E-05	7.59771425719728E-05	0.845987941592423	-0.52875111601041
58950000	0.841639860349255	-0.538472557659963	-1.39283167519139E-04	1.29944411776283E-04			-1.30827686391587E-04	9.41599626641721E-05	0.842732753109702	-0.532836404769378
59506250	0.83876211251251	-0.542769402012652	8.23698695990479E-05	3.1826213040719E-04			1.15740556488361E-04	2.93233120224029E-04	0.83989480860201	-0.537057213707198
60062500	0.836077683679945	-0.546929645488997	1.29569927878819E-04	1.98426990330109E-04			1.3805478401656E-04	1.83602571431846E-04	0.83764409863311	-0.541324846166862
60618750	0.832803174548547	-0.55125984613808	3.44871210877474E-04	3.97824457766737E-04			3.36860731253578E-04	4.16595211911523E-04	0.834500394916324	-0.545273786158474
61175000	0.830496261049325	-0.55587712283708	2.14531281036833E-04	2.08773360673676E-04			1.70329949534032E-04	2.27457544772118E-04	0.83178275495083	-0.549679771273864
61731250	0.827494830795652	-0.559855373613331	2.19243920997936E-04	1.26231653170789E-04			2.1015321973397E-04	1.13332039753535E-04	0.828750292298697	-0.554252978508401
62287500	0.824415318578728	-0.564485566021258	4.730865270987E-05	1.18362677695056E-04			3.41738288178488E-05	1.43825416355245E-04	0.82602436946762	-0.558569774748376
62843750	0.821189215989507	-0.568712124454226	1.54326726325106E-04	1.51803611077353E-04			1.72590708544623E-04	1.78329784879817E-04	0.822771534847347	-0.56241661414943
63400000	0.818170948029315	-0.570903934447122	-1.74946479038128E-06	1.10732001643069E-04			-9.61372534710289E-06	9.50609960613529E-05	0.81962717720107	-0.566105497921763
63956250	0.815824656109659	-0.576097599902093	1.26018244208691E-04	1.13327043223789E-04			1.09780884883362E-04	1.17182600233701E-04	0.817176144529354	-0.570575697501398
64512500	0.812759106270508	-0.58050080057284	2.73945395989353E-06	1.6552451729064E-04			2.48008729501948E-05	2.02457571384937E-04	0.814316609337243	-0.574627388826232
65068750	0.809650269293902	-0.584155620722123	-6.03121620006875E-05	3.47918175291867E-04			-7.39992484786521E-05	3.75550270065736E-04	0.811213485160662	-0.578386223587107
65625000	0.807190784460927	-0.588730639517861	2.38464833493662E-04	2.15598584400784E-04			2.22651670531516E-04	1.93258724150549E-04	0.808719520300109	-0.582814772430326
66181250	0.804041120721133	-0.592940345360265	1.31661598626715E-04	1.40377985212774E-04			1.36916395972148E-04	1.21683867713558E-04	0.805585035999467	-0.586777670015881
66737500	0.80041033838257	-0.59706491141298	5.94340269327137E-05	7.00127470054466E-05			7.28780007100628E-05	6.18403063980828E-05	0.802311939344902	-0.591014009854551
67293750	0.7979340299543	-0.601280747254817	1.00638861604646E-04	2.08051154621753E-04			9.53216186332515E-05	2.09086146001295E-04	0.799946596464752	-0.594607730999352
67850000	0.794718299926325	-0.605503181986155	8.37242994934469E-05	2.24656188872795E-04			9.17170932953685E-05	1.92186350473606E-04	0.796574610493349	-0.598408720575206
68406250	0.791791980839241	-0.609222180741358	9.48120229663561E-05	6.60894241696944E-05			1.18998418586284E-04	1.78158376800157E-05	0.793300771557471	-0.602465679121048
68962500	0.788387817938448	-0.613034349007515	2.02748124163514E-04	2.88559534564697E-04			1.83592260990056E-04	2.81646434562607E-04	0.790289660206787	-0.606604244254023
69518750	0.785163989617693	-0.617077689855094	-4.20967446118774E-05	2.09183402033594E-04			-6.95916972936111E-05	1.88240419139157E-04	0.787515550444287	-0.610641515174917
70075000	0.782027272716138	-0.621208070735936	2.11647807744145E-04	1.3341952855523E-04			2.42421411823979E-04	1.54858659151272E-04	0.783921449783357	-0.614313643450723
70631250	0.778918321984323	-0.625221118878723	5.79857674549152E-05	2.30216775689891E-04			3.38208803990682E-05	2.42184796050039E-04	0.78113565342259	-0.618697731061466
71187500	0.775628432435185	-0.62889997422934	2.63545562982889E-04	1.89512830810653E-04			2.8076937720203E-04	1.71902678051353E-04	0.778182481084691	-0.622067353338369
71743750	0.772590334241668	-0.633091637798124	1.07899658984084E-04	1.32797134897214E-04			1.19389891002463E-04	8.07163826207071E-05	0.774757313602878	-0.62621564164793
72300000	0.7686430855622	-0.636506433565895	1.55873788368442E-04	-1.00850317360998E-04			1.48224273031791E-04	-8.95840042792917E-05	0.771288375018584	-0.630167524770099
72856250	0.765997011182752	-0.640683724151806	-5.06540740660114E-05	1.240485440268E-04			-2.44991507339819E-05	1.0586432499491E-04	0.768434670885733	-0.633834646056326
73412500	0.76312138980645	-0.643709588278476	-1.59985758315036E-04	3.08724671294822E-04			-1.56198273113389E-04	3.09722129389956E-04	0.76568951360259	-0.636984007421857
73968750	0.759601772415003	-0.648237751461803	-6.47548245067658E-05	4.34231067658247E-04			-7.40974901483547E-05	4.29778616806616E-04	0.762335923202401	-0.640751200249088
74525000	0.75653319976433	-0.651558082675948	1.94505336397671E-04	3.47800640344123E-04			2.06350091847457E-04	3.56980233003593E-04	0.759207455835144	-0.644555850357564
75081250	0.753417639039253	-0.655528707418193	3.3968203102657E-04	3.74972904688692E-04			3.39161626746222E-04	3.65785265363623E-04	0.755929725260248	-0.648270423628149
