# Hz S RI R 50
1447500000	-0.94587213635821	-0.10433273091094	1.08569869951659E-02	-8.42735155825315E-02			1.08082727108189E-02	-8.48264820741201E-02	-0.965719859381711	-9.88153642027183E-02
1447875000	-0.947457607333831	-0.10342154584152	1.07870132854995E-02	-8.43182274675962E-02			1.07230600994478E-02	-8.48413844617431E-02	-0.965251943837633	-9.77690421345971E-02
1448250000	-0.948372743901419	-0.102368180483506	1.07361541966773E-02	-8.42705009475014E-02			1.06631774977159E-02	-8.48299413668146E-02	-0.964127505791135	-9.78451178002759E-02
1448625000	-0.949010176922073	-0.100913766299063	1.06939305658263E-02	-8.42747940762552E-02			1.06537082194722E-02	-8.47852210069635E-02	-0.964225267874228	-9.86740780972894E-02
1449000000	-0.949469306018549	-0.099578728968909	1.06561374920805E-02	-8.43195602670791E-02			1.06615402615138E-02	-8.48990778591499E-02	-0.965634751761921	-0.098366943594401
1449375000	-0.949934272424074	-9.87494084639657E-02	1.05902971541102E-02	-8.43448370245078E-02			1.05901946689639E-02	-8.49301627575634E-02	-0.966583807113984	-9.75391920492109E-02
1449750000	-0.949467741758311	-9.77426781784585E-02	1.05238355498773E-02	-8.43631720482958E-02			1.05173915351697E-02	-8.49867785023495E-02	-0.96744154919291	-9.67608197359022E-02
1450125000	-0.950497673054565	-9.61304802034654E-02	1.03448852248032E-02	-8.44173937874289E-02			1.04091295539245E-02	-8.50242761759172E-02	-0.967814612755828	-9.55374282158647E-02
1450500000	-0.950486517404721	-9.50967670014523E-02	1.02386258253899E-02	-8.44426092098124E-02			0.010239230794834	-8.50272723559943E-02	-0.968123627901105	-9.43529144909303E-02
1450875000	-0.950470129169345	-9.40209567825532E-02	1.01319872576797E-02	-8.43890358607327E-02			1.01387023988791E-02	-8.50495826950755E-02	-0.968419314267254	-9.33431834304739E-02
1451250000	-0.950601216677567	-9.27660825611608E-02	1.00132969317193E-02	-8.44141165876112E-02			9.95907530771874E-03	-8.50378407197815E-02	-0.968706595542136	-9.18916645172577E-02
1451625000	-0.950794027086549	-9.17615088998955E-02	9.90917641567069E-03	-8.44267539218548E-02			9.84521102298731E-03	-8.50409874914601E-02	-0.968664022761305	-9.07048681904456E-02
1452000000	-0.951075698240177	-9.01279903531164E-02	9.76109277480695E-03	-8.44263300367975E-02			9.72848007118887E-03	-8.50234560971256E-02	-0.968753040765327	-8.96482628975626E-02
1452375000	-0.950271930622012	-8.93024377685217E-02	9.64397791503019E-03	-8.44374688121907E-02			9.58650990663634E-03	-8.50661039904541E-02	-0.968851217880504	-8.84012324226088E-02
1452750000	-0.950433108329996	-8.80170284329432E-02	9.45496826865087E-03	-8.45425311097111E-02			9.34277931742271E-03	-8.51537834282808E-02	-0.968692420671139	-8.68853610950477E-02
1453125000	-0.949649063648265	-0.086835490763842	8.89828367311186E-03	-8.48847063046434E-02			8.8220039766948E-03	-8.54668444900221E-02	-0.9682419101479	-8.58046018013155E-02
1453500000	-0.949046522983271	-8.72307570977912E-02	8.06464088410176E-03	-0.083187442399748			7.98865515805542E-03	-8.37058851441043E-02	-0.966978217141946	-8.61279361283136E-02
1453875000	-0.949961056305643	-8.63513567371584E-02	9.26653777019727E-03	-8.32481656569046E-02			9.1523187647869E-03	-8.38415686764695E-02	-0.968319293675858	-8.54885085630931E-02
1454250000	-0.949840792008823	-8.52859894452625E-02	9.33265909053035E-03	-8.34613178251517E-02			9.23045137222364E-03	-8.40697189232743E-02	-0.968763377294134	-8.40322462049082E-02
1454625000	-0.950351107646851	-8.41637066011871E-02	9.26415979601578E-03	-8.35701728930278E-02			9.17820388131571E-03	-8.41372558993122E-02	-0.968722349466198	-0.083288434594406
1455000000	-0.950267087175819	-8.31820554748752E-02	9.22964937948828E-03	-8.35707841799434E-02			9.0866099971161E-03	-0.084177489217588	-0.968915916406949	-0.082064155070726
1455375000	-0.950189489427333	-8.21393568262229E-02	9.18067700330328E-03	-0.083549306157267			9.04361238751854E-03	-8.41241873683228E-02	-0.968536666775626	-8.11533227672238E-02
1455750000	-0.950647905748734	-8.10043378614511E-02	9.07036965240968E-03	-8.35441201558798E-02			9.00675233580362E-03	-8.40959439282842E-02	-0.968458839080441	-8.02118100910446E-02
1456125000	-0.949993278803035	-8.05093261590049E-02	9.08236924957765E-03	-8.35080267149369E-02			8.92778396996616E-03	-8.40514701792983E-02	-0.96846142053856	-7.94177809415629E-02
1456500000	-0.950063497545865	-7.90776926752514E-02	9.00204945893948E-03	-0.083465982812166			8.88813656296224E-03	-8.40370083384821E-02	-0.968416891240355	-7.84198718389142E-02
1456875000	-0.95023434870243	-0.078259376456289	8.95484621474048E-03	-8.34839185447451E-02			8.9131250428405E-03	-8.40159434357269E-02	-0.968433628926506	-7.80834786746468E-02
1457250000	-0.950775033741007	-7.73922441616505E-02	8.9434011898905E-03	-0.083511749219463			8.87368201539955E-03	-8.39941990635012E-02	-0.968282273295688	-7.75147783020099E-02
1457625000	-0.95063870737351	-7.66245110405289E-02	8.91077617149945E-03	-8.34834115663585E-02			8.82080279938985E-03	-8.40135740832124E-02	-0.968352398262665	-7.66081850572132E-02
1458000000	-0.950551576205694	-0.07562213778416	0.008872218440435	-8.35211237391162E-02			8.79465086874861E-03	-8.40383008685861E-02	-0.968541972865794	-0.076006533992572
1458375000	-0.950570493067352	-0.074990244624277	8.82418087938137E-03	-8.34927531590744E-02			8.69566082131117E-03	-8.40381723933746E-02	-0.968774431072189	-7.51920530699431E-02
1458750000	-0.950570691831679	-7.39527718562122E-02	8.8028715601146E-03	-8.34840152851074E-02			8.67909111840634E-03	-8.40574004747302E-02	-0.968793041860712	-7.44633530761423E-02
1459125000	-0.950946783669646	-7.21996273137203E-02	8.63910655715766E-03	-8.35575527341017E-02			8.57244583755429E-03	-8.40543413738987E-02	-0.968936232195097	-7.34270042313536E-02
1459500000	-0.950767480364754	-0.071689475582853	8.61474396612905E-03	-8.35432564278494E-02			8.53143280889865E-03	-8.40334371348697E-02	-0.969049220803768	-7.25263583665222E-02
1459875000	-0.950685258634783	-7.07523127513889E-02	8.52507941317358E-03	-8.35491723197088E-02			8.43371307210112E-03	-8.40975122728245E-02	-0.969251450712184	-7.16938149517365E-02
1460250000	-0.950708658596908	-6.97962735696939E-02	8.40377046550728E-03	-8.35458509006142E-02			8.28834493450266E-03	-8.41003508985986E-02	-0.969531242088154	-7.05210441175629E-02
1460625000	-0.95097938309755	-6.91913075251871E-02	8.33645512144782E-03	-8.35796885072574E-02			8.25730983028927E-03	-0.084088884855914	-0.969573556965986	-6.96733469810196E-02
1461000000	-0.950715781095913	-6.81653835858071E-02	8.23861409103108E-03	-8.35383973480643E-02			8.18012016918031E-03	-8.40411786525255E-02	-0.9696683182329	-0.068804803080878
1461375000	-0.951019754077436	-6.71476991635785E-02	8.19525809508343E-03	-8.35107934854074E-02			8.08980462854603E-03	-8.40060988485043E-02	-0.969591134455655	-6.74952671512088E-02
1461750000	-0.95089741466018	-6.64361867964594E-02	8.1192340087732E-03	-8.35063088394189E-02			8.05982015055325E-03	-8.39942115278313E-02	-0.969508933087902	-6.68138697047911E-02
1462125000	-0.950870315024563	-6.55059487612253E-02	8.06453534663276E-03	-8.35121881728829E-02			0.007955506386492	-8.40080624014688E-02	-0.969736909895931	-6.56898417861727E-02
1462500000	-0.950908529450333	-6.44836650664845E-02	7.93694031240088E-03	-8.35589413352394E-02			7.87617871494287E-03	-0.084037870256664	-0.969460952153355	-6.47927558294179E-02
1462875000	-0.950885328360446	-6.36932138906317E-02	7.88885160320569E-03	-8.35505957291222E-02			7.76290799939831E-03	-8.40426289863325E-02	-0.969388692115354	-0.063985267635162
1463250000	-0.950967791120523	-6.26133458282502E-02	7.74578349382161E-03	-8.35731430405748E-02			7.66585657295636E-03	-8.40854792028429E-02	-0.969815143176851	-6.32248164093304E-02
1463625000	-0.951439796904005	-6.21859729971881E-02	7.66120913870352E-03	-8.35678272771545E-02			7.5559093935134E-03	-8.39992747229964E-02	-0.969245662588755	-6.21620865293179E-02
1464000000	-0.951184123399732	-6.11776348899678E-02	7.51883034739263E-03	-8.35337153654262E-02			7.36227171750115E-03	-8.40394301200633E-02	-0.969815944981868	-6.12370110009814E-02
1464375000	-0.951656559215931	-5.97880311457691E-02	7.38360102126073E-03	-8.35287890240075E-02			7.25094655692696E-03	-8.40078731355584E-02	-0.969494747450673	-0.06030883326156
1464750000	-0.951227857734363	-5.88999025764538E-02	7.26059590891489E-03	-0.083464786558189			7.13509987580441E-03	-8.39434506620995E-02	-0.969582782362743	-5.96371906483271E-02
1465125000	-0.951283743664153	-5.81203060343663E-02	7.17917432221801E-03	-8.34309780953856E-02			7.00169587980109E-03	-8.39276274277924E-02	-0.969869169743841	-5.85799997554206E-02
1465500000	-0.951363860178281	-5.71073920345337E-02	7.05739909391353E-03	-8.34089936364246E-02			6.8992449351911E-03	-0.083897924529995	-0.9696816499636	-0.057971890930528
1465875000	-0.95126835272116	-5.63867662452544E-02	6.92779256606155E-03	-8.33350987896958E-02			6.75499796676214E-03	-8.38457833662623E-02	-0.969771280092306	-5.71933208807372E-02
1466250000	-0.951600249677562	-0.055328907503281	6.76440737779728E-03	-8.33153502748071E-02			6.61187345985156E-03	-8.37656016987473E-02	-0.969943981319181	-5.64556469384306E-02
1466625000	-0.951301438759365	-5.46116160301834E-02	6.68750391425093E-03	-8.31573679754313E-02			6.48175797039546E-03	-8.36467755592949E-02	-0.969947051408161	-5.53464639459055E-02
1467000000	-0.951497800222956	-5.35897191593386E-02	6.60828940534293E-03	-8.30553487096686E-02			6.45258871407354E-03	-8.35282762788484E-02	-0.969757182444364	-5.47552080511985E-02
1467375000	-0.951357602739611	-5.29019694663639E-02	6.61752529555741E-03	-8.29524739516501E-02			0.006391714696247	-8.34359224962638E-02	-0.969818499045016	-5.38182493381906E-02
1467750000	-0.951892879023789	-5.20288146456095E-02	6.53912715375994E-03	-8.29404764548155E-02			6.36490511809412E-03	-8.33880027797304E-02	-0.970075800537059	-5.32399666232778E-02
1468125000	-0.951887285328225	-5.11428839049355E-02	6.49434634682407E-03	-8.29056766973789E-02			6.26306091719801E-03	-8.33672870027003E-02	-0.970147956319922	-5.22521026066735E-02
1468500000	-0.952148674619426	-5.02148715254134E-02	6.47077055110695E-03	-8.28769882963264E-02			6.25985616530828E-03	-8.33360846311272E-02	-0.97067949482376	-5.13319405052697E-02
1468875000	-0.952141386580006	-4.90945901054002E-02	6.39399847770543E-03	-8.28252911215009E-02			6.17411967679017E-03	-8.33092172839198E-02	-0.970805111238349	-5.00933105918819E-02
1469250000	-0.952372491884454	-4.76468408887459E-02	6.30024845288043E-03	-8.28189676086427E-02			6.09621296090094E-03	-8.32901916056798E-02	-0.970946620246985	-4.92683401112217E-02
1469625000	-0.952547917420907	-4.67084700283816E-02	6.23441639327448E-03	-8.27615813857755E-02			6.02372903531539E-03	-8.32368187939759E-02	-0.971022256337832	-4.83256484812404E-02
1470000000	-0.952531402860156	-4.59306623002487E-02	6.18855667207892E-03	-8.27640308735855E-02			5.97148464440578E-03	-8.32093474178316E-02	-0.97092095933377	-4.72993245114212E-02
1470375000	-0.95255550818362	-4.49566672133052E-02	6.11759553918851E-03	-8.27165412864412E-02			5.8537115755632E-03	-8.31881251323742E-02	-0.971045732218584	-4.62118151083728E-02
1470750000	-0.952862987811796	-4.41679432436066E-02	6.05174926899831E-03	-8.26614002917946E-02			5.77431215407687E-03	-8.30902078335973E-02	-0.971219991871881	-4.51119004819532E-02
1471125000	-0.952554506174551	-4.29383844106271E-02	5.96354887630327E-03	-8.25995331262466E-02			5.70984040681783E-03	-8.30727125092326E-02	-0.970968572451091	-4.40749096200363E-02
1471500000	-0.952841513034242	-4.14648784450834E-02	5.88289246648504E-03	-0.082598188302968			5.68189380218073E-03	-0.083039211427159	-0.971068103664631	-4.31418031250488E-02
1471875000	-0.952784096803329	-4.09849955042441E-02	5.83976875157276E-03	-8.25850305717501E-02			5.58148816969247E-03	-8.29891417574143E-02	-0.970754441692652	-4.20581816496848E-02
1472250000	-0.952880205411938	-4.00625927702833E-02	5.78090358531954E-03	-8.25603408943279E-02			5.49031818466411E-03	-8.29876667007863E-02	-0.970879501425211	-4.11384931071011E-02
1472625000	-0.952430021429373	-3.87182140950099E-02	5.63955277403293E-03	-8.24799507771476E-02			5.37691441361421E-03	-8.29222009220508E-02	-0.970766213603628	-4.03962883540399E-02
1473000000	-0.952770758051354	-3.77502063166435E-02	5.57881102548325E-03	-8.25145253084307E-02			5.25037182546439E-03	-8.28909188398587E-02	-0.970696170994003	-3.91294885751649E-02
1473375000	-0.952964156671272	-3.63368084309993E-02	5.45209416955873E-03	-8.24509877189464E-02			5.21726313322626E-03	-8.28633101365929E-02	-0.97105014759592	-3.83575275012742E-02
1473750000	-0.952632428020293	-3.55768021759128E-02	5.40828614850521E-03	-8.23909064838522E-02			5.11118782442981E-03	-8.27974951173407E-02	-0.97080016369983	-3.72497156780461E-02
1474125000	-0.952509958906841	-3.43725506205278E-02	5.2667599484294E-03	-0.082299899180726			5.02126577340709E-03	-8.27347102695265E-02	-0.970723812819921	-3.64088249109495E-02
1474500000	-0.952313667856992	-3.36380878793238E-02	5.21271350037208E-03	-8.22578007206408E-02			4.91148216103951E-03	-8.26509623200174E-02	-0.970701298640831	-3.55561124944064E-02
1474875000	-0.952257366146248	-3.26662462855322E-02	5.15155884383659E-03	-8.21964377172621E-02			4.85613558869262E-03	-8.25874360464968E-02	-0.970784634627232	-3.47283000870566E-02
1475250000	-0.952323058782815	-3.15297736668413E-02	5.04900158503452E-03	-0.082164691845772			4.79627939514846E-03	-8.25093171748149E-02	-0.970681124488361	-3.37445373705985E-02
1475625000	-0.95214746141954	-0.030745482728103	5.00403363795853E-03	-8.21079342146286E-02			4.72552518855464E-03	-8.25018238243262E-02	-0.971258762632576	-3.31101762245216E-02
1476000000	-0.952145276452405	-2.95428255438894E-02	4.94368826734647E-03	-8.20361738248769E-02			4.70399824776964E-03	-8.24117601597382E-02	-0.97097621681018	-3.20788305684924E-02
1476375000	-0.951674947817345	-2.85603269766248E-02	4.85115200632918E-03	-8.19304380331403E-02			4.64843159019211E-03	-8.23801087688678E-02	-0.970997575427006	-3.10934352028169E-02
1476750000	-0.952257166269206	-2.75083180581027E-02	4.81769639746334E-03	-8.19455072487875E-02			4.55942510671182E-03	-8.22662635954699E-02	-0.970672633399415	-2.99207577808992E-02
1477125000	-0.951895331717362	-2.71587215717232E-02	4.81083567708651E-03	-8.18911001387601E-02			4.56987632918033E-03	-8.22450831106372E-02	-0.970478576923938	-2.90113337650297E-02
1477500000	-0.951656587728487	-2.62596564075386E-02	4.80911788168438E-03	-0.081791443184442			4.58326583520115E-03	-8.22071580692726E-02	-0.970622542439935	-2.84154297928498E-02
1477875000	-0.951611542011099	-2.52807110918184E-02	4.76996732535326E-03	-8.18133837664127E-02			4.47731366287588E-03	-8.21538727581772E-02	-0.970338125060924	-2.74465170893106E-02
1478250000	-0.951479337512602	-2.37807436672261E-02	4.65024148440404E-03	-0.081784931730208			4.42661688966007E-03	-8.21407272914389E-02	-0.970384888255409	-2.63189688380277E-02
1478625000	-0.951657892724945	-2.25810610347101E-02	4.62699526975493E-03	-8.18143584980886E-02			4.40946844156954E-03	-8.21174200809082E-02	-0.970410956365229	-2.57077830194085E-02
1479000000	-0.951236377903048	-2.19004436849289E-02	4.59979493642775E-03	-8.17310030152858E-02			4.36481832369658E-03	-8.20942645789591E-02	-0.970333336032147	-0.024830198901243
1479375000	-0.951224376436623	-0.021215642958559	4.57669778650787E-03	-8.17162520404619E-02			4.32547809354864E-03	-8.21074191800432E-02	-0.970612637395995	-2.40296198242394E-02
1479750000	-0.951386542245732	-2.03512625865976E-02	4.52317718371829E-03	-0.081759836561838			4.26663683037396E-03	-8.20827403199943E-02	-0.970531752341471	-2.34331979704833E-02
1480125000	-0.951549936541727	-1.97860527720557E-02	4.51741408832164E-03	-8.17732995734402E-02			4.20507578748887E-03	-8.21218437734212E-02	-0.970670979298182	-2.25394601335725E-02
1480500000	-0.951764202380564	-0.018504869665042	4.42389334479785E-03	-8.18094604446019E-02			4.17398289464085E-03	-8.21643492468197E-02	-0.97088353954238	-2.18629835246291E-02
1480875000	-0.95149110057289	-1.81560472532221E-02	4.36752988432969E-03	-8.17962560592488E-02			4.11182217777031E-03	-0.082223481707	-0.970915534423953	-2.12095980337044E-02
1481250000	-0.951870374631031	-1.72620896916787E-02	4.27610062214362E-03	-8.18694946863452E-02			3.94568022278038E-03	-8.21893368198127E-02	-0.970950235504331	-2.02159528299127E-02
1481625000	-0.951955440026764	-1.62883406478425E-02	4.15908836929988E-03	-0.081866576889873			3.82904300850911E-03	-8.22142008705064E-02	-0.971243689840748	-1.94730738822662E-02
1482000000	-0.952448774489606	-0.015257990416093	4.01327128942275E-03	-8.18791670933807E-02			3.68026422218023E-03	-8.22197725162681E-02	-0.971557485636367	-1.81941589156022E-02
1482375000	-0.952407127901932	-1.44156608693844E-02	3.90178484173162E-03	-8.18183255902306E-02			3.55012187914298E-03	-8.21693156941607E-02	-0.971783926112646	-1.73642180471654E-02
1482750000	-0.952866819237837	-1.31611992549401E-02	3.7739670120995E-03	-8.18068408241787E-02			3.46983301709757E-03	-8.20891800093721E-02	-0.971303485265551	-1.63943353392661E-02
1483125000	-0.952667832710301	-1.22690983291823E-02	3.67381634028802E-03	-8.17420744518027E-02			3.3259221581487E-03	-8.20461821297454E-02	-0.971735842870542	-1.50349970699141E-02
1483500000	-0.952565232051732	-1.10725158270236E-02	3.54650090743718E-03	-8.16620248684196E-02			3.2031666763214E-03	-8.19911042199029E-02	-0.971681212758871	-1.38961628985046E-02
1483875000	-0.953197076035103	-9.55134173764707E-03	3.39205750799401E-03	-8.16723297065691E-02			3.15466180711883E-03	-8.19466892366701E-02	-0.971668822370995	-1.31752730076577E-02
1484250000	-0.952728544696308	-8.86817333867783E-03	3.3214832664733E-03	-8.15853024021691E-02			3.01130256653014E-03	-8.18816965849494E-02	-0.971331695535031	-1.18146776564135E-02
1484625000	-0.952675137896447	-7.61537357130206E-03	3.18871904213208E-03	-8.14971094227011E-02			2.90103494250227E-03	-8.18019877458214E-02	-0.971536439864696	-1.05996567272118E-02
1485000000	-0.952894886643757	-6.39334965302869E-03	3.10091500467233E-03	-8.14726662919961E-02			2.82904588666241E-03	-8.16809187825826E-02	-0.971027152799747	-9.88372530332953E-03
1485375000	-0.952824940000729	-5.57355191115931E-03	3.0253570072107E-03	-8.13835683506442E-02			2.68349708056795E-03	-8.16449129644353E-02	-0.971557503746423	-8.33689109436096E-03
1485750000	-0.953050870719165	-3.89906678640954E-03	2.92217211868697E-03	-8.13407436412324E-02			2.65029117054369E-03	-8.15643107174797E-02	-0.971167915891355	-7.67561328802428E-03
1486125000	-0.952665731638543	-3.40497502644255E-03	2.8741703503538E-03	-8.12325417678104E-02			2.56166378129766E-03	-8.14719272896077E-02	-0.971070994802495	-6.77097238751427E-03
1486500000	-0.952737473878569	-2.16234965656027E-03	2.7784858366911E-03	-8.11464171761389E-02			2.50110507019944E-03	-8.14301866297428E-02	-0.970851354324508	-5.63686882581011E-03
1486875000	-0.952868284667309	-1.15012488861343E-03	2.72030569294996E-03	-8.11459005829567E-02			2.40890060653104E-03	-8.13907278106972E-02	-0.970800602505058	-4.46520772577254E-03
1487250000	-0.952862447017962	-1.05605931521055E-04	2.64671916388135E-03	-8.10900684049802E-02			2.32469609402991E-03	-8.12573630396326E-02	-0.970705963946926	-3.62448325152858E-03
1487625000	-0.952934529389676	1.56438406252838E-03	2.5711650481167E-03	-8.10124724590241E-02			2.23264442584188E-03	-8.11912103445293E-02	-0.97024683815143	-2.9365804624546E-03
1488000000	-0.952104154808463	2.40493931113498E-03	2.50068134275707E-03	-8.09214282876044E-02			2.19119057059606E-03	-8.11048822642016E-02	-0.970343017862804	-1.70542298462381E-03
1488375000	-0.95221030871168	3.23985557154128E-03	2.49756913074245E-03	-8.08458903372239E-02			2.1575722714237E-03	-0.081029389921827	-0.970342754319023	-1.09026216387608E-03
1488750000	-0.952112493950104	4.33142910145274E-03	2.42816017497163E-03	-8.07478151227386E-02			2.12001883166009E-03	-8.09786484548837E-02	-0.970121581529727	-3.82767418549954E-04
