!SF2181E untune
# HZ S RI R 50
90000000      0.8655090     -0.4764404     -0.0002267      0.0001770     -0.0001978      0.0001828      0.9187012     -0.3698425
90062496      0.8656616     -0.4766541     -0.0002111      0.0001986     -0.0002050      0.0002009      0.9181519     -0.3703613
90125000      0.8652954     -0.4769897     -0.0002199      0.0002433     -0.0001978      0.0002297      0.9183960     -0.3707886
90187504      0.8648682     -0.4774170     -0.0001867      0.0002801     -0.0001901      0.0002674      0.9179688     -0.3712158
90250000      0.8646545     -0.4774475     -0.0001747      0.0002901     -0.0001687      0.0002760      0.9178162     -0.3710022
90312496      0.8643799     -0.4778748     -0.0001869      0.0003026     -0.0001865      0.0003223      0.9178162     -0.3712769
90375000      0.8641968     -0.4779358     -0.0001693      0.0003627     -0.0001720      0.0003410      0.9175720     -0.3716431
90437504      0.8640747     -0.4783936     -0.0001386      0.0003744     -0.0001431      0.0003787      0.9174500     -0.3718872
90500000      0.8640442     -0.4785461     -0.0001577      0.0004025     -0.0001387      0.0003929      0.9169617     -0.3718567
90562496      0.8638306     -0.4786682     -0.0001030      0.0004417     -0.0001081      0.0004339      0.9171143     -0.3720398
90625000      0.8638306     -0.4790039     -0.0000755      0.0004536     -0.0000748      0.0004214      0.9170227     -0.3723755
90687504      0.8634033     -0.4795532     -0.0000538      0.0004453     -0.0000791      0.0004467      0.9169922     -0.3724060
90750000      0.8634338     -0.4795227     -0.0000543      0.0004630     -0.0000590      0.0004609      0.9171448     -0.3728638
90812496      0.8636169     -0.4801331     -0.0000492      0.0005010     -0.0000414      0.0004997      0.9168396     -0.3727722
90875000      0.8631897     -0.4802551      0.0000244      0.0005543      0.0000144      0.0005447      0.9171448     -0.3732300
90937504      0.8629150     -0.4807739      0.0000806      0.0005427      0.0000747      0.0005356      0.9169006     -0.3735962
91000000      0.8628235     -0.4808044      0.0001126      0.0005383      0.0001212      0.0005309      0.9165039     -0.3741455
91062496      0.8628235     -0.4813232      0.0001822      0.0005431      0.0001812      0.0005173      0.9167480     -0.3746643
91125000      0.8626099     -0.4816895      0.0002368      0.0004981      0.0002152      0.0004930      0.9164429     -0.3748474
91187504      0.8625183     -0.4821777      0.0002490      0.0004556      0.0002481      0.0004545      0.9165344     -0.3749084
91250000      0.8623657     -0.4823608      0.0002832      0.0004448      0.0002779      0.0004300      0.9161682     -0.3750916
91312496      0.8621216     -0.4827881      0.0003196      0.0004124      0.0003197      0.0004148      0.9158325     -0.3753052
91375000      0.8615417     -0.4834290      0.0003365      0.0003290      0.0003451      0.0003332      0.9157410     -0.3758850
91437504      0.8617859     -0.4838562      0.0003353      0.0002629      0.0003192      0.0002637      0.9155884     -0.3761597
91500000      0.8611145     -0.4838562      0.0002856      0.0002541      0.0002818      0.0002289      0.9156189     -0.3762817
91562496      0.8609619     -0.4842224      0.0002801      0.0002067      0.0002608      0.0002084      0.9154053     -0.3764954
91625000      0.8611755     -0.4844360      0.0002524      0.0001898      0.0002532      0.0001923      0.9154663     -0.3766479
91687504      0.8607483     -0.4849243      0.0002179      0.0002008      0.0002216      0.0001831      0.9151917     -0.3770142
91750000      0.8606567     -0.4850159      0.0001907      0.0001859      0.0001772      0.0001976      0.9152527     -0.3771973
91812496      0.8602295     -0.4855957      0.0001951      0.0002293      0.0001839      0.0002297      0.9149170     -0.3778076
91875000      0.8601379     -0.4859314      0.0001906      0.0002332      0.0001918      0.0002300      0.9150085     -0.3780518
91937504      0.8600464     -0.4862671      0.0001972      0.0002352      0.0002125      0.0002374      0.9147339     -0.3782349
92000000      0.8597717     -0.4867249      0.0002484      0.0002404      0.0002390      0.0002315      0.9146118     -0.3786011
92062496      0.8594360     -0.4869995      0.0002623      0.0002092      0.0002418      0.0001989      0.9143677     -0.3789368
92125000      0.8595276     -0.4874573      0.0002516      0.0001763      0.0002734      0.0001780      0.9146423     -0.3792725
92187504      0.8590698     -0.4878540      0.0002336      0.0001513      0.0002436      0.0001552      0.9142761     -0.3795166
92250000      0.8587036     -0.4875488      0.0002770      0.0001532      0.0002828      0.0001514      0.9138184     -0.3796997
92312496      0.8585205     -0.4877014      0.0003059      0.0000949      0.0003135      0.0000763      0.9136047     -0.3799133
92375000      0.8584290     -0.4882507      0.0002631      0.0000284      0.0002481      0.0000265      0.9135132     -0.3801880
92437504      0.8582153     -0.4881287      0.0002117      0.0000110      0.0002098      0.0000194      0.9135742     -0.3803406
92500000      0.8579407     -0.4890747      0.0001655     -0.0000108      0.0001761     -0.0000299      0.9132080     -0.3807068
92562496      0.8578796     -0.4888611      0.0001146     -0.0000065      0.0001119      0.0000057      0.9129333     -0.3804016
92625000      0.8576355     -0.4893188      0.0000981      0.0000021      0.0000907     -0.0000112      0.9129944     -0.3809509
92687504      0.8577881     -0.4894104      0.0000544      0.0000275      0.0000542      0.0000032      0.9131470     -0.3810120
92750000      0.8576965     -0.4897766      0.0000550      0.0000420      0.0000369      0.0000216      0.9130859     -0.3810730
92812496      0.8573303     -0.4900513      0.0000373      0.0000217      0.0000339      0.0000279      0.9129944     -0.3813782
92875000      0.8574219     -0.4900208      0.0000260      0.0000185      0.0000578      0.0000378      0.9130249     -0.3816528
92937504      0.8573608     -0.4907532     -0.0000030      0.0000024      0.0000014      0.0000033      0.9127808     -0.3819885
93000000      0.8569336     -0.4911499     -0.0000405      0.0000080     -0.0000451      0.0000259      0.9126892     -0.3823547
93062496      0.8568420     -0.4917297     -0.0000827      0.0000642     -0.0000727      0.0000517      0.9126892     -0.3829041
93125000      0.8566895     -0.4918518     -0.0000918      0.0000913     -0.0000751      0.0000772      0.9125366     -0.3833008
93187504      0.8565979     -0.4923706     -0.0000931      0.0000973     -0.0000815      0.0001111      0.9124756     -0.3833008
93250000      0.8562012     -0.4926147     -0.0000850      0.0001425     -0.0000956      0.0001281      0.9123535     -0.3838806
93312496      0.8559570     -0.4928894     -0.0000736      0.0001431     -0.0000902      0.0001315      0.9121094     -0.3840027
93375000      0.8558655     -0.4932251     -0.0001185      0.0001347     -0.0001125      0.0001472      0.9120178     -0.3844910
93437504      0.8554077     -0.4934387     -0.0001433      0.0001867     -0.0001287      0.0001903      0.9116211     -0.3846741
93500000      0.8555298     -0.4940186     -0.0001047      0.0001950     -0.0001136      0.0002070      0.9116516     -0.3849792
93562496      0.8552551     -0.4943237     -0.0000928      0.0001977     -0.0001287      0.0002126      0.9116821     -0.3851013
93625000      0.8548889     -0.4946289     -0.0001190      0.0002359     -0.0001124      0.0002190      0.9113464     -0.3854980
93687504      0.8545532     -0.4948120     -0.0001002      0.0002454     -0.0000973      0.0002533      0.9107971     -0.3856812
93750000      0.8544617     -0.4951782     -0.0000892      0.0002439     -0.0000978      0.0002437      0.9108276     -0.3860168
93812496      0.8539124     -0.4952393     -0.0001459      0.0002548     -0.0001558      0.0002583      0.9106750     -0.3861694
93875000      0.8540649     -0.4956360     -0.0001485      0.0003331     -0.0001448      0.0003149      0.9103394     -0.3863831
93937504      0.8536682     -0.4956055     -0.0001031      0.0003949     -0.0001020      0.0003731      0.9104614     -0.3864136
94000000      0.8536377     -0.4959106     -0.0000457      0.0003837     -0.0000429      0.0003569      0.9100952     -0.3866882
94062496      0.8534546     -0.4961853     -0.0000214      0.0003618     -0.0000128      0.0003370      0.9100342     -0.3870850
94125000      0.8533325     -0.4965515     -0.0000458      0.0003343     -0.0000464      0.0003359      0.9100647     -0.3871460
94187504      0.8534241     -0.4969788     -0.0000479      0.0003335     -0.0000412      0.0003345      0.9099731     -0.3874817
94250000      0.8530273     -0.4973755     -0.0000587      0.0003617     -0.0000765      0.0003480      0.9099426     -0.3875122
94312496      0.8529663     -0.4978027     -0.0000959      0.0003986     -0.0000839      0.0004027      0.9098206     -0.3880310
94375000      0.8528442     -0.4974670     -0.0000548      0.0004395     -0.0000433      0.0004339      0.9097900     -0.3883057
94437504      0.8531189     -0.4980469     -0.0000172      0.0004809     -0.0000068      0.0004734      0.9095459     -0.3884277
94500000      0.8526611     -0.4986572      0.0000137      0.0004956      0.0000403      0.0005063      0.9095459     -0.3889465
94562496      0.8523254     -0.4988708      0.0000750      0.0004861      0.0000755      0.0004978      0.9094849     -0.3890686
94625000      0.8522644     -0.4992981      0.0001026      0.0005011      0.0001166      0.0004764      0.9093628     -0.3892212
94687504      0.8523560     -0.4996338      0.0001521      0.0004913      0.0001716      0.0004914      0.9091492     -0.3893738
94750000      0.8519897     -0.4999084      0.0001930      0.0004639      0.0002064      0.0004464      0.9090576     -0.3895569
94812496      0.8517456     -0.5003052      0.0002106      0.0004057      0.0002081      0.0004057      0.9091797     -0.3900452
94875000      0.8514404     -0.5004883      0.0002107      0.0004030      0.0002107      0.0003803      0.9088440     -0.3904114
94937504      0.8516235     -0.5010986      0.0002076      0.0004179      0.0002112      0.0004132      0.9089355     -0.3908691
95000000      0.8510742     -0.5012817      0.0002745      0.0004019      0.0002619      0.0003867      0.9086914     -0.3909607
95062496      0.8513184     -0.5016785      0.0002763      0.0003733      0.0002860      0.0003618      0.9087219     -0.3910522
95125000      0.8507690     -0.5018616      0.0003116      0.0003358      0.0003071      0.0003206      0.9084778     -0.3915710
95187504      0.8507690     -0.5022888      0.0003133      0.0003026      0.0003183      0.0002925      0.9082642     -0.3916321
95250000      0.8507385     -0.5028076      0.0003080      0.0002554      0.0003036      0.0002630      0.9080811     -0.3924255
95312496      0.8501892     -0.5030518      0.0002991      0.0002428      0.0003016      0.0002405      0.9080200     -0.3922729
95375000      0.8498230     -0.5035400      0.0003212      0.0002304      0.0003136      0.0002189      0.9082642     -0.3925476
95437504      0.8494263     -0.5038147      0.0002913      0.0002099      0.0003166      0.0002032      0.9081421     -0.3929749
95500000      0.8495789     -0.5042419      0.0003268      0.0001723      0.0003213      0.0001643      0.9079285     -0.3934021
95562496      0.8493042     -0.5043335      0.0003305      0.0001352      0.0003301      0.0001121      0.9074707     -0.3938293
95625000      0.8491516     -0.5047302      0.0003005      0.0000705      0.0002949      0.0000620      0.9073792     -0.3940125
95687504      0.8487854     -0.5051575      0.0002433      0.0000665      0.0002549      0.0000548      0.9072571     -0.3945618
95750000      0.8487549     -0.5053711      0.0002231      0.0000359      0.0002198      0.0000319      0.9073181     -0.3945618
95812496      0.8484802     -0.5059204      0.0001977      0.0000241      0.0002122      0.0000187      0.9070129     -0.3945923
95875000      0.8482056     -0.5059509      0.0001912      0.0000267      0.0001834      0.0000194      0.9070129     -0.3949585
95937504      0.8481140     -0.5064392      0.0001444     -0.0000002      0.0001580      0.0000146      0.9070129     -0.3953247
96000000      0.8480835     -0.5065613      0.0001217     -0.0000119      0.0001174     -0.0000167      0.9067383     -0.3958740
96062496      0.8478088     -0.5070496      0.0000939     -0.0000146      0.0000715     -0.0000196      0.9065857     -0.3962708
96125000      0.8473816     -0.5075073      0.0000668      0.0000213      0.0000513      0.0000016      0.9064026     -0.3964539
96187504      0.8472900     -0.5077515      0.0000360      0.0000038      0.0000423      0.0000035      0.9065857     -0.3967590
96250000      0.8470459     -0.5085754      0.0000082      0.0000058      0.0000008      0.0000249      0.9061890     -0.3972168
96312496      0.8468018     -0.5084229     -0.0000264      0.0000352     -0.0000336      0.0000171      0.9060364     -0.3972168
96375000      0.8468018     -0.5086975     -0.0000540      0.0000690     -0.0000633      0.0000714      0.9057922     -0.3975525
96437504      0.8463440     -0.5090332     -0.0000372      0.0001220     -0.0000526      0.0001107      0.9060059     -0.3978882
96500000      0.8463135     -0.5092468      0.0000010      0.0001020     -0.0000020      0.0000922      0.9054871     -0.3981018
96562496      0.8458252     -0.5095825     -0.0000332      0.0000895     -0.0000422      0.0000985      0.9053650     -0.3984680
96625000      0.8457642     -0.5101318     -0.0000629      0.0000954     -0.0000552      0.0001000      0.9053040     -0.3985291
96687504      0.8456116     -0.5101929     -0.0000556      0.0001189     -0.0000568      0.0001103      0.9051819     -0.3990173
96750000      0.8454895     -0.5106201     -0.0000680      0.0001188     -0.0000824      0.0001143      0.9050293     -0.3994141
96812496      0.8448486     -0.5109863     -0.0000776      0.0001065     -0.0000955      0.0000925      0.9047241     -0.3997192
96875000      0.8447571     -0.5110474     -0.0001315      0.0000969     -0.0001008      0.0001122      0.9044189     -0.3998413
96937504      0.8447571     -0.5114746     -0.0001545      0.0001195     -0.0001324      0.0001205      0.9042053     -0.4000854
97000000      0.8446350     -0.5118408     -0.0001691      0.0001796     -0.0001536      0.0001537      0.9040222     -0.4007568
97062496      0.8444824     -0.5117798     -0.0001524      0.0001935     -0.0001652      0.0001865      0.9039307     -0.4007568
97125000      0.8442383     -0.5127869     -0.0001835      0.0002101     -0.0001601      0.0001990      0.9041443     -0.4011841
97187504      0.8437500     -0.5124512     -0.0001962      0.0002223     -0.0001923      0.0002337      0.9035950     -0.4012756
97250000      0.8436279     -0.5132446     -0.0001764      0.0002607     -0.0001918      0.0002587      0.9032288     -0.4017029
97312496      0.8432617     -0.5136414     -0.0001889      0.0002825     -0.0001779      0.0002830      0.9031067     -0.4017334
97375000      0.8428955     -0.5135193     -0.0002040      0.0003013     -0.0002051      0.0002834      0.9029541     -0.4018860
97437504      0.8427429     -0.5138855     -0.0002300      0.0003311     -0.0002301      0.0003405      0.9025879     -0.4020081
97500000      0.8428040     -0.5142822     -0.0002719      0.0004292     -0.0002710      0.0004205      0.9026184     -0.4019165
97562496      0.8429260     -0.5142517     -0.0002630      0.0005077     -0.0002721      0.0005162      0.9023438     -0.4023743
97625000      0.8423767     -0.5145264     -0.0002099      0.0006179     -0.0002058      0.0006254      0.9025879     -0.4022217
97687504      0.8423157     -0.5149841     -0.0000958      0.0006937     -0.0000882      0.0006705      0.9024658     -0.4025574
97750000      0.8422546     -0.5154419      0.0000243      0.0006819      0.0000210      0.0006671      0.9026184     -0.4031372
97812496      0.8420105     -0.5158081      0.0001102      0.0006625      0.0000818      0.0006506      0.9023743     -0.4030762
97875000      0.8422546     -0.5162659      0.0001543      0.0006166      0.0001739      0.0005912      0.9021912     -0.4036255
97937504      0.8419189     -0.5167542      0.0002084      0.0005506      0.0001811      0.0005483      0.9019165     -0.4039917
98000000      0.8417053     -0.5166626      0.0002168      0.0005270      0.0002033      0.0005267      0.9019165     -0.4040527
98062496      0.8414001     -0.5171814      0.0002068      0.0005126      0.0002353      0.0005058      0.9016724     -0.4046326
98125000      0.8416138     -0.5174561      0.0002474      0.0005036      0.0002602      0.0005101      0.9016113     -0.4048462
98187504      0.8409424     -0.5179443      0.0002770      0.0004837      0.0002798      0.0004731      0.9017639     -0.4050293
98250000      0.8407288     -0.5179443      0.0002869      0.0004395      0.0002945      0.0004574      0.9012451     -0.4055176
98312496      0.8404846     -0.5185242      0.0002953      0.0004284      0.0003093      0.0004272      0.9013367     -0.4057617
98375000      0.8404541     -0.5188599      0.0003349      0.0004104      0.0003365      0.0004182      0.9010620     -0.4058533
98437504      0.8400879     -0.5192871      0.0003499      0.0003870      0.0003640      0.0003905      0.9010620     -0.4060974
98500000      0.8397522     -0.5195007      0.0003872      0.0003563      0.0003852      0.0003479      0.9010010     -0.4064331
98562496      0.8394470     -0.5198364      0.0003973      0.0003072      0.0003915      0.0003018      0.9010925     -0.4066162
98625000      0.8395996     -0.5204163      0.0003878      0.0002756      0.0003770      0.0002612      0.9011230     -0.4073792
98687504      0.8392029     -0.5208435      0.0004095      0.0002469      0.0003888      0.0002429      0.9007263     -0.4071960
98750000      0.8387756     -0.5209656      0.0004101      0.0001978      0.0004054      0.0001887      0.9006348     -0.4074707
98812496      0.8385315     -0.5214539      0.0004141      0.0001681      0.0004060      0.0001564      0.9004211     -0.4079895
98875000      0.8382874     -0.5217285      0.0004236      0.0001245      0.0004228      0.0001313      0.9002991     -0.4081116
98937504      0.8381653     -0.5220337      0.0004179      0.0000414      0.0004126      0.0000629      0.9001160     -0.4084778
99000000      0.8381348     -0.5223083      0.0003832      0.0000118      0.0003635     -0.0000007      0.9000549     -0.4088745
99062496      0.8379822     -0.5224609      0.0003418     -0.0000347      0.0003027     -0.0000352      0.9000854     -0.4091187
99125000      0.8377380     -0.5227356      0.0002753     -0.0000598      0.0002564     -0.0000679      0.8997192     -0.4095764
99187504      0.8376465     -0.5233765      0.0002212     -0.0000797      0.0002353     -0.0000816      0.8996887     -0.4096069
99250000      0.8371887     -0.5237427      0.0001951     -0.0001013      0.0001874     -0.0001040      0.8996582     -0.4101868
99312496      0.8369446     -0.5241394      0.0001785     -0.0001056      0.0001647     -0.0001122      0.8995056     -0.4104309
99375000      0.8371277     -0.5244141      0.0001524     -0.0001565      0.0001195     -0.0001426      0.8991699     -0.4104919
99437504      0.8363953     -0.5246887      0.0000651     -0.0001832      0.0000622     -0.0001690      0.8990784     -0.4107666
99500000      0.8364258     -0.5248413     -0.0000129     -0.0001706     -0.0000182     -0.0001756      0.8989258     -0.4113770
99562496      0.8358459     -0.5253601     -0.0001023     -0.0001567     -0.0000942     -0.0001518      0.8986511     -0.4117432
