# Hz S RI R 50
1118520000	-0.868676000215602	-0.381532874700717	5.98994506892315E-03	-6.70333923271564E-03			6.13252973019486E-03	-5.99870906519036E-03	-0.819156314632781	-0.507745265380363
1118895000	-0.868259898155365	-0.381246547355376	5.95804091852008E-03	-6.68892885173934E-03			6.13056027903153E-03	-5.97978699788348E-03	-0.818990155272882	-0.507154868107834
1119270000	-0.868067597086667	-0.381346912192059	5.93200649169553E-03	-6.66863969377085E-03			6.10449048653563E-03	-5.98365602088425E-03	-0.818946302516826	-0.506400635425006
1119645000	-0.868102206785148	-0.380908444772818	5.88822519258998E-03	-6.62586962104522E-03			6.11095607714015E-03	-5.95482858971707E-03	-0.819330319334808	-0.505428899470514
1120020000	-0.867826324690643	-0.380825583804292	5.87578154098818E-03	-6.59345481488711E-03			6.0721675012697E-03	-5.94429167669716E-03	-0.819474112249406	-0.504534799175462
1120395000	-0.868048390343032	-0.380650188843135	5.83580926123983E-03	-6.63423904187131E-03			6.03419717290885E-03	-5.96821070913652E-03	-0.819627060731202	-0.503401227325576
1120770000	-0.867806524437569	-0.380288814945911	5.8392100512806E-03	-6.56299198427482E-03			5.99710497658699E-03	-5.91189349998809E-03	-0.819665954013904	-0.502260746849133
1121145000	-0.867712360888655	-0.379822513065288	5.79237398576563E-03	-6.57978721045011E-03			5.98772557245353E-03	-5.89553061077168E-03	-0.819799310136646	-0.501216323736396
1121520000	-0.867771127483483	-0.379306458538884	5.79852874656767E-03	-6.53568126121863E-03			5.9667329157185E-03	-5.88837199655736E-03	-0.819652711025416	-0.500312300953161
1121895000	-0.867675141066351	-0.379199675988623	5.79150434623107E-03	-6.51187308165455E-03			5.96795248193104E-03	-5.89180812487797E-03	-0.819801624549118	-0.49934366482292
1122270000	-0.867415926061667	-0.378620233899937	5.76285877366122E-03	-6.50765806391025E-03			5.98275263125539E-03	-5.90504654692112E-03	-0.819759349319266	-0.498831078563416
1122645000	-0.867879353089758	-0.37788232678463	5.76461698553073E-03	-6.50130485338851E-03			5.93977266561914E-03	-5.88223351226317E-03	-0.820260665422687	-0.497916601714607
1123020000	-0.867372785185819	-0.37789928099317	5.7767515986555E-03	-6.46841870904358E-03			5.96950956579043E-03	-5.87720025519221E-03	-0.820286340420231	-0.497024525490074
1123395000	-0.867131539569178	-0.377847192297564	5.76406022306089E-03	-6.49264442176711E-03			5.93171951252685E-03	-5.90001661389018E-03	-0.821032017388955	-0.495739788233015
1123770000	-0.867174182672107	-0.377635645105615	5.73548641152198E-03	-6.49691014138932E-03			5.91996719865531E-03	-5.88999219322261E-03	-0.820743434990037	-0.494847182080759
1124145000	-0.867084160169253	-0.377113634326274	5.7121934840014E-03	-6.48728317579332E-03			5.91193137812203E-03	-5.91172602922045E-03	-0.821014712201288	-0.494108885147953
1124520000	-0.867182136529915	-0.376862561330821	5.71877451957457E-03	-6.48293170658436E-03			5.87609039073265E-03	-5.91614697981071E-03	-0.82146585364695	-0.492834654209361
1124895000	-0.867319533813905	-0.376290758014376	5.66673592536492E-03	-6.48556155380572E-03			5.88219796549104E-03	-5.90327609288128E-03	-0.821334231995821	-0.492480075018263
1125270000	-0.867489959211773	-0.375843639666842	5.63707216628085E-03	-6.46869448011588E-03			5.83776505577997E-03	-5.9210963221421E-03	-0.821368435997845	-0.491442624865785
1125645000	-0.867660813435726	-0.375495417175191	5.61153287655904E-03	-6.46977265720796E-03			5.81958044030522E-03	-5.92426234882203E-03	-0.821714819968559	-0.490596938264874
1126020000	-0.867459274336761	-0.374840477445305	5.57024084935958E-03	-6.42797592543953E-03			5.76493879991526E-03	-0.00591328349308	-0.822152717252279	-0.4896391997557
1126395000	-0.86727772199298	-0.374326145996707	5.5634630507289E-03	-6.42985790473044E-03			5.75765908887961E-03	-5.90818099695166E-03	-0.822158775428934	-0.488567795251966
1126770000	-0.86723888868925	-0.374150575518755	5.54177235497641E-03	-6.42279605373009E-03			5.73670585644569E-03	-5.89088005559999E-03	-0.822649411876107	-0.487860065669069
1127145000	-0.867059693423633	-0.373879033326288	5.53298074342704E-03	-6.38970887123135E-03			5.7391926979763E-03	-5.88206828485177E-03	-0.823076544960886	-0.48667930113709
1127520000	-0.866818565801199	-0.373236806507389	5.50466868227795E-03	-6.41884073937798E-03			5.71172555243217E-03	-5.89479269809251E-03	-0.823095946145494	-0.48577713394734
1127895000	-0.866801097218027	-0.372962771342191	5.49916954074535E-03	-6.38230229551105E-03			5.72544351653922E-03	-5.87797253273614E-03	-0.823430974832429	-0.484885994076085
1128270000	-0.866937896214181	-0.372919613200781	5.47411579758446E-03	-6.39408077754287E-03			5.67509134986476E-03	-5.90938813666796E-03	-0.823602016015009	-0.483652796314003
1128645000	-0.867016762282737	-0.372546505850742	5.43890422401716E-03	-6.38681881064904E-03			5.68233225102842E-03	-5.90585578789074E-03	-0.823855456595517	-0.482959959324777
1129020000	-0.867808080848377	-0.371909912887258	5.43779771124297E-03	-6.39212133976375E-03			5.66050556882511E-03	-5.89187331305718E-03	-0.824010550736975	-0.481875684605648
1129395000	-0.867665556780333	-0.371635619002748	5.41726961207145E-03	-6.38563617928206E-03			5.63555047005932E-03	-5.92528257019928E-03	-0.824519110051607	-0.481318367498231
1129770000	-0.867827628115856	-0.371170404358452	5.38061898009769E-03	-6.39811371734166E-03			5.61068276638764E-03	-5.93416636632228E-03	-0.824758883237823	-0.480247522305118
1130145000	-0.867783494572619	-0.370230347242835	5.37633409523165E-03	-6.38170646743364E-03			5.54697783016547E-03	-5.92146617763436E-03	-0.82521364960773	-0.479120715318759
1130520000	-0.867565874079262	-0.36948931516219	5.32308453324784E-03	-6.36095021763426E-03			0.005518554752909	-5.92301653049623E-03	-0.825950844710999	-0.478156157139661
1130895000	-0.867538041686764	-0.369063073660704	5.3100091230472E-03	-6.3379120176864E-03			5.46784941281145E-03	-5.91405138945536E-03	-0.826907374382061	-0.476553197540509
1131270000	-0.867172968603871	-0.368292825876931	5.22879543030909E-03	-6.32122312080332E-03			5.4536924591097E-03	-5.90369440801482E-03	-0.826704895913311	-0.475576382671222
1131645000	-0.866924830519978	-0.367636148478067	5.22097140642008E-03	-6.27718776590326E-03			5.41588412232462E-03	-5.86789718296996E-03	-0.826820456800569	-0.474074156481649
1132020000	-0.866373842828004	-0.367186416623709	5.21498181027081E-03	-6.25805962856443E-03			5.41511657104218E-03	-5.85488732181219E-03	-0.826648147849943	-0.472727834092822
1132395000	-0.86605715363371	-0.367120027942373	5.22809995600399E-03	-6.23660469556392E-03			5.38679926482947E-03	-5.84020329395623E-03	-0.826780403433728	-0.471778109412985
1132770000	-0.865429173476596	-0.366709378686636	5.17601365457727E-03	-6.22504215725051E-03			5.3653383756413E-03	-5.83162327936103E-03	-0.826802456654434	-0.470999094878511
1133145000	-0.865064262083233	-0.36632597724251	5.17420015051786E-03	-6.19599775745608E-03			5.38124051492231E-03	-5.82686254796895E-03	-0.826955523698855	-0.469987639082543
1133520000	-0.864956789208607	-0.366768721409354	5.17317811023307E-03	-6.22600294959016E-03			5.37137739022371E-03	-5.8430027193909E-03	-0.826898341504227	-0.468974127194077
1133895000	-0.864923890584866	-0.366504786167391	5.14601231610245E-03	-6.20913775826258E-03			5.32742782103196E-03	-5.84244081460585E-03	-0.827045613352708	-0.467891738191448
1134270000	-0.864786518115537	-0.36643968368288	5.1081380820668E-03	-6.20197529699183E-03			5.2996006395592E-03	-5.85112626333355E-03	-0.826934822764177	-0.467056075482707
1134645000	-0.865016118122425	-0.366493676899143	5.09655317786224E-03	-6.20539059319534E-03			5.28376342538862E-03	-5.86124274620925E-03	-0.826751823612297	-0.4663118349886
1135020000	-0.865379251441623	-0.365716680716763	5.06189309314104E-03	-6.16239015974149E-03			5.23218233199152E-03	-5.84575480277727E-03	-0.826839511304635	-0.465530967055881
1135395000	-0.865641183789483	-0.365141884674849	4.98875845541735E-03	-6.20581020865361E-03			5.17362938942603E-03	-5.85993493636407E-03	-0.826863297528797	-0.465030563982995
1135770000	-0.865172577197444	-0.365344397283728	4.94487357570999E-03	-6.13782580935304E-03			5.15596477611894E-03	-5.78486053481877E-03	-0.826872643874896	-0.464393932841263
1136145000	-0.865100842749163	-0.364907966288576	4.94023660081507E-03	-6.10295875118229E-03			5.12604214929053E-03	-5.77776104511872E-03	-0.827464114566765	-0.463955101765944
1136520000	-0.864685237535139	-0.364962230364516	4.92119057053408E-03	-6.0722304324372E-03			5.1041053916505E-03	-5.74874688122544E-03	-0.827906483534713	-0.463309538084455
1136895000	-0.864737078878677	-0.364716917988408	4.89259313448327E-03	-6.0291628205949E-03			5.09464767633437E-03	-5.72315367557776E-03	-0.828199362964227	-0.462385649072416
1137270000	-0.864788313656786	-0.364685846391186	4.92468761452237E-03	-6.01028297722906E-03			5.09800199201774E-03	-5.6901483588142E-03	-0.829357412514308	-0.461208534175852
1137645000	-0.864683905745587	-0.364933643147792	4.9151117656559E-03	-5.97931704785439E-03			5.08815441787558E-03	-5.68363878027309E-03	-0.829075039466165	-0.460469211985655
1138020000	-0.86487235500604	-0.365064559863598	4.89892793127792E-03	-5.96462989675208E-03			5.07147907647636E-03	-5.67102115933356E-03	-0.829295164819327	-0.4594910285812
1138395000	-0.865340991412537	-0.364978902429237	4.91470113911356E-03	-5.96387635310003E-03			5.08882225160484E-03	-5.66175115577846E-03	-0.829362176182755	-0.458633688073984
1138770000	-0.8655465944455	-0.364956400020188	0.004889500888497	-5.94227711322038E-03			5.05430641566548E-03	-5.66534593560424E-03	-0.829465892738293	-0.45805865572439
1139145000	-0.866249882825741	-0.364729981231698	4.87630868964558E-03	-5.94979916220376E-03			5.05252170795118E-03	-5.67121893524436E-03	-0.829538135577835	-0.458039007604035
1139520000	-0.866508996025783	-0.364332858594008	4.8556568277218E-03	-5.93549265884441E-03			5.0423435532712E-03	-5.66764657957032E-03	-0.830424894793872	-0.457544796371531
1139895000	-0.8668939630193	-0.364087345241261	4.8360282001408E-03	-5.9617730863543E-03			4.98080731474141E-03	-5.66099946790453E-03	-0.831031939449811	-0.456791036445453
1140270000	-0.867431356965098	-0.363896707578838	4.80969212752484E-03	-5.91856129646245E-03			4.94225823953585E-03	-5.63272616831025E-03	-0.831803576599177	-0.456509697512272
1140645000	-0.867991819910683	-0.3634808798469	4.77684279421885E-03	-5.93612747348276E-03			4.92722953603128E-03	-5.65865804685913E-03	-0.832579393438128	-0.455519840928446
1141020000	-0.868599598474825	-0.363074576892197	4.74854515362955E-03	-5.8809418816761E-03			4.86873660582865E-03	-5.6661353056533E-03	-0.833566430355227	-0.454852434493949
1141395000	-0.86895779985469	-0.362507273003018	4.72363468160698E-03	-5.87062727000134E-03			4.85018912383828E-03	-5.60983349832341E-03	-0.834238686121359	-0.453756466160289
1141770000	-0.86956992441052	-0.361619392086853	4.71807433198058E-03	-5.86050260896264E-03			4.83355769209741E-03	-5.62508239282063E-03	-0.834945430851773	-0.452666184239334
1142145000	-0.869641858096033	-0.361369290165925	4.70641035957383E-03	-5.83696245016614E-03			4.83823852618701E-03	-5.61646709665619E-03	-0.835693339380059	-0.45169513158807
1142520000	-0.869934821604766	-0.360767323413808	4.68454354493274E-03	-5.8334501718298E-03			4.84049578869831E-03	-5.56298468076696E-03	-0.836571801304608	-0.450696652942188
1142895000	-0.870441733199823	-0.359699539903903	4.65632034175912E-03	-5.81634974633874E-03			4.84377311897013E-03	-5.59220119172695E-03	-0.836973927743727	-0.449583916208675
1143270000	-0.870249900077055	-0.359548468765467	4.6566700684704E-03	-5.81341625382887E-03			4.80497134716676E-03	-5.57810304557187E-03	-0.837405551103667	-0.448406411913849
1143645000	-0.870583402911466	-0.35907686302352	4.62142147380442E-03	-5.82514622235158E-03			4.7935783098133E-03	-5.59681165482312E-03	-0.83876703258804	-0.447034244297171
1144020000	-0.87064165304812	-0.35857016332628	4.6132724991789E-03	-5.82808320199834E-03			4.74331897454044E-03	-5.58369633879687E-03	-0.838870873335483	-0.446094998494541
1144395000	-0.870880232921142	-0.357828780486625	4.57148845937171E-03	-5.7857073775626E-03			4.69786627401664E-03	-5.61719828326582E-03	-0.839519548904134	-0.445135273321448
1144770000	-0.871054149071455	-0.357565693427802	4.53438162688043E-03	-5.78127957739834E-03			4.63725597411754E-03	-5.60667442791421E-03	-0.839971404105438	-0.444013640078794
1145145000	-0.871348508806026	-0.356653792489124	4.48905570786976E-03	-5.75768853138576E-03			4.6003921671793E-03	-5.58632333828618E-03	-0.840695137755425	-0.44280272189426
1145520000	-0.871426427570793	-0.3559458913911	4.48901519068102E-03	-5.73240525520912E-03			4.59271445294733E-03	-5.58192142983167E-03	-0.840927692431239	-0.441817455743379
1145895000	-0.8716228991218	-0.355318209582274	4.4196011770655E-03	-5.71989877235303E-03			4.52514507897921E-03	-5.57000390241949E-03	-0.841419415406921	-0.440853153768516
1146270000	-0.871502139178857	-0.354574904411924	4.39127191919582E-03	-5.6978330600967E-03			4.50094170393289E-03	-5.51225125961633E-03	-0.842408780490046	-0.439531604480654
1146645000	-0.871655612865766	-0.353980377903698	4.36956791123326E-03	-5.63136424549329E-03			4.46623138973598E-03	-5.47873144291105E-03	-0.842713159449285	-0.438282358030258
1147020000	-0.87124922790072	-0.353208015754531	4.34056913334406E-03	-5.61012502588494E-03			4.46313318691998E-03	-5.48245824087018E-03	-0.843202399630741	-0.436864777270844
1147395000	-0.871062622988812	-0.353210385635193	4.33285257472486E-03	-5.60447527136135E-03			4.43507125136516E-03	-5.43881034788376E-03	-0.843961263255756	-0.435604522105502
1147770000	-0.871098605708364	-0.352861917893146	4.32255559200503E-03	-5.55954550981103E-03			4.41757585504321E-03	-5.39414386609272E-03	-0.843752166423292	-0.434487478278261
1148145000	-0.87167614169686	-0.35236739714535	4.29594110246884E-03	-5.5259449702544E-03			4.40770723279261E-03	-5.36685120371168E-03	-0.844172402228245	-0.432976001249074
1148520000	-0.871469770855239	-0.352589856152084	4.30356485108322E-03	-5.52204098243715E-03			4.37674389034278E-03	-5.39328214315465E-03	-0.844101494030438	-0.43200379447807
1148895000	-0.871611979889096	-0.352196360466458	4.27405625448232E-03	-5.52109498978623E-03			4.36128699536046E-03	-5.34927560257914E-03	-0.844218435395672	-0.431241433067066
1149270000	-0.871870406599817	-0.352039703805512	4.2139877153055E-03	-5.47227329680668E-03			4.29103828528155E-03	-5.33913311433977E-03	-0.844565805108718	-0.430824182353832
1149645000	-0.871810836520334	-0.351209883370447	4.18880183852198E-03	-5.44872496584271E-03			4.28202289198622E-03	-5.35545290331925E-03	-0.845161459030379	-0.430232140412454
1150020000	-0.872034229784471	-0.351084490609629	4.17837950883423E-03	-5.44378305654689E-03			4.25394860471924E-03	-5.35036081229564E-03	-0.846267042511329	-0.429079347056625
1150395000	-0.872135684191687	-0.350681929674489	4.13167336734975E-03	-5.4551400193449E-03			4.24280587309057E-03	-5.32942002726821E-03	-0.8467247708435	-0.428635431912734
1150770000	-0.872437113738333	-0.350700605009988	4.10353084345478E-03	-5.39419307829938E-03			4.1571124037478E-03	-5.26131669082489E-03	-0.847188973072913	-0.427505996921478
1151145000	-0.872538825410193	-0.350643046317793	4.08937178868097E-03	-5.3727889547225E-03			4.16217599016618E-03	-5.21943076693328E-03	-0.847842252007545	-0.426149521056593
1151520000	-0.873115665409692	-0.350423799304328	4.07442012502403E-03	-5.34095305834099E-03			4.13470074919466E-03	-5.21354658059031E-03	-0.847930573124651	-0.424949346058437
1151895000	-0.873262549804582	-0.350121681156852	4.03449429767353E-03	-5.29022938481564E-03			4.12069614301355E-03	-5.17428594248812E-03	-0.84812023644203	-0.42416155024997
1152270000	-0.874085312949545	-0.350234782111043	4.01978359308641E-03	-5.24563421386559E-03			4.07629632266903E-03	-5.16675686550036E-03	-0.847949805924064	-0.423704531684117
1152645000	-0.874499406022888	-0.350032476517677	4.01514665609848E-03	-5.20648114474772E-03			4.08826048877148E-03	-5.12273197797074E-03	-0.848432711238493	-0.423500286510499
1153020000	-0.875222688186055	-0.350052675137432	3.99843003665084E-03	-5.20319284044933E-03			4.05402513986901E-03	-5.11905191540094E-03	-0.84943177386389	-0.423435862492735
1153395000	-0.875916132105493	-0.3497523319898	3.97197066796743E-03	-5.1447819002414E-03			4.06053337618263E-03	-5.05991139264435E-03	-0.850374303895026	-0.423139410910406
1153770000	-0.877061632015113	-0.349208597582761	4.00562505100087E-03	-5.14443974319708E-03			4.0682703574056E-03	-5.03285116932909E-03	-0.851962586666965	-0.422228514783199
1154145000	-0.87821019378563	-0.34883362471532	3.99636718220719E-03	-5.12928407778301E-03			4.04508640301514E-03	-5.06150344065387E-03	-0.852876081813425	-0.421315081201871
1154520000	-0.879368322284342	-0.348035013490982	3.97668840974394E-03	-5.13043338653019E-03			4.01829513748511E-03	-5.03395988117969E-03	-0.853825756683926	-0.420214677419577
1154895000	-0.880164010344202	-0.347861089995658	3.93097204098372E-03	-5.12846154351788E-03			4.00125773242327E-03	-5.05754689560918E-03	-0.854861949213844	-0.419792541145741
1155270000	-0.881364823819441	-0.346797991812257	3.87731813478832E-03	-5.08110424932999E-03			3.93992701163328E-03	-5.02222009739213E-03	-0.855936090509268	-0.419080367803295
1155645000	-0.88273559188665	-0.345525547909319	3.86717327940721E-03	-5.06265459516042E-03			3.89623223758059E-03	-4.97262309220172E-03	-0.85710421464859	-0.418081225061784
1156020000	-0.883237212853322	-0.344923381267299	3.84677934500951E-03	-5.03251491853193E-03			3.89975685893542E-03	-4.97248251165818E-03	-0.858816802534176	-0.417072911380251
1156395000	-0.883773360071467	-0.343711756663426	3.80892099940003E-03	-5.02253954365985E-03			3.82706971418489E-03	-4.93539287656627E-03	-0.860528918873298	-0.415355871574842
1156770000	-0.884575793416075	-0.342426935433549	3.82406317208473E-03	-5.01609927163896E-03			3.81907747502728E-03	-4.89797995950833E-03	-0.86152183899941	-0.414563045236301
1157145000	-0.885075464689043	-0.341342884071987	3.74457225758733E-03	-4.97812854386366E-03			3.81997409398231E-03	-4.8717962587855E-03	-0.863046310307776	-0.412954312488185
1157520000	-0.885869285869216	-0.340172335662784	3.74846755523429E-03	-4.94139510200437E-03			3.76977100501818E-03	-4.88670933476272E-03	-0.864032591565143	-0.411261926214447
1157895000	-0.88622162859751	-0.338787448709525	3.69848009013376E-03	-4.88239099462213E-03			3.72729990648926E-03	-4.83686748821755E-03	-0.865021256158321	-0.409693171094091
1158270000	-0.886877073756872	-0.337774225306823	3.66644413417071E-03	-4.87670208093908E-03			3.71266221927844E-03	-4.80793532789704E-03	-0.865759091289388	-0.407891075211142
1158645000	-0.887150053714496	-0.336666020428629	3.64373413807875E-03	-4.82169212686631E-03			3.68332928828926E-03	-4.77605017578525E-03	-0.866816757286822	-0.406479324720769
1159020000	-0.887362375843254	-0.335764043160689	3.63192304389427E-03	-4.82106910539778E-03			3.65672529027056E-03	-4.74617083913385E-03	-0.867545510298768	-0.404506567676674
1159395000	-0.887838577404858	-0.334456191251747	3.62290302463853E-03	-4.76787457387162E-03			3.63985864348329E-03	-4.73131589829082E-03	-0.868388234104001	-0.403249507477593
1159770000	-0.88808006254807	-0.333496349838818	3.59849889745852E-03	-4.77761686791336E-03			3.59751802836692E-03	-4.74264450535977E-03	-0.869118192072283	-0.401652014166423
1160145000	-0.888625089926012	-0.332545457637215	3.54877737484964E-03	-0.004757274910942			3.59663463671861E-03	-4.69745611873763E-03	-0.870097444104721	-0.400013670557157
1160520000	-0.888673688660814	-0.331655678602326	3.48475606855803E-03	-4.73207623178862E-03			3.51399822191924E-03	-4.68387953838637E-03	-0.870720716583857	-0.39870270950111
1160895000	-0.889805325085695	-0.330224646708533	3.44938633539048E-03	-4.69823198595302E-03			3.45667283385591E-03	-4.62850823819844E-03	-0.871815049436847	-0.396957885223288
