# Hz S RI R 50
619000000	-0.945067404569407	-8.31407786101914E-02	-1.4725498689474E-04	1.75680621074444E-03			-1.4001651653253E-04	1.73710002191245E-03	-0.942995984215537	-0.111975642264184
619250000	-0.945482108877905	-0.082514558343315	-1.54555300311124E-04	1.75796248291595E-03			-1.28759717994681E-04	1.75469077622618E-03	-0.94316936736839	-0.110878956540018
619500000	-0.945697638789975	-8.09837344421429E-02	-1.29176138472176E-04	1.76963380780599E-03			-1.13786735969479E-04	1.76406089409825E-03	-0.943321126806063	-0.109400776530333
619750000	-0.945943269911756	-7.98302166178452E-02	-1.18904878226464E-04	1.77025870929731E-03			-1.29699879223585E-04	1.77043568081666E-03	-0.943243195951005	-0.108360326717068
620000000	-0.945771813192355	-7.87844818320124E-02	-1.1797850418082E-04	1.72012560493494E-03			-1.12539924253784E-04	1.75293783423529E-03	-0.943359489069037	-0.107288743179737
620250000	-0.945659275532824	-7.72783055396465E-02	-1.50816591033435E-04	1.76023322417844E-03			-1.09670506302947E-04	1.7591030340753E-03	-0.943636130299034	-0.106297315286478
620500000	-0.945670810526091	-7.64025144031876E-02	-1.16295200708348E-04	1.76985634700347E-03			-1.14499778656443E-04	1.72450662313755E-03	-0.943699622928898	-0.104944267025059
620750000	-0.945738215266391	-7.55411012485292E-02	-1.28105121871955E-04	1.73970684277558E-03			-1.06380873589084E-04	1.78668008923117E-03	-0.943840127662823	-0.104368629516191
621000000	-0.946123530008877	-7.41745590811104E-02	-1.37078115301965E-04	1.75201041998216E-03			-1.2799812174224E-04	1.7557971857566E-03	-0.943445115519748	-0.103233305107141
621250000	-0.945941785918708	-7.33556716032214E-02	-1.25708389053373E-04	1.74165089790993E-03			-1.0587105389907E-04	1.75223433147136E-03	-0.944296911128508	-0.101762521102039
621500000	-0.946001938297405	-7.22478970667342E-02	-1.06095906761632E-04	1.75464474578123E-03			-1.10007488636384E-04	1.75381366002088E-03	-0.943823815826534	-0.100904092757593
621750000	-0.946244304424455	-7.08631543509633E-02	-9.18192232551583E-05	1.78639052950635E-03			-1.13682625931528E-04	1.74739592667924E-03	-0.944311676872001	-9.97006302407895E-02
622000000	-0.946529539309451	-0.069828203804351	-1.21041943839063E-04	1.73961985393001E-03			-1.02368354319978E-04	1.75231363713824E-03	-0.944691146604252	-9.84853238385291E-02
622250000	-0.946363123682866	-6.87978217504207E-02	-9.88507895052744E-05	1.75889639064089E-03			-1.32708264035258E-04	1.76574408697286E-03	-0.944355146222077	-9.73801225387718E-02
622500000	-0.946302713528206	-6.74359845952134E-02	-9.54090947249503E-05	1.75444072661702E-03			-1.290912502624E-04	1.75160853557519E-03	-0.944445227271638	-9.61446991097085E-02
622750000	-0.946223587293143	-6.61590592554163E-02	-8.05880054649473E-05	1.75839255090734E-03			-1.01688296840453E-04	1.74955848955746E-03	-0.944821648863193	-9.50374968657498E-02
623000000	-0.946617493569072	-6.50105121601708E-02	-1.05560997571284E-04	1.77250596633102E-03			-1.11939430477636E-04	1.73648504035725E-03	-0.944922972331675	-9.37050176694541E-02
623250000	-0.946394322451317	-6.38926269920157E-02	-1.1674030411215E-04	1.74832869408282E-03			-1.02907159399924E-04	1.77466351496653E-03	-0.944885010304125	-9.28703882160631E-02
623500000	-0.946497497258346	-0.062601842641489	-1.18433039126695E-04	1.7577693747462E-03			-1.28372884929537E-04	1.76375724081931E-03	-0.944679866058639	-9.18075974145435E-02
623750000	-0.947002558711482	-6.14474019823549E-02	-1.10010870139106E-04	1.75708290581382E-03			-1.11746609120367E-04	1.76704780719259E-03	-0.944960556376963	-0.090232096131289
624000000	-0.946861369744588	-6.02311984647118E-02	-1.04012786828947E-04	1.75114845173061E-03			-1.04230990175929E-04	1.76736436288245E-03	-0.945013629920363	-8.94861901295564E-02
624250000	-0.946952988448721	-5.92441537103479E-02	-1.10436523366403E-04	1.77892495799463E-03			-1.15386010292194E-04	1.77573939543242E-03	-0.945319878337677	-8.79500630474011E-02
624500000	-0.946764133059253	-5.79109815062665E-02	-8.72693595509338E-05	1.76008835861475E-03			-1.25128969422597E-04	1.79389604187917E-03	-0.944965707439443	-8.69674416585442E-02
624750000	-0.946977855886489	-5.68229789159186E-02	-9.71561085565119E-05	1.82913563688864E-03			-8.8934280876576E-05	1.78996238028021E-03	-0.945197922623853	-8.54355626909982E-02
625000000	-0.946503577697766	-5.54601012734834E-02	-9.13859334150144E-05	1.78450972949363E-03			-9.48954898140409E-05	1.81221123934577E-03	-0.945266589551676	-8.45305305298349E-02
625250000	-0.946806584578604	-5.42569573205932E-02	-7.12299933997051E-05	1.76673394297958E-03			-8.53708685346482E-05	1.80882956782546E-03	-0.945333060779684	-8.30972018233795E-02
625500000	-0.946606493226845	-5.33482634245535E-02	-8.91190874881891E-05	1.79493192484997E-03			-9.06087821372033E-05	1.78898825093475E-03	-0.945306017120258	-8.23381371895349E-02
625750000	-0.946558149927237	-5.23043489559688E-02	-7.66674948849216E-05	1.78246384800797E-03			-6.29261826489629E-05	1.79530922224931E-03	-0.94543176791063	-8.12432240125904E-02
626000000	-0.946736845722648	-0.051035227410985	-6.92654363141018E-05	0.001763238611444			-5.1108301617861E-05	1.78575078403803E-03	-0.945645933599175	-0.079959243911078
626250000	-0.946806706587507	-0.050210645086138	-6.60840748078959E-05	1.79167750953178E-03			-6.34002444542382E-05	1.77726075657146E-03	-0.945614867364595	-7.87044283766256E-02
626500000	-0.947101283269226	-4.85571073628326E-02	-3.63671609164571E-05	1.77351051873636E-03			-7.82455143291476E-05	1.76464164709896E-03	-0.945415719257137	-7.78046289311077E-02
626750000	-0.947273563372186	-4.72194081157399E-02	-7.45522812963238E-05	1.79267087211921E-03			-8.39952046522831E-05	1.78032913995324E-03	-0.945175150887439	-7.68544859077387E-02
627000000	-0.947018418912121	-4.62711671624524E-02	-6.75781709164961E-05	1.78553195256653E-03			-6.40527629659769E-05	1.79349410478848E-03	-0.94590895000779	-7.53792044086403E-02
627250000	-0.946686258681806	-4.53655547950524E-02	-5.62928493849133E-05	1.78893118712343E-03			-5.6643865190942E-05	1.77431348103528E-03	-0.945730223752075	-7.43667366632022E-02
627500000	-0.946870470765199	-4.41046627950389E-02	-6.40739950273014E-05	1.78995333498888E-03			-6.23305732877359E-05	1.76886883951871E-03	-0.94573779190214	-7.31168638920716E-02
627750000	-0.946605564037002	-4.30764126637544E-02	-1.0216941706599E-04	1.78500932155849E-03			-4.36977791569089E-05	1.7792053278794E-03	-0.945775797321389	-7.19691187725735E-02
628000000	-0.947050291254651	-4.18013300896042E-02	-4.3948165366552E-05	1.79010416846836E-03			-5.71538153862675E-05	1.78751921059576E-03	-0.945976917756491	-7.12015039855634E-02
628250000	-0.947226835911826	-4.07255663088286E-02	-4.90907838703464E-05	1.7842051064615E-03			-6.32291510274619E-05	1.7847324329988E-03	-0.946310569380442	-6.97778942715313E-02
628500000	-0.947614030758421	-3.97066691136095E-02	-4.28587084281152E-05	1.79276958340323E-03			-5.85017659083336E-05	1.78221882071658E-03	-0.946052439289986	-6.85172209090638E-02
628750000	-0.947374323850847	-3.80253402148843E-02	-7.64964753745825E-05	1.77563627843465E-03			-4.76305934203185E-05	1.79296987936611E-03	-0.946411423319346	-0.067286295575178
629000000	-0.947549015192925	-3.71582852189236E-02	-4.82459879843351E-05	1.78523326749468E-03			-5.04370138878324E-05	1.7985355609102E-03	-0.946452490337467	-6.60002122234743E-02
629250000	-0.947226148844971	-3.57156099014704E-02	-5.26787468412021E-05	1.78515570843794E-03			-5.71154867068644E-05	1.78907345951137E-03	-0.946325140740687	-6.46824917450068E-02
629500000	-0.947154591123914	-3.44399049811402E-02	-5.63710705284175E-05	1.76564629698468E-03			-6.307747868567E-05	1.76969452304337E-03	-0.946356124254995	-6.38569106348222E-02
629750000	-0.947065911014714	-3.31330655354556E-02	-5.05114629820513E-05	1.77697081246058E-03			-4.82959924429994E-05	1.80570064578352E-03	-0.94659756996103	-6.24196021450425E-02
630000000	-0.947675082529718	-3.22836126757898E-02	-5.4341414080755E-05	1.78216983573477E-03			-4.68321822580144E-05	1.76815715508609E-03	-0.946966554710044	-0.061220315736183
630250000	-0.947616161259242	-3.06006817951936E-02	-3.59660703992423E-05	1.79972694140655E-03			-5.7153044329902E-05	1.78714688566833E-03	-0.94688875116394	-6.01401824247846E-02
630500000	-0.947464500669284	-2.93310631026937E-02	-4.79066559307145E-05	1.78356470735023E-03			-3.51127289384171E-05	1.76975263638426E-03	-0.947130251768415	-0.058895190356823
630750000	-0.947391555912447	-2.78399668528688E-02	-2.86425172421388E-05	1.79364763289307E-03			-3.86971755816966E-05	1.79320415561835E-03	-0.946933825956597	-5.72767424551948E-02
631000000	-0.947907837199817	-2.68475834878571E-02	-4.17334213439562E-05	1.77890158906176E-03			-3.29678922198563E-05	1.7733321676316E-03	-0.947236154201452	-5.60660446129478E-02
631250000	-0.947534562924337	-2.53634695125965E-02	-4.28107583174402E-05	1.77543417893033E-03			-2.90118512118659E-05	1.7683811460733E-03	-0.946887849155806	-5.49335293872926E-02
631500000	-0.947636023720331	-2.43842816617759E-02	-3.33500658168472E-05	1.76285212066209E-03			-3.88172525519963E-05	1.78979404564043E-03	-0.94697988018868	-5.35747002987534E-02
631750000	-0.947454202901014	-2.32433484321776E-02	-2.3291014929164E-05	1.80999793765432E-03			-3.30677463460312E-05	1.77650419303767E-03	-0.947383400986985	-5.22232677655094E-02
632000000	-0.947561038576028	-2.17342281346365E-02	-3.92992155075441E-05	1.79801268919984E-03			-1.46890840334129E-05	1.76498481014376E-03	-0.947018877946854	-5.09493984202792E-02
632250000	-0.947034428620964	-2.08725883598832E-02	-4.17560625743944E-05	1.79097231233658E-03			-2.71117517534321E-05	1.76992502357811E-03	-0.94705949622162	-4.98599701126816E-02
632500000	-0.94700460907682	-1.95329542903642E-02	-7.36495186336102E-05	1.77659400561221E-03			-2.40070253451719E-05	1.77736252970303E-03	-0.946977812560398	-4.86022415840325E-02
632750000	-0.947263951632256	-0.018164805802267	-5.29565029191688E-05	1.81548220544301E-03			-2.61850627041528E-05	1.78501711091054E-03	-0.947235156650498	-4.73521459598552E-02
633000000	-0.947047018878986	-1.66856314077638E-02	-3.07208157608032E-05	1.77394948941709E-03			-3.00705905627134E-05	1.78151113573967E-03	-0.947090806063655	-4.59900844627804E-02
633250000	-0.947423149817773	-1.55089778507673E-02	-3.10308974572924E-05	1.79686106374365E-03			-5.51521457957051E-05	1.79280015097723E-03	-0.946866422099973	-4.48894751845515E-02
633500000	-0.94684026640655	-1.44305468923274E-02	-3.65338942305868E-05	1.7824666577706E-03			-4.22346358594096E-05	1.80674422516551E-03	-0.947076995050916	-4.33331558365238E-02
633750000	-0.947092383202815	-1.31074891735922E-02	-1.63170688099557E-05	1.82438229050133E-03			-2.42573819910012E-05	1.79341485179036E-03	-0.946867853779439	-4.22299259144436E-02
634000000	-0.947052198503139	-0.011650399159111	-1.92381809343917E-05	1.8095443180878E-03			-4.06122061735551E-05	1.80681030173301E-03	-0.947051344653642	-4.12339943359663E-02
634250000	-0.947160559854249	-1.07512393273363E-02	-1.93770584075035E-05	1.81159656961212E-03			-2.5140804991888E-05	1.8135082995433E-03	-0.947130891738268	-4.00822620647268E-02
634500000	-0.947191697247534	-9.59826695138568E-03	1.31568369004649E-05	1.81325675741582E-03			-4.38745829663044E-06	1.78988982490552E-03	-0.947129620762489	-3.87390341956098E-02
634750000	-0.9471225925423	-8.28773402881188E-03	1.09831405242304E-05	1.80013855040539E-03			-3.3366981878979E-05	1.79944972185832E-03	-0.947163489571325	-3.76642590928772E-02
635000000	-0.946911879507557	-6.98628597748564E-03	-5.23618777372509E-06	1.82972610941558E-03			-1.1703888927685E-05	1.81830935443467E-03	-0.947284778279887	-3.62860669426943E-02
635250000	-0.947023191951111	-5.88340596769577E-03	-1.13039792116282E-05	1.84494928892982E-03			-1.88345300653695E-05	1.82667015302167E-03	-0.947259045001087	-3.51330522925913E-02
635500000	-0.94712673287583	-4.53538828704073E-03	8.53121651762961E-06	1.79673905300561E-03			-7.24017584688531E-06	1.81839092879845E-03	-0.947211040869391	-0.033480621604411
635750000	-0.947303654361701	-3.28343784814779E-03	-8.61803946399046E-06	1.81394119608255E-03			1.34047829946974E-05	1.79701611153319E-03	-0.947122152363597	-0.032337037874352
636000000	-0.947214809082215	-1.68464212579296E-03	1.97812898873655E-05	1.81192314100197E-03			1.91658250132725E-05	1.79448215001149E-03	-0.947164373100078	-3.13316484470416E-02
636250000	-0.947632705380803	-4.10553458626162E-04	8.71769448149238E-06	1.80871769117377E-03			7.47325689250751E-06	1.81511585156149E-03	-0.947480201718876	-2.96587468293241E-02
636500000	-0.947083136394785	9.04784906032657E-04	-1.07597518166918E-05	1.82545198267128E-03			1.59215941470825E-05	1.78606033583013E-03	-0.947318545272408	-2.86105318756825E-02
636750000	-0.947073761231979	2.20838590869436E-03	2.66932588409023E-06	1.81861547323736E-03			9.35086844482825E-06	1.79403906124906E-03	-0.94750091627487	-2.72310874355479E-02
637000000	-0.947169536536015	2.97241092677426E-03	9.12178880638675E-06	1.80670021257184E-03			2.962547700348E-05	1.80536407769998E-03	-0.947198377248915	-0.02600375979562
637250000	-0.947268275823776	4.67478746747318E-03	1.46651644464764E-05	1.81203453476198E-03			1.66107500603937E-05	1.79950687986902E-03	-0.947461830740173	-2.46604830528566E-02
637500000	-0.94738224520519	6.02975073928347E-03	3.51660242186769E-05	1.76845018865733E-03			3.35457192558246E-05	1.81092340959006E-03	-0.947616566951665	-2.34079964794722E-02
637750000	-0.947268187469792	7.6306910130142E-03	2.50824590579523E-05	1.78445637431033E-03			1.92043063960427E-05	1.79991400190866E-03	-0.948091549091357	-2.16781463549333E-02
638000000	-0.947104050286283	8.93093704268246E-03	1.48698458492303E-06	1.81076303046048E-03			1.44639590459965E-05	1.82654197383473E-03	-0.947845412190748	-2.02443446356166E-02
638250000	-0.946893757942116	1.04169899690812E-02	3.43907171926923E-05	1.81884807163908E-03			1.21747806420988E-05	1.8043639841793E-03	-0.947887409298819	-1.91081157913382E-02
638500000	-0.946831169277848	1.16612511448798E-02	1.86740530796897E-05	1.79374602748113E-03			7.14430659016864E-06	1.80516920246601E-03	-0.947368638000334	-1.76835125071942E-02
638750000	-0.946826657555374	1.32704326430296E-02	2.78541946868439E-05	1.79453461124018E-03			3.11247146964575E-05	1.82522561071002E-03	-0.947481955293334	-1.61899982806869E-02
639000000	-0.946908650136209	1.44867590221974E-02	7.04601657966315E-06	1.82922716445784E-03			2.66182845010941E-05	1.82286933482601E-03	-0.947530937264665	-1.48919981948287E-02
639250000	-0.946787105288655	1.60775138540637E-02	8.29892028339857E-06	1.79736631615963E-03			1.69308553414063E-05	1.78954046765981E-03	-0.94739888687522	-1.33060053927914E-02
639500000	-0.946337573042133	1.74505359311457E-02	2.98934829016726E-05	1.8254018731478E-03			4.50597205537498E-05	1.81612136355101E-03	-0.947363227921219	-1.20930494368041E-02
639750000	-0.946356245601274	1.86669587667733E-02	3.1408194673211E-05	1.80555421826242E-03			5.25381926543514E-05	1.82481691625712E-03	-0.947404857572507	-1.03949663686113E-02
640000000	-0.945967231984436	2.02107277175244E-02	4.01482411026845E-05	1.80836766226185E-03			2.29074919535164E-05	1.81115061877968E-03	-0.94741379623672	-9.45354656341267E-03
640250000	-0.946143611867673	2.15571312590667E-02	3.79680332059517E-05	1.84425119258119E-03			4.68011103666583E-05	1.84036366599886E-03	-0.947329136489831	-7.84637431561407E-03
640500000	-0.945894996799523	2.31915108726304E-02	6.01663779584062E-05	1.82524697641217E-03			5.77580368291032E-05	1.80598118783507E-03	-0.947005163108658	-6.24803637184046E-03
640750000	-0.945675866445426	2.42843604270259E-02	4.64519861398505E-05	1.81210259341792E-03			4.85151111680338E-05	1.78386786961908E-03	-0.946964490447569	-5.43054175951271E-03
641000000	-0.945611823813582	2.56158700562312E-02	3.85507487729285E-05	1.8022850427986E-03			2.08963628822428E-05	1.80427086363901E-03	-0.946923714792485	-4.3020062520024E-03
641250000	-0.94570093723447	2.65641441264872E-02	3.52619414464352E-05	1.7900952398503E-03			4.93872184583325E-05	1.7952543450597E-03	-0.946909202506543	-3.09122265202342E-03
641500000	-0.945468595232551	2.80898245504271E-02	5.66370867553803E-05	1.81779907391116E-03			6.64729078524109E-05	1.8228169930462E-03	-0.946701298420251	-1.46885031238863E-03
641750000	-0.945603537704828	2.93003396544509E-02	4.72234778512042E-05	1.81386151942268E-03			4.67599346777651E-05	1.81993663386318E-03	-0.947009314373932	-1.79379723018153E-04
642000000	-0.94548114796411	0.031022243217562	3.20442690553848E-05	1.82351155472013E-03			3.93205464206586E-05	1.81367718285088E-03	-0.946781960973758	1.3200623734524E-03
642250000	-0.945484270521149	3.19581017798901E-02	2.78808885414864E-05	1.8218754096626E-03			5.90845779600907E-05	1.80231052010255E-03	-0.946854359681832	3.15575628141642E-03
642500000	-0.945488163553563	3.34324463898848E-02	3.52629732609066E-05	1.84269394596257E-03			3.69798247138916E-05	1.83004453366061E-03	-0.947048782754493	4.11278763183049E-03
642750000	-0.945762671606626	3.47731017209658E-02	6.93708151926834E-05	1.83712598429095E-03			4.2025027430882E-05	1.81420589591455E-03	-0.946807058682765	5.37422210060824E-03
643000000	-0.945294297812553	0.036212010779528	4.56873794101308E-05	1.83988569542415E-03			4.47061854201278E-05	1.81915076637603E-03	-0.946557757397214	6.88980239904153E-03
643250000	-0.945166763217768	3.79803854418769E-02	6.87557267834786E-05	1.81409954898399E-03			7.91915973777625E-05	1.84827441645108E-03	-0.946763490623264	8.33190867120044E-03
643500000	-0.945091112604359	3.90588891713881E-02	4.36415289453071E-05	1.8511930966988E-03			5.93844682342183E-05	1.81303396807764E-03	-0.946562598358688	9.28924936365595E-03
643750000	-0.945187147063908	4.04925232647453E-02	6.14517452502025E-05	1.82558866761585E-03			7.59105304186575E-05	1.81101715257911E-03	-0.946997561851852	1.08438089789984E-02
644000000	-0.94518654224111	4.18666832151827E-02	6.50172325861891E-05	1.81980620154885E-03			9.5521389448731E-05	1.83964104762053E-03	-0.946925170737545	1.23068937937858E-02
644250000	-0.945422986409886	4.33293633403618E-02	9.78179856454923E-05	1.78370790534568E-03			8.10549912652296E-05	1.8208613263862E-03	-0.94685790913765	1.35083215278722E-02
644500000	-0.945064734259956	4.49460294248731E-02	5.95308451046509E-05	1.81885677855487E-03			7.81132337733297E-05	1.83706002938451E-03	-0.947097747472313	1.53526927295593E-02
644750000	-0.945364256724097	4.66200900839833E-02	6.39628829668481E-05	1.85478050619501E-03			8.35314031057413E-05	1.81730973239515E-03	-0.946859637732338	1.66915046665748E-02
645000000	-0.944793727624505	4.79813409124705E-02	5.99221762044323E-05	1.84739428277651E-03			9.59052378718896E-05	1.83194280348132E-03	-0.947032617293815	1.84013828500412E-02
645250000	-0.945047034503132	4.96200747493996E-02	9.31284969608145E-05	1.83240755948842E-03			8.60542210331649E-05	1.85353435536983E-03	-0.947110479715779	1.96719022982144E-02
645500000	-0.944772811535232	5.11258887618135E-02	1.0439121688836E-04	1.83578437041435E-03			1.02271796119351E-04	1.81862918871263E-03	-0.946966988819117	2.13055796243521E-02
645750000	-0.944746183764423	5.26877443157431E-02	1.0013993638389E-04	1.83777876757597E-03			1.14085610804874E-04	1.82694486592258E-03	-0.946977284626683	2.30157294304184E-02
646000000	-0.944645710544902	5.43386708710609E-02	8.48743501275306E-05	1.82421529931692E-03			9.4557087933691E-05	1.82608783798852E-03	-0.94662335372895	2.46369432053008E-02
646250000	-0.944631064214046	5.56450354037637E-02	9.69454790997852E-05	1.83459319009028E-03			1.06813709565901E-04	1.81836262349947E-03	-0.946583513645631	2.61682900209478E-02
646500000	-0.944175198674005	5.73966793777852E-02	1.10472529966764E-04	1.8321759703652E-03			1.1257365164339E-04	1.8400253659306E-03	-0.946475309084726	2.76341649171895E-02
646750000	-0.944081693846556	5.90239507894338E-02	1.13685971274892E-04	1.79764380054206E-03			1.0601391362764E-04	1.82227768815095E-03	-0.946360909770862	2.95077131181841E-02
