!HP8753
# HZ S RI R 50
80000000      0.9381104     -0.3298340      0.0000832      0.0000257      0.0000770      0.0000033      0.8960876     -0.4317017
80700000      0.9374695     -0.3325806     -0.0000252     -0.0000107     -0.0000241      0.0000087      0.8940430     -0.4348145
81400000      0.9361877     -0.3352661     -0.0000163      0.0001133     -0.0000254      0.0001221      0.8921204     -0.4385681
82100000      0.9346619     -0.3382263      0.0000342      0.0001176      0.0000677      0.0001138      0.8902283     -0.4425964
82800000      0.9334106     -0.3406372      0.0000844      0.0000268      0.0000902      0.0000227      0.8877563     -0.4456177
83500000      0.9329224     -0.3434448     -0.0000001      0.0000027     -0.0000294      0.0000028      0.8863831     -0.4493408
84200000      0.9320068     -0.3468018     -0.0000501      0.0000650     -0.0000700      0.0000574      0.8843689     -0.4534912
84900000      0.9306030     -0.3497925      0.0000078      0.0001403      0.0000122      0.0001253      0.8823853     -0.4571228
85600000      0.9295654     -0.3528442      0.0000913      0.0000619      0.0000618      0.0000530      0.8802490     -0.4609680
86300000      0.9279785     -0.3556519      0.0000089      0.0000368      0.0000265      0.0000181      0.8780518     -0.4649048
87000000      0.9265137     -0.3582153     -0.0000266      0.0000829      0.0000028      0.0000943      0.8755493     -0.4680176
87700000      0.9256592     -0.3611450      0.0000439      0.0001126      0.0000374      0.0001250      0.8736877     -0.4714966
88400000      0.9245300     -0.3642273      0.0000759     -0.0000204      0.0000602     -0.0000253      0.8718262     -0.4756775
89100000      0.9234314     -0.3671265     -0.0000668      0.0000190     -0.0000668      0.0000205      0.8696594     -0.4796143
89800000      0.9219971     -0.3698120     -0.0000475      0.0001520     -0.0000552      0.0001485      0.8670349     -0.4837646
90500000      0.9205017     -0.3730469      0.0001292      0.0001410      0.0001394      0.0001422      0.8646851     -0.4873352
91200000      0.9190063     -0.3758240      0.0000922     -0.0000600      0.0000722     -0.0000751      0.8613281     -0.4912109
91900000      0.9181519     -0.3781128     -0.0001020      0.0000424     -0.0001122      0.0000422      0.8599548     -0.4939880
92600000      0.9171753     -0.3814087     -0.0000299      0.0001735     -0.0000239      0.0001846      0.8578186     -0.4983521
93300000      0.9157104     -0.3845215      0.0001761      0.0001113      0.0001796      0.0001089      0.8550110     -0.5020447
94000000      0.9144592     -0.3873901      0.0000726     -0.0000516      0.0000678     -0.0000502      0.8527832     -0.5056458
94700000      0.9130554     -0.3905334     -0.0000690     -0.0000435     -0.0000863     -0.0000192      0.8500977     -0.5098267
95400000      0.9113770     -0.3934631     -0.0001176      0.0001438     -0.0001082      0.0001467      0.8475342     -0.5137024
96100000      0.9101257     -0.3959045      0.0001033      0.0001865      0.0000988      0.0001867      0.8447266     -0.5169373
96800000      0.9089355     -0.3987122      0.0001271      0.0000158      0.0001271     -0.0000027      0.8423157     -0.5213623
97500000      0.9075928     -0.4020996     -0.0000419      0.0000118     -0.0000390      0.0000240      0.8396301     -0.5249023
98200000      0.9059143     -0.4050598     -0.0000494      0.0001374     -0.0000323      0.0001450      0.8367920     -0.5289917
98900000      0.9048157     -0.4081726      0.0001097      0.0001494      0.0001087      0.0001445      0.8340454     -0.5325928
99600000      0.9025269     -0.4114380      0.0001534     -0.0000098      0.0001304     -0.0000045      0.8312073     -0.5365295
100300000      0.9010925     -0.4136963     -0.0000406     -0.0000470     -0.0000439     -0.0000454      0.8280334     -0.5389404
101000000      0.8998413     -0.4168701     -0.0000956      0.0001181     -0.0000982      0.0001589      0.8260498     -0.5432434
101700000      0.8985596     -0.4201050      0.0001237      0.0001941      0.0001145      0.0001698      0.8232727     -0.5473633
102400000      0.8968506     -0.4229736      0.0000678     -0.0000161      0.0000481     -0.0000192      0.8203125     -0.5514832
103100000      0.8955383     -0.4264221     -0.0000465      0.0000236     -0.0000554      0.0000299      0.8172913     -0.5551758
103800000      0.8934021     -0.4292603     -0.0000029      0.0001398     -0.0000144      0.0001362      0.8141785     -0.5591125
104500000      0.8916931     -0.4324341      0.0000869      0.0001306      0.0001171      0.0001414      0.8104553     -0.5628662
105200000      0.8901062     -0.4352417      0.0000734     -0.0000232      0.0000742     -0.0000334      0.8078613     -0.5665588
105900000      0.8881836     -0.4385681     -0.0000901      0.0000567     -0.0000787      0.0000514      0.8044128     -0.5705872
106600000      0.8863220     -0.4414673      0.0000891      0.0002009      0.0001047      0.0002133      0.8015137     -0.5743408
107300000      0.8846130     -0.4447021      0.0001467     -0.0000116      0.0001467     -0.0000216      0.7983093     -0.5781250
108000000      0.8830566     -0.4480591     -0.0000667     -0.0000497     -0.0000702     -0.0000510      0.7950745     -0.5828247
108700000      0.8806763     -0.4515076     -0.0001485      0.0001746     -0.0001516      0.0001904      0.7908936     -0.5858154
109400000      0.8791199     -0.4544983      0.0002389      0.0003400      0.0002566      0.0003553      0.7880859     -0.5903320
110100000      0.8771973     -0.4583435      0.0004511     -0.0002517      0.0004236     -0.0002970      0.7843018     -0.5946045
110800000      0.8747253     -0.4617310     -0.0004672     -0.0004776     -0.0005129     -0.0004329      0.7803040     -0.5987549
111500000      0.8719482     -0.4653625     -0.0005962      0.0006281     -0.0005141      0.0006939      0.7769470     -0.6033325
112200000      0.8697205     -0.4687805      0.0006297      0.0005859      0.0006421      0.0005638      0.7726135     -0.6080627
112900000      0.8671875     -0.4715576      0.0003979     -0.0003515      0.0003533     -0.0004147      0.7677002     -0.6128235
113600000      0.8654480     -0.4754639     -0.0002880     -0.0002930     -0.0003281     -0.0002739      0.7630920     -0.6170654
114300000      0.8626404     -0.4804382     -0.0005214      0.0005203     -0.0004708      0.0005771      0.7584229     -0.6217041
115000000      0.8585510     -0.4858093      0.0006757      0.0007221      0.0007507      0.0007147      0.7538452     -0.6276550
115700000      0.8533020     -0.4909363      0.0002885     -0.0003363      0.0001592     -0.0003617      0.7473755     -0.6349792
116400000      0.8466797     -0.4947510      0.0010799      0.0013599      0.0014814      0.0014920      0.7370300     -0.6431885
117100000      0.8393860     -0.4969177      0.0045965     -0.0046721      0.0041225     -0.0052464      0.7225647     -0.6481628
117800000      0.8303223     -0.4970703     -0.0111609     -0.0084047     -0.0124550     -0.0082445      0.7055359     -0.6473999
118500000      0.8265991     -0.4941406     -0.0135670      0.0196791     -0.0112305      0.0216293      0.6937866     -0.6375732
119200000      0.8182678     -0.4929504      0.0312042      0.0160828      0.0327301      0.0146408      0.6800842     -0.6325073
119900000      0.8217163     -0.4867249      0.0153332     -0.0378990      0.0111103     -0.0405827      0.6866760     -0.6148071
120600000      0.8115234     -0.4883118     -0.0446072     -0.0147457     -0.0451164     -0.0118427      0.6765747     -0.6137695
121300000      0.8193054     -0.4829407     -0.0134525      0.0464916     -0.0083313      0.0479450      0.6941833     -0.6040649
122000000      0.8113098     -0.4841003      0.0473804      0.0115852      0.0483551      0.0084648      0.6793518     -0.6119995
122700000      0.8216553     -0.4819946      0.0087337     -0.0471191      0.0037117     -0.0480709      0.6970825     -0.6035767
123400000      0.8133240     -0.4850159     -0.0445518     -0.0077839     -0.0449123     -0.0047588      0.6827698     -0.6125488
124100000      0.8198853     -0.4848328     -0.0093136      0.0450439     -0.0046082      0.0462990      0.6938477     -0.6073303
124800000      0.8097534     -0.4878235      0.0459290      0.0078449      0.0463753      0.0046215      0.6788635     -0.6131287
125500000      0.8178101     -0.4880066      0.0065575     -0.0445633      0.0020332     -0.0453491      0.6935425     -0.6098938
126200000      0.8088684     -0.4892578     -0.0433559     -0.0065460     -0.0436707     -0.0036011      0.6774902     -0.6150208
126900000      0.8162842     -0.4889221     -0.0070210      0.0439453     -0.0023079      0.0449009      0.6899414     -0.6114807
127600000      0.8074646     -0.4916382      0.0430813      0.0054436      0.0431995      0.0023994      0.6755981     -0.6161499
128300000      0.8143311     -0.4925537      0.0058956     -0.0417633      0.0016003     -0.0426559      0.6884460     -0.6145630
129000000      0.8060608     -0.4949951     -0.0415287     -0.0054951     -0.0417938     -0.0026112      0.6724854     -0.6204224
129700000      0.8139648     -0.4959412     -0.0053921      0.0405064     -0.0011349      0.0414066      0.6860962     -0.6169128
130400000      0.8043213     -0.4995422      0.0392990      0.0057335      0.0396461      0.0031376      0.6716003     -0.6248474
131100000      0.8105774     -0.4992065      0.0063229     -0.0394325      0.0021019     -0.0403481      0.6816101     -0.6212769
131800000      0.8027039     -0.5024109     -0.0388050     -0.0051365     -0.0388851     -0.0024414      0.6686096     -0.6284790
132500000      0.8085022     -0.5033264     -0.0058155      0.0377178     -0.0018291      0.0385780      0.6775208     -0.6259155
133200000      0.7999573     -0.5070190      0.0368481      0.0062447      0.0371933      0.0037231      0.6655273     -0.6334534
133900000      0.8056030     -0.5072327      0.0071030     -0.0369892      0.0031624     -0.0379162      0.6727905     -0.6304321
134600000      0.7968750     -0.5110779     -0.0367603     -0.0066872     -0.0371742     -0.0040245      0.6600647     -0.6369934
135300000      0.8034973     -0.5108643     -0.0068169      0.0363503     -0.0030327      0.0373001      0.6699524     -0.6339417
136000000      0.7948303     -0.5154114      0.0354137      0.0075207      0.0360432      0.0052128      0.6560974     -0.6423645
136700000      0.7999268     -0.5149536      0.0082150     -0.0361328      0.0043087     -0.0372028      0.6636353     -0.6376343
137400000      0.7917175     -0.5190430     -0.0360012     -0.0079937     -0.0366306     -0.0054302      0.6517334     -0.6469727
138100000      0.7971497     -0.5190430     -0.0080853      0.0363255     -0.0042572      0.0374355      0.6586304     -0.6416626
138800000      0.7878113     -0.5239563      0.0359020      0.0085564      0.0365543      0.0061626      0.6467285     -0.6504211
139500000      0.7930298     -0.5223389      0.0091457     -0.0365810      0.0052090     -0.0377769      0.6534729     -0.6456604
140200000      0.7853088     -0.5265198     -0.0365963     -0.0089455     -0.0372181     -0.0063362      0.6412354     -0.6539001
140900000      0.7908325     -0.5256653     -0.0092850      0.0375347     -0.0051861      0.0387192      0.6486206     -0.6502075
141600000      0.7821045     -0.5314026      0.0372124      0.0091190      0.0380363      0.0065403      0.6352844     -0.6579285
142300000      0.7869568     -0.5300903      0.0095024     -0.0378647      0.0054169     -0.0391140      0.6439819     -0.6534424
143000000      0.7779846     -0.5346069     -0.0381813     -0.0096378     -0.0390911     -0.0069218      0.6293335     -0.6624451
143700000      0.7839661     -0.5327148     -0.0095310      0.0399418     -0.0050583      0.0413761      0.6377563     -0.6548157
144400000      0.7744446     -0.5376587      0.0401325      0.0084190      0.0406570      0.0056248      0.6244812     -0.6637268
145100000      0.7802124     -0.5364685      0.0088024     -0.0407104      0.0043793     -0.0419807      0.6338196     -0.6592712
145800000      0.7705994     -0.5408325     -0.0416031     -0.0085182     -0.0422401     -0.0055752      0.6185913     -0.6668701
146500000      0.7770386     -0.5391235     -0.0081615      0.0435200     -0.0033894      0.0448380      0.6275330     -0.6622620
147200000      0.7669373     -0.5427551      0.0442200      0.0068703      0.0446701      0.0035667      0.6121521     -0.6677246
147900000      0.7732239     -0.5420837      0.0065365     -0.0443764      0.0018368     -0.0455132      0.6234741     -0.6648254
148600000      0.7628784     -0.5447693     -0.0457306     -0.0061340     -0.0460682     -0.0027866      0.6065063     -0.6685791
149300000      0.7711487     -0.5444336     -0.0058517      0.0475521     -0.0006218      0.0488682      0.6196594     -0.6660461
150000000      0.7602234     -0.5464478      0.0492153      0.0039501      0.0492058      0.0002823      0.6021729     -0.6697388
150700000      0.7682190     -0.5470581      0.0033131     -0.0493355     -0.0019188     -0.0503178      0.6156921     -0.6683044
151400000      0.7567444     -0.5486450     -0.0514297     -0.0019569     -0.0512390      0.0020351      0.5960999     -0.6698608
152100000      0.7655029     -0.5480957     -0.0016575      0.0522823      0.0038948      0.0532684      0.6108398     -0.6689453
152800000      0.7543945     -0.5485535      0.0544853     -0.0005531      0.0539036     -0.0048141      0.5932617     -0.6674805
153500000      0.7631836     -0.5499878     -0.0010548     -0.0541801     -0.0066681     -0.0549660      0.6089783     -0.6699219
154200000      0.7524109     -0.5487366     -0.0564785      0.0037975     -0.0554237      0.0083771      0.5899048     -0.6641846
154900000      0.7618408     -0.5511475      0.0037651      0.0553970      0.0095291      0.0561218      0.6076965     -0.6723328
155600000      0.7505798     -0.5483398      0.0585518     -0.0065594      0.0571976     -0.0114746      0.5876160     -0.6629944
156300000      0.7600708     -0.5511169     -0.0073051     -0.0580063     -0.0133286     -0.0583878      0.6058044     -0.6714172
157000000      0.7503662     -0.5468445     -0.0608540      0.0114594     -0.0587597      0.0166302      0.5854797     -0.6593628
157700000      0.7611694     -0.5502930      0.0112724      0.0583687      0.0170898      0.0584908      0.6076355     -0.6690369
158400000      0.7535095     -0.5445557      0.0601349     -0.0140190      0.0577507     -0.0191898      0.5910034     -0.6527100
159100000      0.7654114     -0.5497131     -0.0123367     -0.0559082     -0.0178986     -0.0557785      0.6114502     -0.6646118
159800000      0.7589111     -0.5465698     -0.0547504      0.0146313     -0.0519428      0.0193844      0.6018066     -0.6500244
160500000      0.7707214     -0.5529480      0.0114861      0.0458908      0.0156784      0.0455208      0.6250305     -0.6661682
161200000      0.7685547     -0.5520935      0.0405254     -0.0101566      0.0384045     -0.0137768      0.6191406     -0.6585083
161900000      0.7752991     -0.5592957     -0.0062695     -0.0309010     -0.0091400     -0.0306129      0.6374817     -0.6737366
162600000      0.7752686     -0.5634766     -0.0237141      0.0046787     -0.0223589      0.0067005      0.6356506     -0.6817322
163300000      0.7773743     -0.5703735      0.0019054      0.0153456      0.0031595      0.0152845      0.6416016     -0.6947937
164000000      0.7772522     -0.5758972      0.0091758     -0.0004015      0.0086770     -0.0012002      0.6394653     -0.7071533
164700000      0.7774353     -0.5818787      0.0005405     -0.0042031      0.0001853     -0.0041590      0.6364746     -0.7187500
165400000      0.7769165     -0.5877686     -0.0011131     -0.0005113     -0.0010148     -0.0003786      0.6312256     -0.7280884
166100000      0.7742310     -0.5944214     -0.0006312     -0.0003473     -0.0006629     -0.0003287      0.6249390     -0.7359619
166800000      0.7718506     -0.5993652     -0.0006564      0.0002010     -0.0006642      0.0002229      0.6196899     -0.7417603
167500000      0.7691650     -0.6035767     -0.0003416      0.0009499     -0.0002432      0.0009818      0.6141357     -0.7476196
168200000      0.7667236     -0.6076660      0.0009315      0.0004441      0.0009381      0.0003705      0.6088257     -0.7523804
168900000      0.7637329     -0.6121216      0.0001937     -0.0006301      0.0001122     -0.0006548      0.6035767     -0.7565918
169600000      0.7605591     -0.6156616     -0.0004517      0.0001623     -0.0004404      0.0002228      0.5994263     -0.7592773
170300000      0.7578125     -0.6179199     -0.0000150      0.0007753      0.0000942      0.0008036      0.5957642     -0.7642822
171000000      0.7560425     -0.6208496      0.0011259     -0.0001398      0.0010930     -0.0002224      0.5911255     -0.7682495
171700000      0.7539673     -0.6245117     -0.0000482     -0.0011657     -0.0001775     -0.0011942      0.5864258     -0.7715454
172400000      0.7514038     -0.6279297     -0.0012739      0.0002061     -0.0012512      0.0003225      0.5824585     -0.7749023
173100000      0.7485352     -0.6308594      0.0002413      0.0011655      0.0003175      0.0011517      0.5784302     -0.7787476
173800000      0.7467041     -0.6333008      0.0008821      0.0001839      0.0009059      0.0001253      0.5738525     -0.7815552
174500000      0.7446899     -0.6360474      0.0001375     -0.0006430      0.0000529     -0.0006744      0.5700684     -0.7844238
175200000      0.7423096     -0.6395874     -0.0003332     -0.0000719     -0.0003587     -0.0000467      0.5667114     -0.7879639
175900000      0.7395325     -0.6425781     -0.0000946      0.0005910     -0.0000437      0.0005984      0.5628662     -0.7909546
176600000      0.7368164     -0.6451721      0.0005244      0.0000679      0.0005344      0.0000106      0.5583496     -0.7948914
177300000      0.7346191     -0.6477966     -0.0000290     -0.0003502     -0.0000817     -0.0003565      0.5541382     -0.7982483
178000000      0.7314758     -0.6510620     -0.0002770      0.0002734     -0.0002425      0.0002956      0.5499573     -0.8014832
178700000      0.7310486     -0.6537170      0.0000819      0.0003246      0.0001152      0.0003290      0.5470886     -0.8037415
179400000      0.7272644     -0.6561279      0.0002625      0.0001091      0.0002697      0.0000898      0.5432129     -0.8073425
180100000      0.7257385     -0.6587524      0.0000990     -0.0000687      0.0000691     -0.0000647      0.5397644     -0.8097534
180800000      0.7228088     -0.6615295     -0.0000666      0.0000406     -0.0000696      0.0000696      0.5347595     -0.8131409
181500000      0.7210388     -0.6643982      0.0000355      0.0001457      0.0000498      0.0001327      0.5313416     -0.8155518
182200000      0.7178345     -0.6669922      0.0001347      0.0000266      0.0001269      0.0000189      0.5265198     -0.8186951
182900000      0.7153015     -0.6695251      0.0000364      0.0000197      0.0000384      0.0000209      0.5225525     -0.8208313
183600000      0.7127380     -0.6714478     -0.0001418      0.0001708     -0.0001321      0.0001784      0.5189209     -0.8237000
184300000      0.7108765     -0.6743164      0.0001710      0.0002921      0.0002112      0.0002531      0.5145264     -0.8264771
185000000      0.7080078     -0.6771240      0.0001785     -0.0000105      0.0002003      0.0000001      0.5103149     -0.8285828
185700000      0.7053833     -0.6794434     -0.0001672      0.0000994     -0.0001438      0.0001170      0.5061340     -0.8312988
186400000      0.7024231     -0.6814270      0.0000466      0.0002035      0.0000401      0.0001884      0.5013428     -0.8337097
