# Hz S RI R 50
1347500000	-0.940959534462704	-0.155225928826331	1.35251967701245E-02	-0.069942292042131			1.34387845817523E-02	-6.97656940604258E-02	-0.930906062066705	-0.205089973385365
1348000000	-0.941495488849487	-0.152569627491288	1.33713820420326E-02	-6.98880937418704E-02			1.33986079305472E-02	-6.98663324982196E-02	-0.93389779759446	-0.203314067010381
1348500000	-0.940949460248831	-0.152368723684338	1.33970593006691E-02	-7.00344915223176E-02			1.32461152671148E-02	-6.98930438782627E-02	-0.932846924080091	-0.201538913464931
1349000000	-0.941731059745031	-0.151167065805828	1.33235744832321E-02	-6.99502102042635E-02			1.31813657157003E-02	-6.98672614958478E-02	-0.934342746857852	-0.201915304807427
1349500000	-0.94154502182048	-0.150917998154275	0.013284245796463	-6.98544482292723E-02			1.30040193218796E-02	-6.97881571380826E-02	-0.932475300212658	-0.199545285558458
1350000000	-0.942818730884008	-0.150544273561657	1.32253048271669E-02	-6.99003258865376E-02			1.30010881327049E-02	-6.99481961702859E-02	-0.933188904620316	-0.199809653122713
1350500000	-0.941409119497325	-0.150488896457944	1.33069331153328E-02	-6.98021044210424E-02			1.28834538327647E-02	-6.98320431243658E-02	-0.934132062574239	-0.19863325964199
1351000000	-0.942449914137715	-0.147239740506557	1.28818037821119E-02	-6.98535079463209E-02			1.28390153533139E-02	-6.96676825658063E-02	-0.934074817407154	-0.195854907819205
1351500000	-0.942024067083422	-0.146333993516446	1.29885359923833E-02	-6.98507791918271E-02			1.28241274460816E-02	-6.97729882996476E-02	-0.934957426789798	-0.196512242161109
1352000000	-0.942496192933992	-0.144686228549294	1.29005866983817E-02	-6.97621380207681E-02			1.27030625897163E-02	-6.98882472234118E-02	-0.935400158771568	-0.194809786196538
1352500000	-0.942260213579963	-0.143730666237219	1.26094662842382E-02	-6.98321038331048E-02			1.24977841011849E-02	-6.97833186437488E-02	-0.934983734636518	-0.192871022129688
1353000000	-0.942878373540642	-0.142814981189973	1.27784567346873E-02	-6.97414399520291E-02			1.24274864874854E-02	-6.96794559177171E-02	-0.934492473488332	-0.19224948168396
1353500000	-0.942662525652545	-0.142742625459385	1.25837897228707E-02	-6.98508376837389E-02			1.23696307853374E-02	-6.97596795253432E-02	-0.934102875946086	-0.19019787078862
1354000000	-0.943426737309945	-0.140314548346871	1.24642116440421E-02	-0.069764687222427			1.22231217972269E-02	-6.97561307856066E-02	-0.935812207272173	-0.18961093680711
1354500000	-0.943912592863091	-0.139798086956347	1.23980923755073E-02	-6.98035355960344E-02			1.22826756342223E-02	-6.95706766855708E-02	-0.934729255164544	-0.190039546982039
1355000000	-0.943103128883799	-0.136998635201838	1.22452886352782E-02	-6.96207196927874E-02			0.012205864452813	-6.98680910140456E-02	-0.936333980067771	-0.18872699390172
1355500000	-0.943484044373043	-0.136674576719351	1.22837439202801E-02	-6.97202758658774E-02			1.22285420965185E-02	-6.97842111575489E-02	-0.934432259683708	-0.18718476550452
1356000000	-0.943828885532132	-0.135698120806329	1.22787912622537E-02	-6.96318443790283E-02			1.20018330132852E-02	-6.98250605654027E-02	-0.937572624620975	-0.186186504134677
1356500000	-0.944022683163134	-0.135035514038071	1.20655378655769E-02	-6.97362981074049E-02			1.20023658419574E-02	-6.95628276246909E-02	-0.93759164943591	-0.182788534802266
1357000000	-0.944650368070373	-0.132456567812659	1.19885643134949E-02	-6.96036510487236E-02			1.18357802070259E-02	-6.94570587065134E-02	-0.935697245541962	-0.182637473872774
1357500000	-0.944096542563787	-0.128600306922104	1.19114636048923E-02	-6.91982826764586E-02			1.17878962624482E-02	-6.91699521427729E-02	-0.935729847673561	-0.180065551378771
1358000000	-0.934443349334991	-0.127913578922238	1.31234248218775E-02	-6.87399042123598E-02			1.32244493808413E-02	-6.88206514940624E-02	-0.936372999849719	-0.180702364573629
1358500000	-0.942677442087591	-0.132327832394702	1.22456753131342E-02	-6.97146832711293E-02			1.20445712097594E-02	-6.98879334801574E-02	-0.938079317535062	-0.176853147070853
1359000000	-0.943827073276836	-0.128151048114559	1.23928921241693E-02	-6.84533482813939E-02			1.23003084392465E-02	-6.85986417328892E-02	-0.934344499932649	-0.171986565844707
1359500000	-0.943338129199821	-0.1282224428941	1.29083962898256E-02	-7.09249491743915E-02			1.28675944639798E-02	-7.07064570491622E-02	-0.932340019126818	-0.183536033142884
1360000000	-0.945089521762828	-0.126653616581479	1.20809719994734E-02	-7.07388414812324E-02			1.18752924415533E-02	-0.070464236500554	-0.936190837025355	-0.179312336973925
1360500000	-0.944376156150878	-0.125599325173725	1.18610971578974E-02	-7.04797826665128E-02			1.17038120762944E-02	-0.070337965763017	-0.935584496849747	-0.177104014149103
1361000000	-0.943682235743064	-0.125048748731628	1.19099466834778E-02	-7.04359331615393E-02			1.16632376619702E-02	-0.07044610134846	-0.937273962429819	-0.176494400846347
1361500000	-0.945301911513145	-0.123740331869506	1.15631214437517E-02	-7.02202260565993E-02			0.011371441910264	-7.02176500532878E-02	-0.936967596549246	-0.173402131638479
1362000000	-0.946140514428518	-0.12217094577262	0.011874024922085	-7.05064226007556E-02			0.011724140070674	-7.03897907655741E-02	-0.937091503792305	-0.173163519186934
1362500000	-0.943993654545601	-0.121929963094106	1.15081674561509E-02	-7.04666454977949E-02			1.11784948352083E-02	-7.03300207876014E-02	-0.938240745733569	-0.172905960409312
1363000000	-0.943768984108771	-0.118599149025378	1.13550327172384E-02	-7.01907797755542E-02			1.12681222235381E-02	-0.070225617376872	-0.938980489027661	-0.170489865697062
1363500000	-0.943999606699659	-0.119033699664858	1.11112074853966E-02	-7.02936127793907E-02			1.10410539863928E-02	-7.03512180622429E-02	-0.937925811452406	-0.169799256207591
1364000000	-0.944195006558344	-0.118670951562613	1.12461663718366E-02	-7.02461554095104E-02			1.09385816012476E-02	-7.01601036345651E-02	-0.939286897983283	-0.168463914852283
1364500000	-0.945764227865837	-0.116219943265638	1.11396517387552E-02	-7.06216235149359E-02			1.09075823002561E-02	-7.06716432010619E-02	-0.938048248157125	-0.167706003111206
1365000000	-0.944810733368634	-0.114521876127882	1.09178683027744E-02	-0.070440915790274			0.01081568920902	-7.03868512563334E-02	-0.938042131422084	-0.166455957036139
1365500000	-0.946028476292534	-0.114184086373255	1.08103781440968E-02	-7.03947521328492E-02			1.06160375092316E-02	-7.03539193874033E-02	-0.938375208587912	-0.164003308149893
1366000000	-0.94530095428928	-0.112514006102138	1.07163026522548E-02	-0.070395948937531			1.05637558554812E-02	-0.070316480366141	-0.938497333166015	-0.164770507459427
1366500000	-0.94670980456546	-0.111130277826157	1.05992744298616E-02	-7.04169182663181E-02			1.05180464698835E-02	-7.04010203608865E-02	-0.938508292666378	-0.164028733750302
1367000000	-0.94674730504293	-0.110263492716062	1.05020491577489E-02	-7.03697847540575E-02			0.010231621991424	-7.03534334268338E-02	-0.938427622216896	-0.160614715211919
1367500000	-0.946381753630266	-0.109362867084872	1.04011765403625E-02	-7.04882560732428E-02			1.02829392442309E-02	-7.03466528716011E-02	-0.938672644325969	-0.161111636188442
1368000000	-0.947108561536718	-0.107789220030141	1.01155300536929E-02	-0.070291677024152			1.02214239240012E-02	-7.03524170182729E-02	-0.93935875235337	-0.160205090498182
1368500000	-0.946732800493159	-0.107007663889278	1.01409484934865E-02	-0.070337577052636			1.00140256576643E-02	-7.02143516568679E-02	-0.938902994593138	-0.158245154013429
1369000000	-0.947600021751456	-0.105965182399574	1.00841663184067E-02	-7.03450464217709E-02			9.9606190329404E-03	-7.01959962760543E-02	-0.939339339199734	-0.157183063402448
1369500000	-0.945774608380377	-0.103942095900018	1.01202859409081E-02	-7.00290194271868E-02			9.83820381794116E-03	-7.00279009531981E-02	-0.940220256541055	-0.154810214001658
1370000000	-0.94644718835762	-0.1020387552317	1.01440118231137E-02	-7.03111774854512E-02			9.9926381296516E-03	-7.01838190755426E-02	-0.9382570741631	-0.154628624127875
1370500000	-0.946747411095557	-0.101430875794794	9.7801721758644E-03	-7.01861954181287E-02			9.83783813062778E-03	-7.01672087682815E-02	-0.94007798744362	-0.153713298704263
1371000000	-0.947539350240122	-0.101106119650127	1.02981266786076E-02	-7.01781397723569E-02			1.02096860819835E-02	-7.00289860946925E-02	-0.936627897713391	-0.151496710032897
1371500000	-0.947607945571153	-0.099935110660791	9.92837301736756E-03	-7.05957376695887E-02			9.57091958615102E-03	-7.05569848732465E-02	-0.940315561965718	-0.152222745916059
1372000000	-0.947062754251616	-0.097274853894563	9.57783930582748E-03	-7.03401667367938E-02			9.50879570666899E-03	-7.05261310889042E-02	-0.942467045505363	-0.150833967732727
1372500000	-0.947738958243528	-9.69724673019224E-02	9.59967815401924E-03	-7.04384690836468E-02			9.54822868774279E-03	-7.03702529812651E-02	-0.941858901078183	-0.149769042685076
1373000000	-0.947225663329516	-9.67955862902938E-02	9.55420327145248E-03	-7.02850808387148E-02			9.33619417174745E-03	-7.03430008653782E-02	-0.940961392258723	-0.148640841864893
1373500000	-0.948906949802416	-9.38876335130525E-02	9.30073309233257E-03	-7.04118930504226E-02			9.26642600190277E-03	-0.070332798231148	-0.941474933912707	-0.145312755247321
1374000000	-0.948287875632181	-9.21299418313152E-02	9.28777767192826E-03	-7.03726524686073E-02			9.2034293842372E-03	-7.02068378199761E-02	-0.941377278588025	-0.145801709474873
1374500000	-0.948275511230361	-9.07383161939158E-02	9.19351430700356E-03	-7.03343956451634E-02			9.14557076841091E-03	-7.02899039101593E-02	-0.942241785672221	-0.143344453742316
1375000000	-0.948589238815309	-9.18770473531055E-02	9.31795435741922E-03	-7.04816819830118E-02			9.1363104033807E-03	-0.07040104968413	-0.942200132291315	-0.144868078663274
1375500000	-0.946251784925452	-8.83398300421097E-02	8.91699656236711E-03	-0.070310873190141			8.82557731033978E-03	-7.04152393245866E-02	-0.943719611549725	-0.141822959710274
1376000000	-0.94886212377507	-8.83374209985621E-02	9.01448375573509E-03	-7.05009971367775E-02			8.7397695806498E-03	-7.03825477777319E-02	-0.942967283222419	-0.139394097828456
1376500000	-0.947140295013781	-8.57715723221831E-02	8.86753034362209E-03	-7.03429769582308E-02			8.79624113834998E-03	-7.03721615982667E-02	-0.94246743392605	-0.140379334348678
1377000000	-0.948951706425374	-8.61254713611958E-02	8.85524388109643E-03	-7.05018358835327E-02			8.86976227840356E-03	-7.03412559776185E-02	-0.943726749319988	-0.1382494210306
1377500000	-0.947459237542468	-8.47557550770438E-02	8.74678359558006E-03	-7.03469671282469E-02			8.46633585311118E-03	-7.03198455631974E-02	-0.941756716292963	-0.13663039928473
1378000000	-0.947069274101368	-8.40105767571404E-02	8.83491674728547E-03	-7.02707056439309E-02			8.50238350606225E-03	-7.03938749498016E-02	-0.942669294093865	-0.135340958237535
1378500000	-0.949904299662011	-8.01498071722899E-02	8.57074002389781E-03	-7.03207414515738E-02			8.60938710173334E-03	-7.03589888901118E-02	-0.943362255082574	-0.134061893376062
1379000000	-0.946839592397705	-7.96942004392361E-02	8.62931625688508E-03	-7.03265767798954E-02			8.69148181050262E-03	-7.01215970691132E-02	-0.943696465376408	-0.133572402859478
1379500000	-0.94714380390493	-8.06940723867589E-02	8.60397600524134E-03	-7.03903378143028E-02			8.40158514421267E-03	-0.07050049509944	-0.942830454309591	-0.131780717133606
1380000000	-0.948217098894107	-8.13707833118031E-02	9.15843798455067E-03	-7.06461096072296E-02			9.01398254581932E-03	-7.04879772935057E-02	-0.93888884397549	-0.132668058261431
1380500000	-0.947008077151045	-7.85904488071746E-02	8.42053533622608E-03	-7.07140998298371E-02			8.11682762437515E-03	-7.07829182133026E-02	-0.941386518382837	-0.131902204464068
1381000000	-0.950476556184071	-7.76263086549207E-02	8.10536843508875E-03	-7.08616514383166E-02			8.13452258491942E-03	-0.070606502057254	-0.943025446728205	-0.130028702251499
1381500000	-0.947178774635422	-7.67037702595579E-02	8.07792859621469E-03	-7.06374035508676E-02			7.97054547401815E-03	-7.07170979411355E-02	-0.943193178653389	-0.129663039015285
1382000000	-0.947178287336708	-7.35174295875841E-02	7.91127022749348E-03	-7.05050249305016E-02			7.76775125366031E-03	-7.08020221214725E-02	-0.943568847605248	-0.127908475058421
1382500000	-0.948774485094809	-7.17473773862199E-02	7.71967887006868E-03	-7.05669277500574E-02			7.71147769409815E-03	-7.06302410961838E-02	-0.942569397235898	-0.127230483022861
1383000000	-0.948898873527862	-7.24642964017862E-02	7.75275813982917E-03	-7.06438937622457E-02			7.72300762728253E-03	-7.04611475134682E-02	-0.942876981723414	-0.127042221763632
1383500000	-0.950141032068419	-6.98438629676156E-02	7.59066356650239E-03	-7.06925330254966E-02			7.48074255339919E-03	-7.05524175700662E-02	-0.943565355287354	-0.123819099103104
1384000000	-0.948811679938347	-7.06802379227705E-02	7.38808779508617E-03	-7.06625800119508E-02			7.45821570332532E-03	-7.03640205605106E-02	-0.943182944303363	-0.123932200584694
1384500000	-0.950763361857193	-6.83564881634023E-02	0.007442408474275	-7.05563657907748E-02			7.2208631303878E-03	-7.05349588095095E-02	-0.945418773437655	-0.121411995488577
1385000000	-0.948662190425708	-6.74034927001483E-02	7.3279987455376E-03	-7.06047917304815E-02			7.35875402260306E-03	-7.04706554878503E-02	-0.944212212827439	-0.121311547270845
1385500000	-0.948297214902992	-6.60350914998092E-02	7.36062932262068E-03	-7.04941649191573E-02			7.14906255627961E-03	-0.07034005571284	-0.945871712208663	-0.119336833569993
1386000000	-0.948839364602013	-6.41961148034302E-02	7.18622569135703E-03	-7.04705893660404E-02			6.86499375614976E-03	-7.03980624282088E-02	-0.944976382282907	-0.117025910269792
1386500000	-0.951004936534577	-6.28946671487203E-02	7.04939746951699E-03	-7.05842564962485E-02			6.96868369052679E-03	-7.05514665280818E-02	-0.945962211615025	-0.117370894002405
1387000000	-0.949846395947234	-6.12954686561577E-02	6.97377248045558E-03	-7.03857949949399E-02			6.81153194931214E-03	-7.04930702885266E-02	-0.944882607894113	-0.114177807832677
1387500000	-0.951776975447231	-6.10073476933898E-02	6.98871448507141E-03	-7.05684106662826E-02			6.81654989424534E-03	-7.03560405585102E-02	-0.94534993392643	-0.115172987886109
1388000000	-0.95058354399128	-5.93405502337336E-02	6.82785644336734E-03	-7.04199210430762E-02			6.79574655854222E-03	-7.03108022760606E-02	-0.944362494728405	-0.113323402483852
1388500000	-0.950791118836934	-0.057302419861742	6.68279149915192E-03	-7.03270833683993E-02			0.006741683877331	-7.03446857275219E-02	-0.946224031004691	-0.112501858098135
1389000000	-0.951207495364216	-5.66912801231432E-02	6.71832125893935E-03	-7.04030227101787E-02			6.54737631005364E-03	-7.02971016651885E-02	-0.947295788046356	-0.110731745067909
1389500000	-0.95142645911798	-5.40684566923091E-02	6.62859241376762E-03	-7.03808340099758E-02			6.6614588007794E-03	-7.03326865667607E-02	-0.945947752204204	-0.109556256157332
1390000000	-0.949154117990391	-5.45162167555001E-02	6.66287331033545E-03	-7.02804418811819E-02			6.66168110908019E-03	-7.04768745641621E-02	-0.946501203876434	-0.108042502200263
1390500000	-0.951087298980251	-5.30010637520336E-02	6.64717790263215E-03	-7.04898596783742E-02			6.59911979627486E-03	-7.04115298781549E-02	-0.94616930219086	-0.10724046231442
1391000000	-0.952598941774527	-5.18918578493388E-02	6.60925686479424E-03	-7.06080514247132E-02			6.39991742186291E-03	-7.04675359750373E-02	-0.94650128341862	-0.10574886042174
1391500000	-0.950172364093018	-5.07736757783344E-02	6.44225687577848E-03	-7.05408612043266E-02			6.44947319047491E-03	-7.03930840666835E-02	-0.946104239897639	-0.105699722251243
1392000000	-0.951515068023535	-4.87795521109512E-02	6.3338796561784E-03	-7.05577714871369E-02			6.29334051416511E-03	-7.05716831934465E-02	-0.946848450123953	-0.104757516692372
1392500000	-0.950695454846147	-4.78569401912989E-02	6.46117318223537E-03	-7.06267556036045E-02			6.13458248407771E-03	-7.06631105858721E-02	-0.948132334940495	-0.103130778161149
1393000000	-0.949445141635199	-4.66066881454082E-02	6.1237289552479E-03	-0.070649792270568			6.09537121012925E-03	-7.04593776468713E-02	-0.946174335245624	-0.101428184807042
1393500000	-0.950259818194612	-4.63476077877524E-02	6.02578825342195E-03	-7.06181786761409E-02			5.95586104740219E-03	-7.07340795048064E-02	-0.947446889156283	-0.100531826632635
1394000000	-0.949884481999966	-4.52738913065194E-02	6.05922853329511E-03	-7.07251422998016E-02			6.03868570422186E-03	-7.04896881103335E-02	-0.946693308051224	-0.100006925764942
1394500000	-0.951272043667328	-4.44943393926998E-02	5.94221144624941E-03	-7.08595133922098E-02			5.71447503225236E-03	-7.05632095906292E-02	-0.946166409249426	-9.82052839893447E-02
1395000000	-0.948696891827598	-4.10317231505474E-02	5.70823985209759E-03	-7.05510288178943E-02			5.78881380777037E-03	-0.070626162322046	-0.947663766520637	-9.87906515456369E-02
1395500000	-0.948945047942501	-3.84574674149923E-02	5.72676273151278E-03	-7.06373961788512E-02			5.62719588135094E-03	-7.06113470520763E-02	-0.946533201397805	-9.65259046272195E-02
1396000000	-0.950387487884529	-0.040012867075209	5.78838555330874E-03	-7.07697048971748E-02			5.45832755720488E-03	-7.07688773524399E-02	-0.946250178884981	-9.53515519649784E-02
1396500000	-0.950008781065086	-0.039286718770775	5.57523578461724E-03	-7.07917616587219E-02			5.4083019571411E-03	-7.06538223107351E-02	-0.946999212796273	-9.25530013333245E-02
1397000000	-0.950358996379724	-3.87056896457613E-02	5.33838507139375E-03	-7.07687680451813E-02			5.25962077018599E-03	-7.08706416718623E-02	-0.948557750628888	-9.27511203757411E-02
1397500000	-0.950659491724306	-3.65817718462014E-02	5.34678785931636E-03	-7.07393706558409E-02			5.1522077291855E-03	-7.06808659679843E-02	-0.94841804911098	-9.15708012851846E-02
1398000000	-0.951720371665802	-3.53001184563077E-02	5.19836934976912E-03	-0.070829562512937			5.12947271108445E-03	-7.06404063636036E-02	-0.94805282868655	-9.08715639141542E-02
1398500000	-0.948456990467261	-3.38157103594422E-02	5.09314358316127E-03	-7.06556127228978E-02			4.98595728579391E-03	-7.05195724931166E-02	-0.946410798041423	-8.90380705612463E-02
1399000000	-0.948607990971857	-3.25343557489768E-02	4.90866244525874E-03	-7.05587887905541E-02			4.80270909394864E-03	-7.06679865423839E-02	-0.947624555803339	-8.75697151251622E-02
1399500000	-0.949425436909601	-3.03294956875316E-02	4.85606516234793E-03	-7.05429313739343E-02			4.79514767910401E-03	-7.05992300602219E-02	-0.948174755400542	-8.74820069106629E-02
1400000000	-0.948796729089148	-3.12827548448098E-02	4.85052493993793E-03	-7.05276215975851E-02			4.72541416814274E-03	-7.06302433351802E-02	-0.948505585129977	-8.67887407524938E-02
1400500000	-0.951133630317002	-2.96431579216642E-02	4.71725142876369E-03	-7.06819533221194E-02			4.52804860549393E-03	-7.05096672091922E-02	-0.947811267668944	-8.47576551738854E-02
1401000000	-0.949349244532022	-2.65461401588668E-02	4.5482724424857E-03	-7.06333459149916E-02			4.59990623529058E-03	-7.06500014633953E-02	-0.947196127911869	-8.35875672990527E-02
1401500000	-0.9502843993886	-2.52692776798487E-02	4.30852847007272E-03	-7.05507584701172E-02			4.38838034823772E-03	-7.04249105114617E-02	-0.946161226680111	-8.23948902522375E-02
1402000000	-0.951063173671639	-2.41328400875925E-02	4.32314419301694E-03	-7.04728596714468E-02			4.37020487480855E-03	-7.05617106391758E-02	-0.947804081962375	-8.15232365341565E-02
1402500000	-0.949349521231709	-2.45768627343882E-02	4.25481330563888E-03	-0.070262996048502			4.22106768433357E-03	-0.070424892371734	-0.94712717279772	-7.88876886126623E-02
1403000000	-0.949898240262686	-0.02149271853418	4.1943555328156E-03	-7.04666229545288E-02			4.14432356063883E-03	-7.06785271608045E-02	-0.949830974029208	-7.89057454129743E-02
1403500000	-0.949000359502699	-2.05445693715134E-02	4.22673752944608E-03	-7.03324928500067E-02			4.22954843495267E-03	-7.03240604849939E-02	-0.948515719129435	-7.76229739769398E-02
