# Hz S RI R 50
10000000	0.999660880666688	-9.94486453877159E-03	-9.28849427874346E-05	6.12156854761142E-04			-9.94033496677564E-05	5.99745743530199E-04	0.999854306825849	-1.03191886882265E-02
12493750	0.998961587498632	-1.28251338658508E-02	5.63173156294696E-05	6.02117138168579E-04			8.66042210604676E-05	6.28247947762752E-04	0.999902738365282	-1.10228199170273E-02
14987500	1.00011757487455	-1.49746215687083E-02	2.76115102571345E-05	7.09489932647989E-04			4.37294542002306E-05	5.60729773038754E-04	0.999594007359517	-1.55294531511987E-02
17481250	0.999659211201468	-1.74409240405804E-02	-1.63316308818456E-05	8.67533714990946E-04			8.82217144780399E-05	8.09144815354579E-04	0.998664883548961	-1.79831593239542E-02
19975000	0.998831757501727	-2.06708343428685E-02	7.16182037916154E-05	1.07151544595225E-03			6.0383059944216E-05	1.08546182072499E-03	0.999728435955043	-1.97231893019403E-02
22468750	0.999167131133237	-2.25216113354105E-02	-1.93234661321748E-05	1.04294813845339E-03			1.14446411705835E-05	1.03317173461043E-03	0.998316397520687	-2.22403902799799E-02
24962500	0.999981646353975	-2.35959507329108E-02	6.9543830027464E-05	1.20170078853822E-03			6.07673292196814E-05	1.14385083764829E-03	0.998231254703713	-2.47446875773221E-02
27456250	0.998377463546793	-2.86702614713162E-02	-3.8422099882609E-05	1.3393136172391E-03			1.09059007986562E-04	1.33470759366296E-03	0.998616351423151	-2.81154780902581E-02
29950000	0.999600586805164	-0.030546227293958	-1.3448609914556E-05	1.43524503727079E-03			8.18219630779642E-05	1.47441030490814E-03	1.00039929843087	-2.97988347226514E-02
32443750	1.00053200742649	-3.35454731449425E-02	1.26347854604428E-04	1.58293399052758E-03			4.12684691626251E-05	1.52729944882824E-03	0.999967195548912	-3.25071025117824E-02
34937500	0.996465127421306	-0.033996121948644	9.82393665413677E-05	1.64222281728315E-03			8.52453584901606E-05	1.71115103820585E-03	0.997580431652387	-3.39695243502279E-02
37431250	0.997032087607184	-3.75844480276589E-02	1.02485504372554E-04	1.84670667103598E-03			7.64762704162152E-05	1.73989711135735E-03	1.00021958155222	-3.66373140463535E-02
39925000	1.00090880749238	-3.89708354753661E-02	7.04728813256181E-05	1.91653020428163E-03			1.28428495407188E-04	1.92130632213141E-03	0.997434258347586	-4.07617004556826E-02
42418750	0.995811251483665	-4.07360829711203E-02	7.60222776497721E-05	2.01539035333262E-03			1.18491986493334E-04	1.9791051372298E-03	0.998879465794678	-4.21110581737293E-02
44912500	0.998872900475181	-4.42717305214342E-02	1.11610700915849E-04	2.17682853590423E-03			4.97237852066313E-05	2.06865669869021E-03	0.996737107182415	-0.04547959041889
47406250	0.99975231623318	-0.046262904286	1.42006418481879E-04	2.20768581390254E-03			3.89949560197146E-05	2.24585091906075E-03	0.997242995620028	-4.77080107074784E-02
49900000	0.998024718872807	-4.89833207377463E-02	1.41505965633619E-04	2.26846248245932E-03			8.79933145065072E-05	2.42474595005618E-03	0.996912204349376	-5.10846032354686E-02
52393750	0.997754888768048	-5.09372685723309E-02	1.22975640887922E-04	2.50948355648632E-03			1.05776491780427E-04	2.52895171125113E-03	0.998075562311361	-5.38317964199608E-02
54887500	0.996992531452119	-5.24255720692321E-02	1.42655182056056E-04	2.62685005610516E-03			1.90366464486576E-04	2.71359193835805E-03	0.997584478706621	-5.63573408600009E-02
57381250	0.996528993018723	-5.64414048708863E-02	1.57727751584678E-04	2.74172156307432E-03			5.85168163046237E-05	2.73951375632878E-03	0.997488861282537	-5.96270817926308E-02
59875000	0.998092484694342	-6.00991683414597E-02	1.54115562849288E-04	2.77201569862708E-03			1.05423216684114E-04	2.81750505154366E-03	0.99586332847442	-6.06886487308222E-02
62368750	0.996297818455135	-6.12385347079616E-02	2.26596087015695E-04	2.92593179083043E-03			2.33043671147268E-04	2.96570782802382E-03	0.997006104657112	-6.25519199959726E-02
64862500	0.997834942951917	-6.27173655424891E-02	2.8602490072775E-04	3.0704972463688E-03			2.25062382838807E-04	3.08145854605391E-03	0.996338021149134	-6.48751676572831E-02
67356250	0.995624836652845	-6.58631011799926E-02	1.92207194134932E-04	3.17631937557678E-03			2.6758264265274E-04	3.26322351518998E-03	0.998115950613332	-6.82471437965493E-02
69850000	0.996949839294222	-6.86340367640787E-02	2.28915775283867E-04	3.29622349343123E-03			3.43650374806599E-04	3.27226231903397E-03	0.995343064556085	-7.04099654613603E-02
72343750	0.99677667229807	-7.05526424755445E-02	3.14201195338722E-04	3.40547403989667E-03			4.01635388892969E-04	0.003429546492448	0.996049253461647	-0.07308406677742
74837500	0.997545782343693	-7.25002642598133E-02	3.20301392138977E-04	3.55465136946004E-03			3.07765038614119E-04	3.53986774371692E-03	0.995440272790324	-7.55568656345636E-02
77331250	0.996381524282368	-7.57097659862466E-02	3.02064817166157E-04	3.67871635575062E-03			3.38843197311457E-04	3.57257675374048E-03	0.994924799742482	-7.70204340388273E-02
79825000	0.996124603868511	-7.89226595004043E-02	3.31626732204836E-04	3.80001322987481E-03			3.44086694610716E-04	3.76377668845238E-03	0.994900898651684	-8.00454878915524E-02
82318750	0.994875398508633	-0.080552690168652	1.99848458878472E-04	3.88363873204543E-03			2.95527994320153E-04	3.89551881992193E-03	0.994501443644209	-8.16001915999726E-02
84812500	0.993915540059399	-8.22016147961716E-02	3.47530190797542E-04	3.97941599272144E-03			3.27498586568181E-04	3.96266178988638E-03	0.994840354401872	-8.36867914431381E-02
87306250	0.994796144061292	-8.59874533955042E-02	4.91768333822476E-04	4.07954617001267E-03			4.7089957746849E-04	4.16378666626012E-03	0.994627754978313	-0.088411587103562
89800000	0.99334215688186	-8.83684746070403E-02	4.4292936964463E-04	4.21033740398085E-03			3.97365473685675E-04	4.25215076138108E-03	0.995090067252718	-9.05687884227947E-02
92293750	0.995944105575532	-9.09897568367437E-02	5.20149005616235E-04	4.36870973096882E-03			4.54971140248849E-04	4.45998610770628E-03	0.993806095565917	-9.16162055349843E-02
94787500	0.995660553056737	-9.12600898075205E-02	4.51801685246075E-04	4.49818943353191E-03			3.85047747740015E-04	4.4175087469704E-03	0.995176895111169	-9.48918149013166E-02
97281250	0.994172396617819	-0.095234666469463	4.76725819079045E-04	4.55238389194254E-03			5.10356053859494E-04	4.5533355883531E-03	0.993288114914405	-9.85983757274419E-02
99775000	0.99311893493237	-9.69790210734753E-02	5.24262980138955E-04	4.66685099685909E-03			4.96328845990719E-04	4.72200996283865E-03	0.992884978352944	-9.89577246329229E-02
102268750	0.991967317013721	-9.84527390220743E-02	4.15655080075713E-04	4.83924712136114E-03			5.09380549724494E-04	4.78726228211909E-03	0.992127598537233	-0.102309940414574
104762500	0.993888599749555	-0.101861853714453	5.2343700697709E-04	4.9329988390304E-03			5.57085370149574E-04	4.99620575819259E-03	0.992471227018518	-0.105329935883981
107256250	0.992998543651849	-0.104095006504099	5.5950066520553E-04	5.02308463833386E-03			5.74765156180576E-04	5.0628571857402E-03	0.992690531608344	-0.107755793028634
109750000	0.992915495387372	-0.107237079262282	6.18666461412982E-04	5.13653711313317E-03			5.79954922835944E-04	5.1896019784826E-03	0.990993269096641	-0.109394025231671
112243750	0.990828932464385	-0.108437714914557	5.66056792789541E-04	5.21709125283706E-03			5.84152132913838E-04	5.34428095503013E-03	0.990410551912709	-0.113178147558066
114737500	0.991480992125653	-0.112087236764305	6.1816663165843E-04	5.40010940846953E-03			6.32493835116877E-04	5.35753551613326E-03	0.990855459496108	-0.115499096862495
117231250	0.989537512537193	-0.114243523840199	6.53054439687971E-04	5.51428303432696E-03			7.02515352449843E-04	5.54339229426269E-03	0.991209969417841	-0.11957712570074
119725000	0.990996675755647	-0.115236246578386	6.43122829772533E-04	5.62166168672634E-03			6.8285268951154E-04	5.60282152763846E-03	0.989475548071669	-0.118017845317478
122218750	0.991396195812513	-0.118851671858709	6.86184141800889E-04	5.80579843428089E-03			7.56952038875858E-04	5.71668236215527E-03	0.991129846155495	-0.122084571806914
124712500	0.99123215950479	-0.122125243220035	7.39492091956585E-04	5.93722219313662E-03			8.41890171679915E-04	5.88291700802709E-03	0.989909423952869	-0.125334497008835
127206250	0.990892070901549	-0.124818467838232	7.68789392060146E-04	6.00530827525137E-03			7.52479093622833E-04	5.9996135046177E-03	0.989543274983077	-0.126915866539045
129700000	0.989483710420384	-0.125632546135963	8.08855954350749E-04	6.13004071181268E-03			8.34769463913319E-04	6.09342635488342E-03	0.990215636622368	-0.129191148242624
132193750	0.992139824355776	-0.129132145359714	8.45975894487495E-04	6.2177464539484E-03			8.77071515931233E-04	6.17781142580191E-03	0.987814162461814	-0.132077406540832
134687500	0.989798197280444	-0.130431314665064	8.47855199523415E-04	6.31494462151429E-03			8.29072555138639E-04	6.34915665020164E-03	0.989924053387462	-0.132916176690129
137181250	0.986151580936324	-0.135234399098995	9.32973146139946E-04	6.44124830203378E-03			8.38450437741404E-04	6.46623705009355E-03	0.988914706920716	-0.136671145901051
139675000	0.987583650898028	-0.134750450218579	9.52957892032409E-04	6.49551091137986E-03			8.6333099541105E-04	6.56614740622111E-03	0.987106284415591	-0.137921694159617
142168750	0.987689654926773	-0.138460521241584	1.00716854618717E-03	6.63896478418431E-03			9.65934294572925E-04	6.70036588631792E-03	0.985980724833536	-0.140692628653594
144662500	0.988114172442814	-0.14000288941557	9.71333453642983E-04	6.74573101685356E-03			1.05569783079145E-03	6.6904370359975E-03	0.9877314521398	-0.145434511918667
147156250	0.987816862944378	-0.142934887283551	1.04168567122727E-03	6.90770164900696E-03			1.0677151451041E-03	6.91791267716488E-03	0.986616628275851	-0.14699222172784
149650000	0.986915604263599	-0.145881748280594	1.09596100349183E-03	6.99099568225517E-03			1.10730755034669E-03	6.98994904102746E-03	0.987071349231188	-0.14943189811983
152143750	0.986240419849779	-0.146517260507313	1.06945121257103E-03	7.07806101353195E-03			1.17323465444326E-03	7.01192631440987E-03	0.986163323400931	-0.151505604778789
154637500	0.986040382182222	-0.151154583992181	1.19285314063836E-03	7.26972248000199E-03			1.19261820594728E-03	7.12481337316056E-03	0.986111692355516	-0.150549845979096
157131250	0.982676197925298	-0.152789996008492	1.20929734904163E-03	7.30559978878163E-03			1.14714111231608E-03	7.36262218547823E-03	0.983355760937221	-0.157679998927695
159625000	0.985603110049648	-0.154629411907796	1.17451714776513E-03	7.42022172293427E-03			1.20402735601038E-03	7.44042049535197E-03	0.983797177414082	-0.159504475828565
162118750	0.983562280888374	-0.157967897024612	1.25779355448565E-03	7.57447044972567E-03			1.31043658352536E-03	7.51035500305835E-03	0.98420198817392	-0.162963312985072
164612500	0.985080087250156	-0.160498250785511	1.31949106257902E-03	7.68468608913035E-03			1.32462883101508E-03	7.6756798958016E-03	0.982938831203626	-0.161871451517627
167106250	0.984034439597697	-0.162656746934254	1.42256387288643E-03	7.74898734578656E-03			1.38301860467042E-03	7.73169407667587E-03	0.982080101593773	-0.165720876850094
169600000	0.986278558203993	-0.162813160935742	1.37006334754743E-03	7.8935398191173E-03			1.40184220616732E-03	7.8402649918792E-03	0.98266173143291	-0.168322374995955
172093750	0.983064591307307	-0.167424354886107	1.3995213933396E-03	7.93987789738502E-03			1.4172538571822E-03	8.01194174824401E-03	0.980596857431983	-0.170895804214491
174587500	0.980724064787178	-0.170137002263669	1.43972966884249E-03	8.08672607125389E-03			1.41964225824711E-03	8.11013960973301E-03	0.982589759776206	-0.173670506234904
177081250	0.982031227837202	-0.171058983529661	1.51516101159315E-03	8.34289295217846E-03			1.53571856112711E-03	8.24257905269826E-03	0.981078877312606	-0.176931950779223
179575000	0.980150352860727	-0.175651451341378	1.58385524146528E-03	8.31044234410783E-03			1.52738417741206E-03	8.30771507182566E-03	0.981044419121166	-0.17906457164083
182068750	0.981597484845319	-0.17770010774503	1.56790054624969E-03	8.42445461009763E-03			1.60061146372734E-03	8.42942650580838E-03	0.981252962190423	-0.179880222187832
184562500	0.980577066818243	-0.180559692687122	1.48046246251453E-03	8.54951296100918E-03			1.52528218795581E-03	8.51379677090536E-03	0.980742352527303	-0.182875604485425
187056250	0.978581607649001	-0.181449750254722	1.64825757597696E-03	8.58565659910223E-03			1.68144530940307E-03	8.62515685281831E-03	0.97903125609966	-0.185814938199782
189550000	0.97808255115514	-0.184498778272439	1.77923654657114E-03	8.71590951970812E-03			0.00170654610112	8.69842897087938E-03	0.977372649825937	-0.188043139546724
192043750	0.977949308221818	-0.185628736806622	1.76636792889359E-03	8.8132030428855E-03			1.82121226497783E-03	8.8939443684565E-03	0.978561778361874	-0.1904465767293
194537500	0.978558736302889	-0.188306045910271	1.86673701994382E-03	8.99885853096186E-03			1.81676794754291E-03	9.00203558950251E-03	0.977312958049323	-0.192750476594016
197031250	0.976896593765765	-0.192621925323722	1.85657498132385E-03	9.14466511105952E-03			1.89251107211588E-03	9.07151119677344E-03	0.977102677583919	-0.196171374779468
199525000	0.97659469196999	-0.194162950015147	1.89360062322084E-03	9.12479658960589E-03			1.88832568161113E-03	9.1508863169842E-03	0.976028337249962	-0.196737210251904
202018750	0.977706843858344	-0.196131263636267	1.90183179135907E-03	9.26176094604876E-03			2.02140359685654E-03	9.23146392022133E-03	0.975050505286602	-0.200917200067353
204512500	0.97742086936712	-0.199692935463012	1.93045693914096E-03	9.38878206390801E-03			1.99801298710267E-03	9.34727015303316E-03	0.975930123763921	-0.203176039737378
207006250	0.976349506997077	-0.200389977506961	2.05314466520364E-03	9.58374840758254E-03			2.05320988259914E-03	9.48990105075499E-03	0.974090708790363	-0.205555349477314
209500000	0.977142014936237	-0.203637256404531	2.13314575562498E-03	9.61378718978318E-03			2.10514850982397E-03	9.53089442515002E-03	0.972771038355305	-0.2057909060452
211993750	0.97505106953461	-0.205873948921589	2.12447509448521E-03	9.73583852432684E-03			2.20123465134846E-03	9.7018581743707E-03	0.972867869464329	-0.209616808678985
214487500	0.972434396316689	-0.20716261453526	2.16990754148352E-03	9.76276418124648E-03			2.1738719800431E-03	9.82482190064118E-03	0.973271529738126	-0.212787566360467
216981250	0.972186986260677	-0.210043490015474	2.24430414934656E-03	0.009912751926868			2.2939903249229E-03	1.00446034579463E-02	0.972709985847328	-0.21512339142667
219475000	0.973228461044826	-0.212199083154497	2.19408995300554E-03	1.00042780019361E-02			2.26778290280128E-03	1.00916214762275E-02	0.97146085953687	-0.216425367745761
221968750	0.973271093647611	-0.214596026215883	2.28607568637576E-03	1.00849351643311E-02			2.34147017475106E-03	0.01015008216748	0.972399931963371	-0.219231128166899
224462500	0.970394404550688	-0.21834184984185	0.002408176236502	1.02122897280299E-02			2.42154512820994E-03	1.02489542588139E-02	0.971351196918952	-0.22216291349731
226956250	0.969607625450542	-0.221042629516025	2.43012379881057E-03	1.03047771723351E-02			2.48634133037651E-03	1.03894570367261E-02	0.971877127540733	-0.223513874353482
229450000	0.969411141536127	-0.219787665789701	2.52265106939783E-03	0.010451735935663			2.59867419227533E-03	1.04379242727291E-02	0.967875356333774	-0.228117223951598
231943750	0.969271419738361	-0.22409345970093	2.58721922377895E-03	1.05772409451251E-02			2.57231320099105E-03	1.05583880406069E-02	0.968626159780129	-0.228965483949001
234437500	0.96800185661891	-0.226063346636261	2.58823884793853E-03	1.06902882384707E-02			2.62464269367717E-03	1.06347680920033E-02	0.966118433322311	-0.231692091427452
236931250	0.968653818781239	-0.228453725564288	2.65096665148675E-03	0.010784697795541			2.66339256090846E-03	1.07511191253982E-02	0.969494982554891	-0.232052965511675
239425000	0.971921927272773	-0.232635577382282	2.72236233238453E-03	1.09189031224841E-02			2.71631816404959E-03	1.08707216579318E-02	0.966923236024563	-0.235776205968118
241918750	0.967011106387561	-0.233614932197566	2.80303885162269E-03	1.10292049210638E-02			2.79286870752656E-03	1.10071779334452E-02	0.969687539174538	-0.236308749928264
244412500	0.967924155090879	-0.235351281070075	2.80197384264281E-03	1.10293087886797E-02			2.8011338714443E-03	0.011025580158266	0.966191030228562	-0.241475073767424
246906250	0.966129366125622	-0.236445481395478	2.82121739483341E-03	1.11481683374892E-02			2.83249027702799E-03	1.12409575316633E-02	0.966652149439075	-0.242794276338616
249400000	0.965340075402127	-0.239851765216764	2.8851688856597E-03	1.12567965994326E-02			2.87853053699106E-03	1.12688625946951E-02	0.964613079454665	-0.242858698072309
251893750	0.964466942076107	-0.242283877190167	2.98593460049782E-03	1.13734324055526E-02			2.97801827673274E-03	1.13186769169489E-02	0.963011188648117	-0.248850206781975
254387500	0.965530459452607	-0.24634573560905	3.05232603210259E-03	1.13670162800348E-02			3.11547490768193E-03	1.13711328573697E-02	0.964050638428916	-0.251955532636278
256881250	0.963364920530423	-0.247098053323622	3.11837382373204E-03	1.16068880977978E-02			3.06759965065286E-03	1.15811990580877E-02	0.961974787495734	-0.251610839629643
259375000	0.963039763592053	-0.248730644156291	3.11670383302159E-03	1.16054874410468E-02			3.05726375521444E-03	1.16003264038143E-02	0.960944149237529	-0.253541092693237
261868750	0.961306381560992	-0.250584485966072	3.22496745008431E-03	1.17083075474246E-02			3.24165802734629E-03	1.17914015692439E-02	0.960591502471032	-0.255424463506557
264362500	0.962352672534868	-0.255788183773541	3.28939218574717E-03	1.18499553184854E-02			3.26318177158983E-03	1.17937946428541E-02	0.962387231808975	-0.257536141253578
266856250	0.963756769979514	-0.25604683395601	3.32920246224133E-03	1.19007601752406E-02			3.38571074547662E-03	0.011974833966809	0.961662723348178	-0.259862387259631
269350000	0.960591027363741	-0.258384480517499	3.27832180351925E-03	1.20611156146647E-02			3.40584253979667E-03	1.21109208253592E-02	0.96117664421006	-0.263059930648487
271843750	0.959226876869129	-0.261058095831238	3.44621630846436E-03	1.22255088415344E-02			3.42307403949291E-03	1.22050048744543E-02	0.95881369310294	-0.265155406478881
274337500	0.959866141970708	-0.26291280328276	3.43842679446944E-03	1.22935129145858E-02			3.52298178506732E-03	1.22678461045418E-02	0.959280290787371	-0.266600952513232
276831250	0.960032711578644	-0.267360409811398	3.53322092155665E-03	1.23717840291763E-02			3.56362113466423E-03	0.012417634891026	0.956356129586558	-0.271350332829612
279325000	0.957710716661282	-0.266492538360562	3.57403352775767E-03	1.24545884946018E-02			3.59030706200325E-03	0.012523726868582	0.957098735395991	-0.272136858966973
281818750	0.957394193994472	-0.270309878577976	3.65091246639797E-03	1.25345377798102E-02			3.6921907926275E-03	1.24865905338472E-02	0.954961649305773	-0.274493527172571
284312500	0.955392463155501	-0.271971987979673	3.69668053898598E-03	1.25752320661965E-02			3.70711352742096E-03	1.26129528171431E-02	0.956378863343237	-0.275589232012307
286806250	0.954583029015484	-0.275607831505985	3.75924854070055E-03	1.27326535180286E-02			3.8418828202272E-03	1.27170148637417E-02	0.954662408865448	-0.278669578508463
289300000	0.955678306323962	-0.278102002927249	3.85344329784457E-03	1.28183753371761E-02			3.91474858125239E-03	0.012854581609999	0.954285738193053	-0.28056919433018
291793750	0.954641607142709	-0.27948308978572	3.90686435083759E-03	0.012969892945981			3.90091061992743E-03	1.29306066467528E-02	0.954623374286724	-0.283666144342758
294287500	0.953380558170439	-0.282454351060135	3.96677003731187E-03	1.30314623774568E-02			3.99571094298446E-03	1.30661191149043E-02	0.952543442061302	-0.284977792875189
296781250	0.952786119674518	-0.282429809386328	4.00896757010703E-03	1.31718412041711E-02			4.05758937985148E-03	1.31667432330088E-02	0.952435950225646	-0.287719180176191
299275000	0.952360471430642	-0.285663502879716	4.04604545471064E-03	1.32908927466011E-02			4.14186566006889E-03	1.32823374322648E-02	0.950796707054228	-0.29082889148769
