# Hz S RI R 50
769000000	-0.570321988097638	-0.723833477336265	-8.50330395074803E-04	2.13632561552361E-03			-8.49855559231115E-04	2.13478981468948E-03	-0.926191284839318	-0.114085294377455
769250000	-0.570742748327058	-0.724386284264314	-8.83829871530354E-04	2.12142744877618E-03			-8.67094301418277E-04	2.13321421097887E-03	-0.924861283693361	-0.110923281945692
769500000	-0.571777215519568	-0.723779562387116	-8.64866089402253E-04	2.18570858795794E-03			-8.73247228880787E-04	2.19562171577873E-03	-0.926423520819032	-0.11212961661732
769750000	-0.573882922164114	-0.723438026872022	-8.31410514309476E-04	2.22791406508348E-03			-8.62935477969009E-04	2.2153122306289E-03	-0.926251546830064	-0.110669915066851
770000000	-0.574234462336096	-0.721259999478348	-8.55360642103543E-04	2.2722297783319E-03			-8.30524976696843E-04	2.27573862136382E-03	-0.927466112185249	-0.109600966846189
770250000	-0.575579768862343	-0.721151515277045	-7.98139166295085E-04	2.30691375698249E-03			-7.87531511842838E-04	2.27423133756124E-03	-0.927677392496416	-0.108152798318773
770500000	-0.575412837106931	-0.719973886947611	-8.03872773705308E-04	2.34983082992402E-03			-7.83957154464314E-04	2.31255504058719E-03	-0.927074460412066	-0.10690402863445
770750000	-0.577370622184895	-0.719727529419062	-7.75075685500527E-04	2.35640724483682E-03			-7.90364583302433E-04	2.37045342932733E-03	-0.927304125064303	-0.10445339236729
771000000	-0.577862416685733	-0.719242473206473	-7.33436777573623E-04	2.36817126524063E-03			-7.36756005718505E-04	2.37828853855534E-03	-0.928317777243973	-0.103126865998541
771250000	-0.57760820698747	-0.717171651908759	-7.3825995116854E-04	2.40070964158007E-03			-7.21279700626328E-04	2.3739099923422E-03	-0.927820259872661	-0.100635665236996
771500000	-0.578108594498948	-0.716642169792256	-7.29960043202575E-04	2.43500962728951E-03			-7.28191407990611E-04	2.42394225550399E-03	-0.929505419312807	-0.100569199371389
771750000	-0.580379786311473	-0.716460583289793	-6.65958681566314E-04	2.47300115751538E-03			-6.7717660815644E-04	2.46820439276732E-03	-0.92898204989451	-9.84321894497248E-02
772000000	-0.580238435667403	-0.716404175695744	-6.46113868588739E-04	2.46976984220716E-03			-5.86548554444279E-04	2.44379035141142E-03	-0.929746934956312	-9.60597878593954E-02
772250000	-0.582309876984499	-0.715339020563401	-6.39378995409506E-04	2.46949235556286E-03			-6.45223842714512E-04	2.48221001192673E-03	-0.929943741453487	-9.52363614143445E-02
772500000	-0.581907369843963	-0.714315477433271	-5.87080843394882E-04	2.49234811873521E-03			-5.73169524012367E-04	2.50849205197876E-03	-0.930667323658825	-9.41082531036505E-02
772750000	-0.583395636607469	-0.714222581801517	-5.64631355625575E-04	2.50118324361992E-03			-5.64505047796775E-04	2.49535084982276E-03	-0.931460650627019	-9.11040479573558E-02
773000000	-0.584813753274139	-0.713707926419668	-5.46763114010167E-04	2.49404970245101E-03			-5.75683503959229E-04	2.48754356121491E-03	-0.929892656228129	-9.05565407487912E-02
773250000	-0.586129662321726	-0.712377451965193	-5.44837710443524E-04	2.50380846498528E-03			-5.03451391550945E-04	2.51632036172239E-03	-0.930460516476567	-8.81026603838487E-02
773500000	-0.58717206917239	-0.711491822930236	-5.21916795117661E-04	2.51308786417052E-03			-4.81493742875984E-04	2.47497446767757E-03	-0.930130531460795	-8.70044783736445E-02
773750000	-0.588012420044733	-0.710303700395516	-5.05633328619689E-04	2.51311173976206E-03			-5.03681672174745E-04	2.51428893911899E-03	-0.930748023656735	-8.62251509165924E-02
774000000	-0.587850058679488	-0.710457830279851	-4.763217726856E-04	2.52678986217947E-03			-4.8831842729791E-04	2.51122556197173E-03	-0.931296320695568	-8.62457027325494E-02
774250000	-0.589098157050652	-0.708947140522529	-4.8173790314478E-04	2.53917683014469E-03			-4.62079066134011E-04	2.53819495438057E-03	-0.931191064396052	-8.23889366349577E-02
774500000	-0.59004743011371	-0.708185482836545	-4.43065629438777E-04	2.53331025604336E-03			-4.31604733546053E-04	2.52359241645043E-03	-0.931648995584588	-8.18123179789161E-02
774750000	-0.591327414927177	-0.70722599306191	-4.06016497103611E-04	2.5341269208022E-03			-4.44989777531115E-04	2.4957700592625E-03	-0.932332885517342	-7.96036571186435E-02
775000000	-0.591807990301103	-0.706980915739698	-4.2580849514325E-04	2.53649288205768E-03			-4.22323710542704E-04	2.51800100944156E-03	-0.932383527741039	-7.86645232405757E-02
775250000	-0.592933734337241	-0.704967757198946	-4.01218329931851E-04	2.55516398504833E-03			-3.86015985291577E-04	2.5426548016402E-03	-0.932130651160684	-7.61682864769996E-02
775500000	-0.594487333990243	-0.704569849312998	-4.22836912752767E-04	2.53780998944283E-03			-3.85120824648572E-04	2.52379379929574E-03	-0.93276330923688	-7.40902856873744E-02
775750000	-0.59467301902926	-0.703364114347875	-3.68199301501612E-04	2.55885567725633E-03			-3.78412358087472E-04	2.52954085761053E-03	-0.932759430492776	-7.14051563964549E-02
776000000	-0.594461926306745	-0.701898183305434	-3.85060162635137E-04	2.5349376796005E-03			-3.4517893001401E-04	2.54045040465171E-03	-0.93281038154644	-7.11699801097086E-02
776250000	-0.596007028286543	-0.700528274338972	-3.62069445684039E-04	2.55566779348847E-03			-3.71951740094937E-04	2.53979686119174E-03	-0.932723073004074	-0.06862700819905
776500000	-0.59625801791595	-0.699920335160307	-3.77237774385644E-04	2.53519432746047E-03			-3.50553030465527E-04	2.53547430418062E-03	-0.932828194852913	-6.76596897988133E-02
776750000	-0.597857321689775	-0.699681912921036	-3.54988603602967E-04	2.56646456787187E-03			-3.76429573798785E-04	2.5739703419169E-03	-0.933350026068721	-6.56718986214773E-02
777000000	-0.598614061094921	-0.698404483155192	-3.44190966300535E-04	2.55761106665726E-03			-3.61824538257165E-04	2.56213927745361E-03	-0.93382548369721	-6.47719571503224E-02
777250000	-0.599770272166725	-0.69671539904953	-3.4849108175821E-04	2.56628847752094E-03			-3.64885547292572E-04	2.56218014556469E-03	-0.932521248944439	-6.09928443649286E-02
777500000	-0.60102954358341	-0.696366550132956	-3.60965618962382E-04	2.56407248716912E-03			-3.08694609387701E-04	2.59239795591141E-03	-0.934144481154484	-6.00020022292866E-02
777750000	-0.600456625596799	-0.696051069369557	-3.10264223074081E-04	2.55813668281507E-03			-3.04294176748622E-04	2.61827416968108E-03	-0.935156489610575	-5.82713690997422E-02
778000000	-0.600534011057171	-0.693743210764713	-3.44229844855942E-04	2.58216471762922E-03			-3.28214893843701E-04	2.58389122214177E-03	-0.93400096502563	-5.57822254055252E-02
778250000	-0.601715122578013	-0.692419917930997	-3.19758407451462E-04	2.57635362471342E-03			-3.26243227260209E-04	2.60061446822308E-03	-0.933495304597317	-5.25473388361845E-02
778500000	-0.603522748044925	-0.692318069922349	-3.23913222382655E-04	2.59806434307697E-03			-3.45035531674709E-04	2.56132338581648E-03	-0.933252041512225	-5.34071659360048E-02
778750000	-0.602411844143519	-0.692162817233857	-3.26470149753854E-04	2.57525947049761E-03			-3.29871925358334E-04	2.59752644505769E-03	-0.933894191485113	-5.03009406921862E-02
779000000	-0.604001918381635	-0.689845895330153	-3.31245531611471E-04	2.59596976182277E-03			-3.55419308259985E-04	2.61301726346714E-03	-0.933497269684692	-4.94802778291487E-02
779250000	-0.604736846048631	-0.687762942627203	-3.58088358006424E-04	2.58988536737897E-03			-3.61328054579703E-04	2.59751400752814E-03	-0.934389618598211	-4.70468176601529E-02
779500000	-0.605499944562335	-0.689210401215613	-3.30058412183414E-04	2.64586981740543E-03			-3.27949917708532E-04	2.65031491538175E-03	-0.934264941776704	-4.47277493877084E-02
779750000	-0.606323026103416	-0.68686348939769	-3.26891025928857E-04	2.64531988219792E-03			-3.47827779068835E-04	2.66990693049181E-03	-0.93372713996563	-4.34592178824878E-02
780000000	-0.607053104292768	-0.68616958125421	-3.39666008343152E-04	2.6719637852319E-03			-3.54954963632449E-04	2.6820380342266E-03	-0.933990393469823	-4.15979774658788E-02
780250000	-0.608469556271722	-0.685135155764762	-3.10551999438599E-04	2.67742070445463E-03			-3.53215073601581E-04	2.67992935644525E-03	-0.933159103479582	-3.81931546740852E-02
780500000	-0.608394344373342	-0.684573867946556	-3.34386948775565E-04	2.72464896917264E-03			-3.42160017329986E-04	2.74256673309648E-03	-0.931777552191257	-3.81232657071726E-02
780750000	-0.608562945092751	-0.681845422954169	-3.30092944795318E-04	2.73121544664441E-03			-3.39987632503249E-04	2.7545102242071E-03	-0.935610654949213	-3.55096952789613E-02
781000000	-0.609194763678862	-0.682190042919635	-3.346002442169E-04	2.76024035286938E-03			-3.24908215715276E-04	2.75176342042922E-03	-0.933180474917112	-3.25969926273838E-02
781250000	-0.610384274514743	-0.681745296356768	-3.50662187550998E-04	2.8069543517736E-03			-3.15264179393472E-04	2.80186477281221E-03	-0.932891411698712	-3.06388145403543E-02
781500000	-0.610681396116644	-0.680041333513795	-3.22396739686044E-04	2.83857630153911E-03			-3.37216368373727E-04	2.80823315239668E-03	-0.932239275654966	-0.029231572790323
781750000	-0.611687011221438	-0.679954713854952	-3.42868046233144E-04	2.85587448748126E-03			-3.20551023192561E-04	2.83199891561061E-03	-0.931208364884597	-2.58176743405102E-02
782000000	-0.611917456661847	-0.677464473406748	-3.37251933234524E-04	2.90735610036154E-03			-2.98241608718569E-04	2.9283903162168E-03	-0.931341102490008	-2.59165724450229E-02
782250000	-0.612970166468456	-0.677680845731377	-2.92621554353564E-04	2.91835093123016E-03			-2.53134476024968E-04	2.94711402666565E-03	-0.932747413961378	-2.41024932677263E-02
782500000	-0.613572299447468	-0.675271354315122	-2.72015393535025E-04	2.97223062794834E-03			-2.7886653313934E-04	2.98414591454663E-03	-0.930373046577798	-2.25350484380957E-02
782750000	-0.614323403191702	-0.672662144936384	-2.48949594519834E-04	2.99726476182542E-03			-2.47818390449411E-04	3.03433911229415E-03	-0.930533729681066	-1.94884936589543E-02
783000000	-0.614308749338053	-0.671850183922317	-1.74233904738339E-04	3.07154897655867E-03			-1.63684606396534E-04	3.07075438822991E-03	-0.929604243595664	-1.77366438295296E-02
783250000	-0.613813710097508	-0.670279086180777	-1.5518391769609E-04	3.09091428902908E-03			-1.48039989399212E-04	3.08110943321289E-03	-0.930777378253581	-1.50964080969406E-02
783500000	-0.614954327215796	-0.670472623389464	-1.4403714707221E-04	3.05827080989058E-03			-9.727024365892E-05	3.06464393444407E-03	-0.929332041817304	-1.25779511291031E-02
783750000	-0.613427059028979	-0.66906306130993	-1.07022525843632E-04	3.07572017600982E-03			-1.28621335958037E-04	3.05751590100578E-03	-0.930266270151958	-1.30517312241316E-02
784000000	-0.613322212568594	-0.665594828999453	-7.50691058081158E-05	3.09921474310765E-03			-9.21185448201806E-05	3.13344538809586E-03	-0.928800977497371	-9.94961466840407E-03
784250000	-0.612679159780213	-0.668802449868527	-6.72536371925763E-05	3.12904880081167E-03			-4.88877880311646E-05	3.13072337694998E-03	-0.929023561282883	-6.66178911362196E-03
784500000	-0.61471565050924	-0.667464304748448	-7.01494437783364E-05	3.1807571593541E-03			-1.0216792240333E-04	3.16951008450329E-03	-0.929347884732368	-6.69844288566979E-03
784750000	-0.615707906705082	-0.666812454224406	-3.52300663861537E-05	3.19235230399774E-03			-5.05195880336701E-05	3.18328954407145E-03	-0.928070551790114	-2.89608922628613E-03
785000000	-0.614449095587567	-0.665729520209537	-8.60113419801696E-05	3.26139730617447E-03			-7.55551108679183E-05	3.26307290762061E-03	-0.928064573526553	-4.09479054701094E-03
785250000	-0.616364646798698	-0.666695144124789	-1.52914122238822E-05	3.30553031858718E-03			-2.42421377671901E-05	3.32861886356072E-03	-0.929153888352643	6.69845063450255E-04
785500000	-0.617009878812832	-0.66617767880983	1.84774167714691E-05	3.39911981232856E-03			4.43986362847105E-05	3.39347123086193E-03	-0.927281511447279	2.65011095528357E-03
785750000	-0.618509249774413	-0.665428375468918	1.00919566618189E-04	3.44025739506697E-03			9.03362118392475E-05	3.4779941099305E-03	-0.927145588256003	5.73795012098629E-03
786000000	-0.619135676802713	-0.66471507400534	1.66202699067819E-04	3.54743410142286E-03			1.69153995245779E-04	3.54897277879156E-03	-0.925569489949654	7.94344064873779E-03
786250000	-0.617711884653657	-0.662972516835218	2.42294796703043E-04	3.66349639197614E-03			2.43001432240567E-04	3.6547124714665E-03	-0.924850180718158	7.68832349271174E-03
786500000	-0.620028033882439	-0.662264166634306	4.6229224286656E-04	3.69719529510941E-03			4.4724810094906E-04	3.72883364286488E-03	-0.922653855822668	1.08397482413971E-02
786750000	-0.621921698209992	-0.660750005956834	6.45181076945936E-04	3.74847614345377E-03			6.69338807041347E-04	3.72316878511434E-03	-0.921978316482283	1.22228349678971E-02
787000000	-0.62003342102035	-0.661175057290667	8.88096367178477E-04	3.74155007312307E-03			9.04375878990757E-04	3.75743685672202E-03	-0.919515625377301	1.41505190469042E-02
787250000	-0.622158210469978	-0.660492184715205	1.15248887157279E-03	3.49337382506351E-03			1.1413028578941E-03	3.49615300711581E-03	-0.919834673378813	1.26965368644405E-02
787500000	-0.624594779138161	-0.660646452287688	1.15710724834707E-03	3.26402526903387E-03			1.20499001712644E-03	3.25262970363504E-03	-0.918530273803454	1.26200182987558E-02
787750000	-0.625259125933275	-0.658661917634835	1.03390786831457E-03	3.08548178413696E-03			1.01611123449976E-03	3.08340850340633E-03	-0.921809520130389	1.52164701188937E-02
788000000	-0.624717481853388	-0.656665936853582	9.8750098060461E-04	3.04928382751927E-03			9.65673084499011E-04	3.04440713547205E-03	-0.921187332696427	1.60634130127887E-02
788250000	-0.62496763980646	-0.656513351547176	9.16611482549471E-04	3.04153596148747E-03			9.0212459375227E-04	3.02236962826968E-03	-0.922024368884491	0.016361748956775
788500000	-0.62509665132271	-0.65186574996523	8.42209752567598E-04	3.0561167237502E-03			8.83278297450753E-04	3.05649437429182E-03	-0.921561822312742	2.07386053025782E-02
788750000	-0.62641090127236	-0.653169979516771	7.76135165445557E-04	3.09106001726182E-03			8.31157548328663E-04	3.12160027297878E-03	-0.92217519491411	2.21360750981779E-02
789000000	-0.625736496792192	-0.652520832964137	8.66234703501976E-04	3.19847748125697E-03			8.56824457527851E-04	3.23285147695272E-03	-0.919573921978389	2.62223324816364E-02
789250000	-0.626958765622067	-0.650433638014825	8.6516175390238E-04	3.25948632537389E-03			8.73284500973273E-04	3.2679733036443E-03	-0.920715802380242	2.82052684676333E-02
789500000	-0.625545786969102	-0.649853494815425	9.76174712941814E-04	3.40404580368823E-03			1.06408497121779E-03	3.37186273385532E-03	-0.917744545059015	3.11216494430228E-02
789750000	-0.625721107183743	-0.649241221516957	1.17205021053168E-03	3.43314788446123E-03			1.21812196578977E-03	3.42342820112512E-03	-0.916610879591437	3.39157888700293E-02
790000000	-0.626196000602291	-0.649473263903456	1.39209372009489E-03	3.38518379275612E-03			1.41028067296338E-03	3.3479890095167E-03	-0.916161741432763	3.57486570312585E-02
790250000	-0.623812429937651	-0.647433692528352	1.38677001982193E-03	3.30769132367552E-03			1.41777780797307E-03	3.29647323485614E-03	-0.916083474514387	3.68000630725207E-02
790500000	-0.625398858434768	-0.646927407420244	1.62126589818373E-03	3.30465286419794E-03			1.62181699511116E-03	3.2990023976931E-03	-0.91359089088025	3.71914613529624E-02
790750000	-0.6248935188367	-0.647506712571829	1.7257686164765E-03	3.2154398720455E-03			1.80888889081339E-03	3.21554318195808E-03	-0.912916897222354	3.81994507808711E-02
791000000	-0.628370155989314	-0.647949325380231	1.94022430024343E-03	3.10335189975939E-03			1.94559684040333E-03	3.13410222809749E-03	-0.910594603129137	3.99642686752521E-02
791250000	-0.627112352795977	-0.64933876073545	2.04704612972801E-03	2.91404578279042E-03			2.05770472975513E-03	2.92546109344326E-03	-0.911930771990206	3.94794841065891E-02
791500000	-0.62921025705288	-0.646527895073733	2.10884634176734E-03	2.71369084036708E-03			2.1353567651571E-03	2.71165917115192E-03	-0.910645283000732	4.05224562756988E-02
791750000	-0.628492983872421	-0.648797639213604	2.04732299007397E-03	2.54010300172499E-03			2.05177172054964E-03	2.52418914496935E-03	-0.911195782960924	4.00213006270246E-02
792000000	-0.632521139085528	-0.648682022180981	2.04420890236563E-03	2.41176444456451E-03			2.01536970799162E-03	2.41890177595096E-03	-0.909688983030985	4.17793935732115E-02
792250000	-0.630906474132925	-0.646477486577668	2.05589210011423E-03	2.35123377379716E-03			2.0483387668996E-03	2.36425587685442E-03	-0.91201085404403	4.24769354654253E-02
792500000	-0.631156613611822	-0.644922468581188	2.0107821784061E-03	2.22484875649245E-03			2.0064372697215E-03	2.21985801216582E-03	-0.910521499637205	0.045863172883825
792750000	-0.634750819648812	-0.647405379700124	1.99893227050443E-03	2.13160913322045E-03			2.00607858815681E-03	2.14242681807146E-03	-0.912968694964153	4.56894568317013E-02
793000000	-0.635871871272389	-0.644486368516904	1.96902263026547E-03	2.07109354368319E-03			1.9650175897426E-03	2.07599758342548E-03	-0.911972716705331	4.97522034505286E-02
793250000	-0.636336447490213	-0.647720371527703	1.9685860867493E-03	1.99887016325661E-03			2.0160172916036E-03	1.99434034154506E-03	-0.912378051896767	4.99955554006834E-02
793500000	-0.639144093319217	-0.645420022778237	1.97401500078418E-03	1.92088885402288E-03			1.96935460575293E-03	1.87766142526019E-03	-0.910906682690156	5.19349365452312E-02
793750000	-0.63785170662197	-0.640750003706277	2.00689199629656E-03	1.74588616748659E-03			2.00728185880526E-03	1.78543033971892E-03	-0.909641846738525	5.40813075996039E-02
794000000	-0.637332799181808	-0.63881193816608	2.01849414135801E-03	1.62595510376183E-03			2.0414612132591E-03	1.59339479364975E-03	-0.908845027600929	5.25070594237004E-02
794250000	-0.639425629573895	-0.64473229379115	1.88718500697096E-03	1.47200407013077E-03			0.001857526834559	1.49414336924575E-03	-0.911988650438529	5.57284795755409E-02
794500000	-0.640704200143292	-0.637990514026947	1.80732084980316E-03	1.43083727900208E-03			1.82438112619041E-03	1.43042479553293E-03	-0.910819984314037	5.79356263701015E-02
794750000	-0.63954577369985	-0.637803170487541	1.74767488194414E-03	1.33954394422835E-03			1.7527137743085E-03	1.35292932691493E-03	-0.913406790870524	5.96639823274973E-02
795000000	-0.644247613022048	-0.637446990499583	1.65945809129577E-03	1.32781255820355E-03			1.66735470337223E-03	1.3089535402447E-03	-0.911518334002201	6.38902475525786E-02
795250000	-0.643622159868205	-0.638522165251951	1.58936495755989E-03	1.26241109437683E-03			1.57207716529869E-03	1.25497552234584E-03	-0.910295385628354	6.49784603074125E-02
795500000	-0.645210496133812	-0.636000761832341	1.56761701426822E-03	1.23319452625879E-03			1.56646176019433E-03	1.25819703409595E-03	-0.906791698116977	6.73777216202018E-02
795750000	-0.645000349640695	-0.634732749513733	1.49370280327022E-03	1.16865751602242E-03			1.49276662268935E-03	1.20298242645814E-03	-0.905561214792464	6.92639596942703E-02
796000000	-0.647070352125746	-0.635569334049905	1.49976046730515E-03	1.18137345808671E-03			1.45978838788129E-03	1.18687228675768E-03	-0.903681614356006	6.87730367090094E-02
796250000	-0.647252747089053	-0.634757374081818	1.49881408748212E-03	1.07982883378866E-03			1.50413356699107E-03	1.13038591766499E-03	-0.902983313975232	0.067847986088316
796500000	-0.646490247684646	-0.631044688860455	1.41589553998882E-03	9.48558909992651E-04			1.41562781120542E-03	9.44247694146839E-04	-0.901128211411233	6.58566642466951E-02
796750000	-0.647266208146824	-0.634103210626803	1.34372786397767E-03	8.73060972434158E-04			1.35881930603054E-03	8.98997005090784E-04	-0.907317808053198	0.064468905586204
797000000	-0.646556181100125	-0.631056933177605	1.20391221626527E-03	8.51779040492356E-04			1.21028906934201E-03	8.14237232064606E-04	-0.907473597950188	0.066498907266737
797250000	-0.649590328960406	-0.630624748338103	1.14089265129709E-03	7.84490122895155E-04			1.12218274850584E-03	7.75281975678907E-04	-0.911119372567232	6.76205297421829E-02
