# Hz S RI R 50
1078120000	-0.570504306037389	-0.612146272296232	0.296897118565059	-0.347702612331821	3.65704951267921E-04	7.3663362194005E-04	-6.97765417302654E-05	-1.16482514376221E-04
			0.29636795784333	-0.347539325002861	-0.622809573413757	-0.524338248785361	1.66219362792971E-03	-2.31367805026032E-03	5.88144485067859E-04	6.29528163642594E-04
			3.70584258757564E-04	7.22376192904185E-04	1.68266377134802E-03	-2.30585374283299E-03	-0.615449385736251	-0.536921775840598	0.306335112855263	-0.373992528773831
			-6.88078024472983E-05	-1.26775568378082E-04	5.61941021759417E-04	6.38018008664362E-04	0.304979879737507	-0.372717833459005	-0.583224797245128	-0.577867419740538
1078370000	-0.570935831508863	-0.61274077808767	0.296079510685153	-0.34812153403357	3.92675385285575E-04	6.92267023867089E-04	-5.11742372194723E-05	-7.83234567136785E-05
			0.298141555135901	-0.347567592158103	-0.623227541981472	-0.524989058073104	1.68610447152473E-03	-2.27355316859733E-03	5.61591501309714E-04	5.96671171840779E-04
			3.58423208599657E-04	7.13593826190366E-04	1.6720175917639E-03	-2.28364463807251E-03	-0.615461661248087	-0.535681986130852	0.306590582364074	-0.374679831095325
			-6.90915117877329E-05	-7.28381031053544E-05	5.61174398399896E-04	5.91844136346958E-04	0.306267203365182	-0.373495057853655	-0.582919818621678	-0.576614140588983
1078620000	-0.570663987916207	-0.610659418948025	0.297344183632425	-0.347680208870066	3.62087409734862E-04	7.04194890205968E-04	-4.24725685019302E-05	-8.34357831898966E-05
			0.295441355493804	-0.348741634677523	-0.619524809906025	-0.522644932976113	1.68632691387666E-03	-2.29337439112306E-03	5.46084767912089E-04	5.84156289281596E-04
			3.4806923396467E-04	6.94872529190097E-04	1.69712861482653E-03	-2.25947272685982E-03	-0.615929210043882	-0.535200559807056	0.306108752029064	-0.37399019079136
			-5.02014274213143E-06	-7.44358090018498E-05	5.60209904066296E-04	6.32654672700307E-04	0.304492598728746	-0.374338431030879	-0.581515914067309	-0.576459597410475
1078870000	-0.569118871869338	-0.610329937027113	0.296359982898902	-0.349645591132659	3.45759347862172E-04	6.84092514796486E-04	-2.67174983452008E-05	-6.53685226984482E-05
			0.295732305844169	-0.348869720598655	-0.623360293018846	-0.521264565543504	1.70371220664363E-03	-2.23660471265948E-03	5.33676046033847E-04	5.83659303795248E-04
			3.38440746419127E-04	6.95861796802351E-04	1.70793457212171E-03	-2.23159481613028E-03	-0.616125926352112	-0.533812534404741	0.305988889554426	-0.375918748573849
			-3.46711344570356E-05	-7.53121568471572E-05	5.30328664731683E-04	5.87601125415323E-04	0.305494731696747	-0.375229353490556	-0.581430095697695	-0.574274111929516
1079120000	-0.571502452760228	-0.608516730707525	0.295169029600752	-0.349870979432225	3.45975397874454E-04	6.90633292397527E-04	-3.99455926810381E-05	-1.11266573331863E-04
			0.295396371666166	-0.350091077355125	-0.622483725165879	-0.521364929020431	1.74132466072064E-03	-2.27855248635899E-03	5.44065552208888E-04	5.8150132058091E-04
			3.38601763717563E-04	7.26721876141204E-04	1.74180344076851E-03	-2.2450341474685E-03	-0.615726361425448	-0.533909772698946	0.30627416877177	-0.377331645723254
			-4.69605157069153E-05	-7.51306802365271E-05	5.15706273515733E-04	5.76816231026175E-04	0.305293615771027	-0.375907407112115	-0.584035004773533	-0.573410736318452
1079370000	-0.572375140127915	-0.610549517815421	0.295165941167587	-0.350788487880619	3.35210768516963E-04	7.2042922075558E-04	-2.73340168489324E-05	-7.6672046250688E-05
			0.29591318274916	-0.350918648343748	-0.624372740674028	-0.520119600880941	1.73243204390658E-03	-2.23532253271117E-03	5.27317709555278E-04	5.70853731132365E-04
			3.40260861764633E-04	7.18849543880943E-04	1.72377021212745E-03	-2.24284966098434E-03	-0.615732692638921	-0.53217196059984	0.305120371620074	-0.377827926651918
			-1.91271035104895E-06	-7.39550160362033E-05	5.58064660509957E-04	5.77373046589703E-04	0.304561279745593	-0.37638484672337	-0.583521476101058	-0.573636698685323
1079620000	-0.568865651598265	-0.606635050273868	0.295736062705535	-0.350103248371738	3.19847185717651E-04	6.97923699127404E-04	-9.44795984685226E-06	-7.60904152212227E-05
			0.294742739868953	-0.349072519471406	-0.620415489086247	-0.52115105950672	1.79266473099605E-03	-2.24567510746174E-03	4.91424852666039E-04	5.86787450152116E-04
			3.14677285891401E-04	7.32455408609145E-04	1.78114812797568E-03	-2.21805239920632E-03	-0.616579575316997	-0.53175735343068	0.304821488168541	-0.378777793851226
			2.14691076856797E-06	-9.29134327694215E-05	5.17009883134402E-04	5.77172596776303E-04	0.303933028277387	-0.376623000565374	-0.583709425245179	-0.572042148901481
1079870000	-0.572737232794481	-0.609086433169843	0.294310312321604	-0.351642702611326	2.8796590922815E-04	7.43445983262804E-04	5.00731677474274E-06	-8.90898286268447E-05
			0.295648380228776	-0.351469536109654	-0.622644434956287	-0.51965433033466	1.78934019614316E-03	-2.28254001732095E-03	4.85777578795147E-04	6.17302653705905E-04
			2.7691815595665E-04	7.34891494648794E-04	1.81747169878972E-03	-2.28024768851088E-03	-0.615508945572327	-0.530882588806087	0.302939998634286	-0.377263406394503
			4.11288594000138E-06	-1.09742257359796E-04	4.87535291848137E-04	5.99955137402743E-04	0.304232221354019	-0.37891618721086	-0.582506810657229	-0.570812249125943
1080120000	-0.570937596124874	-0.606701298474936	0.294024767590762	-0.352263103877709	2.49022269383886E-04	8.08892771113834E-04	2.21260016204824E-06	-1.86880447960218E-04
			0.293779852018013	-0.351636714249916	-0.621773791259434	-0.519423023532545	1.83485159883977E-03	-2.31188758304386E-03	4.91344053272701E-04	6.45204206423809E-04
			2.79818801592266E-04	7.9552035773584E-04	1.80498015562305E-03	-2.30542530368059E-03	-0.615277656021742	-0.530829338065055	0.303507771253118	-0.378888850778692
			-3.05285573075966E-05	-1.39395072449108E-04	4.75457409446858E-04	6.46718760897585E-04	0.302251198110649	-0.377149308832848	-0.581871043895099	-0.571585089614915
1080370000	-0.573461237592629	-0.60777111303095	0.29421668944242	-0.352008900829577	3.06446498677255E-04	8.2965192502632E-04	-7.45971995202482E-05	-1.46050770810806E-04
			0.293987796908479	-0.351825070887031	-0.622766972581806	-0.520093159181746	1.81346343805053E-03	-2.34174196476057E-03	5.04588441242684E-04	6.11247127318046E-04
			2.87551565396261E-04	7.8148370141432E-04	1.81664612654557E-03	-2.31500370939306E-03	-0.615548074531397	-0.53068160621062	0.303087649441432	-0.378720973239052
			-3.32421582742294E-05	-1.327484222847E-04	5.15539751520565E-04	5.99240798114116E-04	0.30201975835607	-0.378185824515954	-0.582866781406982	-0.571992861351231
1080620000	-0.570143809308298	-0.605188891502955	0.293367351987329	-0.351155860688642	2.97986002346483E-04	8.09355952639657E-04	-3.49318954651904E-05	-1.3723111956086E-04
			0.292695084612184	-0.350842005046375	-0.621828482613216	-0.518421474373209	1.87130623203986E-03	-2.32905772054443E-03	4.98615144784668E-04	6.64038459009053E-04
			2.56426774094589E-04	8.00098908862453E-04	1.85570691015686E-03	-2.34698660430276E-03	-0.615207312420742	-0.529921914715763	0.302901544513492	-0.379158209962635
			-2.0513034562551E-05	-1.45735504504086E-04	4.80281194802164E-04	6.48525884237855E-04	0.300995705779122	-0.37906375179867	-0.581987619482828	-0.570381694860423
1080870000	-0.572848251206104	-0.608872293185807	0.293801364921111	-0.352185410532097	2.41703027048846E-04	8.39706275394474E-04	-2.09980936528847E-05	-1.77528202330007E-04
			0.293757192634752	-0.35107561715379	-0.623989499511068	-0.518128287207294	1.88514316975127E-03	-2.42480574996244E-03	4.90297071004648E-04	6.88802400403642E-04
			2.81784951748416E-04	8.66940230354965E-04	1.87656302030142E-03	-2.40732092750407E-03	-0.616398639201667	-0.52931040320136	0.30124760128162	-0.378311169765175
			-2.77090832377942E-05	-1.78547959951716E-04	4.61330135338009E-04	7.00799547465181E-04	0.301872630783581	-0.379879231005689	-0.580911729185976	-0.568634482328537
1081120000	-0.571608234519738	-0.607027840310779	0.293388388899515	-0.350968328320402	2.9154200700755E-04	9.6062202837582E-04	-5.75957637149909E-05	-2.02617796430576E-04
			0.29324507414874	-0.350506754888691	-0.622482132124592	-0.519713850223412	1.90169358858784E-03	-2.48981502018814E-03	5.20838546700663E-04	7.1768369132986E-04
			2.92226274516817E-04	9.30063403431095E-04	1.91518315544607E-03	-2.51690606003891E-03	-0.615230724953531	-0.529129775986032	0.301126783273817	-0.379721402487715
			-2.55418630969003E-05	-1.62590568082872E-04	5.1392671064016E-04	7.34119634705226E-04	0.300959281010545	-0.379304766434624	-0.583075919441456	-0.570408219529057
1081370000	-0.573761168887618	-0.607861648757925	0.294766464933263	-0.351081155699035	3.257563663575E-04	9.97645924887804E-04	-8.30115867683279E-05	-2.0725181553682E-04
			0.294768933123321	-0.350959695231391	-0.625387861085786	-0.520422331902978	1.87396256706699E-03	-2.6062166797605E-03	5.33269952101937E-04	7.60211145561265E-04
			2.9946852238283E-04	9.91243701606979E-04	1.85892818986213E-03	-2.60450441611001E-03	-0.615283882113275	-0.52909271346603	0.301502297102368	-0.379870423199606
			-7.00629971064446E-05	-1.87359638434366E-04	5.28124042549426E-04	7.76153055340899E-04	0.302157440337993	-0.381072193848604	-0.58306162868225	-0.569079130710875
1081620000	-0.572226594629118	-0.604587752965912	0.294487213278973	-0.351176788306547	3.58981416058962E-04	1.05334088254973E-03	-1.06009296014728E-04	-2.36880555196161E-04
			0.294063567230614	-0.350808865538616	-0.624145611921409	-0.517792588583372	1.82807709358168E-03	-2.69697181310176E-03	5.70524437154844E-04	8.1028671045253E-04
			3.858715271311E-04	1.01087220259794E-03	1.79351451705746E-03	-2.67792650330584E-03	-0.61563273338042	-0.528497099851054	0.301845364984398	-0.380253105901986
			-9.99687001721704E-05	-2.65565102567083E-04	5.74439893338051E-04	7.95315886121031E-04	0.301920819861863	-0.380176774196224	-0.585387303226029	-0.56867498093571
1081870000	-0.575043223943748	-0.606067614686257	0.295299030838164	-0.352821150072269	3.76188547299624E-04	1.08268877134452E-03	-1.76964473982915E-04	-2.40781855961874E-04
			0.296510057766548	-0.351706855436361	-0.627980404531637	-0.517446075341685	1.78522862103304E-03	-2.7336876526261E-03	5.8785069258757E-04	8.40459842471149E-04
			3.96325268244294E-04	1.06216561866713E-03	1.76497551442181E-03	-2.73279280766193E-03	-0.615351010462914	-0.528843126348424	0.301609992458776	-0.37947843849416
			-1.40114854433135E-04	-2.37919658210858E-04	5.81703583908451E-04	8.45489594725198E-04	0.300748029616657	-0.380356186411039	-0.584878193844969	-0.568812960959183
1082120000	-0.576400423538962	-0.605084011125699	0.295432825861477	-0.353353629315232	4.67576958006213E-04	1.11606950221029E-03	-1.76575814525897E-04	-2.4709025852085E-04
			0.29529268366394	-0.352810577030958	-0.627798413561393	-0.515749196242214	1.70489529581685E-03	-2.80009266252851E-03	6.58824578362254E-04	8.8263297164087E-04
			4.64092285025787E-04	1.11340314895549E-03	1.71972558109837E-03	-2.8485629906444E-03	-0.616556328214231	-0.527950614983987	0.301499410305978	-0.380295677916379
			-1.96055789016381E-04	-2.25754974450755E-04	6.45366976644529E-04	8.75937853140892E-04	0.301337708124525	-0.380100506206084	-0.584565566732837	-0.568097112629877
1082370000	-0.57898364251265	-0.605662370237156	0.295937285080915	-0.353321318805108	5.43068776785523E-04	1.17331948168153E-03	-2.26209460841844E-04	-2.33795129291232E-04
			0.297297339421064	-0.353537869400996	-0.627181485066282	-0.51649309272518	1.61250124448104E-03	-2.88660307997436E-03	7.15569202595097E-04	8.96514606468571E-04
			5.24705223637229E-04	1.15615723648163E-03	1.61134541475527E-03	-2.90073106025688E-03	-0.617100393421715	-0.528090927051175	0.301548394123426	-0.380051813715598
			-2.28482089091206E-04	-2.24266742965648E-04	7.11545318616422E-04	9.08526348805907E-04	0.301934356629251	-0.380590003987163	-0.585724242727276	-0.568845745984629
1082620000	-0.576718209719853	-0.601735044549581	0.296171358926501	-0.354859805310855	5.99292747477704E-04	1.14906784421869E-03	-2.7483716932778E-04	-2.10659913089703E-04
			0.295162146464961	-0.354968480859789	-0.627106556004315	-0.514262729622137	1.49350055741029E-03	-2.92988959445552E-03	7.77258098848779E-04	9.16723189128484E-04
			6.06922371525232E-04	1.1423550736051E-03	1.53040286091436E-03	-2.92724649379081E-03	-0.616884090005113	-0.527870436107315	0.30282352484479	-0.380938575922205
			-3.11160632710348E-04	-2.15696697670649E-04	7.76636783218958E-04	9.05245728082515E-04	0.301180438958128	-0.379265820858811	-0.58629614067724	-0.567542239088317
1082870000	-0.579332891212292	-0.602537826309404	0.296112656132733	-0.356201608091859	6.74545505065579E-04	1.16528177999638E-03	-3.10281308899611E-04	-1.81603390907651E-04
			0.296561397924705	-0.356709227966135	-0.628953325443229	-0.512136723514516	1.42771641223921E-03	-2.98557922937881E-03	8.43247970199181E-04	8.82341598506862E-04
			6.65616969886736E-04	1.1684017571656E-03	1.41666329361712E-03	-2.96757145358356E-03	-0.616995481129483	-0.527474197045631	0.301854909815782	-0.38082328821571
			-3.16067229500516E-04	-2.12845333088761E-04	8.43203822175336E-04	9.13639971444261E-04	0.301210931601532	-0.380615783276086	-0.587119859353366	-0.566865343542187
1083120000	-0.577623021033382	-0.598758967474515	0.296448959282692	-0.357233356104388	8.03445511300546E-04	1.1661730833769E-03	-3.64845757203713E-04	-1.8355187463023E-04
			0.29529910396109	-0.35597058786584	-0.628386515710845	-0.512310151891271	1.3064891246894E-03	-3.03759470859803E-03	9.07545446586083E-04	9.01941918032687E-04
			7.98287707826826E-04	1.16124929010659E-03	1.32356690392717E-03	-3.01586003029826E-03	-0.618748700585624	-0.528479759189366	0.301868525782423	-0.381778006703812
			-3.47276721093806E-04	-1.90673404593832E-04	8.99324069200964E-04	9.12781727087056E-04	0.301428470009555	-0.38103509711268	-0.586456303333602	-0.566872326004514
1083370000	-0.578700272497656	-0.601534594561108	0.295557776962192	-0.357967331204351	8.37161171002396E-04	1.18867976274882E-03	-4.17265145612954E-04	-1.5828976944522E-04
			0.29631496873013	-0.358190768617288	-0.62774556572528	-0.511008487824306	1.17168841860568E-03	-3.04669079784631E-03	9.65959011272766E-04	8.83060920666871E-04
			8.88982158233499E-04	1.16243373936648E-03	1.17928098207739E-03	-3.03342988403791E-03	-0.617821376117671	-0.526900040932749	0.301024305569057	-0.38129038570125
			-4.31202184841201E-04	-1.65832563195955E-04	9.74226583193667E-04	8.84077979334986E-04	0.301801942900883	-0.38138288946565	-0.585059970999299	-0.564501325104206
1083620000	-0.578107981913173	-0.59811333191551	0.295577439780047	-0.358201467758119	1.00385290234365E-03	1.13318683678651E-03	-5.12464605419065E-04	-1.11669208980364E-04
			0.294405280696808	-0.358268707309469	-0.626218707382319	-0.508948534527263	1.01325733097707E-03	-3.04847368261647E-03	1.08094785328657E-03	8.46732252744089E-04
			1.01632973238507E-03	1.13677890263869E-03	1.03814881165089E-03	-3.04184909531908E-03	-0.619948975821502	-0.526343239073847	0.302594369731479	-0.382754407742491
			-5.10917453432224E-04	-1.04195369324024E-04	1.06028835441456E-03	8.69808240518749E-04	0.302426886749868	-0.382521852861179	-0.589024978362365	-0.566028053927264
1083870000	-0.578058312973798	-0.59871515948889	0.29359844504694	-0.359769273548	1.1042169236308E-03	1.0486519011749E-03	-5.4606755345982E-04	-3.19514854836346E-05
			0.295234132231172	-0.358657978417141	-0.6258763046559	-0.509637367426837	8.699960557622E-04	-2.9834177787742E-03	1.13398486303555E-03	7.68515835448056E-04
			1.11026314167227E-03	1.06720378066996E-03	8.76900479604255E-04	-2.95006537149556E-03	-0.62019351607998	-0.525128441571361	0.30244734075157	-0.382108109580228
			-5.12747821671316E-04	-4.80448174082502E-05	1.12687591599104E-03	8.07122906791827E-04	0.303663896160768	-0.381605747178865	-0.588159181896891	-0.563903851441252
1084120000	-0.577764934615414	-0.596429764579258	0.292604566149384	-0.36017139828391	1.14386831280214E-03	9.9488156023297E-04	-5.29337850261764E-04	5.4928743805312E-05
			0.293281928834058	-0.360575045757585	-0.62626899035063	-0.507603512646933	7.80354822572442E-04	-2.91989356208325E-03	1.18103080820834E-03	7.36611266311266E-04
			1.16206225311025E-03	9.78161624165035E-04	7.51896855796887E-04	-2.88862269026905E-03	-0.620800060259951	-0.524137317305104	0.30406206979092	-0.382548431685076
			-5.36320122212255E-04	3.32781313949458E-05	1.19770230078227E-03	7.23349891979555E-04	0.303631313326778	-0.383454872385902	-0.588369210271911	-0.562715949171253
1084370000	-0.579714124377952	-0.597997213552528	0.291973831962445	-0.359640509885645	1.25410904566884E-03	9.31651497198541E-04	-5.63346643195131E-04	1.00432688830829E-04
			0.292343421208445	-0.360058288678993	-0.624553851817937	-0.508186848481412	6.53301628523491E-04	-2.85005859489444E-03	1.22855532531102E-03	6.94215974196499E-04
			1.24002666110614E-03	8.87743281030832E-04	6.40143914255547E-04	-2.87132725255552E-03	-0.621428842395583	-0.523020552481697	0.304669962907068	-0.384534881826545
			-5.66623904897486E-04	7.19119161797314E-05	1.23133102548879E-03	6.85127424150614E-04	0.302910048438005	-0.384223489843131	-0.589895080789251	-0.562716269218023
1084620000	-0.576341659024658	-0.59735088749435	0.290467764514327	-0.359635932193628	1.31438462924563E-03	8.16350938815049E-04	-5.86630952436942E-04	1.86785651160516E-04
			0.291145573937555	-0.360542225629702	-0.622165774079363	-0.507555642875032	5.18511708755337E-04	-2.73713792927648E-03	1.28090216590928E-03	5.94132826561627E-04
			1.30367620371704E-03	7.86934486485921E-04	5.18578697387038E-04	-2.7670782251401E-03	-0.622106857049176	-0.52246082000921	0.304914431340464	-0.384729749732333
			-5.64015982509704E-04	1.61822525042779E-04	1.2996282489787E-03	6.00447698407178E-04	0.302725443963465	-0.384548110303475	-0.590821053954047	-0.561617496757557
1084870000	-0.57791736696949	-0.597721338583172	0.290214783176693	-0.359979528095296	0.001332628126386	6.46486636638603E-04	-5.61896489021547E-04	2.90723135438758E-04
			0.29071332908216	-0.35983140179994	-0.62421921945568	-0.507409613717336	4.40181255232116E-04	-2.61538810036042E-03	1.3323160482982E-03	5.01445442236854E-04
			1.31734777113472E-03	6.61562663454395E-04	4.49783323021682E-04	-2.63104627246981E-03	-0.62266733283843	-0.520910261908677	0.303778531090897	-0.386566685831227
			-5.57311284213048E-04	2.49582785927286E-04	1.30207382509129E-03	4.9045627739492E-04	0.303476145681033	-0.385316289091929	-0.592012780846894	-0.561077533379353
1085120000	-0.576926716077048	-0.595827786976584	0.291018424853901	-0.359689041807944	1.36388892245316E-03	5.35477752797842E-04	-5.71828145900202E-04	3.40569311388452E-04
			0.290550511640923	-0.359115430251627	-0.623602415423647	-0.507963465821235	3.65568019279703E-04	-2.51244685314708E-03	1.34013671343583E-03	3.90069646067873E-04
			1.3774540240984E-03	5.41878124488488E-04	3.88040735350516E-04	-2.49935039545057E-03	-0.623609286416176	-0.517764678969916	0.304283884408974	-0.387459053616078
			-5.62815195802736E-04	3.59942467129825E-04	1.35922614275255E-03	3.86201097974233E-04	0.303584952308987	-0.388104992110569	-0.590275482417889	-0.559973313728629
1085370000	-0.578144198457366	-0.598071130573184	0.290345374503937	-0.359261815040213	1.34594344031123E-03	3.8209907153307E-04	-5.21086354583166E-04	4.85167329666803E-04
			0.291356504314717	-0.358601446450402	-0.624684569327503	-0.509319518070883	3.2768444617693E-04	-2.31965901072308E-03	1.31629235848578E-03	2.6635583543328E-04
			1.36712627076919E-03	3.9662137860445E-04	3.16901313991793E-04	-2.34480590337372E-03	-0.621977096132718	-0.518521627892003	0.303085840162438	-0.38845662936155
			-5.21828003668187E-04	4.2051344219347E-04	1.33741335886028E-03	2.88727256898535E-04	0.303089514200557	-0.388490379775831	-0.591408217584423	-0.556894379787019
1085620000	-0.58035451240238	-0.596577758045323	0.290489054746189	-0.358312146212921	1.2975561028669E-03	2.38698338381695E-04	-4.33246474212426E-04	5.03873151832262E-04
