# Hz S RI R 50
413920000	-0.891812792449033	0.298930571348691	1.42365648857653E-03	2.43917587046651E-03			1.41246885149405E-03	2.42528403016632E-03	-0.88344230093979	0.310715325203174
413945000	-0.891579709718408	0.30118495248761	1.34360282222356E-03	2.44406828188373E-03			1.41331517511295E-03	2.45242907800397E-03	-0.883277392901648	0.313262717128249
413970000	-0.889171299250553	0.301130476229856	1.34047491462685E-03	2.4934109192964E-03			1.33950895206788E-03	2.46945052833416E-03	-0.884228944853886	0.314625054774592
413995000	-0.890458066349179	0.303352507391859	1.25436328675598E-03	2.46767308967577E-03			1.2810795260403E-03	2.49249166751864E-03	-0.882269225774275	0.314145473952617
414020000	-0.887327471485264	0.303520267574783	1.20804755561016E-03	2.5185028923533E-03			1.25345141371054E-03	2.50920634918703E-03	-0.882452763660356	0.316558181089297
414045000	-0.885615235712455	0.305161543030074	1.15985749723397E-03	2.49734778133511E-03			1.17479002909446E-03	2.51612646490888E-03	-0.880255222720947	0.315619483879944
414070000	-0.88793628159378	0.305909645064283	1.14169388699655E-03	2.58380697763074E-03			1.15528132324792E-03	2.56451410136759E-03	-0.877938633117867	0.316438692315742
414095000	-0.886052573136489	0.307979859743342	1.09083590767893E-03	2.60899869865679E-03			1.08301397783318E-03	2.60682588736808E-03	-0.878344742768428	0.318585098508183
414120000	-0.885296787243048	0.308432014718204	1.09273018252395E-03	2.69807126877917E-03			1.07402082616632E-03	2.71085682829561E-03	-0.877415015185494	0.319438897769129
414145000	-0.886868451941664	0.310299409853873	1.07020856752973E-03	2.79945422044469E-03			1.0784349838672E-03	2.82636202291928E-03	-0.874926847628719	0.317932288167421
414170000	-0.883265569106609	0.310677098244379	1.0971155040684E-03	2.87732189624844E-03			1.11089745784347E-03	2.90413537828344E-03	-0.875060574241493	0.32070528198109
414195000	-0.882270688119205	0.31100557489781	1.14981416314305E-03	2.96563726644792E-03			1.14190781904845E-03	2.98484334455541E-03	-0.874204972126316	0.320713539715167
414220000	-0.879155624547184	0.308371986745542	1.1666961804212E-03	3.03340362959787E-03			1.16799111862773E-03	3.02676242106393E-03	-0.872947066808164	0.323218311784245
414245000	-0.881609322540133	0.313181153489634	1.2087616379266E-03	3.1450447720958E-03			1.25483005822348E-03	3.12920249049367E-03	-0.870558475537767	0.321611523014902
414270000	-0.878976765071457	0.311852095378285	1.28069245008791E-03	3.24200954674453E-03			1.27528674503844E-03	3.23166772886135E-03	-0.869302993374047	0.320834885754533
414295000	-0.876503253203724	0.30963093162997	1.37541438319652E-03	3.33367094740326E-03			1.38723550871473E-03	3.32896271620777E-03	-0.867220524608657	0.320096284107054
414320000	-0.875540655722392	0.309182867365884	1.51634732650752E-03	3.46804359409188E-03			1.55354887264979E-03	3.44859348823927E-03	-0.866313777713864	0.321347479916422
414345000	-0.874088302402818	0.308865821529424	1.73574567357672E-03	3.54889294012703E-03			1.73510210515355E-03	3.51746992805368E-03	-0.864610153285592	0.318314134458976
414370000	-0.876078576357544	0.312152157104875	1.97151217516527E-03	3.55509139181319E-03			1.96292465108624E-03	3.58123384104893E-03	-0.863878590415801	0.317843973239019
414395000	-0.874101031487115	0.310168746851261	2.22543357733283E-03	3.56417793410535E-03			2.23655068684879E-03	3.56900945608909E-03	-0.863397766577341	0.315560565329983
414420000	-0.874187100234999	0.308787952913317	2.53800545718288E-03	3.50138133931626E-03			2.53191942926354E-03	3.51927800380957E-03	-0.863246821267035	0.313022437352675
414445000	-0.873793539607165	0.306870315367804	2.80626313435833E-03	3.36380798076394E-03			2.8469757802629E-03	3.33228615826397E-03	-0.862909416941596	0.312722887113748
414470000	-0.872876650248266	0.307061318816764	3.12299364517353E-03	3.06761345751749E-03			3.14752570703348E-03	3.06435880863047E-03	-0.863721014722128	0.310820540201144
414495000	-0.873431633235557	0.307372157170736	3.33718906674802E-03	2.72128284588531E-03			3.31859920141159E-03	2.73205241528463E-03	-0.866940545117356	0.310963123569385
414520000	-0.876404460112721	0.30599818220353	3.42816211068145E-03	2.31644763883195E-03			3.40030747459917E-03	2.30924568776228E-03	-0.866958066300935	0.308740629849334
414545000	-0.87568933082454	0.304288171762559	3.37357396658011E-03	1.91907726096309E-03			3.37098420284912E-03	1.90915630094294E-03	-0.870222607660104	0.308875266807337
414570000	-0.87642235493393	0.303122776292681	3.25866463653871E-03	1.50398772142871E-03			3.21683890918266E-03	1.50780703869972E-03	-0.870168337064355	0.308444234462373
414595000	-0.875609465972575	0.304507414669174	3.05154657968249E-03	1.23260905608231E-03			3.04150719828801E-03	0.001238306533983	-0.872598549393675	0.309474706758434
414620000	-0.876419256504276	0.301742153400735	2.80024701220015E-03	1.00309774280891E-03			2.77208928802523E-03	1.00381010976761E-03	-0.872705795757589	0.309687154564317
414645000	-0.880706006094602	0.302301902402934	2.54539512975993E-03	8.70817048163449E-04			2.54767438402199E-03	8.27867839169988E-04	-0.87597536158901	0.312460894366073
414670000	-0.881774960772494	0.304609913359612	2.29780266400305E-03	7.6048332043396E-04			2.29120407552074E-03	7.59257638455021E-04	-0.875931496594835	0.313622382813397
414695000	-0.882721691382785	0.306835588592106	2.04786476271814E-03	6.95233147945104E-04			2.04897475723308E-03	6.82747669191282E-04	-0.877567606727559	0.314148623974029
414720000	-0.882814140907502	0.304415159124098	1.80494017331749E-03	6.82732357590821E-04			1.79916072023165E-03	7.2363527870919E-04	-0.878167714566384	0.315553988049172
414745000	-0.885325232523469	0.306895955501581	1.63651818828252E-03	6.98673197422585E-04			1.64332427308451E-03	7.16655039201129E-04	-0.881217647611344	0.318270487068747
414770000	-0.886120621156795	0.309022830814748	1.46466820441345E-03	7.36757795435072E-04			1.46680757687161E-03	7.61472445775639E-04	-0.878858423800468	0.317868685786334
414795000	-0.884959573617374	0.309323130205329	1.28249571373565E-03	7.82846845977557E-04			1.30707100539335E-03	8.04112849193488E-04	-0.880088570353342	0.319257995852588
414820000	-0.886076470832534	0.312016256525749	1.17465610702135E-03	8.38601067309612E-04			1.16964714518071E-03	8.47022749880299E-04	-0.880975937050454	0.320829885036552
414845000	-0.88729223505011	0.314041953259065	1.02444621665959E-03	9.01795360658398E-04			1.04959250758075E-03	9.02407326953801E-04	-0.881467278888069	0.323799949222016
414870000	-0.886577170713399	0.314089946793076	9.08548752716542E-04	9.98832793860424E-04			9.21922764126721E-04	9.66099072737175E-04	-0.878945207610105	0.323256647835273
414895000	-0.886671302192781	0.316988254536022	8.40478649618122E-04	1.07059630264557E-03			8.46211198540341E-04	1.07419237998312E-03	-0.879200354667172	0.325875437405739
414920000	-0.886948981631871	0.315727812941444	7.61491844138769E-04	1.1416687008109E-03			8.04800383279878E-04	1.14469715810577E-03	-0.879388336536486	0.326496428080983
414945000	-0.886448994690676	0.317172734843838	6.92664866905707E-04	1.22996001104572E-03			6.90752644059402E-04	1.23123485412583E-03	-0.880638998303419	0.329242513413348
414970000	-0.885633202287807	0.31991703965855	6.29650244968436E-04	1.29294723731897E-03			6.69796874143336E-04	1.29597545047787E-03	-0.881821064233138	0.331703483980313
414995000	-0.88517554987288	0.320150285025409	6.05360928864983E-04	1.37322143867465E-03			6.07558516212804E-04	1.38335955969501E-03	-0.880975985673009	0.331582487036934
415020000	-0.888221869677152	0.322303419883548	5.51994905685886E-04	1.44789998360529E-03			5.73705488537126E-04	1.45343880020668E-03	-0.880124733323455	0.33227825492395
415045000	-0.886308172381131	0.324956728223605	5.34216154073928E-04	1.53540644190642E-03			5.19750919567042E-04	1.52693812504232E-03	-0.881365922022888	0.334941690204295
415070000	-0.88395739380695	0.323626256443587	4.91408389943845E-04	1.6001672332122E-03			4.97539539704666E-04	1.61698843849932E-03	-0.879023040592344	0.334789899993036
415095000	-0.885972418955965	0.326727965887684	4.87134707434386E-04	1.67378270177465E-03			4.8923853066314E-04	1.67858287951708E-03	-0.880275475002809	0.336464596125907
415120000	-0.888499381772466	0.325972971691103	4.78136685685713E-04	1.7789853493006E-03			4.80493781410415E-04	1.74969419298164E-03	-0.880289448196377	0.337738734132958
415145000	-0.88652152951777	0.329651650731388	4.60041522346035E-04	1.8512971470651E-03			4.81596120767049E-04	1.88019933102786E-03	-0.879846916961624	0.339210986873805
415170000	-0.885053824340718	0.328883723045836	4.50425189074698E-04	1.91690558546742E-03			4.9467609236899E-04	1.92789351951547E-03	-0.878477486026564	0.338458552608457
415195000	-0.885973076556727	0.329697222534906	5.12802127662195E-04	1.98081295804831E-03			5.01331599644288E-04	1.96623763391697E-03	-0.877955540980569	0.339837060278836
415220000	-0.887555925619889	0.332547193660101	5.53688898340129E-04	2.03961050139643E-03			5.45164515376052E-04	2.06536519601659E-03	-0.878137143251421	0.341445013621233
415245000	-0.884747354364992	0.331695287314955	5.47896531809483E-04	2.10856187976095E-03			5.93243621520895E-04	2.08401957279381E-03	-0.878128266068966	0.343802552552129
415270000	-0.888043326450668	0.335238955275673	5.935769042902E-04	2.13204670032223E-03			6.36623689792569E-04	2.12355984827075E-03	-0.879015936286172	0.346720176038253
415295000	-0.88571248251295	0.33527938048109	6.29275282764969E-04	2.16212377399922E-03			6.46589018469175E-04	2.12498997722822E-03	-0.877709749244782	0.343994420367576
415320000	-0.884469432968265	0.336232288668247	6.72458016576346E-04	2.15632006061385E-03			7.21039020184385E-04	2.18706000372444E-03	-0.877149692029817	0.345573401141192
415345000	-0.883720575470115	0.336527950126218	7.52455699165938E-04	2.17613001923564E-03			7.27339261136491E-04	2.18732035087233E-03	-0.87703376065389	0.347504094274901
415370000	-0.885221580611284	0.340287856205897	7.48422579044933E-04	2.15517486769173E-03			7.17643835434226E-04	2.15735889475033E-03	-0.878262191957147	0.350972583833246
415395000	-0.886613097669535	0.33899660441588	7.53116981478941E-04	2.17525453765238E-03			7.70905099288008E-04	2.18637324471619E-03	-0.876034818534501	0.349632033064225
415420000	-0.88469032794274	0.340984281343689	7.66252508959493E-04	2.17442558084647E-03			7.61753694906122E-04	2.2020294519776E-03	-0.876254537802392	0.350439318293846
415445000	-0.883448304583998	0.342421615792561	8.00241953554529E-04	2.16271581504775E-03			7.9060319681339E-04	2.17854343603513E-03	-0.8759424136357	0.351732964375686
415470000	-0.886505895726483	0.342773463920963	7.68253707520365E-04	2.19660422879301E-03			8.07476459178907E-04	2.16869914084079E-03	-0.875494160924699	0.353077437381899
415495000	-0.884991067555737	0.342125010967562	7.77143662766372E-04	2.16365792548187E-03			7.95479832466511E-04	2.20709523393068E-03	-0.874231483939473	0.352955327536744
415520000	-0.882255036476862	0.345562189891102	7.97515181066732E-04	2.21517587682613E-03			7.76714156975562E-04	2.20320733220068E-03	-0.876129512015276	0.353711131521924
415545000	-0.884466744394646	0.34680750476329	8.02394548923262E-04	2.21032904328834E-03			7.90453999369526E-04	2.19175922045811E-03	-0.874231178644234	0.356741944960518
415570000	-0.882181986651921	0.346794574792417	8.32520979637726E-04	2.23108202670287E-03			7.92206048948769E-04	2.24839252762162E-03	-0.873073497097817	0.356949307629152
415595000	-0.884436356089333	0.348880584280911	8.11459557661362E-04	2.24209473380488E-03			8.07254458024832E-04	2.21546414255126E-03	-0.875077828840313	0.358009866073007
415620000	-0.882308789767528	0.350469612295474	8.10366533440884E-04	2.22610025868295E-03			8.4573828002864E-04	2.22218460837777E-03	-0.872950494254706	0.359642692636261
415645000	-0.885139316261753	0.350154942050288	8.48129864825059E-04	2.22439304600287E-03			8.21556899357207E-04	2.24043066615364E-03	-0.873668523691146	0.359987158245432
415670000	-0.880691275929427	0.35277027753786	8.25268294207558E-04	2.24221480617831E-03			8.44324039468687E-04	2.25270055100282E-03	-0.871743331920085	0.360975428842558
415695000	-0.87953189013453	0.352928460708514	8.35885164570657E-04	2.24985516067032E-03			8.27707098777104E-04	2.25754730228299E-03	-0.872463416069226	0.362170850679899
415720000	-0.881580219488035	0.355118337424252	8.3921109743917E-04	2.28124806434423E-03			8.62091841455301E-04	2.27523087173468E-03	-0.873579202077486	0.363780143956104
415745000	-0.877964076885165	0.357447810663627	8.34830495198627E-04	2.25217579330285E-03			8.19578705074287E-04	2.25759596525077E-03	-0.872345650568559	0.366163289426583
415770000	-0.882078938906303	0.357323303183046	8.28417017503432E-04	2.27324395508595E-03			8.72265320373662E-04	2.26194180556599E-03	-0.870760900239881	0.366630460794185
415795000	-0.879615989415187	0.356990028165701	8.65716442477105E-04	2.29063322352741E-03			8.46110768898744E-04	2.26164862876653E-03	-0.870300287048063	0.366744830934788
415820000	-0.876770264585859	0.359634793649704	8.21132621104286E-04	2.25106576269818E-03			8.46143825358706E-04	2.27426044093845E-03	-0.87098302021731	0.368573264685777
415845000	-0.878954052016033	0.360095850137698	8.70087255609172E-04	2.3093382985254E-03			8.55252570183561E-04	2.28088301456416E-03	-0.871503685603801	0.369213821806463
415870000	-0.878851744459332	0.361511526653083	8.73192727537045E-04	2.28690410568764E-03			8.59239958390468E-04	2.29058367869294E-03	-0.870063343023443	0.370365323918634
415895000	-0.877865308739607	0.36267415782264	8.87009677819393E-04	2.31663706747295E-03			8.65605799894996E-04	2.29520932430975E-03	-0.867701830790579	0.371254809476597
415920000	-0.877864417960484	0.360881668329381	8.70022885672044E-04	2.31497343132634E-03			8.90916913848675E-04	2.29634162321656E-03	-0.867453048892162	0.371296113097493
415945000	-0.875359584295561	0.364219199302435	8.91096985340341E-04	2.3372082296277E-03			8.93007335294229E-04	2.31671184995753E-03	-0.868588650407225	0.374259537683874
415970000	-0.877007163582602	0.366220300723955	9.10967012223115E-04	2.33135397221571E-03			9.06838724934856E-04	2.34439727626285E-03	-0.868327980844661	0.376311573545421
415995000	-0.877322008931411	0.366599898882648	9.12145431413977E-04	2.34070043963004E-03			9.34325899583726E-04	2.33099436130779E-03	-0.867167648555375	0.375471643966417
416020000	-0.87630008128489	0.369098283090243	9.21410348548996E-04	2.34568720434637E-03			9.65118944474095E-04	2.32672473361838E-03	-0.867345788112887	0.378659535546587
416045000	-0.877992573636539	0.369205247674817	9.60897419519474E-04	2.33981087772791E-03			9.27414640350245E-04	2.36238371685807E-03	-0.866639366443483	0.377300820522907
416070000	-0.874760567342046	0.369475209981	9.67910540468647E-04	2.34277647488832E-03			9.49650513283519E-04	2.32884026754493E-03	-0.866242532584521	0.380925634187773
416095000	-0.872504786339445	0.372304526229483	9.74858423696269E-04	2.33812544814044E-03			9.68395360296877E-04	2.35303276755992E-03	-0.863861425202462	0.380125796097374
416120000	-0.874924303339342	0.373670546149753	9.76981283367352E-04	2.35674527832745E-03			9.87097210200855E-04	2.33848422838591E-03	-0.863667081179148	0.380862564990048
416145000	-0.875432050354344	0.373640747723768	9.87161174009918E-04	2.3196909821988E-03			1.02268274860851E-03	2.32994390825091E-03	-0.86294671066847	0.381317796955195
416170000	-0.87493995722401	0.374879700429545	1.00489130838514E-03	2.32517329305718E-03			1.00140557175405E-03	2.33791532444078E-03	-0.866186163125418	0.385988496209467
416195000	-0.873754414661003	0.375565021684023	1.02260546647634E-03	2.28885489873521E-03			1.03364821245516E-03	2.35347369324323E-03	-0.864319738838329	0.386368649068862
416220000	-0.870014701920077	0.377986949771876	1.04267936667574E-03	2.29060604348413E-03			1.01880027778773E-03	2.29931037809998E-03	-0.86154501870739	0.384444079865745
416245000	-0.869526488557023	0.37985811067219	1.01684241832637E-03	2.30364102343884E-03			1.03537382857121E-03	2.28747984042381E-03	-0.863621760388726	0.388160048920345
416270000	-0.870233955563308	0.379758170249595	1.04733975794047E-03	2.31007919887889E-03			1.05458586091173E-03	2.28451560069819E-03	-0.86122172379641	0.388914293210896
416295000	-0.865800163295983	0.38130843585853	1.01966005468774E-03	2.25397170182414E-03			1.03380669572816E-03	2.29023886559513E-03	-0.860441928254073	0.388168702252058
416320000	-0.870649567740935	0.379631486560845	1.03349565383764E-03	2.30682511810915E-03			1.05422179503552E-03	2.31143514531642E-03	-0.861747559468775	0.390194061412612
416345000	-0.8670724835071	0.384288368344756	1.04598119132456E-03	2.29663653157069E-03			1.02804663254886E-03	2.29023759025337E-03	-0.860637549724647	0.390904202412459
416370000	-0.867791889451446	0.383906886614335	1.02276895548664E-03	2.26162378486542E-03			1.06157428486342E-03	2.27134405943016E-03	-0.858686107452909	0.392876078911028
416395000	-0.868020867698228	0.385481831431799	1.02300173398798E-03	2.28473638882793E-03			1.01751294325527E-03	2.26579018517946E-03	-0.858124475919779	0.392140563627339
416420000	-0.866460018961552	0.387144195088962	1.03639751620682E-03	2.29230841356992E-03			1.05043450008123E-03	2.28573388382625E-03	-0.857976242843112	0.396813819003305
416445000	-0.866404501351961	0.386639323684174	1.00713326507965E-03	2.25502680681896E-03			1.0228263163412E-03	2.23036826955038E-03	-0.856734669415707	0.395016979470765
416470000	-0.864127708169829	0.387173894520946	1.02824492515564E-03	2.25469815639294E-03			1.02006267942206E-03	2.25616085427786E-03	-0.857322876323963	0.396610019545673
416495000	-0.862189213756292	0.390041288162613	1.02550071222311E-03	2.26266123463604E-03			1.01416833730129E-03	2.24896401573469E-03	-0.856610774101971	0.398039285755689
416520000	-0.863467854692418	0.390059314629368	1.0411816611609E-03	2.23661299376828E-03			1.0409787507644E-03	2.2516948400719E-03	-0.855836923788391	0.399584051822842
416545000	-0.861029727451035	0.392045125123663	1.01532172876098E-03	2.23334511900772E-03			1.03195803029881E-03	2.25945955079888E-03	-0.855084984259438	0.399928952766936
416570000	-0.860274850592265	0.392288186577534	9.99855333960712E-04	2.24258036881345E-03			1.03872440976205E-03	2.24690717322639E-03	-0.853209869970333	0.399576828955114
416595000	-0.861446222901613	0.395029866861353	1.03137554082472E-03	2.23440142367259E-03			1.02084063335035E-03	2.26471503776303E-03	-0.853339714230066	0.402099768083641
416620000	-0.863091328018989	0.396230406699894	1.01095480969775E-03	2.23659612225539E-03			1.01516937089705E-03	2.28299086705706E-03	-0.854473728263531	0.405589365399069
416645000	-0.860377357432415	0.395140777916326	1.01273584444593E-03	2.27520093591483E-03			1.04293725063103E-03	2.26858186842145E-03	-0.852841562644231	0.405451076148124
416670000	-0.861158949822767	0.395944769149536	0.001015845652907	2.26219027206697E-03			1.02778127997545E-03	2.25483975077765E-03	-0.85148724379312	0.404442483960385
416695000	-0.859783810846918	0.399352980350074	9.96539466678546E-04	2.25928422958599E-03			1.04452558251396E-03	2.25647206546869E-03	-0.849792308979588	0.406320633286809
416720000	-0.85463074022111	0.399819498330349	1.0128538289527E-03	2.24418214622104E-03			1.03259769738315E-03	2.2598890009223E-03	-0.849831825596194	0.408715104106009
416745000	-0.857199844070385	0.399134533228286	1.02357642990918E-03	2.27541174616263E-03			1.02470295472186E-03	2.30890034965198E-03	-0.848934306663432	0.408408596271847
416770000	-0.858532688457755	0.402379811053132	9.93472624145141E-04	2.28407789059473E-03			1.00201954106142E-03	2.27804129833155E-03	-0.84861134047424	0.408827562179863
416795000	-0.855413513091495	0.402875685955997	1.0362957137917E-03	2.27182871659566E-03			9.88683585418874E-04	2.25734224051964E-03	-0.846902267394958	0.409184434981945
416820000	-0.853789680417273	0.403910640650414	0.001035482830137	2.26449595790939E-03			1.05671252195017E-03	2.2649284063643E-03	-0.846750504207311	0.411183310295903
416845000	-0.853093764792757	0.404676407573392	1.00726987288424E-03	2.27064434411737E-03			1.03784986506414E-03	2.28038192024173E-03	-0.846356497593371	0.411843034656479
