# Hz S RI R 50
88240000	0.720934078839307	-0.674696264276088	8.30861038721662E-05	2.53776382275882E-04			8.05089334515413E-05	2.32726486077338E-04	0.457657619757281	-0.871767050863589
88302500	0.721342862485512	-0.676663759383176	1.6124771156859E-04	2.47245686746388E-04			1.33773910156606E-04	2.49707642562183E-04	0.454825788890617	-0.871543067785893
88365000	0.72198132382056	-0.676779260291713	1.56673457674226E-04	2.87278596215009E-04			1.64061461111341E-04	2.74804811633842E-04	0.453931773911322	-0.871022073387033
88427500	0.720565265546902	-0.675439486180328	1.77850320647185E-04	2.71900562855438E-04			1.72414424876501E-04	2.54582693513011E-04	0.454806431860327	-0.872655456874455
88490000	0.717798554111184	-0.677666247878939	2.16067344375829E-04	2.98493787117212E-04			2.30498553812868E-04	2.75649678505497E-04	0.453860919031399	-0.873081512671262
88552500	0.718561061233514	-0.678704918079317	2.55398198746121E-04	2.745078950988E-04			2.5036450110694E-04	2.36623455825978E-04	0.452766687265164	-0.873238572690185
88615000	0.717904470725458	-0.677833944584541	2.81584021857488E-04	2.43322891528882E-04			2.84390333318448E-04	2.53414374943267E-04	0.451068728131808	-0.874909158422828
88677500	0.720088419687695	-0.677533945525772	3.25635404774345E-04	2.29651991530727E-04			3.46174691048671E-04	2.47259750501584E-04	0.451087249545687	-0.87446888263371
88740000	0.718395758454756	-0.678276692189529	3.84898859209676E-04	1.93701681624786E-04			3.83300538026834E-04	1.66919907755522E-04	0.450721713082249	-0.873887441142188
88802500	0.718661275527597	-0.677390117754632	4.00894400565267E-04	1.46380111166987E-04			3.90418703397563E-04	1.11234825949333E-04	0.449410236475576	-0.873641840214054
88865000	0.718580589933574	-0.678308270508481	3.94127642178619E-04	8.30424610375985E-05			4.0554503316971E-04	9.23663289834498E-05	0.448962966635239	-0.874037262478285
88927500	0.716530573977382	-0.68189227915509	4.17975356251623E-04	1.60039204355493E-05			4.13293000364531E-04	1.20331724559326E-05	0.448637647475799	-0.874551528864852
88990000	0.713953612539404	-0.680748998591181	3.68916807270424E-04	-4.0830887650112E-06			3.8095372422581E-04	-2.8979690735179E-05	0.447407283797284	-0.876905033016721
89052500	0.714417780862462	-0.680718257566918	3.60900524095807E-04	-5.81790279898244E-05			3.70242730950893E-04	-5.95027618622819E-05	0.446100641536468	-0.8747235265733
89115000	0.715930906279548	-0.681277175684204	3.60523940713019E-04	-9.32611030984145E-05			3.56040482230704E-04	-1.26358904210991E-04	0.445693938063518	-0.875443182877722
89177500	0.714853069933228	-0.682916830447884	3.45254757463049E-04	-1.96147246138451E-04			3.38439704754791E-04	-1.6655974536875E-04	0.444780158727662	-0.875460818549451
89240000	0.713623055110325	-0.681184137874275	2.69355738114191E-04	-2.38069482044951E-04			2.58447303701278E-04	-2.13854677991094E-04	0.444966430259343	-0.878209006441908
89302500	0.715241563920349	-0.681873510164081	2.10298111027664E-04	-2.56639335996723E-04			2.14711314102957E-04	-2.46720348258178E-04	0.443966407497409	-0.876436183294927
89365000	0.712741636529147	-0.682564932757243	1.02878859597821E-04	-2.68960480596986E-04			1.31269334383313E-04	-2.80796915695242E-04	0.44278972015981	-0.877175169867111
89427500	0.714282156242129	-0.682761334092942	4.0369215870278E-05	-2.63975226292204E-04			4.84695679882785E-05	-2.37858801285746E-04	0.442405457222165	-0.876526701516559
89490000	0.71317975157576	-0.682278746396998	-5.08360119793859E-05	-2.16075357057162E-04			-2.79727520462281E-05	-2.39509611193701E-04	0.441132451726751	-0.879258316711067
89552500	0.71110362321132	-0.68392184150269	-5.84076768506632E-05	-1.70649689458402E-04			-8.81232549760977E-05	-1.42487196761344E-04	0.442038842092038	-0.879799435983312
89615000	0.713040447975859	-0.68414026347196	-8.6889848023418E-05	-1.55382426530626E-04			-7.20637244951271E-05	-1.17196532855824E-04	0.440544773632105	-0.880485292734835
89677500	0.711948231478736	-0.685069035861118	-1.39962264528842E-04	-1.28404081401965E-04			-1.19266456493326E-04	-1.19565477638349E-04	0.440382683291588	-0.879628601970974
89740000	0.710921253926749	-0.685406252926399	-1.77492361821584E-04	-5.13569582782755E-05			-1.72067529187261E-04	-8.16487664594671E-05	0.439118654246101	-0.880480617164785
89802500	0.711530642953556	-0.687665012507596	-1.7753647655645E-04	-1.47176630646284E-06			-1.96901294085611E-04	-2.0856962875554E-05	0.437818875651853	-0.877591836537291
89865000	0.709157260675992	-0.685062632813403	-1.85372750678385E-04	7.60853667484214E-05			-1.91012461455185E-04	7.30254789757942E-05	0.437992840909056	-0.87961902441744
89927500	0.711960803686497	-0.686177795616912	-1.58845811932298E-04	1.13365875022949E-04			-1.61218749085635E-04	9.65280485908614E-05	0.437060202007688	-0.880603727626673
89990000	0.710447731727576	-0.685279701489823	-1.45580623840133E-04	1.2477737925918E-04			-1.37349017719764E-04	1.08623895816689E-04	0.435359081461883	-0.881375179517795
90052500	0.708868385858924	-0.686761355958317	-1.61234186775215E-04	1.60933906272648E-04			-1.67135327649736E-04	1.80804254076346E-04	0.434911723141645	-0.883022690301394
90115000	0.709346849405092	-0.684219756770992	-1.62923826428341E-04	2.16212825017501E-04			-1.67462041248216E-04	2.11167498852029E-04	0.434167024814723	-0.882318676757523
90177500	0.70522930973373	-0.689177652441709	-1.30653561107793E-04	2.67866249580366E-04			-1.67164288311033E-04	2.64949367265322E-04	0.432299825580968	-0.881581501422986
90240000	0.706598921332913	-0.68830282458891	-1.32688011212853E-04	3.23835795289896E-04			-1.29522165585826E-04	3.18344427415452E-04	0.433007701031901	-0.882867146317758
90302500	0.706898341831444	-0.68824996416588	-8.1269576969667E-05	3.41702560044975E-04			-6.90359850032041E-05	3.57888280403173E-04	0.432643248203194	-0.883351902376927
90365000	0.705765771047149	-0.688575713557444	-5.64000191325644E-05	3.84583322967481E-04			-6.42748465576287E-05	4.01684593231872E-04	0.429928039452468	-0.882528466243989
90427500	0.704991897945743	-0.689877872308984	7.76274940353146E-06	4.45676739353452E-04			2.68165559022798E-05	4.19231126849101E-04	0.429692669264959	-0.88307976932502
90490000	0.705744109552058	-0.690569041954558	1.25687407617831E-04	4.24199228863286E-04			1.10147878100182E-04	4.33544089689864E-04	0.42913080832686	-0.882784365814893
90552500	0.703971247053976	-0.688468611009876	1.11659757446011E-04	3.54409984365663E-04			1.36766264771849E-04	3.57469234499232E-04	0.428385578272931	-0.882055045975723
90615000	0.704579065184692	-0.689040774847846	1.23407838641795E-04	4.14101788008669E-04			1.40652551384219E-04	4.13927261903795E-04	0.427097715757839	-0.882470290225057
90677500	0.704059685968335	-0.688419531733828	2.0252032329872E-04	4.45117531532291E-04			1.72284237797309E-04	4.2789312613352E-04	0.427146707347511	-0.883063115514542
90740000	0.704558427313994	-0.68808838485713	2.03326216512116E-04	4.20155869906684E-04			2.32599792173397E-04	4.39205952222638E-04	0.427149028785561	-0.884104299121607
90802500	0.705281658388708	-0.690018758255616	3.22404594862454E-04	4.49999267956593E-04			3.0951180453516E-04	4.40449051101084E-04	0.427344340413335	-0.884101291157005
90865000	0.703595121641782	-0.688985036095275	3.87853323479449E-04	4.30523400655219E-04			3.88052093288623E-04	4.02799494535326E-04	0.426305659830451	-0.884953606863554
90927500	0.704546585069083	-0.69125736221693	4.40121788350428E-04	3.90790815076201E-04			4.74861333770555E-04	3.85342513012804E-04	0.425859935050294	-0.884963548302836
90990000	0.704096168364937	-0.691868570105141	5.48979684900453E-04	3.25593073538722E-04			5.29088712338596E-04	3.21886862755243E-04	0.425202779328809	-0.884885179002555
91052500	0.703876321671218	-0.691541983922341	6.09699266024844E-04	2.19553348727284E-04			6.10281435444033E-04	2.15785084476118E-04	0.423262847522507	-0.885169589021107
91115000	0.704245010850498	-0.692621215505631	6.14271994305397E-04	1.05430322647193E-04			6.22751693220006E-04	8.56268449198744E-05	0.425093232141439	-0.887917331426331
91177500	0.702774545751792	-0.694584613232819	5.7980706044146E-04	-4.6036229978843E-05			5.63276561013807E-04	-2.2876432058968E-05	0.423843596164068	-0.886413321106902
91240000	0.700912083283702	-0.693985418337215	5.08589667057787E-04	-8.41961392142551E-05			5.01870467499962E-04	-1.05722813917543E-04	0.423019923691086	-0.888274213775217
91302500	0.701997895794196	-0.69436745156827	4.41987538799401E-04	-1.09787590401275E-04			4.09985208936177E-04	-9.71701544711626E-05	0.421757940071191	-0.886174535879765
91365000	0.70206739547284	-0.694820877085474	4.22144192397339E-04	-1.52071855848936E-04			4.01815792181723E-04	-1.39430386335676E-04	0.420801813374446	-0.887604657845967
91427500	0.703285758612712	-0.694171634774143	3.68322388739452E-04	-1.46225921673229E-04			3.7637121262729E-04	-1.60869906178351E-04	0.41948815829865	-0.888327226529328
91490000	0.703052234390621	-0.693043211371148	3.59455580810087E-04	-1.92592415303483E-04			3.5897909748429E-04	-1.86447553973652E-04	0.419951544684983	-0.888967351500892
91552500	0.698516477627431	-0.697137801075604	3.17729581928295E-04	-2.38434785332228E-04			3.23983106307222E-04	-2.19646195387785E-04	0.419662367912691	-0.888811752454373
91615000	0.701474489319703	-0.696263659457946	2.96244522304961E-04	-2.87305023591881E-04			2.34454475037697E-04	-2.80437085409871E-04	0.418263303532742	-0.889009500186525
91677500	0.698483188965547	-0.695620253597157	2.0137757215241E-04	-3.43261283437157E-04			1.72259067742518E-04	-3.18546995264232E-04	0.417797091850639	-0.890184906294928
91740000	0.697176782547837	-0.697465975340262	8.30747958499472E-05	-3.36199537678101E-04			1.10173394442251E-04	-3.19223494455073E-04	0.416416638206501	-0.891050279071336
91802500	0.698128848550005	-0.698091392146128	1.75953900470292E-05	-3.21050034468684E-04			2.84916961626502E-05	-2.95586898360933E-04	0.415423983508209	-0.889459873935195
91865000	0.70005651896771	-0.69585055517797	-5.00534435197813E-05	-2.81716583397581E-04			-6.10760585843089E-05	-2.91092151671436E-04	0.415476805558354	-0.889443297536501
91927500	0.699412642482088	-0.696878833822383	-1.32252151582713E-04	-2.72275444547276E-04			-1.30310706302074E-04	-2.65107301032571E-04	0.41416342505672	-0.890692076910712
91990000	0.697460175510375	-0.698540931098097	-2.02036321029683E-04	-2.03474845169864E-04			-1.84724065647165E-04	-2.1819649479958E-04	0.413575731511176	-0.890752897005503
92052500	0.696854006924266	-0.699149607181524	-2.60118610972299E-04	-1.14112884887983E-04			-2.68673198106914E-04	-1.21405779820372E-04	0.411698194365786	-0.890547647517882
92115000	0.695952998791334	-0.699156420449586	-2.73849946493438E-04	-2.37316341888915E-06			-2.96100580841433E-04	-6.36699665176526E-06	0.410561008967893	-0.891382115057533
92177500	0.695980077214768	-0.698395804476384	-2.35592436251493E-04	8.40961785487177E-05			-2.74442604970105E-04	9.24616779343379E-05	0.412583601194257	-0.892471768887535
92240000	0.696635718819483	-0.699150515673424	-2.14600942874116E-04	1.40037847354669E-04			-2.16751309070776E-04	1.34615001601438E-04	0.411528677040833	-0.893826717936045
92302500	0.695162346473329	-0.701835608275559	-1.9070819263089E-04	1.79792087715341E-04			-1.92658813795465E-04	1.67547812758324E-04	0.410437751035955	-0.892338188152364
92365000	0.693575439226059	-0.699223371827681	-1.87208643471101E-04	1.97072222694631E-04			-1.81897795024307E-04	2.06716396517009E-04	0.410007673178445	-0.893009369876194
92427500	0.695552777712497	-0.700527421885612	-1.75418296476368E-04	2.54062557799495E-04			-1.68918012101326E-04	2.54330075637357E-04	0.408412855362205	-0.893880803444515
92490000	0.695576514632947	-0.700788683617174	-1.39096634247638E-04	3.31646172009436E-04			-1.24786883466694E-04	3.24548072900303E-04	0.405643303266006	-0.893239205412173
92552500	0.695197113098343	-0.70038798210543	-8.02282084813974E-05	3.87272451879538E-04			-8.39893537620082E-05	3.62566332212848E-04	0.407342467602384	-0.893693906553998
92615000	0.696385152039628	-0.701508168570717	-2.78051178507027E-05	4.29535225079393E-04			-4.56166319945117E-05	4.41878610784544E-04	0.406203896802945	-0.893650862420995
92677500	0.69365442217606	-0.701874141891508	5.42384141577602E-05	4.31163459793707E-04			5.00954476743747E-05	4.30851921669915E-04	0.40535000105673	-0.892806657081504
92740000	0.692051169297495	-0.703061919029209	1.29176041608848E-04	4.2264593919132E-04			1.32617798065885E-04	4.16128593982081E-04	0.404416790794628	-0.894684910734458
92802500	0.69267926771862	-0.703212011941029	1.81934296468099E-04	3.93628250899355E-04			1.61988860900177E-04	4.05087640079766E-04	0.404237077405567	-0.895769494553738
92865000	0.690304026016813	-0.703157820667852	2.183633193285E-04	3.69008880568929E-04			2.34455720781947E-04	3.73070779662374E-04	0.40360949537812	-0.895628200533627
92927500	0.691469107492188	-0.704080647411107	2.36027688549089E-04	3.67920509516231E-04			2.36083908542214E-04	3.52071935533608E-04	0.401877751748856	-0.894317835314473
92990000	0.688867037830176	-0.705310255580367	2.63083716702207E-04	3.86818946284186E-04			2.56855112514781E-04	3.74504361492491E-04	0.401027522327853	-0.896854677940234
93052500	0.691069725599695	-0.705368652180399	3.5331819563698E-04	3.45325693969506E-04			3.43706497641307E-04	3.54444417151293E-04	0.401330343517167	-0.896237435111072
93115000	0.68974760900108	-0.707693985068499	3.97680897061088E-04	2.98741067899334E-04			4.18848096353311E-04	3.19196341195157E-04	0.402034439083351	-0.898650181890456
93177500	0.689845386558934	-0.704996809256324	4.73773294520637E-04	2.20711062306944E-04			4.80273341432607E-04	2.20118744071635E-04	0.399295935593398	-0.897046815614082
93240000	0.690819556281367	-0.70551798707934	4.72319059099503E-04	1.36870768510517E-04			4.76985778039037E-04	1.30279851097508E-04	0.400209479748362	-0.898691073110209
93302500	0.688299724254875	-0.707076749344102	4.49601686207481E-04	5.46878127867391E-05			4.25693430002666E-04	5.42944112816618E-05	0.398699897107153	-0.896069968420352
93365000	0.688968723914794	-0.706766597023317	4.24750461986172E-04	2.00523611397254E-05			4.24678498891524E-04	2.021026768356E-05	0.397118037397847	-0.897441615613753
93427500	0.688102696027747	-0.708388683796703	4.15128716292917E-04	-4.25059988623609E-05			4.19217566268028E-04	-4.6045909212616E-05	0.396153706688463	-0.897624602969459
93490000	0.687549429547525	-0.706799786108667	3.61366808694296E-04	-1.04798401708583E-04			3.59481971561434E-04	-1.1572056747021E-04	0.394767328078808	-0.897753385904756
93552500	0.687248490205929	-0.707117700031647	3.23268459485057E-04	-1.32887096108235E-04			3.22194907781564E-04	-1.4115820339267E-04	0.395863922030984	-0.899316627825129
93615000	0.688337036632363	-0.708044517526649	2.89747568916268E-04	-1.45541250544873E-04			2.7987482840792E-04	-1.74888311112833E-04	0.393733608582494	-0.898654538852058
93677500	0.687719071716915	-0.707106650417551	2.42032131525844E-04	-1.42178976869594E-04			2.43617336228623E-04	-1.55150355363773E-04	0.393392234888946	-0.899396658124138
93740000	0.6869315835236	-0.709565665910382	2.06878761731609E-04	-1.88180142435298E-04			1.87799579516354E-04	-1.7020623476309E-04	0.392175113046539	-0.899864936863908
93802500	0.686554204969182	-0.708909000581435	1.24608535257079E-04	-1.68593238638601E-04			1.50076497540148E-04	-2.10718898198067E-04	0.392689635496579	-0.90008133257988
93865000	0.686336898638393	-0.709550253205598	1.00543331695892E-04	-1.72144300617488E-04			8.58415214355067E-05	-1.60854336803104E-04	0.389727132624781	-0.900810142958947
93927500	0.68294011594315	-0.710752975770891	5.97712673048658E-05	-1.41584403254222E-04			7.39576435390242E-05	-1.54463953334152E-04	0.390287898460306	-0.903186662453849
93990000	0.686005022352945	-0.71106863171262	3.07550310141781E-05	-1.29946286826985E-04			4.9116779289271E-05	-1.44567966974196E-04	0.389688452321636	-0.902320350604723
94052500	0.684203848418937	-0.710815643300534	1.68444161399636E-06	-1.23602114618351E-04			7.01929240176769E-06	-1.57827348994589E-04	0.388866870787181	-0.900973159400009
94115000	0.683788758279321	-0.714690146547094	-4.56471064201758E-05	-1.15720784637227E-04			-1.80948014608342E-05	-1.02758821921158E-04	0.386790093582381	-0.901694895024014
94177500	0.682394554045183	-0.712792671088376	-8.4682506242045E-05	-9.47002049232969E-05			-8.34411742149084E-05	-8.67455342136641E-05	0.386356275794382	-0.902997104704753
94240000	0.680358838429486	-0.712342984648473	-8.0326918661181E-05	-7.49028112397672E-05			-1.05672121033959E-04	-3.7257029308354E-05	0.385948163513805	-0.902100346868109
94302500	0.680627450296654	-0.713152830355042	-1.93987146627382E-04	-9.79896755999558E-05			-2.02128947360973E-04	-1.01855251812019E-04	0.385628152764938	-0.900593790103125
94365000	0.681513275950515	-0.711959101449497	-2.57433353568148E-04	8.40867456725833E-05			-2.69909194834028E-04	8.96532060271128E-05	0.385496518800663	-0.900639319314582
94427500	0.683008651293777	-0.71131104602605	-1.97551500028449E-04	2.59416326069545E-04			-2.02578713003455E-04	2.33307883675999E-04	0.385358794630557	-0.903174392548046
94490000	0.681635346966253	-0.712418691284268	-5.79387141607437E-05	2.10563159503788E-04			-5.34240385754405E-05	2.0461208748572E-04	0.384537255964587	-0.902600185896208
94552500	0.682516062157825	-0.711939069815135	-1.32244746551441E-04	1.97156793919306E-04			-1.27878674143528E-04	2.02708200560836E-04	0.381662509278816	-0.903087111526391
94615000	0.68112064523148	-0.713723684470246	-1.27496641080137E-04	2.6925164357217E-04			-1.25794561640419E-04	2.86320161776137E-04	0.383229465009681	-0.903394266490352
94677500	0.678949960644005	-0.715308281047289	-5.04532941420428E-05	3.30980218581127E-04			-6.35545715829272E-05	3.41631153696398E-04	0.380763821290214	-0.903104893676667
94740000	0.678507637783008	-0.715492167839045	-1.21800999279503E-05	3.52145519788179E-04			-4.92475767795147E-06	3.56680590243136E-04	0.381177119749546	-0.905189350103671
94802500	0.679548110424757	-0.715387769190668	3.55213440655517E-05	3.89316006050801E-04			5.16281836626834E-05	4.00157186700125E-04	0.381724700979041	-0.90301799586879
94865000	0.678235975926058	-0.715955194514711	1.1649272823191E-04	0.000418276614801			1.02730956264295E-04	4.18488189727476E-04	0.380022941262552	-0.904843823156099
94927500	0.678298708613489	-0.716842587133293	1.84982126708316E-04	4.2160645253792E-04			1.65607312163106E-04	3.75827748885033E-04	0.379997428649004	-0.905153223492984
94990000	0.678378737875872	-0.716424953805857	2.53728412743756E-04	3.63100327805097E-04			2.49967116000069E-04	3.86741660129503E-04	0.378972001284203	-0.906970187878952
95052500	0.678106882184647	-0.716502185473735	2.53936488881912E-04	2.77922328201753E-04			2.74962409478596E-04	3.23383928164342E-04	0.376612129432137	-0.905759496329784
95115000	0.678690516893521	-0.718001445718812	2.48736748908466E-04	2.90203379539266E-04			2.34552894408288E-04	2.91119778514026E-04	0.375175788163874	-0.906755249870344
95177500	0.678098522229297	-0.716757724324657	2.40556255761729E-04	3.24138680121723E-04			2.842006529526E-04	3.24008975353473E-04	0.375994539084586	-0.905968651166082
95240000	0.677739703818606	-0.718061346806913	3.25530187547109E-04	2.89979942457483E-04			3.35456615250134E-04	3.00919894454787E-04	0.375391855588456	-0.906623751848334
95302500	0.676923670184861	-0.719092961447561	3.67719572006057E-04	2.76350280005547E-04			3.81718605932293E-04	2.73257098666304E-04	0.37452036634346	-0.90741439585385
95365000	0.676341947745747	-0.719710479704156	3.92980135868905E-04	2.18842979125652E-04			4.00363286377905E-04	2.44912007162488E-04	0.373110128638433	-0.906950989741052
95427500	0.674602356383472	-0.72189807052393	4.42361971126312E-04	1.76607994978791E-04			4.4778530688728E-04	1.7521042545535E-04	0.372343629205935	-0.908400365018955
95490000	0.675598807811856	-0.721237522849919	4.32560137155181E-04	1.16892899291208E-04			4.5185989995749E-04	1.12364745904251E-04	0.372927374347872	-0.907678214595161
