# Hz S RI R 50
100000000	0.972526534494172	-0.219679315798219	1.95928150741768E-03	8.26356776880047E-03			2.03454298541866E-03	8.25506927476939E-03	0.970205811349077	-0.220170771993926
103062500	0.971155661600278	-0.227192078575148	2.03381042760739E-03	8.47832843815814E-03			2.07463815863983E-03	8.48812460289822E-03	0.96827840439613	-0.227298339305745
106125000	0.96968104526171	-0.233645702890959	2.16676298985797E-03	8.71821109629223E-03			2.20867907804557E-03	8.7549096707906E-03	0.967341173374312	-0.233007984666687
109187500	0.967305362908155	-0.240261718918755	2.2789304011288E-03	8.90547873396278E-03			2.31200785045784E-03	8.92233424803699E-03	0.964809206840691	-0.240200797019127
112250000	0.966329556882044	-0.246817059269313	2.40842459609526E-03	9.19729996856149E-03			2.4599259106165E-03	9.16421130195404E-03	0.96256593080804	-0.246782474379423
115312500	0.965124615573697	-0.253257151054818	2.50898048166534E-03	9.38906020268176E-03			2.57669853648206E-03	9.44920406929532E-03	0.962147740520944	-0.252887713759876
118375000	0.962467951775201	-0.259160388975926	2.67398109764556E-03	9.58948783590046E-03			2.72603841178389E-03	9.59182730826931E-03	0.958993583781992	-0.259954483150598
121437500	0.961632775863124	-0.266452235196152	2.81217709150053E-03	9.89786508533741E-03			2.83333180330341E-03	9.90983189814816E-03	0.957896181714686	-0.266272702630838
124500000	0.959484743294404	-0.272335215422595	2.95597714572482E-03	0.010081476196699			3.01288587909815E-03	1.00683204375076E-02	0.954903724143375	-0.274815489136154
127562500	0.957434268666307	-0.278263763888644	3.05167357772958E-03	1.03289300402825E-02			3.14935611098893E-03	1.03339597838117E-02	0.952882998721931	-0.281444034407306
130625000	0.955810967791172	-0.285195620878077	3.23844968550731E-03	1.04927605213486E-02			3.29350647961936E-03	1.05020922305245E-02	0.95079154510618	-0.285725110340331
133687500	0.953365451817779	-0.292625829969793	3.44196643092511E-03	1.07248993307952E-02			3.47904477527293E-03	1.07417111943679E-02	0.948623561252472	-0.293359314427157
136750000	0.949965507293319	-0.298448131140993	3.56038351940845E-03	1.09337516776234E-02			3.59304920115218E-03	1.09680153031738E-02	0.946432870761852	-0.300135624026868
139812500	0.950808519111999	-0.305505216339438	3.72883632266472E-03	1.11991497424159E-02			3.79735616325307E-03	0.011184275622646	0.943370691674586	-0.306228580457795
142875000	0.946703544794238	-0.312072750249928	3.9021115158317E-03	0.011405898123076			3.95621680522759E-03	0.011383351667149	0.941394526737517	-0.31185392255806
145937500	0.944127165718616	-0.317666300948116	4.0706168384724E-03	1.15669385731187E-02			4.13143808642268E-03	0.011571502573004	0.938746954925219	-0.317684485053715
149000000	0.943788431609496	-0.323743755083508	4.18543961724695E-03	1.17947641118044E-02			4.23667199777578E-03	1.18471890355231E-02	0.938600036038775	-0.32702176724414
152062500	0.940748460123528	-0.332407739723695	4.35487058460951E-03	1.20358796311243E-02			4.38104463409531E-03	1.20161998706411E-02	0.932317557278818	-0.33012449808232
155125000	0.936007187677785	-0.336928808291126	4.53554594035174E-03	1.21882726123958E-02			4.67547233904639E-03	1.22281701621191E-02	0.931610319004625	-0.339853493975488
158187500	0.935415357234109	-0.344212512843502	4.70030916314948E-03	0.012393110797729			4.7844744272526E-03	1.24225030674786E-02	0.93031003432073	-0.343507943217891
161250000	0.93529648544341	-0.348487834411989	4.86689563912445E-03	1.25626405902384E-02			4.93732668590062E-03	1.26642196850815E-02	0.928304014019303	-0.351162548450913
164312500	0.928430106403175	-0.355638699193878	5.11705885554932E-03	1.27216245393299E-02			5.12900258864685E-03	1.27824194170213E-02	0.922236040995538	-0.35598907158654
167375000	0.927806569036825	-0.363402835663613	5.27286601301307E-03	1.29848628460663E-02			5.34230247242442E-03	1.30278005337936E-02	0.922476029405182	-0.363322915823474
170437500	0.926755681939214	-0.368865012480574	5.46244527939818E-03	1.31746347213679E-02			5.50213282031797E-03	1.32329529593935E-02	0.918910029433797	-0.36940546803671
173500000	0.923036009491473	-0.37424185220772	5.61819810623348E-03	1.33282502095104E-02			5.67034500282061E-03	1.34182689902599E-02	0.91525097444681	-0.375413149063646
176562500	0.921240410605649	-0.379529345840521	5.83842899996811E-03	1.36143464748146E-02			5.87808500344251E-03	1.36043996128687E-02	0.912179429771691	-0.382312442875078
179625000	0.917401051754046	-0.386320770897989	5.99902874017806E-03	1.37865430129044E-02			6.06445070287968E-03	1.38060164422285E-02	0.909591189067785	-0.38735458391748
182687500	0.914784848977423	-0.392584852449959	6.18938797932402E-03	1.39440679946687E-02			6.27727994318572E-03	1.39621406052475E-02	0.907847321513182	-0.394901323743553
185750000	0.913342402572336	-0.399809573277316	6.39973380618953E-03	1.41482831172632E-02			6.44028322461373E-03	1.41683969099053E-02	0.902757781125876	-0.400217539999451
188812500	0.909819769971913	-0.404816770035957	6.63331786361974E-03	1.43172629191157E-02			6.67627645434606E-03	1.43299101908214E-02	0.900756149816292	-0.40674668902599
191875000	0.906285659310987	-0.412295387620614	6.85721943663173E-03	1.44980706710749E-02			6.89471762525614E-03	1.45463615775657E-02	0.898343955283286	-0.412528145229747
194937500	0.903237658697541	-0.416336134096027	7.04388074019591E-03	0.014700824815185			7.08402489541232E-03	1.46814188931221E-02	0.895216906901276	-0.41804394818536
198000000	0.900715712767577	-0.422276420793638	7.30895016639918E-03	0.014895714747774			7.31994908128201E-03	0.014878855902933	0.891947454263035	-0.423984141055276
201062500	0.898213620809442	-0.428026241900835	7.4909904645636E-03	1.49902821338437E-02			7.53064362346432E-03	1.50221420479446E-02	0.8883284080989	-0.42916951338097
204125000	0.893204356219645	-0.436266896060446	7.69977960296122E-03	1.51037375711114E-02			7.77181343896968E-03	1.51690455349336E-02	0.885421920338342	-0.436448397241221
207187500	0.891616089967798	-0.440849594518293	7.95081037389308E-03	1.53381855336018E-02			7.95682039927268E-03	1.53276692534261E-02	0.882068355422152	-0.441479201772846
210250000	0.888108146590609	-0.447342362003727	8.17495013053447E-03	1.54584092023168E-02			8.19842680471576E-03	1.55275448387767E-02	0.878983159032088	-0.448021640838702
213312500	0.885544805234383	-0.453620810425096	8.34617412237747E-03	1.56279463301392E-02			8.34126955286199E-03	1.56663226777431E-02	0.874374257138401	-0.452554868730515
216375000	0.881988325587038	-0.458890048442576	8.54492168106068E-03	1.58046147579004E-02			8.56209771884987E-03	1.57925456534423E-02	0.871719107059872	-0.45975071672995
219437500	0.879160880419064	-0.465031482783407	8.8049585085546E-03	1.59253509092154E-02			8.82389379247554E-03	1.59365948600165E-02	0.866966627411325	-0.464559138601406
222500000	0.875491127082327	-0.470472476302033	9.01389174711709E-03	1.60806065552366E-02			9.04430196076137E-03	0.016116237202531	0.865911934839243	-0.470576307887398
225562500	0.870798362581116	-0.476494040179905	9.17781944475969E-03	1.62240418424449E-02			9.29389383485308E-03	1.63081407431483E-02	0.862829939230267	-0.477849438937371
228625000	0.867457255508493	-0.481805268438833	9.51155853808333E-03	1.63669026541006E-02			9.52196130173125E-03	0.016318151459585	0.855779532067849	-0.48106621443028
231687500	0.864072168843251	-0.488079535666927	9.66846653875478E-03	0.01646441154628			9.71910754520558E-03	1.65338938449285E-02	0.854492647417432	-0.487980932801133
234750000	0.862265450138673	-0.493843043629924	9.87310843158598E-03	0.016654346611967			9.92857174574304E-03	1.67355259890079E-02	0.852201108374627	-0.495539070120778
237812500	0.858692548948006	-0.499335868441492	1.01136788139343E-02	1.67725307516941E-02			1.02219773971223E-02	1.68148636635042E-02	0.84495330610987	-0.500607215087356
240875000	0.853908642731528	-0.505625411533939	1.04807705547509E-02	1.70117005811566E-02			0.010456828127708	1.69883280367795E-02	0.841692177929084	-0.503812636653674
243937500	0.851590976975276	-0.510584776984216	1.06779926820793E-02	1.71304018564238E-02			1.06673877807386E-02	1.70955156700305E-02	0.83865268222244	-0.510935216094894
247000000	0.849028161445368	-0.516561298380137	1.09103522198983E-02	1.71696738381769E-02			1.09250934531801E-02	1.72355091066287E-02	0.835726852334072	-0.517296212166732
250062500	0.844232246308807	-0.521772361492566	1.10902885488129E-02	1.73840241103294E-02			1.11891269118933E-02	1.74347765458582E-02	0.830870494271057	-0.52231012946301
253125000	0.840352473407286	-0.527869898206751	1.14311488684372E-02	0.017499775286016			1.14620480692866E-02	1.75605702631353E-02	0.827158501099334	-0.528412636089925
256187500	0.837651705249913	-0.53348477678667	1.16565032800681E-02	1.75306555011844E-02			1.16380166021205E-02	1.76238916629394E-02	0.824266832390928	-0.530237593651694
259250000	0.832043167575697	-0.539153238284824	1.18502032382789E-02	1.76952053411797E-02			1.19240146945613E-02	1.77503603548028E-02	0.820952990486328	-0.538497775238451
262312500	0.828761801081316	-0.546636303056261	1.22272262824696E-02	1.78216076674588E-02			1.21562116067088E-02	1.78119761886597E-02	0.813538478102974	-0.544013396707359
265375000	0.825693014923962	-0.549743046948058	1.24331359389951E-02	1.79225306379435E-02			1.24304840381462E-02	0.017965549291852	0.81106147273165	-0.548414502070284
268437500	0.820857246442982	-0.552178934285733	0.012696970659795	1.80008746969328E-02			1.27425382697128E-02	1.80795464435576E-02	0.807740297316007	-0.556172258605833
271500000	0.819125900206496	-0.560704223467762	1.29600845129758E-02	1.81256477899642E-02			1.29540924262907E-02	1.81598743716658E-02	0.799974633009466	-0.560593185135627
274562500	0.813486466634211	-0.565275403769537	1.32745806059798E-02	1.82249454657638E-02			0.013287290854274	1.83254019166429E-02	0.799690690885731	-0.566531724893419
277625000	0.809554475696732	-0.572430872601024	1.34727483133771E-02	1.83584878333011E-02			1.34922979671843E-02	1.84036852256132E-02	0.794728992976128	-0.571365718170921
280687500	0.806190479687044	-0.575979656545966	1.37458171248532E-02	1.84508301307851E-02			1.37574713602044E-02	1.84932228807963E-02	0.789740012911833	-0.576177777522467
283750000	0.802314628036449	-0.582343379404806	1.40358055954869E-02	1.85754976652227E-02			1.40420449108366E-02	1.86186405103837E-02	0.786640815309171	-0.580821927255779
286812500	0.797640677465498	-0.587154959125524	1.42693080213325E-02	1.86783736659159E-02			1.43183901122982E-02	1.87430807460606E-02	0.783794773733526	-0.585937431221093
289875000	0.791396403972174	-0.591773928955605	0.014562825610497	1.86896377204769E-02			1.45692653633983E-02	1.87717870705176E-02	0.777422530864299	-0.591718354891235
292937500	0.788833030184498	-0.597272608057489	1.48139826582075E-02	1.87618703369773E-02			1.48493329130112E-02	1.89321144138446E-02	0.773272839711706	-0.596535497705887
296000000	0.785313106655283	-0.602717022507517	1.50866700339137E-02	1.88729282086574E-02			1.51791934290218E-02	1.89418887223741E-02	0.769324435539125	-0.6014692017636
299062500	0.780792156243919	-0.608424395089243	1.54087960837775E-02	1.89281684324079E-02			1.53751512297445E-02	1.90711169129924E-02	0.763862699106545	-0.606792471065964
302125000	0.774886442481113	-0.614161619655662	0.015667328436153	1.89526344997535E-02			1.56790773075338E-02	1.91373194604946E-02	0.760177196180581	-0.611845247153212
305187500	0.772136036032298	-0.619546497142902	1.59755655710885E-02	1.90519247866529E-02			1.59623067240815E-02	1.91572663445631E-02	0.754834851093427	-0.616999816827528
308250000	0.766315081863463	-0.623889402766275	1.62521651924928E-02	1.90925788109756E-02			1.62436981390257E-02	1.91800869540659E-02	0.750883616332104	-0.621698659756486
311312500	0.763160063375065	-0.628307102898821	1.65186976209804E-02	1.92492368238991E-02			0.016491698311864	1.93045930972356E-02	0.745649145864642	-0.627252326651348
314375000	0.758580887359439	-0.634479385580726	0.016791909278609	1.92509016306956E-02			1.67725994944206E-02	0.01937131924123	0.741015989493136	-0.631292539995592
317437500	0.752669993427522	-0.63860018658344	1.70034019594722E-02	1.93482310315731E-02			1.71279747003703E-02	0.019445022975073	0.736719216379862	-0.637762239488956
320500000	0.749603771573628	-0.643604451419499	1.73934109910064E-02	1.93959687955048E-02			1.74567939914489E-02	1.95792716851131E-02	0.734695620554595	-0.641506533526149
323562500	0.746289309870699	-0.64936524759962	1.76428188733216E-02	1.94091313045262E-02			0.017656132533116	1.95507187759364E-02	0.728093073070922	-0.647173209340672
326625000	0.740701968799819	-0.654331414979007	0.017939442556964	1.94862199910298E-02			1.79367729887134E-02	1.97184050768874E-02	0.722573114382754	-0.651103376405416
329687500	0.736833993667972	-0.658877828840285	0.018248055204071	1.94738159160206E-02			1.82644295285335E-02	1.96019928143448E-02	0.717288921660798	-0.655422313062095
332750000	0.731795409593407	-0.664688561524009	1.84823953274268E-02	1.95447840616788E-02			1.85975107885045E-02	1.97855635667187E-02	0.71277571529565	-0.662550482995491
335812500	0.727297000307066	-0.668832618074267	1.88563740266444E-02	1.95195272792451E-02			0.018917105187844	1.97049201220692E-02	0.708347555445796	-0.666391763788902
338875000	0.721779456472098	-0.672874375703431	1.91092140416525E-02	1.96463362702208E-02			1.90944092860855E-02	1.97085529841376E-02	0.706172387660208	-0.669918846558208
341937500	0.717304519957082	-0.679503019132362	1.94536936902627E-02	1.96366962923067E-02			1.94506140108318E-02	1.98374869630878E-02	0.700520029388353	-0.674293455125263
345000000	0.712334157607157	-0.682914815472882	1.97662248212251E-02	1.96451010694335E-02			1.97632758009528E-02	1.98207757077608E-02	0.69140317562498	-0.678808050077644
348062500	0.706678423859974	-0.688731363341671	2.01694572970322E-02	0.01976682813043			0.0200804165995	0.019871215197673	0.688689730755252	-0.683760714328276
351125000	0.702766699452126	-0.693759709407026	2.03702275347883E-02	0.019679800956638			2.04282504235992E-02	1.98193208280044E-02	0.680823227177142	-0.691478721351318
354187500	0.698237917480293	-0.698583530535016	2.06488156051785E-02	1.97478941586876E-02			2.06289495634383E-02	1.98372243754464E-02	0.679221212474393	-0.691837318418883
357250000	0.691284134272705	-0.702008183196355	2.09664294734686E-02	1.97084153931078E-02			2.09332342987336E-02	1.98491333705367E-02	0.673559262376667	-0.696502749534703
360312500	0.688417233183728	-0.708459183554357	2.12936272284859E-02	1.97935545444851E-02			2.11732439016427E-02	0.019882870027013	0.670460879831729	-0.69912424905138
363375000	0.682585945556477	-0.712091403270775	0.021589644211418	1.97326154060393E-02			2.15838534013026E-02	1.99127725208622E-02	0.662786792106199	-0.707424137087091
366437500	0.677655551317347	-0.71537232547171	2.18066451233906E-02	1.97043038350348E-02			0.021814772641717	1.98928075763249E-02	0.659510415569149	-0.709714986190809
369500000	0.673128802746682	-0.720946358432199	2.21687813740437E-02	1.97755677589418E-02			0.02213978408871	1.98560491241816E-02	0.654212583985378	-0.713261694043926
372562500	0.669294974367343	-0.723505917423453	2.24659350099409E-02	1.97116397173497E-02			0.022433905137089	1.98560055918496E-02	0.64877191358749	-0.717277651556915
375625000	0.664050919290593	-0.730739666527318	2.28521538337372E-02	1.97611734598928E-02			2.27743146894556E-02	0.019899797536414	0.644046832800603	-0.72040394637565
378687500	0.656789743021639	-0.733245866776404	2.30243202319494E-02	1.96824406302745E-02			2.30475674988195E-02	1.97525342763993E-02	0.638837812148602	-0.727780569270224
381750000	0.654088025854466	-0.73893780102938	2.33522551952307E-02	1.97105473848573E-02			2.33318067280566E-02	1.97938476214581E-02	0.632522346893791	-0.73033032577695
384812500	0.648196553366555	-0.743803386874206	2.37173818655293E-02	1.96226346445225E-02			2.37108242258953E-02	1.97745086978618E-02	0.628194142463697	-0.735315006441105
387875000	0.641167818364793	-0.744418536094273	2.39761067604496E-02	0.019658482273661			2.40187426278733E-02	1.98302491871032E-02	0.623249094070034	-0.737471522584207
390937500	0.638844616764348	-0.749321533811798	2.42686877784909E-02	1.96768741598296E-02			2.42949206115514E-02	1.98399842871284E-02	0.617156742751205	-0.741798295494771
394000000	0.632425013735729	-0.754504983406556	2.44983433429806E-02	1.96044342475626E-02			2.45672665757981E-02	1.96547883998391E-02	0.612591876732073	-0.7462980004312
397062500	0.628334658790977	-0.760412619131725	2.47966842638574E-02	1.95836127161823E-02			2.49436240836037E-02	1.96099956644276E-02	0.606821284801892	-0.750345152650764
400125000	0.622302574174095	-0.762508212291364	2.50943717597431E-02	1.95223182049232E-02			2.51325911486185E-02	0.019525626941797	0.601586787202662	-0.753694515425957
403187500	0.614514239289116	-0.767718031722339	2.54361118608976E-02	0.019427989443339			2.55046584662602E-02	1.94867474900173E-02	0.59634663172317	-0.757909390903943
406250000	0.611018855180522	-0.770934971899542	2.57911366276885E-02	1.94759823946485E-02			2.59038445160244E-02	1.94338941476383E-02	0.590353416486375	-0.76185919748936
409312500	0.605861581503453	-0.775658422333501	2.61068224421836E-02	1.94031275838043E-02			2.61078889326562E-02	1.94336368160735E-02	0.585740998202295	-0.764545153081075
412375000	0.600892549549837	-0.779824669456597	2.63657863855627E-02	1.93178406154728E-02			2.62831866370615E-02	0.019393184890217	0.579964996404474	-0.76859672218592
415437500	0.596316145925324	-0.784452811235557	2.67421717669404E-02	1.91772837427584E-02			2.66821477638609E-02	1.93166956734742E-02	0.574236031818835	-0.771771079956394
418500000	0.590082462068131	-0.787440475134789	2.69582976039991E-02	1.91872031935688E-02			0.027027732259271	1.92849738575996E-02	0.569787224753212	-0.776629997842386
421562500	0.585123910506251	-0.791005492241824	0.027292876862236	1.91689973851319E-02			2.72888567531352E-02	1.92144879496322E-02	0.563017265661988	-0.779005252460722
424625000	0.580137112626581	-0.794650252222668	2.74849410240173E-02	0.019099720092437			2.75499387457655E-02	1.90810926896129E-02	0.557046079594591	-0.781641123273247
427687500	0.573921008529498	-0.798444015687075	2.78586828247969E-02	1.89860989957529E-02			2.78673685587158E-02	1.90348859351117E-02	0.5531017038845	-0.787927756617417
430750000	0.569251594907693	-0.80291351442865	2.81356312326656E-02	1.87849754167801E-02			2.81977551931314E-02	1.89140465135234E-02	0.548351191156756	-0.790618114788489
433812500	0.563697042470052	-0.806270304814795	2.85246547680003E-02	1.87842248662994E-02			2.84147555297394E-02	1.88198887052571E-02	0.541023416474129	-0.793336401755602
436875000	0.558130909672299	-0.810444138629615	2.86631886019951E-02	1.87237133860688E-02			2.87505819358194E-02	1.87181526629491E-02	0.535548871158986	-0.796246434587873
439937500	0.551006696237135	-0.813759617725467	2.90182470601085E-02	1.84748433826561E-02			2.89942572934017E-02	1.86343800525082E-02	0.530414244011417	-0.80010566897249
443000000	0.545493170746254	-0.816930830503159	2.92398469612097E-02	1.83926343950345E-02			2.93065419688725E-02	1.84584546749774E-02	0.524588931609681	-0.802293477948111
446062500	0.541155476709311	-0.821082631628753	2.95810587563994E-02	1.82527031983356E-02			2.95636223443435E-02	1.83599739617597E-02	0.516510269735686	-0.806365012403172
449125000	0.536483497257058	-0.825572756709926	2.98460591488418E-02	1.82975348064067E-02			2.97625645055068E-02	1.81775126139011E-02	0.513058185739991	-0.807274212169252
452187500	0.527991589705454	-0.827798753917304	3.00513225551856E-02	1.80439280709481E-02			3.00779538298814E-02	1.81476037103063E-02	0.508168124459552	-0.812385444872207
455250000	0.523339749231023	-0.831519092518526	3.02962705047778E-02	1.79138967795444E-02			3.01970756038753E-02	1.80663337751602E-02	0.501587603091016	-0.814314970279026
458312500	0.520155008146751	-0.835063912762884	3.04579238146356E-02	1.80073989131897E-02			3.04653941248441E-02	1.79961750682548E-02	0.49716601585647	-0.817676125307971
