!HP8753
# HZ S RI R 50
280700000     -0.6842041     -0.6540527     -0.0005699     -0.0003635     -0.0005600     -0.0003519     -0.7095337     -0.6082764
280762496     -0.6844482     -0.6536255     -0.0006192     -0.0002913     -0.0006119     -0.0003018     -0.7095947     -0.6076660
280824992     -0.6849976     -0.6530151     -0.0006428     -0.0002017     -0.0006418     -0.0002022     -0.7098389     -0.6071777
280887488     -0.6853027     -0.6526489     -0.0006745     -0.0000895     -0.0006705     -0.0000820     -0.7098389     -0.6066895
280950016     -0.6856079     -0.6521606     -0.0006369      0.0000273     -0.0006315      0.0000296     -0.7098389     -0.6057739
281012512     -0.6858521     -0.6518555     -0.0005651      0.0001040     -0.0005633      0.0001029     -0.7097778     -0.6054077
281075008     -0.6867065     -0.6516113     -0.0005108      0.0001181     -0.0005055      0.0001140     -0.7096558     -0.6046753
281137504     -0.6868896     -0.6508789     -0.0004970      0.0001164     -0.0005130      0.0000975     -0.7095337     -0.6044312
281200000     -0.6874390     -0.6504517     -0.0005117      0.0001615     -0.0005042      0.0001633     -0.7091675     -0.6041260
281262496     -0.6878052     -0.6500244     -0.0005207      0.0002019     -0.0005060      0.0001903     -0.7092896     -0.6039429
281324992     -0.6881714     -0.6494751     -0.0005541      0.0002705     -0.0005729      0.0002693     -0.7090454     -0.6037598
281387488     -0.6884155     -0.6491699     -0.0005514      0.0003993     -0.0005687      0.0004075     -0.7091064     -0.6040649
281449984     -0.6889648     -0.6488647     -0.0004563      0.0005240     -0.0004640      0.0005156     -0.7094116     -0.6039429
281512512     -0.6893311     -0.6483765     -0.0003420      0.0005679     -0.0003358      0.0005535     -0.7095947     -0.6037598
281575008     -0.6898193     -0.6480103     -0.0002539      0.0005653     -0.0002569      0.0005513     -0.7098389     -0.6035767
281637504     -0.6900024     -0.6476440     -0.0002538      0.0005718     -0.0002533      0.0005471     -0.7102051     -0.6036377
281700000     -0.6908569     -0.6470947     -0.0002435      0.0006091     -0.0002491      0.0006117     -0.7105103     -0.6037598
281762496     -0.6910400     -0.6466675     -0.0001851      0.0006900     -0.0002002      0.0006811     -0.7111816     -0.6032715
281824992     -0.6915283     -0.6458740     -0.0000939      0.0007320     -0.0001053      0.0007266     -0.7114258     -0.6030884
281887488     -0.6921387     -0.6456909     -0.0000159      0.0007573     -0.0000332      0.0007466     -0.7120972     -0.6026611
281950016     -0.6923828     -0.6448364      0.0000569      0.0007901      0.0000595      0.0008037     -0.7125244     -0.6019897
282012512     -0.6928101     -0.6447144      0.0001699      0.0008086      0.0001519      0.0008100     -0.7128296     -0.6015625
282075008     -0.6928711     -0.6442261      0.0002827      0.0007765      0.0002924      0.0007809     -0.7132568     -0.6013184
282137504     -0.6934204     -0.6433716      0.0003577      0.0007198      0.0003414      0.0007005     -0.7133789     -0.6010742
282200000     -0.6937866     -0.6432495      0.0004157      0.0006714      0.0004237      0.0006732     -0.7136230     -0.6008911
282262496     -0.6939697     -0.6427002      0.0004290      0.0006279      0.0004296      0.0006376     -0.7141113     -0.6003418
282324992     -0.6945801     -0.6426392      0.0004734      0.0006137      0.0004858      0.0006238     -0.7143555     -0.6002808
282387488     -0.6949463     -0.6419678      0.0005499      0.0005553      0.0005356      0.0005652     -0.7149048     -0.5999146
282449984     -0.6952515     -0.6415405      0.0005676      0.0004679      0.0005531      0.0004832     -0.7149658     -0.5996094
282512512     -0.6957397     -0.6409302      0.0005342      0.0004231      0.0005499      0.0004348     -0.7152710     -0.5991821
282575008     -0.6960449     -0.6404419      0.0005249      0.0003931      0.0005227      0.0003844     -0.7155151     -0.5987549
282637504     -0.6966553     -0.6401367      0.0004847      0.0003349      0.0004860      0.0003478     -0.7165527     -0.5983887
282700000     -0.6967163     -0.6398315      0.0004307      0.0003918      0.0004118      0.0004172     -0.7164307     -0.5980835
282762496     -0.6971436     -0.6391602      0.0004575      0.0004516      0.0004514      0.0004421     -0.7166138     -0.5977173
282824992     -0.6972046     -0.6385498      0.0004672      0.0004637      0.0004683      0.0004763     -0.7175293     -0.5974121
282887488     -0.6977539     -0.6381836      0.0005228      0.0005299      0.0005180      0.0005342     -0.7174683     -0.5977783
282950016     -0.6981201     -0.6378784      0.0005922      0.0005242      0.0005984      0.0005411     -0.7176514     -0.5972290
283012512     -0.6986694     -0.6375732      0.0006984      0.0005068      0.0006908      0.0005183     -0.7185669     -0.5967407
283075008     -0.6990967     -0.6370850      0.0007538      0.0004408      0.0007547      0.0004456     -0.7190552     -0.5967407
283137504     -0.6997070     -0.6365356      0.0007588      0.0003874      0.0007605      0.0003894     -0.7197266     -0.5963135
283200000     -0.7000732     -0.6362305      0.0007875      0.0003805      0.0007620      0.0003769     -0.7199097     -0.5955200
283262496     -0.7005615     -0.6355591      0.0008382      0.0003260      0.0008402      0.0003379     -0.7202759     -0.5955200
283324992     -0.7009277     -0.6352539      0.0008310      0.0002535      0.0008275      0.0002602     -0.7207031     -0.5949707
283387488     -0.7014160     -0.6348877      0.0008308      0.0002145      0.0008304      0.0002271     -0.7214355     -0.5948486
283449984     -0.7015381     -0.6345215      0.0008116      0.0001647      0.0008131      0.0001766     -0.7219238     -0.5946045
283512512     -0.7022705     -0.6337891      0.0007687      0.0001797      0.0007588      0.0001881     -0.7224731     -0.5939941
283575008     -0.7025146     -0.6333008      0.0008150      0.0001980      0.0008227      0.0002102     -0.7229614     -0.5936279
283637504     -0.7028809     -0.6328125      0.0008731      0.0001221      0.0008785      0.0001414     -0.7237549     -0.5927734
283700000     -0.7033691     -0.6325073      0.0008880      0.0000234      0.0008760      0.0000351     -0.7239990     -0.5924683
283762496     -0.7037964     -0.6318970      0.0008218     -0.0000763      0.0008093     -0.0000524     -0.7242432     -0.5919189
283824992     -0.7042847     -0.6315308      0.0007292     -0.0000707      0.0007244     -0.0000628     -0.7249146     -0.5918579
283887488     -0.7044067     -0.6310425      0.0007176     -0.0000541      0.0006993     -0.0000474     -0.7252197     -0.5911865
283950016     -0.7050171     -0.6306763      0.0006800     -0.0000705      0.0006689     -0.0000660     -0.7256470     -0.5906982
284012512     -0.7053223     -0.6298828      0.0005898     -0.0000480      0.0005922     -0.0000250     -0.7263184     -0.5900269
284075008     -0.7059937     -0.6297607      0.0005956      0.0000083      0.0005926      0.0000310     -0.7265015     -0.5894165
284137504     -0.7062378     -0.6293945      0.0005859      0.0000426      0.0005913      0.0000573     -0.7272949     -0.5888062
284200000     -0.7064819     -0.6289673      0.0006277      0.0001052      0.0006308      0.0001152     -0.7274170     -0.5884399
284262496     -0.7071533     -0.6284180      0.0006871      0.0000656      0.0006880      0.0000741     -0.7279663     -0.5879517
284324992     -0.7078857     -0.6279297      0.0006970      0.0000294      0.0006956      0.0000434     -0.7277222     -0.5876465
284387488     -0.7083130     -0.6276855      0.0006750      0.0000165      0.0006579      0.0000237     -0.7285767     -0.5869141
284449984     -0.7083740     -0.6270142      0.0006327      0.0000094      0.0006334      0.0000228     -0.7286377     -0.5864868
284512512     -0.7091064     -0.6266479      0.0006332      0.0000283      0.0006306      0.0000329     -0.7290649     -0.5860596
284575008     -0.7095337     -0.6257935      0.0005891      0.0000549      0.0005873      0.0000540     -0.7293091     -0.5856323
284637504     -0.7098389     -0.6253052      0.0005723      0.0001239      0.0005628      0.0001302     -0.7293701     -0.5856323
284700000     -0.7100830     -0.6248169      0.0006222      0.0001814      0.0006063      0.0001856     -0.7301025     -0.5851440
284762496     -0.7106323     -0.6243896      0.0006648      0.0002314      0.0006643      0.0002312     -0.7303467     -0.5845947
284824992     -0.7108154     -0.6238403      0.0007770      0.0002589      0.0007673      0.0002671     -0.7307739     -0.5845337
284887488     -0.7111816     -0.6234741      0.0008699      0.0002515      0.0008644      0.0002509     -0.7315674     -0.5840454
284950016     -0.7115479     -0.6229858      0.0009432      0.0001943      0.0009396      0.0002121     -0.7318115     -0.5833740
285012512     -0.7120972     -0.6225586      0.0009849      0.0001271      0.0009966      0.0001292     -0.7321167     -0.5831909
285075008     -0.7123413     -0.6219482      0.0010235      0.0000485      0.0010194      0.0000605     -0.7326050     -0.5825806
285137504     -0.7127075     -0.6217651      0.0010248     -0.0000035      0.0010044      0.0000024     -0.7332153     -0.5822144
285200000     -0.7131348     -0.6209106      0.0010287     -0.0000614      0.0010306     -0.0000504     -0.7332764     -0.5817261
285262496     -0.7136230     -0.6204834      0.0010209     -0.0001211      0.0010170     -0.0001318     -0.7339478     -0.5811768
285324992     -0.7141113     -0.6199951      0.0009912     -0.0001801      0.0009591     -0.0001617     -0.7341919     -0.5806274
285387488     -0.7141724     -0.6195679      0.0009383     -0.0002027      0.0009357     -0.0001938     -0.7347412     -0.5803223
285449984     -0.7148438     -0.6188965      0.0008561     -0.0002084      0.0008805     -0.0001982     -0.7351685     -0.5797729
285512512     -0.7149048     -0.6185303      0.0008632     -0.0001662      0.0008727     -0.0001464     -0.7357178     -0.5792847
285575008     -0.7153320     -0.6180420      0.0008908     -0.0001687      0.0009060     -0.0001486     -0.7361450     -0.5791626
285637504     -0.7158813     -0.6177979      0.0008841     -0.0001607      0.0009017     -0.0001570     -0.7366943     -0.5784912
285700000     -0.7162476     -0.6172485      0.0009141     -0.0001693      0.0009278     -0.0001776     -0.7374268     -0.5780029
285762496     -0.7166138     -0.6167603      0.0009396     -0.0001962      0.0009303     -0.0001753     -0.7374268     -0.5770874
285824992     -0.7173462     -0.6163330      0.0009218     -0.0002050      0.0009326     -0.0002078     -0.7377319     -0.5769043
285887488     -0.7176514     -0.6157837      0.0009375     -0.0002193      0.0009395     -0.0002113     -0.7379761     -0.5765381
285950016     -0.7182007     -0.6152344      0.0009412     -0.0002314      0.0009243     -0.0002222     -0.7386475     -0.5760498
286012512     -0.7183838     -0.6149292      0.0009630     -0.0001969      0.0009585     -0.0001947     -0.7388306     -0.5754395
286075008     -0.7190552     -0.6143188      0.0009994     -0.0001991      0.0010111     -0.0001797     -0.7395630     -0.5750122
286137504     -0.7197266     -0.6138306      0.0010806     -0.0001968      0.0010824     -0.0001954     -0.7397461     -0.5743408
286200000     -0.7197266     -0.6133423      0.0011625     -0.0002730      0.0011773     -0.0002686     -0.7401733     -0.5739136
286262496     -0.7202148     -0.6124878      0.0012207     -0.0004140      0.0012142     -0.0004191     -0.7407227     -0.5735474
286324992     -0.7207031     -0.6119995      0.0012065     -0.0005468      0.0012203     -0.0005379     -0.7410278     -0.5727539
286387488     -0.7210083     -0.6119385      0.0011338     -0.0006223      0.0011323     -0.0006192     -0.7413330     -0.5723267
286449984     -0.7215576     -0.6110840      0.0010781     -0.0006698      0.0010840     -0.0006652     -0.7416992     -0.5718994
286512512     -0.7218018     -0.6105347      0.0010648     -0.0007118      0.0010943     -0.0007071     -0.7421875     -0.5714111
286575008     -0.7222290     -0.6102295      0.0010508     -0.0008022      0.0010706     -0.0008000     -0.7426147     -0.5707397
286637504     -0.7224731     -0.6094360      0.0009980     -0.0008959      0.0009999     -0.0008986     -0.7427979     -0.5703125
286700000     -0.7229614     -0.6090088      0.0008782     -0.0009909      0.0008963     -0.0009825     -0.7432251     -0.5701294
286762496     -0.7230835     -0.6084595      0.0007368     -0.0010257      0.0007374     -0.0010333     -0.7435913     -0.5694580
286824992     -0.7235107     -0.6080322      0.0006174     -0.0009730      0.0006058     -0.0009683     -0.7440796     -0.5691528
286887488     -0.7238159     -0.6075439      0.0005634     -0.0009202      0.0005921     -0.0009281     -0.7443237     -0.5682373
286950016     -0.7243042     -0.6071167      0.0005182     -0.0009264      0.0005250     -0.0009201     -0.7448120     -0.5678711
287012512     -0.7247925     -0.6066284      0.0004586     -0.0009059      0.0004922     -0.0009115     -0.7449341     -0.5676270
287075008     -0.7250366     -0.6060791      0.0003919     -0.0009069      0.0003943     -0.0008905     -0.7456055     -0.5670166
287137504     -0.7255859     -0.6055298      0.0003189     -0.0008312      0.0003237     -0.0008260     -0.7456665     -0.5668335
287200000     -0.7261353     -0.6053467      0.0003140     -0.0007656      0.0003255     -0.0007592     -0.7460938     -0.5663452
287262496     -0.7265625     -0.6045532      0.0003091     -0.0007761      0.0003181     -0.0007598     -0.7463379     -0.5661011
287324992     -0.7266846     -0.6040039      0.0002270     -0.0007614      0.0002411     -0.0007443     -0.7473755     -0.5656738
287387488     -0.7270508     -0.6034546      0.0001928     -0.0006754      0.0002143     -0.0006624     -0.7480469     -0.5653076
287449984     -0.7272949     -0.6028442      0.0002010     -0.0006122      0.0002198     -0.0005937     -0.7489624     -0.5645752
287512512     -0.7277222     -0.6024170      0.0002372     -0.0005706      0.0002368     -0.0005434     -0.7489624     -0.5637817
287575008     -0.7282715     -0.6018066      0.0002784     -0.0005524      0.0002722     -0.0005549     -0.7495728     -0.5630493
287637504     -0.7285156     -0.6016235      0.0002714     -0.0005378      0.0002830     -0.0005366     -0.7498169     -0.5623169
287700000     -0.7288818     -0.6008911      0.0002450     -0.0005690      0.0002527     -0.0005656     -0.7504272     -0.5615234
287762496     -0.7291870     -0.6006470      0.0001730     -0.0005424      0.0001922     -0.0005276     -0.7506714     -0.5609131
287824992     -0.7294922     -0.6001587      0.0001498     -0.0004532      0.0001537     -0.0004467     -0.7509766     -0.5604858
287887488     -0.7299805     -0.5994873      0.0001957     -0.0003402      0.0001920     -0.0003473     -0.7512207     -0.5598145
287950016     -0.7303467     -0.5989380      0.0002615     -0.0002960      0.0002674     -0.0002815     -0.7516479     -0.5593872
288012512     -0.7306519     -0.5982666      0.0003870     -0.0003019      0.0003919     -0.0003008     -0.7519531     -0.5586548
288075008     -0.7311401     -0.5982056      0.0004185     -0.0003729      0.0004138     -0.0003628     -0.7521362     -0.5582275
288137504     -0.7316284     -0.5975342      0.0004064     -0.0004217      0.0004166     -0.0004020     -0.7526245     -0.5576782
288200000     -0.7319336     -0.5969238      0.0004012     -0.0004180      0.0003981     -0.0004092     -0.7529297     -0.5571899
288262496     -0.7322388     -0.5966187      0.0004414     -0.0004075      0.0004505     -0.0004202     -0.7531738     -0.5563354
288324992     -0.7327881     -0.5957031      0.0004544     -0.0004814      0.0004512     -0.0004617     -0.7536621     -0.5557861
288387488     -0.7332153     -0.5950317      0.0003775     -0.0004822      0.0003936     -0.0004943     -0.7537842     -0.5556030
288449984     -0.7332153     -0.5947876      0.0003766     -0.0004402      0.0003914     -0.0004308     -0.7541504     -0.5548706
288512512     -0.7334595     -0.5940552      0.0004202     -0.0004399      0.0004372     -0.0004315     -0.7544556     -0.5543823
288575008     -0.7337646     -0.5936890      0.0004263     -0.0004767      0.0004370     -0.0004867     -0.7546997     -0.5537720
288637504     -0.7343140     -0.5936890      0.0003937     -0.0004762      0.0003993     -0.0004615     -0.7550659     -0.5532837
288700000     -0.7349243     -0.5932617      0.0004194     -0.0004558      0.0004193     -0.0004300     -0.7554932     -0.5529175
288762496     -0.7352295     -0.5925293      0.0004532     -0.0004184      0.0004617     -0.0004372     -0.7556152     -0.5521851
288824992     -0.7360229     -0.5920410      0.0004953     -0.0004474      0.0004979     -0.0004441     -0.7561646     -0.5518188
288887488     -0.7361450     -0.5913086      0.0005525     -0.0004788      0.0005641     -0.0004771     -0.7564697     -0.5510254
288950016     -0.7366943     -0.5910645      0.0005965     -0.0005794      0.0006175     -0.0005687     -0.7568970     -0.5509033
289012512     -0.7368164     -0.5903931      0.0005732     -0.0006464      0.0005831     -0.0006649     -0.7568970     -0.5500488
289075008     -0.7373657     -0.5898438      0.0005434     -0.0006887      0.0005692     -0.0006877     -0.7572021     -0.5494385
289137504     -0.7376099     -0.5892334      0.0005676     -0.0007687      0.0005778     -0.0007605     -0.7576904     -0.5490723
289200000     -0.7380981     -0.5886230      0.0005249     -0.0008986      0.0005277     -0.0008858     -0.7578735     -0.5482788
289262496     -0.7385254     -0.5881348      0.0004185     -0.0009858      0.0004019     -0.0009719     -0.7581787     -0.5478516
289324992     -0.7386475     -0.5875854      0.0002581     -0.0009847      0.0002667     -0.0009844     -0.7583618     -0.5473633
289387488     -0.7391968     -0.5869751      0.0001968     -0.0009263      0.0002079     -0.0009380     -0.7585449     -0.5468140
289449984     -0.7397461     -0.5864868      0.0001962     -0.0009255      0.0002092     -0.0009255     -0.7586060     -0.5464478
289512512     -0.7400513     -0.5860596      0.0001400     -0.0009746      0.0001469     -0.0009778     -0.7588501     -0.5458374
289575008     -0.7402344     -0.5853882      0.0000324     -0.0010176      0.0000360     -0.0010033     -0.7589111     -0.5451660
289637504     -0.7404175     -0.5848999     -0.0000696     -0.0009872     -0.0000736     -0.0010037     -0.7593384     -0.5451050
289700000     -0.7408447     -0.5844727     -0.0002070     -0.0009360     -0.0002127     -0.0009508     -0.7597046     -0.5446777
289762496     -0.7410889     -0.5840454     -0.0002877     -0.0008342     -0.0002815     -0.0008239     -0.7598877     -0.5443115
289824992     -0.7415161     -0.5833740     -0.0003024     -0.0007437     -0.0002922     -0.0007434     -0.7601929     -0.5440063
289887488     -0.7421265     -0.5830688     -0.0002926     -0.0006800     -0.0002927     -0.0006902     -0.7606201     -0.5440063
289950016     -0.7426147     -0.5825806     -0.0003278     -0.0006450     -0.0003003     -0.0006475     -0.7609253     -0.5437622
290012512     -0.7430420     -0.5820313     -0.0003313     -0.0006072     -0.0003199     -0.0005965     -0.7617188     -0.5432739
290075008     -0.7437134     -0.5812988     -0.0003537     -0.0005932     -0.0003493     -0.0005886     -0.7620850     -0.5426636
290137504     -0.7437744     -0.5808716     -0.0004132     -0.0005419     -0.0004191     -0.0005321     -0.7625732     -0.5423584
290200000     -0.7442627     -0.5805664     -0.0004403     -0.0004248     -0.0004345     -0.0004162     -0.7629395     -0.5418091
