# Hz S RI R 50
300000	1.0020883171292	-1.68577506764884E-03	-1.12876981723241E-07	5.09747786261564E-06			2.52748221465637E-06	7.83004253161893E-06	1.00176797466627	-2.20055311451857E-03
4049625	0.999699655422317	-7.52450087157318E-03	-2.97291389227651E-06	1.36874973214594E-04			-2.45110838525486E-06	1.35546912419198E-04	0.999677539178943	-7.72273588839918E-03
7799250	0.999507035538936	-1.41094922811811E-02	9.3000417748013E-05	1.70482832474313E-04			9.50674498242339E-05	1.77074384653984E-04	0.99943443439849	-1.46018566527824E-02
11548875	0.999457336280053	-2.08201373091714E-02	-9.86260415689291E-05	3.5803960620789E-04			-9.61754935845601E-05	3.59019615462365E-04	0.999213706862807	-2.17570064285114E-02
15298500	0.999127266678988	-2.76556718633525E-02	4.57694429252583E-05	4.73873483915848E-04			6.17328326195662E-05	4.80452394670743E-04	0.999226205396598	-2.82850060186026E-02
19048125	0.998938160212093	-3.43656761273991E-02	-1.59955046650237E-05	7.02880375442875E-04			-2.26669877092314E-05	7.11580476983216E-04	0.998839340967252	-3.53613835590892E-02
22797750	0.998792609645668	-4.12037256879245E-02	1.86727781093261E-05	7.53988390570173E-04			7.12308308447527E-06	7.53480376004632E-04	0.998756768239851	-4.23699128047081E-02
26547375	0.998376294480386	-4.82300279151106E-02	4.66569076052116E-05	8.92931299317206E-04			5.7386539036987E-05	9.00207087408028E-04	0.998528869400157	-4.93170890198178E-02
30297000	0.99801856724797	-5.45575715594135E-02	7.7256875674911E-05	1.00250767620923E-03			6.79197926164366E-05	1.00611224428418E-03	0.997942566172254	-0.056118993464148
34046625	0.997601354190582	-6.13586557551666E-02	7.73787971147115E-05	0.001088658922697			8.13134860741487E-05	0.001107043488618	0.997446134290675	-6.30930782553586E-02
37796250	0.996927555834111	-6.80856462014562E-02	2.27389166819213E-05	1.24774124987419E-03			2.61534917079172E-05	1.26292424170403E-03	0.996827791162787	-6.98394603295467E-02
41545875	0.996485671277666	-7.45884010153431E-02	9.19419104767838E-05	1.36295934921083E-03			1.07225403920442E-04	1.35426404356304E-03	0.996287757222245	-7.68560341526153E-02
45295500	0.99555400618122	-8.12487953919239E-02	6.73355200860242E-05	1.38840244295815E-03			7.03466185862821E-05	1.40568295710225E-03	0.995562026767351	-8.36029613607305E-02
49045125	0.995326881486261	-0.088293838266421	1.58738509397483E-04	1.60247460992956E-03			1.65786061768542E-04	1.60175493316581E-03	0.995154350735054	-9.06664613923647E-02
52794750	0.994494406516803	-0.095165988461817	1.81818866458708E-04	1.71293663852905E-03			1.92289987227467E-04	1.71702287951703E-03	0.99455948751866	-9.77427898368428E-02
56544375	0.993705020201505	-0.101765618310478	2.61019226504586E-04	1.8063575655834E-03			2.59214649292246E-04	1.79723565495881E-03	0.993766758082108	-0.104510361404325
60294000	0.992834415417278	-0.1084192759702	2.4592301450311E-04	1.95951379789331E-03			2.42386637801192E-04	1.95193725718139E-03	0.993121302316739	-0.111388583197023
64043625	0.992038035052823	-0.114752218922146	3.23935819196898E-04	2.05932481686827E-03			3.22885889185262E-04	2.06066416465264E-03	0.992034783179123	-0.117921692166477
67793250	0.991214364573321	-0.121643897795997	2.93508707938245E-04	2.10317952129704E-03			2.90658200303877E-04	2.11228438384148E-03	0.991235276692079	-0.124820612651458
71542875	0.989791132974955	-0.128486150876332	2.79362298379817E-04	2.25884190433184E-03			2.76448709429162E-04	2.26365125076515E-03	0.989938962474424	-0.131885204457097
75292500	0.989275267399667	-0.134855432377402	3.46677369190177E-04	2.39337503466114E-03			3.4568331684768E-04	2.40115945237891E-03	0.989477098684012	-0.138745898479708
79042125	0.98823252195996	-0.14167998317347	3.92564847308854E-04	2.53360884945981E-03			3.97186526204599E-04	2.53461579503907E-03	0.988306196244367	-0.14561050476959
82791750	0.987220760802526	-0.147791686543337	4.34547740167013E-04	2.59351440816818E-03			4.3260677873551E-04	2.59673369855594E-03	0.987236754871899	-0.152137074151269
86541375	0.986389102011438	-0.154505076133052	4.58219356549017E-04	2.7330611515736E-03			4.60721687088694E-04	2.7329104297958E-03	0.986178965861203	-0.159069929822451
90291000	0.984989850424021	-0.161029074347918	4.27510317064734E-04	2.83481881468342E-03			4.21146250189846E-04	2.83567711565301E-03	0.984995365789636	-0.165590139778594
94040625	0.983838002968728	-0.167704286931029	5.56036177503484E-04	2.97840341791056E-03			5.52120155463639E-04	2.9785756721026E-03	0.983676045741382	-0.17266702968281
97790250	0.982583912824527	-0.174804958107637	6.01050533628722E-04	3.09639918328018E-03			6.05332983168147E-04	3.09478503974398E-03	0.98231726043388	-0.179874149745734
101539875	0.981489388817264	-0.180882677840661	6.30930430065913E-04	3.2193214627493E-03			6.27168141816248E-04	3.21493136281137E-03	0.981280146424271	-0.186125407232594
105289500	0.980259551110573	-0.187336029834136	6.90067647999395E-04	3.30338412381575E-03			6.7163577851085E-04	3.30158194575915E-03	0.979948455999956	-0.193110896487602
109039125	0.978805216372082	-0.193682796034753	7.78638219607467E-04	3.42853702322421E-03			7.76121233097664E-04	3.43260422669341E-03	0.978309147611018	-0.199537406469716
112788750	0.977367061793781	-0.200601453861107	7.77807364156531E-04	3.50621074881885E-03			7.73671911757639E-04	3.50838531924475E-03	0.976876048268496	-0.206521606085256
116538375	0.97562326633356	-0.206504383301471	8.00835418662601E-04	3.72062171746149E-03			8.08950669205766E-04	3.72190309371196E-03	0.975213256598611	-0.212877617764677
120288000	0.974437338994434	-0.213365606537078	8.79939256513893E-04	3.71374957143517E-03			8.74790950970879E-04	3.70923295309031E-03	0.974061820870118	-0.219940000594627
124037625	0.972820163213024	-0.22002060429042	9.371498830688E-04	3.86841014150507E-03			9.28974308506937E-04	3.8624509256848E-03	0.9723310289958	-0.226901393725378
127787250	0.971236262247739	-0.226068925985282	1.02123186777188E-03	3.91718949022514E-03			1.01462310779651E-03	3.91842574442098E-03	0.970715913639506	-0.233288878247954
131536875	0.969670203316582	-0.232688470150001	0.001048031287679	4.0613192280949E-03			1.04213829149518E-03	4.0611291087232E-03	0.96900689020754	-0.240304278596933
135286500	0.967904389653447	-0.238693323930106	1.09284642638383E-03	4.1555798282077E-03			1.09114422770694E-03	4.15154438244424E-03	0.967196587537984	-0.246652626481659
139036125	0.966521278155864	-0.245288504574492	1.1683945064406E-03	4.28028798508392E-03			1.16533712338594E-03	4.27337875473686E-03	0.965610257852348	-0.253481216338459
142785750	0.964033639063274	-0.251566463514609	1.2142280625248E-03	4.34930123333115E-03			1.2129605869396E-03	4.34274664081769E-03	0.963213667197988	-0.260438253127222
146535375	0.962935249060298	-0.257882527864546	1.28437670549898E-03	4.4781175100149E-03			1.28222812987514E-03	4.47185657191265E-03	0.961883847401603	-0.266830311350769
150285000	0.961064868495892	-0.264436357362718	1.37993387378257E-03	4.56629752189857E-03			1.37395032712093E-03	4.56574809912219E-03	0.959837477225865	-0.273558336401604
154034625	0.959341344013923	-0.2703892965141	1.45722939152664E-03	4.68873514896164E-03			1.44983815146868E-03	4.6879428364901E-03	0.95793009104155	-0.28016762654812
157784250	0.957251874024406	-0.276966218012745	1.48378675882169E-03	4.78048227841607E-03			1.47223442783601E-03	4.78108436713894E-03	0.955848633997791	-0.286880387764678
161533875	0.955381012141525	-0.28300558343257	1.52828849483974E-03	4.86919566174374E-03			1.5266171490918E-03	4.86464006152908E-03	0.953560965218002	-0.293227393841737
165283500	0.953436544939111	-0.289713043038691	1.63411819182854E-03	4.97036392715498E-03			1.62103271798301E-03	4.97709245100633E-03	0.951536267775271	-0.300130002743867
169033125	0.95100727326395	-0.296365312471804	1.70806219851335E-03	5.09627725342416E-03			1.69147190299166E-03	5.09756250170722E-03	0.949133051147505	-0.307193901547512
172782750	0.949582796819572	-0.302033782239976	1.77720881752501E-03	5.15760083335537E-03			1.77198959532052E-03	5.15079983044502E-03	0.947215118481549	-0.313379136971497
176532375	0.947324978901241	-0.308654491835122	1.84196814276214E-03	5.27719579586993E-03			1.82267459221297E-03	5.27689624513245E-03	0.944896131900892	-0.319979727246818
180282000	0.945162871959182	-0.314860402182445	1.91257673933365E-03	5.38661939340489E-03			1.90847365756294E-03	5.38767133688493E-03	0.942625992097338	-0.326375433698726
184031625	0.943003686749541	-0.321156038192205	1.98072961521316E-03	5.47019826230068E-03			1.96290730309334E-03	5.46556958395922E-03	0.940170680652819	-0.33287807037769
187781250	0.940674364330369	-0.326926281858555	2.07254938775757E-03	5.53858935218132E-03			2.05300811734552E-03	5.53352243804619E-03	0.937589005488577	-0.339052855505753
191530875	0.938650986542528	-0.333541573621908	2.14651703666858E-03	5.65864802114379E-03			2.13796542214659E-03	0.005656264833384	0.935391346235144	-0.345862177739705
195280500	0.93623614887912	-0.339977493035653	2.24933119413448E-03	5.72075958609219E-03			2.23498410094605E-03	5.72739961220627E-03	0.932760493066493	-0.352508095131247
199030125	0.934042151103427	-0.345828929907535	2.29586548480611E-03	5.81225644351776E-03			2.28011121894179E-03	5.81163521065928E-03	0.930536389371686	-0.358608381192114
202779750	0.931638937682469	-0.352149995267701	2.38003058503941E-03	5.92380628759561E-03			2.36929525466535E-03	5.92270953562663E-03	0.9280392562748	-0.365227668766536
206529375	0.929205480430676	-0.358197772151367	2.47544467201347E-03	6.01906765655861E-03			2.45983421613637E-03	6.01733366031072E-03	0.925230112085211	-0.371368262453055
210279000	0.926880775524338	-0.364437357088007	2.54315792292362E-03	6.09218347176334E-03			2.53417738189343E-03	6.08894727391694E-03	0.922886496150204	-0.377867007553752
214028625	0.923738631123812	-0.370263165468303	2.61478091533189E-03	6.17920763285193E-03			2.6018018290537E-03	6.18736472577957E-03	0.919463003696648	-0.383803073631084
217778250	0.921839994675886	-0.376491154465296	2.73908936327673E-03	6.26198331513192E-03			2.71978906737454E-03	6.26956091536093E-03	0.917271304024959	-0.390348419707354
221527875	0.919315604400175	-0.382841245460272	2.8001863348358E-03	6.31794420651304E-03			2.7912409800643E-03	6.32177418378633E-03	0.914242668405177	-0.396879414470028
225277500	0.916999760636651	-0.388693752039154	2.87180158436994E-03	6.41530741945526E-03			2.85835889023206E-03	6.41862011109532E-03	0.911670511333932	-0.402841083661749
229027125	0.914339024331954	-0.395059233596611	2.93956553738188E-03	6.48154102786257E-03			2.92725297260581E-03	6.47666144046507E-03	0.908831625294792	-0.409298447512102
232776750	0.911923589775685	-0.401262400555274	2.97521206045996E-03	6.56691771528494E-03			2.97066149001922E-03	6.57391314249631E-03	0.905916104470036	-0.415260250768094
236526375	0.907884766134683	-0.409218339149408	2.94439498680994E-03	6.81958064357269E-03			2.94697072279932E-03	6.82076767064133E-03	0.903210777294738	-0.421642046561287
240276000	0.90357302767152	-0.412757247465316	3.34524671916461E-03	6.93739597609857E-03			3.33388300352262E-03	6.94419572209368E-03	0.899502636473082	-0.42830632793995
244025625	0.902265859126165	-0.418001635456613	3.42944214397805E-03	6.88756254392271E-03			3.42478916764163E-03	6.88880154019468E-03	0.897035273549434	-0.434178586302649
247775250	0.899705982843006	-0.423969996333597	3.50997338256731E-03	6.97280438823359E-03			3.49853256967784E-03	6.97276822967957E-03	0.893877985835126	-0.440430618379965
251524875	0.896938768635779	-0.429598260637452	3.60643045733376E-03	7.02935139329873E-03			3.59614833519398E-03	7.02570224641936E-03	0.890771626737467	-0.446249091549
255274500	0.894277334955184	-0.435465616910001	3.70829735709427E-03	0.007092516971079			3.6912185523479E-03	7.08944626605782E-03	0.887635508883088	-0.452457578483721
259024125	0.891200678601325	-0.440950197179028	3.76553555274739E-03	7.14097142942382E-03			3.76460207866639E-03	7.14571267270489E-03	0.884219680813143	-0.458170912611504
262773750	0.888361017250356	-0.447102075211024	3.88543048694035E-03	7.2338255047418E-03			3.87693323497276E-03	7.23909770499465E-03	0.880913886703439	-0.46456442691238
266523375	0.885179702289341	-0.453075419565039	3.98472255756188E-03	7.29576148674776E-03			3.97643388803576E-03	7.29551921247117E-03	0.87760272860069	-0.470816388542945
270273000	0.882442218108768	-0.458631887195592	4.0696780891845E-03	7.35832716994185E-03			4.0605279520766E-03	7.35027347884532E-03	0.874433423411174	-0.476412700865634
274022625	0.879402747862345	-0.464557296826964	4.18890259054299E-03	7.42575195088819E-03			4.17210023572375E-03	7.42124930932266E-03	0.871178058468214	-0.48275807663818
277772250	0.876309088740837	-0.469951286402181	4.28389131426002E-03	7.50222774134607E-03			4.27872251415971E-03	7.50765868946434E-03	0.867702276233812	-0.488505742163122
281521875	0.873292104233886	-0.475911118602882	4.38986635314361E-03	7.57753881900763E-03			4.37335889453317E-03	7.57384954493454E-03	0.86434183741977	-0.494714211926701
285271500	0.869630040366691	-0.481545078028679	4.5121278561836E-03	7.63595690420765E-03			4.5009453524896E-03	7.63334787316035E-03	0.860522028381889	-0.500336663114546
289021125	0.867028613426704	-0.487383573905922	4.60753868938377E-03	7.67665245288073E-03			4.60461190136144E-03	7.68018268328124E-03	0.857390410218752	-0.506404955945312
292770750	0.863488501498246	-0.493130575614898	4.71693323553157E-03	7.76017103999966E-03			4.70234270951334E-03	7.76107470676194E-03	0.853557144647663	-0.512791634010391
296520375	0.860410436100097	-0.498248322987421	4.8050720351197E-03	7.81393988693565E-03			4.79509051365555E-03	7.82328608903439E-03	0.850190043867274	-0.51812048849176
300270000	0.857014165590175	-0.504125640638919	4.92621523614184E-03	7.8822072193971E-03			4.90146075944646E-03	7.88305121426703E-03	0.846248721572315	-0.524242918012281
304019625	0.853486282029172	-0.509485297491102	5.04024837303322E-03	7.95088688891623E-03			5.02694575314835E-03	7.94720160484594E-03	0.842362489490088	-0.529883629029227
307769250	0.850180168140373	-0.515204866815241	5.13343631230878E-03	0.008001442826319			5.12154337166057E-03	7.99901861246729E-03	0.838746929512522	-0.535693612686599
311518875	0.84624492468343	-0.520740934554041	5.25435061363184E-03	8.03760210464295E-03			5.24555480594947E-03	8.03308401223344E-03	0.834618548612792	-0.541610723753392
315268500	0.843237434333388	-0.526178928217323	5.3741440373012E-03	8.09654796018316E-03			5.3623019236524E-03	8.10020520538735E-03	0.831003862742011	-0.547201045631467
319018125	0.83956996044453	-0.531877004201787	5.47543596927548E-03	8.15892386706754E-03			5.46545963493369E-03	8.15238169187596E-03	0.827014417645017	-0.553176066645462
322767750	0.835992276441658	-0.53723607149751	5.60042110382528E-03	8.20109268087237E-03			5.58257639473308E-03	8.20595221529901E-03	0.823166213815342	-0.558525224393223
326517375	0.832474623624838	-0.542918612311016	5.70344059196819E-03	8.25392379975318E-03			5.68459561971873E-03	8.26732779176297E-03	0.819219135188196	-0.564444688733686
330267000	0.828726801924334	-0.548044550311923	5.83638448777105E-03	8.31071649713877E-03			5.81972209767696E-03	8.3192676227131E-03	0.815047331246372	-0.569770768217074
334016625	0.825167534142647	-0.553702054822073	5.95315891823626E-03	8.34146744508276E-03			5.94750648910008E-03	8.36013887694214E-03	0.811139212289496	-0.575806740521119
337766250	0.821253239806569	-0.559439086538815	6.07212867955341E-03	8.40137274566315E-03			6.05547775916593E-03	8.4045778188081E-03	0.806730536024095	-0.581522502634434
341515875	0.817659475624236	-0.564665125350678	6.18658197274117E-03	8.4522249755043E-03			6.17113669363385E-03	8.45485675260314E-03	0.803095931204742	-0.586836068087581
345265500	0.813905854127689	-0.570040222031471	6.30685880433004E-03	8.48401581027126E-03			6.29555091015409E-03	8.48766389956687E-03	0.798724398993331	-0.592557782463393
349015125	0.810181261679	-0.575184698022325	6.43481893670074E-03	8.53802253679364E-03			6.42296919487735E-03	8.54526518053956E-03	0.79473231904831	-0.59781888564305
352764750	0.806231615432228	-0.580819748640335	6.55783226981808E-03	0.008568651741834			6.53858484250335E-03	8.57479794482776E-03	0.79054992763904	-0.603489183125283
356514375	0.802045850399205	-0.58583581676025	6.68371710576589E-03	8.62985399720905E-03			6.66976932670117E-03	8.63678376681116E-03	0.786007946670377	-0.608440712284383
360264000	0.798443417426352	-0.591190820559791	6.77504990083595E-03	8.63630342747075E-03			6.76262837565889E-03	8.65188149574994E-03	0.781905611675336	-0.61412826026083
364013625	0.794186414419678	-0.596513172061935	6.91930421345886E-03	8.68467591535842E-03			6.91609328613789E-03	8.68575747343236E-03	0.777605535634444	-0.619491411812296
367763250	0.790580847551444	-0.601642547909894	7.03221262691657E-03	8.71525928822456E-03			7.01954323790566E-03	8.72905669192078E-03	0.773386648005354	-0.624591572830623
371512875	0.786597295837174	-0.606851433411211	7.15581983431638E-03	8.75823510702623E-03			7.14317310478661E-03	8.75494726546609E-03	0.768889309670738	-0.630014250525257
375262500	0.782333462023398	-0.611707282793063	7.28346994528952E-03	8.7841350955672E-03			7.27060939829583E-03	8.79441697755773E-03	0.76455741504787	-0.635035908566105
379012125	0.778266738474629	-0.617058345352546	7.42781374355782E-03	8.80681699587905E-03			7.41052146891548E-03	8.80958379177756E-03	0.760064409623512	-0.640374738983755
382761750	0.773839067922525	-0.622126911281509	7.53794362017168E-03	8.84261090625657E-03			7.53152290062844E-03	8.85433925149195E-03	0.755319573812701	-0.645427461121257
386511375	0.770127295790779	-0.627199161447822	7.67994182915026E-03	8.86275775404347E-03			7.66225106386044E-03	8.86686931173433E-03	0.75123006408006	-0.650667682903225
390261000	0.765838683515431	-0.632460679374067	7.78518052005497E-03	8.90133381978748E-03			7.77326593553368E-03	8.90229792893089E-03	0.746478307669463	-0.65572258983942
394010625	0.761548583730907	-0.637061099996323	7.94323128634203E-03	8.92392200902775E-03			7.92272079636255E-03	8.9215542524613E-03	0.741873973875764	-0.660624052143247
397760250	0.757399907573372	-0.642279623924952	8.05094356502188E-03	8.96601688203993E-03			8.03091841365565E-03	8.9738080014275E-03	0.737481269473276	-0.665658541408872
401509875	0.752973775359595	-0.646726322139423	8.17741322350631E-03	8.97566081645942E-03			8.16589200160112E-03	8.97720171677909E-03	0.732671628737214	-0.670447660911773
405259500	0.748942037645134	-0.651738513730466	8.31500585935807E-03	8.98790584493542E-03			8.30122554445402E-03	8.98220745969082E-03	0.728050108307436	-0.675538564772058
409009125	0.744356648581344	-0.656674367367007	8.42272227861277E-03	9.02552091322864E-03			8.41189474891592E-03	9.02848590068444E-03	0.723100752971817	-0.680465636162182
412758750	0.740155503731057	-0.661493618984138	8.56429031108719E-03	9.03342751240205E-03			8.54415261429726E-03	9.03543142668433E-03	0.718566328468819	-0.685339690345593
416508375	0.735570995850913	-0.666184228912058	8.67661764888477E-03	9.0554550096281E-03			8.66794042945003E-03	9.05786421976724E-03	0.713573756533849	-0.690114143281711
420258000	0.731252160148562	-0.670701346498648	8.83459900745161E-03	9.05449566769454E-03			8.81648251226667E-03	9.04491554428277E-03	0.708937954572155	-0.694813135194211
424007625	0.726868456355051	-0.675441005775042	8.93759511019182E-03	9.07756203799868E-03			8.92011197455598E-03	9.08580242701117E-03	0.704049152464185	-0.699815398137914
427757250	0.722118780492701	-0.679882069354472	9.07970789418977E-03	9.0763576185971E-03			9.0691466777736E-03	9.08719002990192E-03	0.698760185372134	-0.704462800568608
431506875	0.717952136746861	-0.684930501671414	9.19953847314926E-03	9.07716177426262E-03			9.19152026866931E-03	9.07429510006894E-03	0.694050169157577	-0.709259064481582
435256500	0.713044872336371	-0.689567197549378	9.31783294189199E-03	9.11385914154366E-03			9.31793279660748E-03	9.10739255511841E-03	0.688936213563732	-0.71408271236577
