# Hz S RI R 50
265000000	0.586220467000079	-0.796427262272661	4.00462601898042E-05	3.35941578370184E-05			2.26261030244912E-05	5.58849153428802E-05	0.592912249678845	-0.792325887705858
265062500	0.585285389600614	-0.7986027494245	3.6617257158079E-05	1.01433445672375E-05			2.30509407659805E-05	8.17335245260001E-06	0.593986562919781	-0.792828272663718
265125000	0.585323664821987	-0.796902652934531	3.02317997685578E-05	-3.89402378373145E-06			2.48443501116804E-05	-7.28734588130451E-06	0.591752793379046	-0.792435630035189
265187500	0.582790897566427	-0.798334335217426	1.78559823364977E-05	-2.00432463937339E-05			1.5126552421045E-05	-2.42375647698984E-05	0.59196455251935	-0.79279372420025
265250000	0.585762783070459	-0.797084819672672	-8.31895232678668E-06	-2.12568581258157E-05			-1.22806277357891E-05	-3.061419156576E-05	0.591695286600936	-0.794144159930097
265312500	0.583467702874337	-0.80007726350347	-1.98485762028508E-06	-9.1338615102994E-06			-1.05836295073843E-05	2.36455627391251E-06	0.590731655597391	-0.794890720689737
265375000	0.584770571938794	-0.799053269083297	2.87028453027674E-05	-7.49229054847449E-06			3.2812347848818E-06	1.44643677957138E-05	0.589967194962367	-0.793566956310901
265437500	0.584191239039603	-0.798358871049167	-1.71098554676895E-06	-9.17184150867943E-06			-1.16766117416827E-05	-2.14281190655858E-05	0.590034003481129	-0.795501978590181
265500000	0.582761389116284	-0.797365960895719	-4.55468962603921E-05	-8.65925927087348E-06			-1.78216141893929E-05	-1.28019473767685E-05	0.588908222256151	-0.794603672967457
265562500	0.582570693345882	-0.800379644854862	-1.65253013308891E-05	4.7991287577306E-06			-3.68964334804559E-05	-1.54614081666543E-05	0.589153553020426	-0.794430382814958
265625000	0.582698251763411	-0.796558725493144	-1.91083855075257E-05	2.96699277311759E-05			-1.25478799082613E-05	9.13527656315907E-06	0.589624531721025	-0.794638886321242
265687500	0.582801884979917	-0.800288570325971	3.43517678863676E-06	-2.93294400424661E-06			1.88729154402468E-05	-1.79135133502317E-05	0.587847205561001	-0.794602498904662
265750000	0.580445706392922	-0.799839333186307	1.65804756559538E-05	-4.72676344443466E-06			-2.77183366187496E-06	-8.28911469342385E-06	0.587803008322694	-0.795314724666333
265812500	0.582637976453652	-0.799165068657689	-1.9476313234839E-06	6.69347802049739E-06			-8.894500270966E-06	-8.06709465988401E-06	0.586668527286746	-0.79668226149373
265875000	0.581510248215951	-0.797709897275567	-1.36839067152374E-05	-1.65870703123324E-06			7.11859547680102E-06	3.42316665531515E-06	0.587616608763262	-0.796633941926663
265937500	0.58122966777061	-0.800280222430617	1.44188195284849E-05	-3.12976893462587E-06			2.8919668175381E-05	-8.63896669256436E-06	0.587142708592225	-0.795130872477417
266000000	0.577467471471154	-0.798742099912685	-1.79463091023153E-05	-2.62287299290248E-05			-3.74808019146328E-06	2.44202937156003E-06	0.588115700745472	-0.793723446688794
266062500	0.579262437413898	-0.798796366633476	1.06533191102043E-05	-4.35525313648477E-05			2.19307299693541E-05	-2.11623418626234E-05	0.585691727892876	-0.797957233122076
266125000	0.579687371179724	-0.800961761108932	-7.01786334333369E-08	-4.89784656875556E-05			6.72326932188049E-06	-5.63880955951099E-06	0.586083429123105	-0.795600025392063
266187500	0.576992279012958	-0.801072464009729	-3.73196902753892E-05	-9.93770910211117E-06			-4.08716098325589E-05	-1.9688521908706E-05	0.585940823227287	-0.795581383036941
266250000	0.57994960287736	-0.799518212285444	-7.65016494322219E-05	-8.66992776013294E-06			-3.90524657407206E-05	-2.13723641274075E-05	0.584535955938779	-0.797174789600759
266312500	0.578853725356326	-0.801328186526632	-3.41863477148961E-05	2.51582342704452E-06			-6.21189065172759E-05	5.1928053149497E-06	0.583534884153115	-0.797602162512585
266375000	0.577476191076427	-0.799521099462486	-6.15268511151361E-05	1.15552869472272E-05			-3.3615880611454E-05	2.20660772317854E-05	0.58240616641692	-0.797400478262231
266437500	0.575553716250882	-0.80267085498182	-4.93302557869741E-05	1.10550391756078E-05			-2.5097925770035E-05	1.22089468419761E-05	0.58417768054946	-0.798088965425347
266500000	0.57815163889442	-0.803755872387866	-4.5602672991346E-05	1.51531789562795E-05			-3.6869728424252E-05	1.63251019813708E-05	0.582422050983707	-0.799971854755293
266562500	0.575745738303635	-0.80241964009581	-2.69703799170274E-05	2.92495443878756E-05			-3.65875473055685E-05	2.21115461626341E-05	0.583116513222417	-0.795878506685771
266625000	0.577218774189149	-0.801092275787066	-2.4449761738826E-05	9.2897869071735E-06			-2.81492868618981E-05	2.98619576420638E-05	0.58066062083833	-0.798089699834706
266687500	0.575211986289972	-0.80401655649967	-4.36350739585401E-05	-1.90229415044793E-06			-2.35637850070859E-05	1.33035972249322E-05	0.58026601967577	-0.798771718471986
266750000	0.577158589265309	-0.803158342376672	-2.48393544921716E-05	1.39780632488246E-05			-1.32587192556061E-05	1.413641466723E-05	0.580485114385172	-0.800289591616409
266812500	0.575466777721424	-0.801880665623941	-2.8536257059159E-05	4.45732948066395E-05			-4.95145848555599E-05	4.87718997776929E-05	0.580104493819405	-0.798625980466641
266875000	0.573933272672708	-0.803025579380556	1.46798422357748E-05	4.44242063203742E-05			2.0332687523063E-05	1.9380818079336E-05	0.579481186096891	-0.798224517783743
266937500	0.57531649120823	-0.803798776789556	3.43128589144554E-06	-1.68219114532229E-05			-2.28718131652302E-06	7.72106046102468E-07	0.578856914101666	-0.797466534883169
267000000	0.574089334366882	-0.807703771761717	-1.53570818039567E-05	2.08440059390734E-06			-1.15458298914262E-05	-5.2582701143533E-06	0.579105376942444	-0.796515291982557
267062500	0.573730187402495	-0.802900881279679	-7.08473057091864E-06	3.61290289138613E-05			-7.66099707860389E-06	4.52819362498893E-06	0.581027360861056	-0.798093712929856
267125000	0.575685502052741	-0.800856708778358	-2.19602897115882E-05	5.84481016628653E-05			6.82398051558945E-06	4.05559524763298E-05	0.579631689780774	-0.796688702736878
267187500	0.574580021085049	-0.80500146315382	2.36281444683502E-05	3.54794669239441E-05			1.58338839672428E-05	2.53201478838309E-05	0.579103811766647	-0.797994300286166
267250000	0.572101057242153	-0.805774063462415	1.12844427128474E-05	8.76222161965221E-06			9.88099755578295E-06	-1.46708306522073E-05	0.57965665814231	-0.797839866770212
267312500	0.572163847553124	-0.80533521444975	-1.72384572078263E-05	-2.24210487499124E-05			1.70135413835073E-05	-1.36081867146039E-05	0.580462648469775	-0.798588662662508
267375000	0.568655896068309	-0.803976929886768	-1.95181945862623E-07	3.05727287807801E-05			1.20348640689698E-05	1.5405260523642E-05	0.579063127613643	-0.797940654239318
267437500	0.574231261262852	-0.804794946974367	5.98231807750381E-05	-1.59873120902443E-05			5.04663338874814E-05	-7.28975143799526E-06	0.579952549122534	-0.797907150493284
267500000	0.570017291267964	-0.802610581895631	6.86780003586781E-06	-6.77404948126895E-05			2.36211029557282E-05	-6.62488871826018E-05	0.5785632729998	-0.799931608145035
267562500	0.569225372554222	-0.805217448731561	-1.66822245027229E-06	-1.54595751011501E-05			-8.44316202662323E-06	-3.68076118040406E-05	0.57763040621514	-0.798745522221172
267625000	0.572699380576156	-0.806886017780625	-1.80781313818974E-05	-4.01402890451616E-05			-3.95734810312162E-05	-2.19359540236773E-05	0.576568950797288	-0.80132957242924
267687500	0.571194146781277	-0.806018602959458	-5.03164970666742E-05	-4.52885969881763E-06			-1.33441084166046E-05	-3.22898586199617E-05	0.577842523697231	-0.802582609997284
267750000	0.565404999569697	-0.807504672305553	1.78511018591666E-05	-3.6287580593364E-05			5.64865296443709E-06	-9.7802223908053E-06	0.576775550766489	-0.800060261722885
267812500	0.566141508009924	-0.807335270299761	-3.01609668652471E-05	-2.73851691898678E-05			-3.67529006995038E-05	-2.63883427968134E-05	0.576838591837233	-0.799926136042772
267875000	0.569881680725766	-0.810569009301434	-6.9165652570296E-05	-2.28414110406142E-05			-5.73084788246182E-05	-1.72736208804069E-06	0.578438215562633	-0.801473048857442
267937500	0.564605199725279	-0.80872287609056	-2.36605343446608E-05	1.19579629834058E-05			-4.99147870706949E-05	3.97561885685037E-06	0.575381899752789	-0.799926847155816
268000000	0.566606119061996	-0.807248271577758	-2.32017223852356E-05	2.05761126890733E-05			-3.24727976849572E-05	2.54891024049589E-05	0.576702877414202	-0.801962794421025
268062500	0.564552017369595	-0.805839163880339	-1.14775183030162E-05	1.91075009970166E-06			-4.67628432310565E-06	1.27609734416953E-06	0.578179711502014	-0.801620858047558
268125000	0.563073948919821	-0.805629961423756	1.41190875604532E-05	-1.96746677936503E-05			2.4806544213931E-05	-3.35029442841398E-05	0.572927611994972	-0.802205195827235
268187500	0.565248331714587	-0.804146006219998	-1.79053162771631E-05	-3.29120544268862E-05			-4.62803470640723E-06	-3.99081993678081E-05	0.573517040754507	-0.802268938252207
268250000	0.563874437903035	-0.801764996810449	-2.81301810800874E-05	-6.6953578195241E-05			-2.40024101452302E-05	-5.99082958285582E-05	0.574731396073261	-0.801536947131189
268312500	0.562573525916267	-0.80445512557574	-9.40493740218076E-05	5.78315576036078E-07			-9.36323594789085E-05	-1.54762297048228E-05	0.574183686578371	-0.804096292064209
268375000	0.562504732698873	-0.802441787584161	-3.97153987738005E-05	9.33316307513554E-06			-3.33176948454081E-05	1.78358623262425E-05	0.572495624175176	-0.805364656642825
268437500	0.565801516245015	-0.802518374128955	-6.89599151737892E-05	-3.25501137789403E-06			-8.58644375071597E-05	-1.35737899577952E-05	0.570278940903107	-0.804251619530821
268500000	0.564442736955504	-0.804338133337247	-4.10411806142536E-05	2.81435328948311E-05			-4.15511821943286E-05	4.1065929137544E-05	0.572049768347285	-0.801264792686729
268562500	0.567368740201376	-0.803057622237639	1.09691879707287E-06	3.33199125961074E-05			-1.13212212350699E-05	4.91218280892253E-05	0.570118145970766	-0.80221331340821
268625000	0.568374968264428	-0.804841612207376	-1.65769332173247E-05	8.64723694546007E-06			2.10266445576741E-05	7.38705587592005E-06	0.569249420009228	-0.804306215000208
268687500	0.56339460375409	-0.804853404392947	-4.42887137261174E-07	1.71607213979056E-05			6.24488282456434E-06	-2.72254013326784E-06	0.568839332438389	-0.80356182885028
268750000	0.56547073129737	-0.805726224472485	8.7960979949965E-06	4.93343238981199E-06			1.78805626692659E-05	-2.22512687270333E-05	0.568337049595387	-0.800314347736253
268812500	0.563538836607247	-0.804925005680022	-2.89404072164447E-05	-1.69062253691464E-05			8.13673841650681E-07	-3.2096197325141E-05	0.568650758582626	-0.802725860007593
268875000	0.565301856373746	-0.805744496973127	-1.39976005454038E-05	-8.28309218544882E-07			1.28038928418256E-06	-2.82107320672486E-05	0.566754730516873	-0.802023770051248
268937500	0.563464211512025	-0.807035171147826	-3.13932478178219E-05	7.29314059458936E-06			-2.91714950945689E-05	1.24639268719336E-05	0.566841720056548	-0.802046368256476
269000000	0.564944127361006	-0.806648806181485	1.60633801629454E-05	-2.09665314433151E-05			-1.39038274158791E-05	-4.24540759058732E-05	0.568226981503208	-0.801966926605724
269062500	0.564616055946557	-0.807291995668192	-4.39550463171656E-05	-2.44825551916181E-05			-4.07053566058674E-05	-6.03451438180607E-05	0.567135098706729	-0.801742747764865
269125000	0.561824947186733	-0.807470911318955	-3.01646595555694E-05	-5.12696680569808E-05			-4.94507781381492E-05	-5.76515758291688E-05	0.568011949244803	-0.80229427935386
269187500	0.560870634825847	-0.807984101243054	-4.06181207205894E-05	-7.4878376487649E-06			-4.9415920707132E-05	-1.49676908291096E-06	0.565399743592896	-0.80253782871813
269250000	0.56235770141016	-0.807402910342859	-3.49870206519944E-05	-4.43807335129293E-05			-5.31650709544021E-05	-1.60223741353107E-05	0.568565423468084	-0.802457678278953
269312500	0.562783615387033	-0.807073357310032	-6.28095479779244E-05	-1.5610270969641E-05			-6.14899309220864E-05	-3.31403058076042E-05	0.566587151422631	-0.800134626218797
269375000	0.559994106629789	-0.809103715461956	-2.87063918907592E-05	-2.38507359311846E-05			-6.26981007785447E-05	-8.18562776042211E-06	0.56568944579377	-0.802045601121144
269437500	0.558875937371349	-0.808540221024215	-9.09867253892081E-05	-9.64431709341614E-06			-7.53313354004691E-05	3.14008086306953E-06	0.565883686353685	-0.800543649621841
269500000	0.563038751291973	-0.805311722992483	-4.93177615137204E-05	3.72971795511042E-05			-3.74624968900779E-05	3.61874970299108E-05	0.567770548095353	-0.801402706070199
269562500	0.55654960428165	-0.81008043092521	-2.76635758074219E-05	-1.67386155417286E-05			-4.48916539805663E-05	-3.18498620441207E-05	0.566601157148644	-0.799241888801626
269625000	0.559741869654188	-0.807809680809584	-7.92020349557925E-05	1.79935185184817E-05			-8.59795376126362E-05	1.07109673085471E-05	0.567169333944714	-0.802047536156755
269687500	0.560095117393869	-0.807675011692379	-4.67556677470921E-05	5.81538888927054E-05			-2.25705525959018E-05	7.12322476202621E-05	0.566076153309183	-0.802198247693145
269750000	0.558085121042925	-0.809050382016034	7.12174825901602E-05	-4.55585836730931E-06			3.21797155039438E-05	-1.22910407179941E-06	0.567320843955253	-0.802427701578001
269812500	0.559778561080625	-0.808406409826181	1.48517007175286E-05	-4.34834430531464E-05			1.44341845833139E-05	-6.82535054126851E-05	0.567331805488677	-0.801055173992219
269875000	0.558085977573996	-0.809097368263712	-3.5766582915413E-06	-7.65506816213886E-05			-1.65999354455551E-05	-6.53941187902237E-05	0.565664553401809	-0.803454672094789
269937500	0.558495341409397	-0.80928459402948	-5.02507240807745E-05	-8.41790191759811E-05			-7.60261634815893E-05	-9.91487020523216E-05	0.567463741192863	-0.80312962602898
270000000	0.557185970866852	-0.808376348402828	-1.07659525999238E-04	-4.96660749014854E-05			-8.48259002411164E-05	-4.17637847227029E-05	0.567059428506082	-0.80342431906811
270062500	0.557424828840971	-0.810515206335836	-1.20951254516735E-04	-4.60084141089086E-05			-1.26860366340782E-04	-6.81665356119285E-05	0.567565116564704	-0.80313506150747
270125000	0.556811631207804	-0.816668204740006	-1.20459701977223E-04	-1.75010025973652E-05			-1.22894025714691E-04	-4.01212948132174E-05	0.566373018144149	-0.805393215367948
270187500	0.555690410410027	-0.810587710278737	-1.48809768747277E-04	3.22903029162155E-05			-1.53799935524305E-04	1.22590722282516E-05	0.566855514889666	-0.806682227531921
270250000	0.555393022735625	-0.812129912731379	-1.18120396760904E-04	9.7995444078918E-05			-1.0755943688886E-04	7.60979196046168E-05	0.56503336178281	-0.804732225985587
270312500	0.555478925709187	-0.812075749642973	-8.90821874188566E-05	9.9439177234991E-05			-8.12866902948239E-05	1.08145936196423E-04	0.56536707829799	-0.804407917761198
270375000	0.555751123972608	-0.813095157436616	-1.15855805364408E-05	1.03248331561926E-04			-1.17276194542956E-05	1.13582338887853E-04	0.563260496931252	-0.806077456970907
270437500	0.553473329592976	-0.811302936076996	4.97071345643093E-05	7.34319182814521E-05			6.49815875015124E-05	5.70276589030875E-05	0.562007333758805	-0.805665544684963
270500000	0.552818401584079	-0.813371100011533	4.18720793075021E-05	-1.98700503588527E-05			6.56823516036228E-05	-3.37816157889296E-05	0.562820993289973	-0.806925263505885
270562500	0.552619342772553	-0.811485180717112	-4.71944657622938E-06	-6.50209402099966E-05			-1.95605913202223E-05	-9.65035302905031E-05	0.5618093309381	-0.80803422782083
270625000	0.554423724526722	-0.810308760375819	-6.18000968793939E-05	-6.58162691690108E-05			-6.92567137390534E-05	-7.15372448881706E-05	0.56205513203598	-0.806222629842841
270687500	0.553002224113071	-0.811612441480852	-9.343856927619E-05	-3.45806291116401E-05			-7.33139148669467E-05	-4.50026124073594E-05	0.560760080393308	-0.807161151350869
270750000	0.552079137622886	-0.810122121367512	-6.79622775228952E-05	-2.78606482677083E-05			-4.75845025196161E-05	-3.31756901706917E-05	0.561307854505779	-0.806931982857676
270812500	0.551879141543716	-0.811022285286118	-6.20473534219425E-05	7.60925272516297E-06			-5.86310474489267E-05	-3.16011967427341E-06	0.561489254451516	-0.805417326355172
270875000	0.552308055613879	-0.809647974878155	-5.50276524054324E-05	-1.17774227272273E-05			-3.32246650288117E-05	-3.44343145130056E-05	0.562128589503101	-0.806987780738663
270937500	0.553294986202125	-0.811660204226563	-6.28781002643797E-05	-6.07495102335459E-05			-3.68144750120265E-05	-7.28300823127306E-05	0.560575130934066	-0.806558031521463
271000000	0.552101206575399	-0.811276129776087	-6.92141554591132E-05	-6.96295332833781E-05			-5.55326773229649E-05	-4.89418959077849E-05	0.560167552341304	-0.806059551548525
271062500	0.552357612416947	-0.811750811989958	-1.12634641583825E-04	-4.72666081380308E-05			-8.86663990332287E-05	-6.1533385601086E-05	0.559422282258668	-0.808690628223001
271125000	0.55144318863527	-0.813493692697909	-1.08076655131095E-04	-5.6953944166747E-05			-1.41172232462646E-04	-7.97425581583069E-05	0.559681664857686	-0.808225696535642
271187500	0.550501071319212	-0.811837668791208	-1.22778648836024E-04	-2.72244942105273E-05			-1.06216703453981E-04	-2.30273850719356E-05	0.558858847990111	-0.807929972552092
271250000	0.549247584019071	-0.811880168849834	-1.33008580517556E-04	-2.95993314597642E-05			-1.59054460106774E-04	-5.59011203336721E-05	0.558293130685396	-0.809755746354902
271312500	0.549308733909973	-0.81374604152375	-1.2227804207838E-04	3.11606653380883E-05			-1.30019906448124E-04	4.01352052235477E-05	0.556431744915986	-0.807540865248044
271375000	0.546589050240625	-0.811220720654629	-1.08305694834405E-04	-4.76942724151434E-05			-1.39382484463852E-04	-2.0310468589673E-05	0.55772894111825	-0.808176494964906
271437500	0.548259562763039	-0.811502889860335	-1.17675462344677E-04	2.39255581186866E-06			-1.05650155396619E-04	1.31083169048571E-05	0.555332708889476	-0.807669080879615
271500000	0.548619936199189	-0.811311401200929	-1.42942348919584E-04	2.67926985628453E-05			-1.43898653066657E-04	9.43964426967484E-05	0.554879361390547	-0.807467475259929
271562500	0.547902199359864	-0.808754816241462	-7.14766491639195E-05	-8.83041428994995E-06			-9.48803329200409E-05	7.51771983713824E-07	0.555947464189224	-0.808508366043386
271625000	0.54561917346712	-0.809978146168887	-1.1090038059517E-04	-3.28603851141689E-05			-1.18676961468062E-04	-4.02686611016581E-05	0.556725165759108	-0.803629750165499
271687500	0.545150948924616	-0.80800811828202	-2.09560402038901E-04	-9.11320815503985E-06			-2.24318713044857E-04	6.40774521608574E-06	0.556649621798987	-0.80630331266467
271750000	0.550493583108509	-0.808441462016054	-1.42154013743504E-04	6.47152779723723E-05			-1.15042391562431E-04	5.59221198021091E-05	0.557347902717289	-0.807562045215787
271812500	0.550026479716176	-0.806573229065402	-1.29745479463426E-04	9.42825151835249E-05			-1.54653660030824E-04	6.29257809819542E-05	0.557360496302294	-0.807448744786737
271875000	0.553421853240598	-0.809132807528062	-1.23765387868649E-04	7.27484971227705E-05			-1.21560950939246E-04	6.87402390561099E-05	0.557364147840956	-0.80710153435756
271937500	0.553459551453484	-0.80551617956252	-9.94255451524748E-05	5.80596206043763E-05			-1.04131423294394E-04	8.82377647372761E-05	0.559016896796644	-0.809180682685748
272000000	0.553680937066581	-0.807801688327468	-9.46252726584407E-05	8.36998681054396E-05			-1.1114031251654E-04	7.35478444425002E-05	0.558309668437852	-0.809630974901644
272062500	0.551191570259772	-0.811884449043315	-9.85963143725067E-05	6.57759864527005E-05			-1.04344569911441E-04	5.74580431861823E-05	0.557258153592805	-0.809941650522001
272125000	0.552148419271209	-0.814064594099658	-7.80323495028179E-05	9.2582962991995E-05			-1.28755292716266E-04	9.00716622280428E-05	0.556385585298639	-0.809545577881849
272187500	0.552598904910794	-0.81432085877505	-1.05753920207565E-04	8.73113734327595E-05			-8.48060492671916E-05	1.08628889864399E-04	0.555466782115886	-0.811166779512126
