# Hz  S  RI  R  50
! ADVANTEST Corporation R3860A
! Date: Thu May 17 16:00:21 2018
1.0000000000e+007  9.834885e-001 -2.396490e-002  2.209274e-005  1.041572e-004  8.907286e-005  3.788032e-005  9.966359e-001 -3.223508e-002
1.1868750000e+007  9.995180e-001 -3.313571e-002  4.007491e-005  1.461987e-004 -5.752573e-005  1.925197e-004  9.995494e-001 -3.594142e-002
1.3737500000e+007  1.000145e+000 -3.959023e-002 -9.542709e-005 -2.920250e-005  2.155419e-005 -1.620868e-005  9.991756e-001 -4.130206e-002
1.5606250000e+007  1.000280e+000 -4.487024e-002  1.768357e-004 -3.044894e-004  1.422954e-004 -1.874226e-004  9.987848e-001 -4.714561e-002
1.7475000000e+007  1.000547e+000 -5.083362e-002 -1.164090e-005  2.007682e-005 -2.346380e-005 -1.152945e-005  9.973061e-001 -5.159741e-002
1.9343750000e+007  9.999281e-001 -5.618436e-002  4.505631e-006 -5.230962e-005  1.548549e-005 -1.194948e-004  9.987525e-001 -5.824246e-002
2.1212500000e+007  9.986266e-001 -6.141635e-002 -7.883953e-006  5.525835e-005 -5.304416e-005  4.718069e-005  9.976391e-001 -6.350902e-002
2.3081250000e+007  9.975880e-001 -6.716102e-002 -7.084887e-005 -8.752267e-005 -6.723524e-006 -9.947417e-005  9.960952e-001 -6.908739e-002
2.4950000000e+007  9.986179e-001 -7.302193e-002  1.308168e-005  1.043381e-005 -5.827795e-005 -4.237460e-006  9.970190e-001 -7.385994e-002
2.6818750000e+007  9.975215e-001 -7.740615e-002  1.033766e-005  1.503063e-004 -7.690856e-005  9.237415e-005  9.953548e-001 -7.976880e-002
2.8687500000e+007  9.964762e-001 -8.410697e-002  7.805966e-005 -6.705475e-006  5.612302e-005  6.131913e-005  9.952615e-001 -8.556705e-002
3.0556250000e+007  9.964054e-001 -9.002899e-002 -1.749746e-005  5.508351e-005 -4.941595e-005 -3.334118e-005  9.945809e-001 -9.128426e-002
3.2425000000e+007  9.953920e-001 -9.460178e-002  1.604584e-004  5.880654e-005  6.410616e-005  1.659738e-004  9.935163e-001 -9.704939e-002
3.4293750000e+007  9.957035e-001 -9.973864e-002  6.181917e-005 -7.285778e-005 -3.081764e-005  5.481202e-005  9.925797e-001 -1.020855e-001
3.6162500000e+007  9.940928e-001 -1.056347e-001  1.523027e-005  6.383262e-005  4.901494e-005  7.513730e-005  9.918469e-001 -1.076707e-001
3.8031250000e+007  9.937654e-001 -1.099184e-001  6.237182e-005  2.860420e-005  2.511897e-005  1.080168e-004  9.914318e-001 -1.126711e-001
3.9900000000e+007  9.933267e-001 -1.160936e-001 -3.562661e-005  4.182889e-005 -2.922563e-005  1.116228e-004  9.912777e-001 -1.189665e-001
4.1768750000e+007  9.938526e-001 -1.224057e-001 -3.440076e-005  1.150301e-004 -2.367412e-005  9.029473e-005  9.901205e-001 -1.239258e-001
4.3637500000e+007  9.921880e-001 -1.281310e-001 -2.144080e-007 -2.040018e-005 -5.872637e-005  1.674271e-005  9.883163e-001 -1.292317e-001
4.5506250000e+007  9.908438e-001 -1.338699e-001  3.049102e-005  1.832535e-004  4.295612e-005  1.736345e-004  9.890404e-001 -1.350437e-001
4.7375000000e+007  9.892667e-001 -1.389967e-001 -9.005035e-005  2.545198e-008 -1.917748e-004 -6.779371e-005  9.888692e-001 -1.384217e-001
4.9243750000e+007  9.892931e-001 -1.442419e-001 -1.032053e-004  1.427483e-004  3.314270e-005  6.846542e-005  9.873044e-001 -1.443957e-001
5.1112500000e+007  9.889374e-001 -1.496924e-001 -1.377794e-005  1.953865e-005  6.752577e-005  5.723242e-005  9.866298e-001 -1.512448e-001
5.2981250000e+007  9.873645e-001 -1.552167e-001 -3.988027e-005  1.217166e-004 -3.403338e-005  9.821234e-005  9.858570e-001 -1.567623e-001
5.4850000000e+007  9.857017e-001 -1.599205e-001  1.005817e-004  2.024146e-004  3.950357e-005  1.324600e-004  9.843572e-001 -1.620373e-001
5.6718750000e+007  9.856431e-001 -1.665670e-001 -3.628131e-005  3.047424e-005 -4.965749e-005  1.333493e-004  9.830314e-001 -1.667039e-001
5.8587500000e+007  9.841266e-001 -1.713655e-001  1.408223e-005  1.541894e-004  2.243180e-005  1.269101e-004  9.831579e-001 -1.723353e-001
6.0456250000e+007  9.836497e-001 -1.764612e-001  2.788613e-006  1.780686e-004  1.755485e-005  1.562457e-004  9.820046e-001 -1.780930e-001
6.2325000000e+007  9.813865e-001 -1.834588e-001 -1.424070e-005  1.137625e-004 -1.653556e-005  9.819594e-005  9.809198e-001 -1.831981e-001
6.4193750000e+007  9.805815e-001 -1.890434e-001  1.422736e-005  2.007764e-004  2.783250e-005  1.957101e-004  9.800195e-001 -1.889005e-001
6.6062500000e+007  9.802492e-001 -1.936388e-001  9.080861e-006  4.988369e-005  2.552780e-005  6.765746e-005  9.790822e-001 -1.943090e-001
6.7931250000e+007  9.785666e-001 -1.986964e-001  7.413136e-005  1.158271e-004  1.051231e-004  1.174749e-004  9.777102e-001 -1.996755e-001
6.9800000000e+007  9.775170e-001 -2.035268e-001 -4.909895e-005  1.716187e-004  2.665396e-005  1.574471e-004  9.776788e-001 -2.042987e-001
7.1668750000e+007  9.765143e-001 -2.092146e-001 -3.667302e-005  1.284194e-004 -1.805945e-005  1.444630e-004  9.762447e-001 -2.107219e-001
7.3537500000e+007  9.749160e-001 -2.145677e-001  6.746165e-005  1.458703e-004  5.608026e-005  1.181530e-004  9.740010e-001 -2.153158e-001
7.5406250000e+007  9.741917e-001 -2.193737e-001  4.730724e-005  1.139518e-004  5.017600e-005  1.019132e-004  9.730023e-001 -2.208650e-001
7.7275000000e+007  9.728723e-001 -2.254233e-001  4.049973e-005  1.131106e-004  3.762446e-005  1.169698e-004  9.716042e-001 -2.276263e-001
7.9143750000e+007  9.708512e-001 -2.300804e-001  1.110481e-004  1.807338e-004  7.836551e-005  1.728038e-004  9.701682e-001 -2.320032e-001
8.1012500000e+007  9.697801e-001 -2.346766e-001  2.353418e-005  1.876018e-004  3.284285e-005  2.438593e-004  9.697039e-001 -2.378992e-001
8.2881250000e+007  9.688320e-001 -2.407591e-001 -2.200685e-005  1.261148e-004 -1.560753e-005  1.370363e-004  9.682177e-001 -2.427917e-001
8.4750000000e+007  9.674483e-001 -2.454045e-001  3.617276e-005  1.695699e-004  3.998224e-005  1.404623e-004  9.658563e-001 -2.478162e-001
8.6618750000e+007  9.655479e-001 -2.504266e-001  1.212794e-004  5.553448e-005  1.091919e-004  8.687961e-005  9.649079e-001 -2.544167e-001
8.8487500000e+007  9.641100e-001 -2.558485e-001  7.726610e-005  1.989137e-004  2.076335e-005  1.636146e-004  9.631926e-001 -2.589905e-001
9.0356250000e+007  9.633209e-001 -2.611788e-001  4.578157e-005  2.394727e-004  3.203431e-005  3.224052e-004  9.625202e-001 -2.647198e-001
9.2225000000e+007  9.619888e-001 -2.666669e-001  5.274675e-005  1.869188e-004 -2.158060e-005  1.855815e-004  9.601338e-001 -2.697796e-001
9.4093750000e+007  9.599305e-001 -2.717601e-001  1.403087e-004  1.968242e-004  1.445276e-004  1.774447e-004  9.590578e-001 -2.741080e-001
9.5962500000e+007  9.586685e-001 -2.764456e-001  2.572207e-004  6.220434e-005  3.094079e-004  1.007491e-004  9.570005e-001 -2.793777e-001
9.7831250000e+007  9.575617e-001 -2.820192e-001  1.107844e-004  1.304120e-004  5.314859e-005  4.936114e-005  9.568835e-001 -2.855211e-001
9.9700000000e+007  9.558513e-001 -2.880554e-001  9.415388e-006  1.126149e-004  1.242605e-005  1.543801e-004  9.551770e-001 -2.907141e-001
1.0156875000e+008  9.548714e-001 -2.930152e-001  1.056063e-004  1.573215e-004  4.756204e-005  1.806133e-004  9.520901e-001 -2.959643e-001
1.0343750000e+008  9.518032e-001 -2.996369e-001 -5.523611e-005  3.115314e-004 -6.557973e-005  3.311675e-004  9.504418e-001 -3.013239e-001
1.0530625000e+008  9.507897e-001 -3.044891e-001  4.899724e-005  1.294482e-004  5.207265e-005  1.526443e-004  9.489983e-001 -3.059270e-001
1.0717500000e+008  9.493546e-001 -3.088386e-001  2.601920e-005  1.598639e-004  8.539565e-005  1.818985e-004  9.473114e-001 -3.099867e-001
1.0904375000e+008  9.471563e-001 -3.140837e-001  2.609816e-005  1.820065e-004  5.018902e-005  2.292071e-004  9.457033e-001 -3.164559e-001
1.1091250000e+008  9.455863e-001 -3.194060e-001  1.568718e-004  2.900040e-005  1.527435e-004  1.012513e-004  9.427009e-001 -3.219103e-001
1.1278125000e+008  9.444438e-001 -3.245951e-001  6.144645e-005  2.619840e-004  4.877441e-005  2.569958e-004  9.417471e-001 -3.273710e-001
1.1465000000e+008  9.419627e-001 -3.289759e-001  7.377316e-005  1.662951e-004  9.363026e-005  1.629464e-004  9.399579e-001 -3.322761e-001
1.1651875000e+008  9.404259e-001 -3.347704e-001  9.761728e-005  2.422695e-004  1.008368e-004  2.035008e-004  9.384251e-001 -3.367687e-001
1.1838750000e+008  9.384518e-001 -3.400568e-001  4.824501e-005  1.998688e-004  2.694483e-005  2.182276e-004  9.363033e-001 -3.415879e-001
1.2025625000e+008  9.366262e-001 -3.447475e-001  2.085383e-004  1.816987e-004  1.809023e-004  1.546966e-004  9.334499e-001 -3.471839e-001
1.2212500000e+008  9.341291e-001 -3.501683e-001  5.574288e-005  2.086054e-004  3.509796e-005  1.868459e-004  9.323674e-001 -3.526695e-001
1.2399375000e+008  9.319551e-001 -3.547184e-001  1.532610e-004  2.662486e-004  2.489462e-004  2.775738e-004  9.294989e-001 -3.567607e-001
1.2586250000e+008  9.302675e-001 -3.598588e-001  1.489699e-004  1.773434e-004  1.449964e-004  1.744151e-004  9.278224e-001 -3.618391e-001
1.2773125000e+008  9.277680e-001 -3.656933e-001  2.555487e-005  2.145854e-004  4.642468e-005  1.722414e-004  9.259485e-001 -3.667435e-001
1.2960000000e+008  9.263868e-001 -3.695916e-001  1.595386e-004  1.594838e-004  9.252890e-005  2.070239e-004  9.231905e-001 -3.715290e-001
1.3146875000e+008  9.245370e-001 -3.761825e-001  2.768118e-006  2.658094e-004  4.178533e-005  2.534505e-004  9.218876e-001 -3.769842e-001
1.3333750000e+008  9.217881e-001 -3.808080e-001  5.409671e-005  1.881361e-004  7.719732e-006  1.939954e-004  9.200804e-001 -3.817122e-001
1.3520625000e+008  9.198244e-001 -3.855276e-001  5.495594e-005  2.263780e-004  6.299280e-005  2.460507e-004  9.181123e-001 -3.862854e-001
1.3707500000e+008  9.177427e-001 -3.912482e-001  7.289338e-005  2.059671e-004  6.137478e-005  2.358499e-004  9.156458e-001 -3.919724e-001
1.3894375000e+008  9.162595e-001 -3.956293e-001  2.650185e-005  2.808626e-004  9.018987e-005  2.511224e-004  9.123492e-001 -3.965266e-001
1.4081250000e+008  9.126198e-001 -4.006619e-001  4.701019e-005  2.921156e-004  2.626819e-005  3.396047e-004  9.107888e-001 -4.016655e-001
1.4268125000e+008  9.106826e-001 -4.056082e-001  1.271013e-004  2.096843e-004  5.434642e-005  2.526468e-004  9.093606e-001 -4.065045e-001
1.4455000000e+008  9.086934e-001 -4.098590e-001  6.601650e-006  2.571333e-004  7.853601e-005  2.336759e-004  9.077979e-001 -4.101253e-001
1.4641875000e+008  9.064799e-001 -4.152688e-001  1.376449e-004  2.294048e-004  1.291098e-004  2.944614e-004  9.038758e-001 -4.162386e-001
1.4828750000e+008  9.043056e-001 -4.194009e-001  1.326766e-004  2.750860e-004  1.087948e-004  2.594088e-004  9.019822e-001 -4.216819e-001
1.5015625000e+008  9.026626e-001 -4.253035e-001  8.293326e-005  2.478130e-004  1.458809e-004  2.610852e-004  8.997284e-001 -4.269374e-001
1.5202500000e+008  8.997896e-001 -4.303250e-001  1.105835e-004  2.528405e-004  1.709932e-004  2.412857e-004  8.970756e-001 -4.316022e-001
1.5389375000e+008  8.977781e-001 -4.353619e-001  8.674485e-005  2.708865e-004  1.410959e-004  2.609007e-004  8.950107e-001 -4.365472e-001
1.5576250000e+008  8.951532e-001 -4.398864e-001  8.557717e-005  1.805307e-004  9.372242e-005  3.301193e-004  8.923946e-001 -4.412181e-001
1.5763125000e+008  8.921148e-001 -4.439792e-001  1.370489e-005  8.335532e-005  6.977133e-005  1.298856e-004  8.901416e-001 -4.456626e-001
1.5950000000e+008  8.894476e-001 -4.480464e-001  8.783807e-005  2.158097e-004  6.340665e-005  1.908795e-004  8.885570e-001 -4.501500e-001
1.6136875000e+008  8.877388e-001 -4.530993e-001  1.156782e-004  2.431040e-004  1.371873e-004  2.937936e-004  8.859924e-001 -4.556575e-001
1.6323750000e+008  8.851634e-001 -4.578211e-001  1.449953e-004  2.712143e-004  1.331445e-004  2.571880e-004  8.834320e-001 -4.609793e-001
1.6510625000e+008  8.827477e-001 -4.624211e-001  1.748872e-004  3.482560e-004  1.473318e-004  2.711178e-004  8.803852e-001 -4.656183e-001
1.6697500000e+008  8.799773e-001 -4.677357e-001  1.888441e-004  2.340102e-004  1.556889e-004  2.571746e-004  8.775253e-001 -4.704846e-001
1.6884375000e+008  8.772461e-001 -4.726220e-001  1.206890e-004  2.581506e-004  1.409038e-004  2.452303e-004  8.748196e-001 -4.759215e-001
1.7071250000e+008  8.740970e-001 -4.774103e-001  1.374147e-004  3.059666e-004  1.084397e-004  3.567120e-004  8.722894e-001 -4.804487e-001
1.7258125000e+008  8.712872e-001 -4.814124e-001  1.446940e-004  4.815818e-004  8.848667e-005  4.984718e-004  8.693857e-001 -4.835108e-001
1.7445000000e+008  8.692089e-001 -4.864737e-001  2.014588e-004  2.959686e-004  1.775823e-004  2.908479e-004  8.671228e-001 -4.882734e-001
1.7631875000e+008  8.665440e-001 -4.908443e-001  1.279227e-004  2.665470e-004  1.878975e-004  2.627765e-004  8.641368e-001 -4.933906e-001
1.7818750000e+008  8.646498e-001 -4.962216e-001  1.898997e-004  3.145357e-004  2.215038e-004  2.779249e-004  8.617930e-001 -4.985273e-001
1.8005625000e+008  8.607651e-001 -4.994730e-001  1.773370e-004  2.338303e-004  2.159676e-004  1.909614e-004  8.586314e-001 -5.035076e-001
1.8192500000e+008  8.593818e-001 -5.057748e-001  1.617499e-004  2.397190e-004  1.636365e-004  3.169092e-004  8.561472e-001 -5.073733e-001
1.8379375000e+008  8.565620e-001 -5.108269e-001  1.831268e-004  2.743240e-004  1.415675e-004  3.159659e-004  8.534030e-001 -5.115973e-001
1.8566250000e+008  8.535799e-001 -5.150839e-001  1.925255e-004  2.862345e-004  1.900709e-004  3.424480e-004  8.489207e-001 -5.171978e-001
1.8753125000e+008  8.499097e-001 -5.196815e-001  1.170611e-004  2.655689e-004  9.707716e-005  2.524153e-004  8.465685e-001 -5.209859e-001
1.8940000000e+008  8.462970e-001 -5.222905e-001  2.288560e-004  3.540600e-004  1.855665e-004  3.733007e-004  8.437595e-001 -5.256562e-001
1.9126875000e+008  8.450245e-001 -5.280832e-001  1.618583e-004  2.724680e-004  1.546836e-004  2.683822e-004  8.411424e-001 -5.291189e-001
1.9313750000e+008  8.415558e-001 -5.322058e-001  1.222344e-004  3.338334e-004  1.527946e-004  3.459931e-004  8.384042e-001 -5.344420e-001
1.9500625000e+008  8.386190e-001 -5.365915e-001  2.095439e-004  2.408083e-004  2.273443e-004  1.845231e-004  8.341628e-001 -5.383065e-001
1.9687500000e+008  8.356157e-001 -5.411704e-001  1.705031e-004  3.202787e-004  1.656590e-004  3.129492e-004  8.321256e-001 -5.428379e-001
1.9874375000e+008  8.321975e-001 -5.445889e-001  1.640226e-004  3.031830e-004  1.946850e-004  3.026207e-004  8.286861e-001 -5.481738e-001
2.0061250000e+008  8.296638e-001 -5.506632e-001  1.598296e-004  2.996099e-004  1.949686e-004  2.901469e-004  8.261096e-001 -5.524468e-001
2.0248125000e+008  8.264464e-001 -5.554629e-001  2.171780e-004  3.481472e-004  2.147499e-004  2.944276e-004  8.230533e-001 -5.570833e-001
2.0435000000e+008  8.235032e-001 -5.596569e-001  1.982070e-004  3.714887e-004  2.115514e-004  4.474600e-004  8.200796e-001 -5.594882e-001
2.0621875000e+008  8.210347e-001 -5.635603e-001  2.654926e-004  2.985682e-004  2.693794e-004  3.202404e-004  8.172286e-001 -5.653050e-001
2.0808750000e+008  8.173327e-001 -5.682003e-001  2.252817e-004  2.610195e-004  2.203081e-004  2.618323e-004  8.135817e-001 -5.694491e-001
2.0995625000e+008  8.149056e-001 -5.718262e-001  1.955750e-004  3.155005e-004  2.101307e-004  2.832247e-004  8.112750e-001 -5.740359e-001
2.1182500000e+008  8.107577e-001 -5.768886e-001  2.134746e-004  3.540259e-004  2.108359e-004  3.065174e-004  8.083028e-001 -5.780330e-001
2.1369375000e+008  8.078707e-001 -5.813980e-001  1.512946e-004  2.887513e-004  1.594142e-004  3.286530e-004  8.044689e-001 -5.829101e-001
2.1556250000e+008  8.045132e-001 -5.857217e-001  1.810827e-004  2.183471e-004  1.993800e-004  2.789927e-004  8.009715e-001 -5.872458e-001
2.1743125000e+008  8.014501e-001 -5.900264e-001  1.866953e-004  3.283107e-004  1.639315e-004  3.403061e-004  7.979590e-001 -5.917550e-001
2.1930000000e+008  7.977472e-001 -5.929961e-001  3.446308e-004  2.868040e-004  3.893683e-004  2.542420e-004  7.939560e-001 -5.941669e-001
2.2116875000e+008  7.947393e-001 -5.975545e-001  2.276517e-004  3.177343e-004  1.623449e-004  3.189968e-004  7.915448e-001 -5.984351e-001
2.2303750000e+008  7.910348e-001 -6.016538e-001  1.652566e-004  2.873374e-004  2.093213e-004  2.896138e-004  7.886395e-001 -6.029450e-001
2.2490625000e+008  7.879509e-001 -6.062292e-001  1.850804e-004  3.222045e-004  2.380679e-004  2.846135e-004  7.851390e-001 -6.078502e-001
2.2677500000e+008  7.849984e-001 -6.100101e-001  1.935533e-004  3.248807e-004  2.008768e-004  3.008866e-004  7.815828e-001 -6.125214e-001
2.2864375000e+008  7.827453e-001 -6.139245e-001  2.113377e-004  3.111176e-004  2.161119e-004  2.493882e-004  7.786324e-001 -6.159370e-001
2.3051250000e+008  7.781419e-001 -6.194428e-001  2.118805e-004  3.486487e-004  1.872179e-004  3.108971e-004  7.756414e-001 -6.207424e-001
2.3238125000e+008  7.745587e-001 -6.224407e-001  2.550920e-004  2.474069e-004  2.528283e-004  2.682592e-004  7.710657e-001 -6.250311e-001
2.3425000000e+008  7.699420e-001 -6.263322e-001  2.276131e-004  1.915548e-004  1.939811e-004  2.352039e-004  7.668788e-001 -6.281000e-001
2.3611875000e+008  7.669427e-001 -6.293975e-001  2.670262e-004  3.381636e-004  2.732220e-004  3.675990e-004  7.653145e-001 -6.317260e-001
2.3798750000e+008  7.641179e-001 -6.345196e-001  2.332708e-004  2.750606e-004  2.382168e-004  2.799585e-004  7.613695e-001 -6.355916e-001
2.3985625000e+008  7.607725e-001 -6.383969e-001  2.438093e-004  2.927306e-004  2.771369e-004  2.964298e-004  7.583269e-001 -6.402504e-001
2.4172500000e+008  7.574638e-001 -6.421011e-001  2.553311e-004  3.205527e-004  2.455101e-004  3.585946e-004  7.538131e-001 -6.441758e-001
2.4359375000e+008  7.540475e-001 -6.461499e-001  3.188767e-004  2.919474e-004  2.928312e-004  3.088552e-004  7.515136e-001 -6.488047e-001
2.4546250000e+008  7.501537e-001 -6.493891e-001  2.724715e-004  2.811316e-004  2.394523e-004  3.157915e-004  7.476406e-001 -6.526557e-001
2.4733125000e+008  7.466332e-001 -6.547042e-001  3.105016e-004  2.626578e-004  3.063706e-004  2.253280e-004  7.444940e-001 -6.561954e-001
2.4920000000e+008  7.433652e-001 -6.589089e-001  2.638715e-004  2.922162e-004  3.071377e-004  2.752776e-004  7.405868e-001 -6.608245e-001
2.5106875000e+008  7.397258e-001 -6.611930e-001  2.995116e-004  2.411807e-004  3.292517e-004  2.502460e-004  7.366595e-001 -6.641302e-001
2.5293750000e+008  7.373180e-001 -6.654657e-001  2.700976e-004  2.258007e-004  2.958789e-004  2.633010e-004  7.335024e-001 -6.678857e-001
2.5480625000e+008  7.333067e-001 -6.691875e-001  2.545740e-004  3.469026e-004  2.705227e-004  3.443531e-004  7.301576e-001 -6.727161e-001
2.5667500000e+008  7.293924e-001 -6.726713e-001  2.991533e-004  2.985992e-004  2.403641e-004  2.725151e-004  7.262006e-001 -6.761438e-001
2.5854375000e+008  7.256454e-001 -6.767018e-001  2.791061e-004  2.506984e-004  3.042814e-004  2.972106e-004  7.228577e-001 -6.801262e-001
2.6041250000e+008  7.222765e-001 -6.809971e-001  2.885455e-004  3.583176e-004  2.923029e-004  3.379953e-004  7.194695e-001 -6.835303e-001
2.6228125000e+008  7.187986e-001 -6.849205e-001  2.563109e-004  2.725558e-004  2.373943e-004  2.707599e-004  7.143989e-001 -6.877053e-001
2.6415000000e+008  7.148563e-001 -6.889780e-001  2.867317e-004  3.186264e-004  2.687600e-004  3.455858e-004  7.104771e-001 -6.915979e-001
2.6601875000e+008  7.110208e-001 -6.919333e-001  4.100650e-004  4.309448e-004  4.245196e-004  4.459783e-004  7.066370e-001 -6.937342e-001
2.6788750000e+008  7.077854e-001 -6.956837e-001  3.119673e-004  3.315301e-004  3.001445e-004  3.445167e-004  7.036542e-001 -6.982192e-001
2.6975625000e+008  7.042255e-001 -7.000685e-001  2.443197e-004  2.983040e-004  2.851964e-004  3.431946e-004  6.997778e-001 -7.025925e-001
2.7162500000e+008  7.005846e-001 -7.037134e-001  3.198050e-004  3.038278e-004  3.643475e-004  3.141143e-004  6.955052e-001 -7.065884e-001
2.7349375000e+008  6.965680e-001 -7.082380e-001  3.503943e-004  2.940709e-004  3.558517e-004  3.328461e-004  6.914630e-001 -7.089724e-001
2.7536250000e+008  6.927684e-001 -7.115005e-001  3.099639e-004  2.793092e-004  3.136440e-004  3.351607e-004  6.873274e-001 -7.130550e-001
2.7723125000e+008  6.885511e-001 -7.147708e-001  3.521234e-004  3.910742e-004  3.364501e-004  3.329410e-004  6.838751e-001 -7.165552e-001
