# Hz S RI R 50
500000000	0.278510670669281	-0.93953973885015	9.48173803880827E-04	1.88509279280834E-04			9.47229244615188E-04	1.74018776307444E-04	0.266337527974627	-0.935243483610073
500687500	0.274441188705874	-0.940057303654113	9.2833521602473E-04	1.99099224773464E-04			9.37725376614116E-04	2.05754543712307E-04	0.263981256790845	-0.936308171115402
501375000	0.273512644830311	-0.940833562065721	9.51769561888386E-04	1.55550420279776E-04			9.4185438730382E-04	2.06242043676574E-04	0.262712070526758	-0.937952815920002
502062500	0.273157004939067	-0.941969413041	9.49404034060799E-04	1.69077658907605E-04			9.66210951247538E-04	1.71848055032262E-04	0.258727172594992	-0.937788060465277
502750000	0.270851820480757	-0.941873554625621	9.49301761707381E-04	1.6993598203403E-04			9.33969991656463E-04	1.82884165398377E-04	0.25829598161567	-0.937596713891693
503437500	0.266920601600757	-0.941791909513625	9.28219839472558E-04	1.59001136120641E-04			9.41740277847171E-04	1.54373596609556E-04	0.256727851665736	-0.939263606482557
504125000	0.266467814829047	-0.942402358865146	9.39903836525787E-04	1.652796213674E-04			9.48888855075983E-04	1.8573310662747E-04	0.255642870940517	-0.939054311290597
504812500	0.265740852367121	-0.942919934551604	9.20377756097444E-04	1.69362131065253E-04			9.31110805338345E-04	1.76369866921396E-04	0.253035592051741	-0.939740761463691
505500000	0.265688486392455	-0.945322521252226	9.4463998218747E-04	1.49025214054036E-04			9.49187489871303E-04	1.73508899010202E-04	0.250587743732254	-0.93747367745145
506187500	0.260014111017846	-0.944590570864172	9.39512494301876E-04	1.55656697348699E-04			9.30335355041732E-04	1.717996722251E-04	0.251933708123031	-0.939642895616805
506875000	0.259142046548737	-0.944548864074561	9.28680808354697E-04	1.66500455404038E-04			9.37560668844978E-04	1.83222838778974E-04	0.249839205896125	-0.942026843952259
507562500	0.258068613932659	-0.946000029395699	9.37425990722334E-04	1.46215191167361E-04			9.46875302773716E-04	1.60900432385763E-04	0.24724058934759	-0.940192922933354
508250000	0.257443294994718	-0.944387999038358	9.25716817922233E-04	1.75006018078961E-04			9.24005274116228E-04	1.57346190122159E-04	0.246520866343044	-0.939996564736431
508937500	0.254721933846235	-0.945883836845767	9.31676446804611E-04	1.67138475928145E-04			9.13582777649378E-04	1.67078015823988E-04	0.244127923164251	-0.939165182599413
509625000	0.254405492873351	-0.945361534129986	9.32714134852661E-04	1.73719136987652E-04			9.12498744976095E-04	1.7375074957251E-04	0.243130228358796	-0.939802951807006
510312500	0.252007853969777	-0.946167112504482	9.12814085171504E-04	1.51577999118785E-04			9.27108972680549E-04	1.46639275925226E-04	0.240116437649243	-0.939958993075209
511000000	0.250989626965224	-0.945726826090894	9.1528005944618E-04	1.63175241143104E-04			8.99983496381762E-04	1.70112562921776E-04	0.239043069754631	-0.940699854018231
511687500	0.249624757150402	-0.946375227235112	9.14371352254954E-04	1.60580057946576E-04			9.22084422490588E-04	1.7129234229944E-04	0.238684002736036	-0.944392720549574
512375000	0.248826710721447	-0.947032734636503	9.35635372813851E-04	1.71545113314241E-04			9.40419355477085E-04	1.53882837229602E-04	0.235052029434954	-0.943870394648103
513062500	0.245612273300728	-0.947523300382037	9.43509727027906E-04	1.64707905188744E-04			9.29059726819624E-04	1.62740547977595E-04	0.233573569445495	-0.941659364963953
513750000	0.244128256896767	-0.948387148286923	9.45153015582618E-04	1.54562157317752E-04			9.30790496663721E-04	1.75996118794848E-04	0.232198853168342	-0.944843711262699
514437500	0.242634969835993	-0.948683242453526	9.4140025092994E-04	1.71850311552164E-04			9.26670431581198E-04	1.58640703438958E-04	0.230015278895897	-0.942528954124464
515125000	0.240388195505098	-0.949463294954752	9.44189613048901E-04	1.7171179606525E-04			9.35162048157166E-04	1.63091560255968E-04	0.229177009337123	-0.94482530997528
515812500	0.239716148698263	-0.948332481005637	9.36066595325999E-04	1.80535398990091E-04			9.19360166908981E-04	1.68093433085785E-04	0.22782264556422	-0.943309352033253
516500000	0.237223481328032	-0.947719093068966	9.3605755740458E-04	1.67942522334853E-04			9.31638859648275E-04	1.53684625190305E-04	0.226346899181372	-0.943476293935796
517187500	0.237557758777468	-0.948842348412589	9.27600959027606E-04	1.80696683495552E-04			9.44333079007662E-04	1.87615384079273E-04	0.222080052842799	-0.944739542826569
517875000	0.234904647041919	-0.949693708928303	9.28777469521359E-04	1.97270435797351E-04			9.22099768241819E-04	1.76996361381437E-04	0.221076044727536	-0.943674016935152
518562500	0.232947138558064	-0.950044820754879	9.27054929537897E-04	1.61465807205613E-04			9.36795120773712E-04	1.76124892872683E-04	0.221725985534027	-0.947651108466197
519250000	0.230973462567723	-0.950368999110643	9.38837998919717E-04	1.76870806778773E-04			9.31398695215732E-04	1.7176388863124E-04	0.217009727925022	-0.947821928325747
519937500	0.230218050125824	-0.949935240367592	9.27607865729873E-04	1.57929387817419E-04			9.40355529691759E-04	1.5539742881621E-04	0.217839479123112	-0.947899676364992
520625000	0.228429014976818	-0.950908320566953	9.24425020683937E-04	1.79806834277709E-04			9.51241284582207E-04	1.78190848623047E-04	0.21543633732808	-0.947476374758794
521312500	0.226144974602212	-0.950583770536964	9.45259667414974E-04	1.83927711645091E-04			9.2318141415396E-04	1.73580591270291E-04	0.215330614172553	-0.946769621346045
522000000	0.225268738470293	-0.952581328735354	9.64869401536664E-04	1.68062198701024E-04			9.40189902590957E-04	1.97022870020477E-04	0.213989348510417	-0.947526712112322
522687500	0.222654043315724	-0.952364010875009	9.38034288479331E-04	1.82662602791621E-04			9.32067301331738E-04	1.69321054742658E-04	0.211158157847584	-0.94750124703149
523375000	0.221477622773085	-0.952184133614064	9.28348709877043E-04	1.80492885081229E-04			9.09083112470997E-04	1.78319129170701E-04	0.209437657656707	-0.947921772731337
524062500	0.218976722948551	-0.951767138448357	9.39297060437916E-04	1.72593724143071E-04			9.5474896199148E-04	2.17859226566591E-04	0.209723659441704	-0.948415606104879
524750000	0.217421606584657	-0.952120211665986	9.52087966699458E-04	1.92644514725172E-04			9.6437524545022E-04	1.77747563019875E-04	0.206092436008049	-0.947877244295288
525437500	0.216607819901389	-0.952388390609938	9.62818256791681E-04	1.86176976641166E-04			9.69995703324108E-04	1.70813194094018E-04	0.203503427385707	-0.948715246729304
526125000	0.215655250398965	-0.954836204420374	9.51003383683833E-04	1.99855765650447E-04			9.6072274783257E-04	1.84674064009525E-04	0.200468865753554	-0.948144765240941
526812500	0.212603097089204	-0.954637164227363	9.51190618181803E-04	1.72992597014857E-04			9.39805716997668E-04	1.80695549164581E-04	0.200565473652268	-0.948117817674177
527500000	0.211237110501745	-0.954573326310408	9.41945812185917E-04	1.82078524624037E-04			9.84310559230564E-04	1.95838605273446E-04	0.196453234817827	-0.949532618221244
528187500	0.209512608770347	-0.954142778460847	9.29789344829458E-04	1.89702631013094E-04			9.65052941585907E-04	1.83028910247391E-04	0.196961909120524	-0.947563270385184
528875000	0.207747246187235	-0.954264389037955	9.47672620897004E-04	1.68043209530453E-04			9.54015134144203E-04	1.91709709854979E-04	0.193923964202104	-0.949103356985936
529562500	0.207684193298547	-0.95557567560141	9.45490744630605E-04	1.97899214493368E-04			9.49516424407468E-04	1.58885718076976E-04	0.193945242266168	-0.950575942937084
530250000	0.205333591355228	-0.955978805016491	9.67539093793622E-04	1.75135917573008E-04			9.74613647174386E-04	1.79383852447401E-04	0.19382243435283	-0.94992805073538
530937500	0.203088843891936	-0.956822979716579	9.72169057525988E-04	1.9163740617779E-04			9.56247535332237E-04	2.09583866340891E-04	0.19105928209408	-0.952146976301293
531625000	0.200986055299791	-0.956148382933544	9.67052126595925E-04	1.78773907852201E-04			9.23824822676443E-04	1.67494277441751E-04	0.190313612243086	-0.95373925754218
532312500	0.199748090430413	-0.956263980339157	9.75671886374121E-04	1.93632320585795E-04			9.71728103424159E-04	1.90172991580674E-04	0.188244681734943	-0.953440910938058
533000000	0.198910480527133	-0.957516961464543	9.51585442108341E-04	1.93474899630428E-04			9.64434137060984E-04	1.80627371293588E-04	0.188833682355379	-0.952670837978118
533687500	0.196495524826674	-0.95749863075773	9.61099114102405E-04	1.91249843134608E-04			9.50681619204749E-04	1.85758848456917E-04	0.185612571760614	-0.95316879306476
534375000	0.195117141119134	-0.957482589756649	9.55205359283315E-04	1.83694981112283E-04			9.65314599118883E-04	2.02433350330538E-04	0.18429067570702	-0.952108072281795
535062500	0.193224667390246	-0.958613492833283	9.83426031849291E-04	1.79708657856216E-04			9.72649853160387E-04	1.89882107127526E-04	0.180310446333763	-0.953022169775409
535750000	0.191362982714962	-0.958191792251249	9.97696862801913E-04	1.90490998379397E-04			9.8108545715021E-04	1.75248025710915E-04	0.180722800461048	-0.95367069192646
536437500	0.189980202301583	-0.958250845727076	9.7860277279407E-04	1.82619105679802E-04			9.78134989891525E-04	1.73169391160808E-04	0.177764903699147	-0.953598022566735
537125000	0.188792611074286	-0.958983761313231	9.59234726693229E-04	2.03010994881524E-04			9.51887043964431E-04	1.83379171429282E-04	0.175732162487328	-0.953929622032696
537812500	0.187397815622602	-0.959800437957391	9.66691388386117E-04	2.14919031228806E-04			9.43981554520937E-04	1.9596709126881E-04	0.172823813251744	-0.955073294267548
538500000	0.185002023377818	-0.959684667795509	9.67083257745386E-04	1.85041027578389E-04			9.7522263758233E-04	1.90689232292103E-04	0.173002398649631	-0.956043548561642
539187500	0.18384340013709	-0.960679734265231	9.67532006123323E-04	1.95513553999347E-04			9.90045298905579E-04	1.93849285300089E-04	0.168694408291531	-0.952895494741415
539875000	0.181894106499461	-0.960787773890196	9.99861543614973E-04	2.07250555628843E-04			9.80460685970438E-04	1.99336300500286E-04	0.168303643808245	-0.956886719815931
540562500	0.179184837672636	-0.960423037275319	9.96713866018603E-04	2.14433547966634E-04			9.86502643066995E-04	1.83833247618845E-04	0.168048463201253	-0.955204963904246
541250000	0.177595264152472	-0.960528111933489	9.88906248263407E-04	1.68929110464284E-04			9.95395728013435E-04	2.19348166586061E-04	0.166652553188056	-0.956117849958418
541937500	0.176328783749257	-0.961537219892158	9.68439906547119E-04	2.11292438286158E-04			9.75331052347882E-04	2.02031199235273E-04	0.162304873794496	-0.957719597185835
542625000	0.175124279795108	-0.96150274255488	1.00267930554899E-03	1.95060444497829E-04			9.76990196579771E-04	2.52178520857378E-04	0.15996842120138	-0.956250190652433
543312500	0.173038496352814	-0.961737360836416	1.00843248194538E-03	2.11771003434914E-04			1.01761996484383E-03	2.08249625937297E-04	0.159754119757836	-0.955794721560036
544000000	0.171254260730003	-0.962773174984543	1.03047327348568E-03	2.04351060467475E-04			1.02812710383481E-03	1.79178634968308E-04	0.160728029364466	-0.955407292308261
544687500	0.169936847032167	-0.962241713042204	1.00278795441975E-03	2.13483466803224E-04			1.00762055203401E-03	2.05692892010878E-04	0.1592205050968	-0.954615408531801
545375000	0.167749024580356	-0.962776121083454	9.88454076631093E-04	2.00844551515431E-04			9.71607032647679E-04	1.82261243134275E-04	0.157457726707578	-0.959044965668585
546062500	0.167135797492353	-0.963309971916785	1.00208834399783E-03	2.13129899233764E-04			1.0014449675226E-03	2.19316602361395E-04	0.155315218597899	-0.957758256445701
546750000	0.165246725724003	-0.962834442533068	9.93606289884656E-04	2.13723698701112E-04			9.98869980445245E-04	2.11765725065465E-04	0.151140214223617	-0.958726854198145
547437500	0.164096421183185	-0.964452557867434	1.01162790773248E-03	2.0979473824824E-04			9.94987786714365E-04	2.1148679073811E-04	0.150480159821434	-0.959035346289071
548125000	0.16135209887985	-0.963867368324162	1.02637516671637E-03	2.25093476615074E-04			1.01491594627633E-03	2.04173803176625E-04	0.148372421155473	-0.959172714383513
548812500	0.159624774352919	-0.964471819411361	1.02372290761219E-03	2.17577110324783E-04			1.00814674249458E-03	2.20653261145432E-04	0.147382462700865	-0.957335193422291
549500000	0.158208324374023	-0.96430785895642	1.01740120631644E-03	2.38624435405501E-04			1.00573540789012E-03	2.20173809333264E-04	0.145208834963945	-0.961497639670531
550187500	0.157793186725128	-0.963552045936955	1.0193082390177E-03	2.25918035485042E-04			1.00161062174372E-03	2.23897025916704E-04	0.144523042294347	-0.95888705416937
550875000	0.15417886077475	-0.964447294965081	1.03290668161153E-03	2.21023424326217E-04			1.03208501101985E-03	2.17559742758243E-04	0.147923014551099	-0.957170487290986
551562500	0.15265599557807	-0.965343063636752	1.05187718944799E-03	2.1972668543836E-04			1.04294788836728E-03	2.27769007872845E-04	0.139550888538805	-0.962336421177888
552250000	0.151004673023185	-0.966446254229812	1.0300063154277E-03	2.09171621528915E-04			1.0497613762247E-03	2.29154922308625E-04	0.136978441642982	-0.959183887092043
552937500	0.149967800299981	-0.965037427180486	1.03822066868139E-03	2.53392026242332E-04			1.01646162437409E-03	2.36280520191226E-04	0.137585414648309	-0.96138408287253
553625000	0.148590068859021	-0.966551971884172	1.03300151937265E-03	2.29332149865393E-04			1.04510476118389E-03	2.37783324769641E-04	0.136944020938206	-0.959386994623095
554312500	0.147001924901609	-0.964913678009417	1.0652957374405E-03	2.51399726771663E-04			1.03431519823762E-03	2.51306851111683E-04	0.131114129720251	-0.962171954465038
555000000	0.143794219146259	-0.966803604329472	1.04686495626195E-03	2.27830386318214E-04			1.06257092950824E-03	2.2580919389787E-04	0.133642380368484	-0.959035241102426
555687500	0.141882868991898	-0.966913746220785	1.05802301505551E-03	2.5580977012435E-04			1.05727514357684E-03	2.2658724733749E-04	0.129364826405437	-0.960582096888647
556375000	0.140774784778562	-0.967188045196866	1.05911812607201E-03	2.40823489714936E-04			1.05605114227485E-03	2.62835394566881E-04	0.128384210450642	-0.962458759445269
557062500	0.138999627520795	-0.968262197597798	1.06073699008831E-03	2.82725702945821E-04			1.0365128628013E-03	2.60695370737096E-04	0.123727575274325	-0.962527816319301
557750000	0.137214530975386	-0.96850304187475	1.08274704220779E-03	2.65035356367466E-04			1.08557169450093E-03	2.25885774407161E-04	0.1245388304085	-0.962223638584007
558437500	0.135941862681204	-0.968214978948299	1.09446514670842E-03	2.56896984581834E-04			1.10294781796191E-03	2.28804105379371E-04	0.12135265749156	-0.961691683321127
559125000	0.13361666964084	-0.968062888015371	1.09248518189166E-03	2.09471810750022E-04			1.08261348530891E-03	2.41905246546589E-04	0.123284167360038	-0.960916133979294
559812500	0.132569121463075	-0.968913668571409	1.08338123411955E-03	2.39039782375208E-04			1.08210528702926E-03	2.36920618324566E-04	0.120592589249277	-0.962065837440124
560500000	0.130048328416346	-0.966833740165128	1.10136804611902E-03	2.55963218068435E-04			1.09044991438891E-03	2.58805461770361E-04	0.118940422790676	-0.96288663096229
561187500	0.128669427067783	-0.966694354141262	1.10760031108716E-03	2.35767906049696E-04			1.09113998432967E-03	2.22965548533718E-04	0.116082588507423	-0.961273893155
561875000	0.127266533598845	-0.968584078861677	1.12885562176357E-03	2.45954021240199E-04			1.11084365176845E-03	2.58991227667292E-04	0.114976806004824	-0.962128746568429
562562500	0.126048074736983	-0.96806794048762	1.13249785294556E-03	2.4222430026481E-04			1.1240394640355E-03	2.38382527989256E-04	0.111492921856413	-0.961281376203742
563250000	0.121739111058172	-0.96738807218248	1.09234513400923E-03	2.65697600329754E-04			1.12518436391696E-03	2.31843356792666E-04	0.107576762153699	-0.961848255952164
563937500	0.120466891338832	-0.96875736575176	1.15125320374004E-03	2.33864905747144E-04			1.13008864833329E-03	2.38706857888693E-04	0.109260658989345	-0.964193385730865
564625000	0.119640088684788	-0.969077494785941	1.15066125643369E-03	2.5683933218744E-04			1.14674873450304E-03	2.47104121863161E-04	0.106135525995735	-0.96326939350962
565312500	0.118153260413047	-0.970983132057332	1.15795461210067E-03	2.44619170364708E-04			1.14257075063095E-03	2.36442046638998E-04	0.104565878197228	-0.961980017385478
566000000	0.116158685580198	-0.969641332109459	1.15924636216245E-03	2.42014503107286E-04			1.15032762737742E-03	2.37288493134003E-04	0.102744380224989	-0.962210725727257
566687500	0.114406871498918	-0.97170762840333	1.16598732826555E-03	1.9658912381183E-04			1.14893573008358E-03	2.13099720468219E-04	0.100952007062962	-0.963639851793431
567375000	0.113746895229082	-0.969962375754589	1.16041521849799E-03	2.54389616839759E-04			1.17289919016396E-03	2.28325714669069E-04	9.97933621815335E-02	-0.964188987953924
568062500	0.111695286041195	-0.969979583268833	1.17058090931713E-03	2.03453725258303E-04			1.17056765994738E-03	2.20908408986402E-04	9.75546714055526E-02	-0.964723745889626
568750000	0.109851205689926	-0.969397736941336	1.15415122139568E-03	2.27500680415102E-04			1.17977730117148E-03	2.24934081473137E-04	9.68017386686305E-02	-0.963747027023623
569437500	0.106303403766293	-0.97147479688064	1.16089125518885E-03	2.22677878532958E-04			1.17955197222935E-03	2.35759598775774E-04	9.47699682630934E-02	-0.963988066324989
570125000	0.105123594602174	-0.972708169131375	1.19941221453684E-03	2.24141942286473E-04			1.1991058363231E-03	2.27569797601546E-04	9.29297431420514E-02	-0.963683808796314
570812500	0.103459997871594	-0.97260097196941	1.21031840439648E-03	2.2593622524355E-04			1.20818453481751E-03	2.26678754230397E-04	9.18733042041742E-02	-0.962995771330271
571500000	0.102822052435758	-0.971847833737414	1.21077080303535E-03	1.8232950133828E-04			1.21048730630183E-03	2.00838452051913E-04	8.93278813562565E-02	-0.964419416985314
572187500	0.100084471698231	-0.970921542169128	1.21377175231995E-03	2.04454997416501E-04			1.23610568675302E-03	1.95012291609444E-04	8.86586275635702E-02	-0.963012861274555
572875000	0.100009057679231	-0.973740339802381	1.25612114815717E-03	1.68458128286777E-04			1.23371873862705E-03	2.04759645813397E-04	8.55494732796317E-02	-0.962839834177379
573562500	9.69119466712329E-02	-0.968418981177988	1.21079618695117E-03	1.84081444551081E-04			1.19206236124689E-03	1.9007971857948E-04	8.59499404584341E-02	-0.96433710627382
574250000	9.64398678428828E-02	-0.97066166314599	1.19687580755533E-03	1.8829054169044E-04			1.23242619483961E-03	1.87861439039481E-04	8.18410524100345E-02	-0.964380535913266
574937500	9.37153462103043E-02	-0.971885681608493	1.21625064475272E-03	1.76421166093183E-04			1.23107513517453E-03	1.89610623942404E-04	7.94580310347542E-02	-0.963038159895648
575625000	9.36223846796336E-02	-0.972984921975511	1.21184403825774E-03	1.78457154989922E-04			1.21428203218443E-03	1.82941503322885E-04	7.82118126348262E-02	-0.964007293215308
576312500	0.091326469157953	-0.972689663414225	1.23494473437943E-03	1.8674308418258E-04			1.2198374714174E-03	2.11431059618572E-04	7.84775765799244E-02	-0.965406146932011
577000000	8.68864450642817E-02	-0.969236358536797	1.25582223606526E-03	1.60276105530508E-04			1.25164223663405E-03	1.75936563974878E-04	7.64709020079903E-02	-0.965315816681261
577687500	8.84475981109849E-02	-0.970812776157037	1.21394790827802E-03	0.000157558353783			1.23591185429296E-03	1.28275277398596E-04	7.44771476768825E-02	-0.964007841272722
578375000	8.67396527681406E-02	-0.97215424686796	1.23017709514043E-03	1.65279275695982E-04			1.22686438393026E-03	1.56227240453262E-04	7.26540583736353E-02	-0.963724868245815
579062500	8.37504635520675E-02	-0.973203917197578	1.21277584320417E-03	1.75869981608179E-04			1.24754347857944E-03	1.62358320397189E-04	7.00802430941733E-02	-0.964639944963824
579750000	8.39669037180699E-02	-0.972736467184073	1.24210163695163E-03	1.60162402652397E-04			1.25196132049855E-03	1.63554165928862E-04	6.78160579067907E-02	-0.964444933698661
