# Hz S RI R 50
400000000	-0.570120685198632	-0.757377752643661	-1.91455616256458E-03	2.70548682431274E-03			-1.90582913799284E-03	2.70115444256744E-03	-0.522987254703605	-0.782730750740515
400187500	-0.5727173261982	-0.757896734836687	-1.99038468740301E-03	2.75366283891066E-03			-1.93709833466817E-03	2.6536385825458E-03	-0.525248543130188	-0.780734135532804
400375000	-0.57469977376595	-0.756988273923733	-1.8293853231993E-03	2.64153597806605E-03			-1.80031556919863E-03	2.68547363574888E-03	-0.52686522812201	-0.780762716535079
400562500	-0.578035180603279	-0.755576102458072	-1.83069808182749E-03	2.61802319588252E-03			-1.72211616190326E-03	2.63283822206187E-03	-0.52913702941471	-0.782353419694902
400750000	-0.58093568795584	-0.754052048752172	-1.79937376971212E-03	2.50175206674307E-03			-1.84951831638492E-03	2.51226353904342E-03	-0.531806244927481	-0.780224014661868
400937500	-0.583349570137198	-0.754368241090113	-1.85971251596226E-03	2.39814334313753E-03			-1.8592207071824E-03	2.55371601733045E-03	-0.533606986783521	-0.778942078856943
401125000	-0.585723359991209	-0.75468860897154	-1.85073530221214E-03	2.44563209665971E-03			-1.82345675949949E-03	2.49132351312757E-03	-0.536832114268416	-0.778384536385213
401312500	-0.587376605072534	-0.7521829198647	-1.88240287002565E-03	0.002457690547655			-1.88062130208763E-03	2.48487844026092E-03	-0.541694810199265	-0.779373933845295
401500000	-0.591640499500808	-0.751794941379391	-1.92452839574523E-03	2.49469789570422E-03			-1.85655872455426E-03	2.44745767557353E-03	-0.541259291698421	-0.776969265277027
401687500	-0.59428166081761	-0.747267226951798	-2.00797764098219E-03	2.52236363140944E-03			-1.90032804364687E-03	2.48778813903587E-03	-0.547283809263145	-0.777113602699483
401875000	-0.595918237725701	-0.747717583266998	-1.96077550647614E-03	2.54307538992915E-03			-1.92314985727134E-03	2.49645941389488E-03	-0.549033618579185	-0.775881238470153
402062500	-0.597940761727927	-0.744245195678148	-1.9114525088417E-03	2.46346176743434E-03			-1.92612714788469E-03	2.42252109942008E-03	-0.551575062022648	-0.773388861139389
402250000	-0.602388176522224	-0.742399990383133	-1.88597204932455E-03	2.53271212262709E-03			-1.95654218086839E-03	2.46555915514022E-03	-0.553920514066164	-0.771721743108533
402437500	-0.601824491260861	-0.740478545600376	-1.96319471578245E-03	2.51323571744809E-03			-1.91516291718418E-03	2.56202885462808E-03	-0.556723531374806	-0.769470761112886
402625000	-0.602692062249328	-0.735523030942085	-1.80957275585074E-03	2.50004322166946E-03			-1.94522362067687E-03	2.54794598925647E-03	-0.559093567604743	-0.768670237560988
402812500	-0.606402617493664	-0.735179575802001	-1.9578195399855E-03	2.44162404711421E-03			-1.96466879291052E-03	2.54532230876224E-03	-0.561368803258644	-0.767003839137338
403000000	-0.605982803482798	-0.7331814902684	-1.9726536039579E-03	2.54511511936459E-03			-1.8912783264334E-03	2.5582617999501E-03	-0.563214254682629	-0.763613316402105
403187500	-0.608229745132241	-0.733149658594054	-1.91080589742026E-03	2.50658341175936E-03			-1.96849596389479E-03	2.56122732655859E-03	-0.562997949983361	-0.758996344271144
403375000	-0.609326343793668	-0.726995366620443	-1.97654383165859E-03	2.5404250073472E-03			-1.97887513117563E-03	2.46752104322766E-03	-0.56485110454352	-0.760140576890854
403562500	-0.609908234254362	-0.729135396834527	-2.02257615512355E-03	2.55249050002387E-03			-1.90996912520027E-03	2.45749666922585E-03	-0.565897273332518	-0.757023208039946
403750000	-0.610313430804616	-0.725445352749578	-2.13530662546939E-03	2.57426185961458E-03			-2.03998065380564E-03	2.47398574630579E-03	-0.565740613391974	-0.756082548167879
403937500	-0.609314727903664	-0.723543332204474	-2.09838220989487E-03	2.58829476455315E-03			-2.0597677600658E-03	2.54273764279437E-03	-0.567195569191098	-0.753081735344128
404125000	-0.609242546200846	-0.723455378193354	-2.10167696292286E-03	2.6437983544532E-03			-2.08843814298821E-03	2.57412203644352E-03	-0.568248842677473	-0.752118271819725
404312500	-0.613208101733589	-0.721790167313644	-2.07234535576123E-03	2.66369630062804E-03			-2.07355726936289E-03	2.69173807199106E-03	-0.568113538564936	-0.749692449655294
404500000	-0.612434647421101	-0.720594459818989	-2.12447654651937E-03	2.78696090908554E-03			-2.15132852798952E-03	2.84301311495516E-03	-0.567740388572232	-0.749853985387929
404687500	-0.615227816049029	-0.719859975853164	-2.09266587913145E-03	2.9139697905602E-03			-2.08354140414008E-03	2.83961657721344E-03	-0.570035500860142	-0.748318063509707
404875000	-0.615278610462277	-0.717984221013973	-1.92499381854028E-03	3.00168725654057E-03			-1.90900638216825E-03	3.02387143653029E-03	-0.569853464966185	-0.747030799298887
405062500	-0.615482143338847	-0.719740029872179	-1.90848603126336E-03	3.06081139564267E-03			-1.90341312287953E-03	3.02140254119928E-03	-0.571552086283499	-0.746200233047705
405250000	-0.617455618243318	-0.717665156974323	-1.80841513146894E-03	3.02167004045615E-03			-1.76448524212338E-03	3.2030350830026E-03	-0.570210542264276	-0.747852659907777
405437500	-0.616092328639997	-0.716998218484086	-1.61649518424521E-03	3.04155652146738E-03			-1.62684378005658E-03	2.99922235515767E-03	-0.571586976214767	-0.746990210882107
405625000	-0.622717468708501	-0.714850387475203	-1.58430350789915E-03	3.0245909359273E-03			-1.63772560606943E-03	2.95517473789165E-03	-0.573215075926165	-0.747423510772213
405812500	-0.6207090728474	-0.71732948098315	-1.56723124896196E-03	2.91189931902714E-03			-1.6357020136714E-03	2.94709866268014E-03	-0.576730188909539	-0.745847374644188
406000000	-0.623394586166118	-0.717572343857926	-1.50565888188398E-03	2.76344623791671E-03			-1.45390321208716E-03	2.84918317195243E-03	-0.576423091786065	-0.74609011212316
406187500	-0.6256105234876	-0.716059467076025	-1.44981787820603E-03	2.76172314141835E-03			-1.48769966181487E-03	2.72039393473738E-03	-0.580697913658673	-0.744396282427679
406375000	-0.629022464687724	-0.714498922480159	-1.52091581285713E-03	2.66694201311772E-03			-1.44976680368544E-03	2.70838068108287E-03	-0.581919044320484	-0.745444684550749
406562500	-0.629818587143652	-0.712891103005377	-1.5358375513261E-03	2.71793354415282E-03			-1.53743603485638E-03	2.66115630033491E-03	-0.584874894472265	-0.74479114543993
406750000	-0.633645253140548	-0.712644422780669	-1.59607181897281E-03	2.64854456113908E-03			-1.64199241157119E-03	2.67502401237944E-03	-0.586336001049731	-0.744434339991131
406937500	-0.635660066307266	-0.710450526145809	-1.64923722367653E-03	2.68781221490884E-03			-1.57006134654971E-03	2.64524588247533E-03	-0.590715549779513	-0.740816216657421
407125000	-0.635069329795988	-0.711577134362056	-1.59684713709274E-03	2.60528676512584E-03			-1.5830080697637E-03	2.67986992730355E-03	-0.591431990606873	-0.741229982050715
407312500	-0.640524438078841	-0.706645507316493	-1.5546606415358E-03	2.60188523756738E-03			-1.57527542354015E-03	2.61434147042392E-03	-0.594351229777887	-0.739416955647238
407500000	-0.641764556824161	-0.707021866900181	-1.65146165322048E-03	2.60907435775538E-03			-1.65412122665473E-03	2.54784305226461E-03	-0.596603650831631	-0.738538732180302
407687500	-0.644026899533118	-0.702069453098711	-1.64977550631157E-03	2.5572155890276E-03			-1.69506957255104E-03	2.62701510673911E-03	-0.599365723443864	-0.735612222745947
407875000	-0.644895291679627	-0.70227771009499	-1.71386597134923E-03	2.64005953859979E-03			-1.69674582941362E-03	2.61588122434852E-03	-0.599902647738093	-0.734710806223774
408062500	-0.646136401148709	-0.702931267316464	-1.7312189049344E-03	2.67967137252281E-03			-1.64605203475484E-03	2.7257014104441E-03	-0.602887224123341	-0.731033126395612
408250000	-0.651833751756555	-0.697095246990943	-1.68875546398997E-03	2.64551563701368E-03			-1.69420923569016E-03	2.63621418235718E-03	-0.604989679089891	-0.730273973141645
408437500	-0.650975414879714	-0.697969491287756	-1.75513993438084E-03	2.65065901611983E-03			-1.77773318776587E-03	2.60003813930327E-03	-0.606040381544781	-0.72768825741467
408625000	-0.653499629014724	-0.693442318524622	-1.78043787221728E-03	2.67325729997415E-03			-1.7688016904687E-03	2.73822321912606E-03	-0.60848503428266	-0.72706340488779
408812500	-0.653980626433134	-0.691352572128432	-1.72766608666838E-03	2.66323707763043E-03			-1.61298547587087E-03	2.70643689884245E-03	-0.609931863746617	-0.724403889617144
409000000	-0.655320438095389	-0.689543653953376	-1.82400579301944E-03	2.78861878740407E-03			-1.68773926462607E-03	2.77720169111451E-03	-0.60983873790614	-0.723158622640429
409187500	-0.655801864841139	-0.688632755932003	-1.66109739074061E-03	2.66060439859719E-03			-1.7435646382561E-03	2.73709285447802E-03	-0.612433336522852	-0.719824270146612
409375000	-0.660852311922381	-0.685713770784079	-1.69943783836061E-03	2.68264557830201E-03			-1.66104014091773E-03	2.66693170076575E-03	-0.613874739782482	-0.71909920929722
409562500	-0.658398457333998	-0.683365122504697	-1.73221513916034E-03	2.74792166959895E-03			-1.73406085848427E-03	2.71890185424982E-03	-0.615050727323948	-0.717665857590692
409750000	-0.660718619012509	-0.680885639117124	-1.65138538727965E-03	2.7980065997885E-03			-1.66221712245867E-03	2.80744520464502E-03	-0.616446009748327	-0.716449901311292
409937500	-0.662318051043991	-0.679401284756111	-1.70066433236221E-03	2.77562829331462E-03			-1.61339772152464E-03	2.76120457084862E-03	-0.617955257589063	-0.713147888487498
410125000	-0.661692298670291	-0.676065362875974	-1.71292588311082E-03	2.79099784427333E-03			-1.69855347122791E-03	2.80451997064533E-03	-0.617624961306256	-0.711736493369355
410312500	-0.660847604271195	-0.675630318167996	-1.68187659432771E-03	2.72210739107584E-03			-1.68513651575692E-03	2.78971250787539E-03	-0.618137411939557	-0.710719203220724
410500000	-0.662497116312873	-0.673865648432546	-1.67403901220935E-03	2.79083172654002E-03			-1.65150479742586E-03	2.79542099998694E-03	-0.619890143237679	-0.708305310527398
410687500	-0.663182690130109	-0.6732448054711	-1.52022531448018E-03	2.80938081371614E-03			-1.56291251191247E-03	2.77432318472496E-03	-0.619651826534384	-0.706048938178813
410875000	-0.664914229442383	-0.67096667175647	-1.59956392610225E-03	2.69014020003959E-03			-1.46221814214688E-03	2.76714735071672E-03	-0.621973172976902	-0.704819071072289
411062500	-0.665381964704312	-0.672790963998957	-1.47812036159874E-03	2.6230341398309E-03			-1.56001737154006E-03	2.51068408057567E-03	-0.620493173085947	-0.70604351411618
411250000	-0.667816359140298	-0.672353009076141	-1.63836722269764E-03	2.58740138983521E-03			-1.52961269024075E-03	2.58153034677992E-03	-0.622590452795529	-0.705696156722007
411437500	-0.670990734024963	-0.672110423398209	-1.61217891361272E-03	2.54368256656057E-03			-1.5422846578674E-03	2.56662188156275E-03	-0.624586185183051	-0.705796534923694
411625000	-0.674349846395541	-0.669163790866187	-1.79169385518045E-03	2.59433548165653E-03			-1.64434411249544E-03	2.54438800402199E-03	-0.628343490005897	-0.704675770061078
411812500	-0.674353003615788	-0.669809847354896	-1.80374928437083E-03	2.53423252669455E-03			-1.74704171707276E-03	2.63128836024448E-03	-0.631172120450176	-0.702027980042473
412000000	-0.680400667126834	-0.66532157591305	-1.79225727126632E-03	2.61533518110004E-03			-1.78580150146145E-03	2.72613474029927E-03	-0.630145243411443	-0.70183260818903
412187500	-0.676692602597291	-0.666028974706203	-1.80862268108652E-03	2.68300728340945E-03			-1.84903508837075E-03	2.68176097853091E-03	-0.635077816454078	-0.699177756124506
412375000	-0.682190511446294	-0.662420422833827	-1.91196051776387E-03	2.68136126132498E-03			-1.90797686600343E-03	2.71566618781122E-03	-0.63888182931527	-0.69748237557539
412562500	-0.681605724140606	-0.659525084433042	-1.92836489958046E-03	2.6846547625931E-03			-1.93969729917452E-03	2.67125276202703E-03	-0.638438657203676	-0.695924589014562
412750000	-0.684829975269332	-0.65819147515026	-1.87244434834852E-03	2.80874473409212E-03			-1.90089024805605E-03	2.80385923800366E-03	-0.64065600518921	-0.693217556350236
412937500	-0.684005571233837	-0.654918835416744	-1.8506706866338E-03	2.81920312451474E-03			-1.86848257551996E-03	2.89695630306102E-03	-0.641159173308334	-0.69258622204922
413125000	-0.686005134609444	-0.65449661077136	-1.90112947916154E-03	2.82280327142839E-03			-1.84612142773871E-03	2.84502752356538E-03	-0.646287004342897	-0.69076674744168
413312500	-0.688204624336362	-0.651029705661041	-1.88713578738847E-03	2.88797398350365E-03			-1.81011438750446E-03	2.83305778715085E-03	-0.646665639664253	-0.686094104105535
413500000	-0.68924944984627	-0.649048398400667	-1.97034259898643E-03	2.84811697139246E-03			-1.91040937884223E-03	2.92455553710171E-03	-0.646475647048513	-0.685080390951908
413687500	-0.690349213658338	-0.646278473000933	-1.87084026525328E-03	3.03438661385512E-03			-1.92917554714294E-03	3.01845387135353E-03	-0.648221223437407	-0.681185530931701
413875000	-0.689477164036603	-0.644902830376782	-1.83604713370493E-03	3.00427313676421E-03			-1.82128394650416E-03	3.00433786069294E-03	-0.646162481917803	-0.680633237873725
414062500	-0.693200319468421	-0.644127824753567	-1.78779716697376E-03	3.03344843499892E-03			-1.78328409390054E-03	3.10495012154892E-03	-0.650098899436897	-0.678365256579853
414250000	-0.69331912667509	-0.641754598960463	-1.80040525777809E-03	3.0327457525883E-03			-1.76184247513708E-03	3.10026563964456E-03	-0.650207681542675	-0.677281015627796
414437500	-0.696700693311347	-0.640619030095076	-1.80170737722816E-03	3.08757596101252E-03			-1.67069413952555E-03	3.16065606551097E-03	-0.651490735080744	-0.676154584644509
414625000	-0.696129558892828	-0.640069972560929	-1.7020750964304E-03	3.23962799534761E-03			-1.73084732288829E-03	3.13966822920898E-03	-0.653663527458864	-0.673718737740442
414812500	-0.699330357368898	-0.638615963888888	-1.60492361093756E-03	3.08829319427532E-03			-1.70569436551255E-03	3.10398715491416E-03	-0.654110946024369	-0.673018583579034
415000000	-0.701700645401865	-0.636294542068681	-1.60720373035078E-03	3.15774952931614E-03			-1.63255460314241E-03	3.09825771354471E-03	-0.65640263730653	-0.67221663673864
415187500	-0.702768212967749	-0.635221081148013	-1.65817461371999E-03	3.19336045319062E-03			-1.60215994800424E-03	3.18333764577357E-03	-0.658932673113348	-0.670852625153102
415375000	-0.707171950233242	-0.63201800394287	-1.5760438434435E-03	3.10260390900793E-03			-1.62214389327853E-03	3.06016209073193E-03	-0.661616431735834	-0.669112382240571
415562500	-0.707298999084711	-0.629080518686723	-1.64324645304146E-03	3.08682360183439E-03			-1.6853732948001E-03	3.10495331101516E-03	-0.662661674292702	-0.666631612308733
415750000	-0.711334994314787	-0.626183878303971	-1.65796449401468E-03	3.15954617175405E-03			-1.54653393364017E-03	3.18246806644299E-03	-0.665555083205839	-0.664839769624617
415937500	-0.714775929774393	-0.624542801347744	-1.50658646556376E-03	0.003123040884932			-1.48595550171641E-03	3.08979835257711E-03	-0.6659140638375	-0.662691590827134
416125000	-0.71610086122002	-0.621602234943433	-1.54602711891902E-03	3.04426557478789E-03			-1.50524117889815E-03	3.1284094900433E-03	-0.671525274757151	-0.659826438593199
416312500	-0.718742059781283	-0.616575661440831	-1.59462786951468E-03	3.27477838605504E-03			-1.59956838003861E-03	3.10918026971538E-03	-0.67336471798134	-0.658146419214265
416500000	-0.718674809451443	-0.613302287954139	-1.60576447217622E-03	3.15445739463842E-03			-1.57592227798562E-03	3.19190421902677E-03	-0.673843401902138	-0.652890918386352
416687500	-0.72150185946439	-0.610060957286425	-1.5274566059475E-03	3.19696050556002E-03			-1.54376399012743E-03	3.22184742808609E-03	-0.680813708888801	-0.65086734327325
416875000	-0.726159796370154	-0.606406128546727	-1.55563994183798E-03	3.20159113430733E-03			-1.60636041559963E-03	3.27966203698304E-03	-0.681696403334571	-0.647329858551687
417062500	-0.725297936519143	-0.59849638931657	-1.41789912966037E-03	3.14842495526594E-03			-1.55776559883332E-03	3.19887538721832E-03	-0.682275798153308	-0.642472966042844
417250000	-0.728101767761414	-0.592879411764243	-1.37736984492499E-03	3.24965438722443E-03			-1.39163009052116E-03	3.1700119159963E-03	-0.681191647202868	-0.634749951980163
417437500	-0.724940283043795	-0.585543319292284	-1.29463059421534E-03	3.27030591881471E-03			-1.37690128343451E-03	3.20644628556976E-03	-0.686354059294601	-0.627313878557751
417625000	-0.723355780707434	-0.574354847153335	-1.2759748227881E-03	0.003048647296955			-1.32150321609417E-03	3.18342749974464E-03	-0.683263910550647	-0.61727659419385
417812500	-0.712257224148286	-0.564161828119774	-1.44678865794314E-03	3.03931765545539E-03			-1.47942402284458E-03	3.11121540309107E-03	-0.675095276762351	-0.607752735804614
418000000	-0.687909255763586	-0.568335402669541	-1.39688833944177E-03	3.31295112858238E-03			-1.35345586076688E-03	3.33885443866828E-03	-0.654126419224192	-0.609164869412944
418187500	-0.688369666015706	-0.588207580493748	-1.18657081943377E-03	3.15020323570236E-03			-1.18756734523286E-03	3.11574296522876E-03	-0.652420156734523	-0.627052123064175
418375000	-0.699826770715176	-0.597860408394759	-1.32805027586027E-03	2.94248136026792E-03			-1.36780799506037E-03	3.06389579106888E-03	-0.660917538134237	-0.637334929303006
418562500	-0.705913699838392	-0.59684686018271	-1.46685174066569E-03	3.04938138008621E-03			-1.49121340386163E-03	2.92934038894447E-03	-0.668879017076327	-0.635880470434903
418750000	-0.713358344694651	-0.594840803162424	-1.50922322414341E-03	0.002975631055024			-1.45143028722691E-03	3.01426264422726E-03	-0.675347478918883	-0.634731590035837
418937500	-0.717949868665274	-0.59096803841865	-0.001541777510972	3.04643130524218E-03			-1.48700183884456E-03	3.06047262926728E-03	-0.679133534917211	-0.632687323551199
419125000	-0.721803045517878	-0.585428516067785	-1.53146076348626E-03	3.13305216472788E-03			-1.52696951074166E-03	3.07176071222636E-03	-0.684793081950068	-0.629622670285141
419312500	-0.723875802230265	-0.582668820539376	-1.52806888719558E-03	3.11569335498591E-03			-1.61129092465436E-03	3.09904593523727E-03	-0.685879233116499	-0.625571124268928
419500000	-0.724555141476137	-0.578906499043806	-1.50453179562546E-03	3.19337554949152E-03			-1.51186383076849E-03	3.23154924367507E-03	-0.687611880491013	-0.620834185711317
419687500	-0.726667910195271	-0.572636220583627	-1.41445399468642E-03	3.31321149318779E-03			-1.40759740164622E-03	3.36846823917065E-03	-0.687992194679111	-0.615487080529808
419875000	-0.727146624038945	-0.569794284557966	-1.42776333788268E-03	3.26494986027015E-03			-1.42138305330636E-03	3.25106787527084E-03	-0.691891040329455	-0.613622859850548
420062500	-0.727589212229708	-0.564623671557023	-1.38415464804012E-03	3.35610872658764E-03			-1.27881990634286E-03	3.3369347535775E-03	-0.692220302824185	-0.607879758391485
420250000	-0.72555959915367	-0.55646281398717	-1.25356275228156E-03	3.38820774990186E-03			-1.2083675303213E-03	3.22473835095642E-03	-0.694422621554151	-0.60180580172759
420437500	-0.724427504565051	-0.551658248566886	-1.23213414224587E-03	3.18686987842996E-03			-1.30868210765844E-03	3.17945833421424E-03	-0.694222478204405	-0.596059606303796
420625000	-0.715957993590592	-0.547555472713636	-1.38809379825515E-03	0.003326758167725			-1.35462457514832E-03	3.27393777383681E-03	-0.691033594016342	-0.58845927977485
420812500	-0.705842949483902	-0.549576164391683	-1.33774919000253E-03	3.21557360559257E-03			-1.40323118118272E-03	3.2150532682014E-03	-0.686079422241302	-0.583971428137055
421000000	-0.701349960516109	-0.555701641508309	-1.34182616242618E-03	3.29932578612538E-03			-1.27064527637798E-03	3.33941104740679E-03	-0.681366837451402	-0.583331246836774
421187500	-0.701147874693897	-0.564128914977309	-1.25936595864948E-03	3.28836424069672E-03			-1.21921522288449E-03	3.36027190020785E-03	-0.675371220278112	-0.583496587308326
421375000	-0.705537460626628	-0.569379731675224	-1.22720925868483E-03	3.30659786399831E-03			-1.09328773487326E-03	3.21174192443986E-03	-0.671080302205892	-0.584661796361306
