# Hz S RI R 50
262000000	0.189564751873215	-0.921681854248048	1.42453317008348E-02	2.15176617257253E-03			1.41769345491838E-02	2.19439548211199E-03	0.222207978605641	-0.907004995898765
262062500	0.187068413158885	-0.923155198835363	1.42674804368213E-02	2.13405754978101E-03			1.42581082471348E-02	2.08500695234754E-03	0.221408700849281	-0.90740084427558
262125000	0.185350768192028	-0.922645835744455	1.43059484013603E-02	2.16133519464976E-03			1.42620310224753E-02	2.09640483894878E-03	0.22036867303105	-0.907492445590861
262187500	0.185011784157055	-0.924758455939605	1.42940096274955E-02	2.14065888191719E-03			1.42879877637512E-02	2.04605925011953E-03	0.219679901282531	-0.907435568141088
262250000	0.185652273139765	-0.920335683623553	1.42949696275097E-02	2.10746700292953E-03			1.43151058670548E-02	2.12710492068107E-03	0.217253913303428	-0.907880307019617
262312500	0.184461233759028	-0.920149798272937	1.42675808908679E-02	2.11506627260637E-03			0.014332667263618	2.14392727442618E-03	0.216555141876963	-0.910411627019633
262375000	0.183172802760708	-0.922429443560718	1.43455845767278E-02	2.01570791999689E-03			1.43664647614871E-02	2.04598855239159E-03	0.215889095914284	-0.908206661292523
262437500	0.182062089264335	-0.921248580158088	1.43101541490159E-02	2.0422759975435E-03			1.44187711620854E-02	1.99944848504832E-03	0.214569021537942	-0.909809122894055
262500000	0.180239737331351	-0.921789043317362	1.44392030738183E-02	2.04415964628868E-03			1.44113402672659E-02	2.03629556467269E-03	0.213458431783864	-0.908615574632397
262562500	0.179637491920078	-0.923065353120519	1.44444115364762E-02	1.92512737656188E-03			1.44205593286633E-02	2.06886577633671E-03	0.212785270850452	-0.907951272973985
262625000	0.178559393600617	-0.923107499175103	1.44275049560697E-02	1.98009415197016E-03			1.44857656665035E-02	2.05682373741819E-03	0.212257655032145	-0.908749339278707
262687500	0.176250157540758	-0.92075241380629	1.44900037853345E-02	2.00611925568567E-03			1.44774277425603E-02	1.96972447243795E-03	0.209850726762956	-0.908829454888044
262750000	0.175234811487559	-0.925388211946867	1.45188983056094E-02	1.86072679374373E-03			1.44816669883029E-02	1.97183256144442E-03	0.209374080532138	-0.90844362075037
262812500	0.17405688946778	-0.92381393676239	0.014537531274058	1.88311081243885E-03			1.45549987458344E-02	1.87375776126074E-03	0.209442241175859	-0.908363254895572
262875000	0.17394378425244	-0.924126315467777	1.45527539013327E-02	1.98242469187681E-03			1.46057228408569E-02	1.96973000591188E-03	0.207856174319817	-0.911659607706943
262937500	0.170746328873893	-0.923803156617944	1.45207955391772E-02	1.87829565740792E-03			1.44963048711968E-02	1.9004068954499E-03	0.206144695775124	-0.908171046328417
263000000	0.171397399239509	-0.924863139806122	1.46293643188485E-02	1.89209106069316E-03			1.45801581979505E-02	1.86059065371083E-03	0.205952951415689	-0.910892202875608
263062500	0.170506454285195	-0.923218641748124	1.45879530081027E-02	1.83317650971528E-03			1.46001534804052E-02	1.9659026065017E-03	0.204069822854864	-0.90970071753744
263125000	0.168519389169838	-0.919150382506653	1.46196242561119E-02	1.85513348381133E-03			1.46393685851534E-02	1.8895759400614E-03	0.202695821687927	-0.909183816676683
263187500	0.168257308455044	-0.925833417386196	1.45722602315264E-02	1.81476040544478E-03			1.47020616393652E-02	1.94868774442857E-03	0.20153650106415	-0.911383073958445
263250000	0.168342914907968	-0.922740553539222	1.46137475927166E-02	1.89717044814985E-03			1.46810476389203E-02	1.88390271877135E-03	0.201451872955444	-0.911587430282966
263312500	0.164783792628804	-0.924162851299265	1.47146260544914E-02	1.79989820612689E-03			1.48113434119614E-02	1.86187135954769E-03	0.199361208098288	-0.912072827869764
263375000	0.166102360734339	-0.923683481091715	1.47299067194733E-02	1.82044750084197E-03			1.48151181074184E-02	1.84927380915799E-03	0.198691523277855	-0.912806599787946
263437500	0.16309037421739	-0.924813047159525	1.47541230857883E-02	1.77794606237721E-03			1.47118117385951E-02	1.79468042200005E-03	0.198591665193317	-0.909395989910457
263500000	0.163225120031147	-0.92360107036026	1.47400076312914E-02	1.82877202458516E-03			1.47161698584828E-02	1.84730075109326E-03	0.196974087211671	-0.910461018818681
263562500	0.160839588354053	-0.924836619961095	0.014803538871615	1.78824703867988E-03			1.48389960905897E-02	1.72744639823328E-03	0.196295107974154	-0.911036474545316
263625000	0.16032546871904	-0.9262962199385	1.47650723047629E-02	1.82957005010427E-03			1.47336850405668E-02	1.72224973014853E-03	0.193781140474548	-0.909923287532084
263687500	0.15859774679264	-0.923715395013049	1.47779952088115E-02	1.79239388962338E-03			1.48048704725439E-02	1.82916853907495E-03	0.194354878523172	-0.910353969688138
263750000	0.156365993626567	-0.925260386100214	1.49892542043418E-02	1.75111434565324E-03			1.49325067438339E-02	1.77326219965049E-03	0.191935122910644	-0.911064240145921
263812500	0.156689657809351	-0.924040251252616	1.49237316986956E-02	1.74835951538665E-03			1.48646790146472E-02	1.69847373193715E-03	0.191380319828191	-0.911219047622866
263875000	0.154635740233988	-0.925616993038415	1.50088314800277E-02	1.69660411471345E-03			1.49730231472901E-02	1.82075741471915E-03	0.190204821417581	-0.91081974509818
263937500	0.156046375395476	-0.925016479532303	1.49524434963686E-02	1.74793195513485E-03			1.49234769138738E-02	1.72646494705332E-03	0.188335144262378	-0.909668063707643
264000000	0.15295091112661	-0.926070568327526	1.49655293658049E-02	1.67908678958148E-03			1.49306573868573E-02	1.70236453545308E-03	0.188426286711571	-0.913348262017089
264062500	0.151206114000993	-0.924852547640674	1.49828568705173E-02	1.54293694011773E-03			1.50014791587472E-02	1.61892673793223E-03	0.186758942206526	-0.911026669462587
264125000	0.150729656754974	-0.92437409643421	1.49930860352251E-02	1.70030730172764E-03			1.50198851241991E-02	1.72057099138042E-03	0.184789557168477	-0.912437872956625
264187500	0.150058698552911	-0.924331320696556	1.50905152934321E-02	1.73201176739599E-03			1.50073983244932E-02	1.71135649285467E-03	0.185280926285221	-0.912294920989402
264250000	0.148787676443047	-0.925833430448963	1.50912371540363E-02	1.56684531522913E-03			0.015082798888831	1.67711820461075E-03	0.184155931985213	-0.91279024613756
264312500	0.147193604042147	-0.929046845327496	1.51775701120136E-02	1.56923410095368E-03			1.51863645240334E-02	1.63168395564597E-03	0.182193759711144	-0.9123156475121
264375000	0.145971222302557	-0.924116279091784	1.50551375291736E-02	1.42273032447636E-03			1.52723166884234E-02	1.53158178447058E-03	0.181316168718093	-0.915215283981799
264437500	0.144698777967144	-0.928402624531409	1.51708275300078E-02	1.54787474198017E-03			1.52050255448697E-02	1.55479221284447E-03	0.181404867156109	-0.913083673905247
264500000	0.142290950120011	-0.924635612131501	1.51455389524127E-02	1.4130286013829E-03			1.51271430358104E-02	1.57127385332103E-03	0.179818712927347	-0.912766667259338
264562500	0.141704848446077	-0.92736603983734	1.52827114707882E-02	1.56705219636274E-03			1.52147343959245E-02	1.46338938889362E-03	0.178915122480593	-0.913507562239735
264625000	0.141759560028442	-0.924996052872747	1.52236604238322E-02	1.41409112740824E-03			1.52536112048744E-02	1.3958408647098E-03	0.177717327395033	-0.913115900810572
264687500	0.140858611260992	-0.923910908182196	1.52664002690012E-02	1.47381749907007E-03			1.52646948116537E-02	1.45505463230702E-03	0.176865066697207	-0.913371079388678
264750000	0.139990847710556	-0.925001747268351	1.52312552664184E-02	1.48506549826636E-03			1.52842013241149E-02	1.41841348487715E-03	0.175354110396335	-0.912169670922852
264812500	0.137282275189387	-0.923956341800063	0.015212651132088	1.37206105665465E-03			1.52863767165436E-02	1.47406902290117E-03	0.173595039283722	-0.911991357889725
264875000	0.137079815217436	-0.926852034172698	1.52641519784805E-02	1.36826796504399E-03			1.53510411537331E-02	1.33952331846838E-03	0.17193798245729	-0.912202313673552
264937500	0.136023910760655	-0.925166142123512	0.015353767729437	1.4424531393352E-03			1.53776353606069E-02	1.43272318554391E-03	0.172465970323583	-0.914458403265599
265000000	0.133900664041949	-0.926091127059192	1.52798835196066E-02	1.36157424584758E-03			1.53857977647514E-02	1.3749876539144E-03	0.17106249781123	-0.913511944394338
265062500	0.133906856963838	-0.92438699268853	1.53309192110117E-02	1.38405906761342E-03			1.53480609024387E-02	1.37062728521716E-03	0.16941938332724	-0.912881398111698
265125000	0.132197408162332	-0.924109384918149	1.54552603575687E-02	1.34406090111905E-03			1.54261444144992E-02	1.40677219618197E-03	0.167879769455171	-0.913074748335786
265187500	0.131890082045127	-0.926136971008235	1.54495198938184E-02	1.44376811137242E-03			1.53267692916625E-02	1.44071146802241E-03	0.167003377377849	-0.914239991623076
265250000	0.129572490672183	-0.925008389086919	1.54791608721682E-02	1.40452946936487E-03			0.015394090430675	1.32676903863283E-03	0.165952943051082	-0.912137966397366
265312500	0.128953073031564	-0.924541113405402	1.54896843492038E-02	1.31940947773216E-03			1.54540559594681E-02	1.3007984540637E-03	0.164738499753548	-0.912910702338877
265375000	0.127659703731933	-0.923271066073362	1.55075621395688E-02	1.32455340320449E-03			0.015542118534253	1.26878985875816E-03	0.164071486781854	-0.912921650408168
265437500	0.12558550978253	-0.927347965752136	1.55010431904547E-02	1.23672954616829E-03			1.54839605021067E-02	1.29555170253464E-03	0.163241439088897	-0.913414796294773
265500000	0.124071037286025	-0.927637099184613	1.55796570031098E-02	1.13673597492891E-03			1.55496981452692E-02	1.20234447843975E-03	0.162545423122302	-0.916499597739425
265562500	0.121940601842764	-0.926442706628177	1.56628530830608E-02	1.23608982622221E-03			1.56252870202086E-02	1.26152548335284E-03	0.160631872822444	-0.914594634172729
265625000	0.122724592876309	-0.927509935405364	1.56405240193407E-02	1.13829910987195E-03			1.56269877587357E-02	1.26251937351588E-03	0.158662776979184	-0.913355750736195
265687500	0.121363235601182	-0.926099528568361	1.56122647346476E-02	1.24669662267432E-03			1.56311389598342E-02	1.22462316597862E-03	0.159841129123557	-0.912891186274167
265750000	0.121834392970958	-0.92536256633643	1.55868032740746E-02	1.1883962374566E-03			1.57333811602931E-02	1.23964786792968E-03	0.158316786449567	-0.916960676224313
265812500	0.118986791211795	-0.924785963780212	1.56601346812594E-02	1.0389983279929E-03			1.55839437008026E-02	1.21973493085736E-03	0.155178987945189	-0.913745091362704
265875000	0.116951561317211	-0.9260692833045	1.56000357943476E-02	1.08898469643346E-03			1.56860339457267E-02	1.25778016814684E-03	0.154481688116941	-0.915748589946039
265937500	0.116617804095223	-0.927085747120478	1.57921296172739E-02	1.03241940703759E-03			1.56738508068848E-02	1.09895435172565E-03	0.154216503059185	-0.91486721481251
266000000	0.114273508303831	-0.925842293999633	1.57194054755513E-02	9.98044564407233E-04			1.56448925886867E-02	1.12638988589095E-03	0.153192818086525	-0.912881959595109
266062500	0.115385668841329	-0.928816548693472	1.57735887786421E-02	1.12728708092942E-03			1.57992984142977E-02	1.0317434655359E-03	0.150466858636891	-0.913757711703449
266125000	0.113747978229068	-0.92512150741241	1.57601966946474E-02	1.01836424586592E-03			1.58340792507384E-02	1.10604011847441E-03	0.150609818207114	-0.915180383598422
266187500	0.111808792243281	-0.927722204579326	1.58695657336853E-02	1.00068951218766E-03			1.58148710787213E-02	1.09330651158952E-03	0.149296155824779	-0.913518605479687
266250000	0.109844528271278	-0.927358822230326	0.015813248734509	9.07988020489594E-04			1.57789440478531E-02	9.84313500276675E-04	0.148134745107183	-0.913315798963281
266312500	0.110358483075729	-0.924774542258133	1.58415982018702E-02	1.04660836260241E-03			1.59775128922156E-02	9.7024248494528E-04	0.145993303608097	-0.916488071635273
266375000	0.107770269459617	-0.928055635910124	0.015848356078469	9.90513755126208E-04			1.59352264172462E-02	1.05990319995116E-03	0.145120408101149	-0.916636560395666
266437500	0.107588103439134	-0.923401298367582	1.58391843682257E-02	9.45284515600098E-04			1.59352078002259E-02	9.82823594364024E-04	0.143319426440898	-0.914194791031044
266500000	0.105261253919798	-0.928534929636245	1.59452256504171E-02	8.99629274098408E-04			1.59578905109118E-02	1.02186993899682E-03	0.144186768452751	-0.916363173307646
266562500	0.10412246459668	-0.926783760211689	1.59681190178904E-02	9.3891773439589E-04			1.60256812255876E-02	9.48753393000522E-04	0.141546550330723	-0.916438013693858
266625000	0.104109588433556	-0.929084973665104	1.60534174700178E-02	8.84765797309965E-04			1.60366554003824E-02	9.32770155753775E-04	0.142028431888027	-0.916634046867048
266687500	0.102063976605535	-0.926812506767942	1.60196227485378E-02	9.12674308074608E-04			1.60090974316223E-02	8.72311722839211E-04	0.140141803848448	-0.914952850863944
266750000	0.10165878685239	-0.928423878284213	1.60271004112259E-02	1.02162339774074E-03			1.60614272267146E-02	9.45016251538923E-04	0.138499481100725	-0.91610255385816
266812500	9.90555300928939E-02	-0.926993897213224	1.60299962974116E-02	8.57883254864181E-04			1.60883321798764E-02	8.37276464905368E-04	0.136849643097579	-0.914994477660662
266875000	9.67288139435044E-02	-0.924157897544807	1.60718343636471E-02	8.4166166417233E-04			1.61314236237453E-02	8.74115490511658E-04	0.136421656945797	-0.915817507286727
266937500	9.71604134650399E-02	-0.927329960557075	1.60930250781022E-02	7.5745704083792E-04			1.60981052549151E-02	7.77667581641823E-04	0.13471649846168	-0.914585777767258
267000000	9.55176371788829E-02	-0.929994084898823	1.61246907534156E-02	8.24427767387686E-04			1.61669827811129E-02	7.86568186349081E-04	0.134240067944663	-0.915940961186389
267062500	9.41415043516407E-02	-0.927814045138193	1.61577207845212E-02	7.68753528557458E-04			1.61094368115641E-02	7.46305585014783E-04	0.133529914239252	-0.915420816326923
267125000	9.22827735307264E-02	-0.929248652434035	1.62034149502714E-02	7.16643852403364E-04			1.62869227503132E-02	8.31116409127075E-04	0.132286183868986	-0.918116876025002
267187500	0.092286521587455	-0.929562718045982	0.016181410285492	6.776055988309E-04			1.62795987939309E-02	7.78641561270176E-04	0.131972491094151	-0.915309914087184
267250000	9.07597049925199E-02	-0.928674665023664	0.016201408196272	7.10897729957431E-04			1.62617960024282E-02	7.8313814304348E-04	0.128800580589999	-0.91429814877281
267312500	8.96117556615333E-02	-0.927356424783974	1.63392467308481E-02	6.54046825482507E-04			1.62469386805025E-02	6.84890845945864E-04	0.127332132806388	-0.914992847535475
267375000	8.88994785226812E-02	-0.926762701992896	1.62301304865003E-02	7.51078433025692E-04			1.63436170840969E-02	7.96683145736023E-04	0.128785558035706	-0.915793025157095
267437500	8.72324510121743E-02	-0.92679099359995	1.63466173069853E-02	5.92930179418905E-04			1.62860058622741E-02	7.04193892504992E-04	0.125380479585451	-0.914623833071139
267500000	8.64486308388968E-02	-0.929728424308296	1.63504818817933E-02	6.78782297143169E-04			1.63982875689696E-02	7.39293319521411E-04	0.126534439582547	-0.918045751888098
267562500	8.32672907796213E-02	-0.923477371645287	1.63332071732896E-02	6.02216959500665E-04			1.64638276745717E-02	6.54659246783149E-04	0.125385995399554	-0.914540322140512
267625000	8.38558100920779E-02	-0.928015409133342	1.64214393980768E-02	5.01561948149818E-04			0.016432723550761	6.40926742384109E-04	0.122799320682962	-0.915682143948991
267687500	8.31190699597182E-02	-0.930383855907549	1.65249050031795E-02	5.10357116805839E-04			1.63897214861613E-02	5.45701117838125E-04	0.119448988611281	-0.915741113612254
267750000	8.02101223669676E-02	-0.928769164920133	1.64915457722059E-02	4.04365674935116E-04			1.64336008413713E-02	5.1408802758053E-04	0.11991027491718	-0.915883617913131
267812500	7.96327257833807E-02	-0.926161169750593	1.63701974614159E-02	5.0678055939169E-04			1.65834427219062E-02	5.55543572987133E-04	0.119328660218183	-0.918078535049439
267875000	7.86657974868756E-02	-0.928571709832123	1.65539133350226E-02	4.43545709779897E-04			1.64983052945619E-02	4.98387923396032E-04	0.118276510441911	-0.91636134145163
267937500	7.62392638628436E-02	-0.928015424240726	1.65283081156867E-02	3.57028263241688E-04			1.64952004724793E-02	4.54416967161303E-04	0.116066850716655	-0.916493064249151
268000000	7.48531212122296E-02	-0.929789583217127	1.65015250613978E-02	3.80870802274727E-04			1.65340097076493E-02	5.40582099327575E-04	0.116158274837261	-0.915874410691858
268062500	7.37048108251047E-02	-0.92580956220239	1.65186771223373E-02	4.28063020721734E-04			1.65226774558521E-02	5.34038570131592E-04	0.113869802301252	-0.917030877003756
268125000	7.24428273384236E-02	-0.927309990195471	1.65276262360797E-02	3.54177328608602E-04			1.64770429072076E-02	4.72761324180643E-04	0.111480407702317	-0.913107996420895
268187500	7.05197198980433E-02	-0.928139323764363	1.66068694915605E-02	3.84094219839103E-04			1.66064152399763E-02	4.25133668151337E-04	0.111857082463113	-0.915579357545265
268250000	6.91648408109972E-02	-0.925355995131839	1.65733036668803E-02	4.1247642574151E-04			1.67453077722566E-02	3.60498588148523E-04	0.110753379797571	-0.915710789246318
268312500	7.04471434675351E-02	-0.927737334286354	1.66308743435216E-02	4.13486943490197E-04			1.67741919866555E-02	4.42603946536038E-04	0.109874831760026	-0.916016815081173
268375000	6.71147734696508E-02	-0.925932931094789	1.66865258429263E-02	3.39907723030469E-04			1.67785303986705E-02	3.30459292893108E-04	0.109463477699552	-0.915871832419863
268437500	6.79063434111102E-02	-0.929704057668222	1.67742715510861E-02	3.86228159288856E-04			1.67010827090992E-02	3.49415064775445E-04	0.108208744691408	-0.917669256283666
268500000	6.52131304260779E-02	-0.923610514572661	1.66503215119017E-02	3.5100156645601E-04			1.67580976205828E-02	3.69822884381417E-04	0.105548132858673	-0.916242200210182
268562500	6.29757093378376E-02	-0.926313237942914	1.67959966474397E-02	1.86242178858402E-04			1.67876402709117E-02	3.36137851999102E-04	0.105673525113984	-0.916972459292593
268625000	6.29079358411243E-02	-0.929405434276043	0.016861696256276	2.56910416812379E-04			1.69451724963221E-02	2.89154277393415E-04	0.101506029528384	-0.914402421150477
268687500	6.11151834572277E-02	-0.928637115516649	1.69333122500265E-02	1.9800475170254E-04			1.68160513999125E-02	1.84842789119164E-04	0.100624045533369	-0.915813592622238
268750000	6.12929026632068E-02	-0.927209125612758	1.68719671631676E-02	2.7702684928665E-04			1.68508290588164E-02	2.25648051142287E-04	0.101327163753604	-0.916952281018891
268812500	6.15906087495021E-02	-0.927677054519628	1.68297167955299E-02	1.5893341920994E-04			1.68814613757761E-02	1.5382832516781E-04	9.94818358452713E-02	-0.916494460764201
268875000	5.78407898046744E-02	-0.928076851862289	1.69451132687409E-02	1.82651027296169E-04			1.69338267639488E-02	2.24209167363087E-04	9.93578122442001E-02	-0.916644396034068
268937500	0.057281858682228	-0.92534489040979	1.68603907052152E-02	1.65351184558363E-04			1.69803944156859E-02	1.15349173915225E-04	9.75426785278899E-02	-0.91571693946043
269000000	5.73374253345456E-02	-0.928814427399713	1.70231223143376E-02	5.69086009153759E-05			0.016980572205436	1.32842184534878E-04	9.64192926963826E-02	-0.916913974674255
269062500	5.42769417478122E-02	-0.926405352075024	1.69789064316056E-02	8.90276984661562E-05			1.69587206161086E-02	1.16899253110824E-04	9.64903816536511E-02	-0.916761243045137
269125000	5.22706949404233E-02	-0.924678922874823	1.69807510997737E-02	7.85673004478917E-05			1.69692360685046E-02	1.30816090832966E-04	9.41209763289283E-02	-0.915938471629432
269187500	5.16676550763301E-02	-0.926851225238384	0.01710730522869	5.78019336953911E-05			1.70738582930718E-02	4.9058334271897E-05	9.44187070822533E-02	-0.918245514691976
269250000	4.86573709357759E-02	-0.924748714240794	1.70110783384928E-02	-4.54454576750753E-05			1.70581295588391E-02	5.56079130580515E-05	9.23365751656038E-02	-0.918422622467298
