# Hz S RI R 50
307000000	-0.790903517775918	-0.147572457425624	8.60834430545249E-03	-3.49644956770833E-02			8.55405539408968E-03	-3.50480357882175E-02	-0.765853436509042	-0.290370311710044
307006250	-0.790627122263959	-0.148578372963909	8.43500213692705E-03	-3.50852296257889E-02			8.56073284956561E-03	-3.50386857550696E-02	-0.763748475020926	-0.289524919624762
307012500	-0.791684849001385	-0.146175580828726	8.40440616361052E-03	-3.50714225338253E-02			8.46745679033101E-03	-3.50198083489238E-02	-0.764562593401299	-0.288161948063344
307018750	-0.792138110925383	-0.146390154791514	8.29042753498129E-03	-3.50257737859197E-02			8.53842960893129E-03	-3.49908108594472E-02	-0.765024847230125	-0.289747472153493
307025000	-0.792719892230798	-0.145156643911267	8.44758544964326E-03	-3.49782077578338E-02			8.42654333840485E-03	-3.50983859410599E-02	-0.764911601023276	-0.288584573380333
307031250	-0.791463951339535	-0.146279155068589	8.52079109617448E-03	-3.49192486069372E-02			8.48155592285872E-03	-3.50195499024163E-02	-0.765428651601192	-0.288202455698866
307037500	-0.792188979519637	-0.143652795703331	8.31184899907603E-03	-3.50279866558872E-02			8.41775198490975E-03	-3.51069951134031E-02	-0.76474337869889	-0.28766138518385
307043750	-0.791300138106386	-0.145299709104417	8.3355026152044E-03	-3.49790840979625E-02			8.45931316608009E-03	-3.49821927199175E-02	-0.764898729745771	-0.287686629905178
307050000	-0.791937884922868	-0.144199050339379	8.3420366677133E-03	-3.50044994922036E-02			8.40455927939601E-03	-3.50110773037297E-02	-0.764407486356705	-0.287233210496334
307056250	-0.790570410474424	-0.143871895392015	8.52251627279108E-03	-3.49708677561903E-02			8.41882199917614E-03	-3.50118792790072E-02	-0.76569467115202	-0.28712630151083
307062500	-0.792067205766558	-0.142805100344759	8.37185990919233E-03	-3.49853413963033E-02			8.3360647735061E-03	-0.035056029101488	-0.766207626907841	-0.286388798041201
307068750	-0.791404956257932	-0.142731872662459	8.23805641378698E-03	-0.035027811254447			8.39773797140671E-03	-3.50552959327094E-02	-0.765282610401025	-0.28705487141068
307075000	-0.791532261245862	-0.14365957512463	8.35884985136166E-03	-3.49032913752211E-02			8.36454669432388E-03	-3.50976929213613E-02	-0.765335919266487	-0.285590902309571
307081250	-0.792755243068529	-0.141772024550517	8.4020917571307E-03	-3.50731474544831E-02			8.26299015231886E-03	-3.51576802785977E-02	-0.765548465645562	-0.286392424952524
307087500	-0.792293382522475	-0.142872406099737	8.40124323915049E-03	-3.49549267410986E-02			8.41881098570227E-03	-3.50735169933895E-02	-0.765832185211314	-0.286599051808612
307093750	-0.790902065295978	-0.14156089003343	8.20111599327339E-03	-3.49040844368869E-02			8.29594219568355E-03	-0.034980998366267	-0.765917056541507	-0.284915556449378
307100000	-0.791284552615438	-0.14098812349339	8.27568070420015E-03	-3.49255713134829E-02			8.37352453558224E-03	-3.50217108840416E-02	-0.767839867132804	-0.285382680682674
307106250	-0.791998246448581	-0.140515133662524	8.30248088743264E-03	-3.49710274295248E-02			8.38527128598657E-03	-3.49116703052171E-02	-0.763360475239071	-0.284755761175318
307112500	-0.791121128261287	-0.142887617735238	8.34608050718727E-03	-3.49734392585368E-02			8.27810778473363E-03	-3.51630807795887E-02	-0.766334793220715	-0.28424491789352
307118750	-0.793016065282836	-0.141997891313233	8.26579020794002E-03	-0.034977264839464			8.29107983659393E-03	-3.49855975861856E-02	-0.767204692836099	-0.28319524515645
307125000	-0.79183656846367	-0.140285936224191	8.28574179479151E-03	-3.50137291658461E-02			8.30184756240543E-03	-3.50751005876538E-02	-0.768000399447954	-0.282875024240459
307131250	-0.792389581438881	-0.140002353692684	8.24140329215533E-03	-3.49452235639583E-02			8.23340709479946E-03	-3.49167179813913E-02	-0.766839327005051	-0.283389199896975
307137500	-0.793188011252729	-0.138590170367252	8.1805451465356E-03	-3.50414509741332E-02			8.20227088872744E-03	-3.49230847164137E-02	-0.767437126310048	-0.283020274241575
307143750	-0.793250299814502	-0.138475479377568	8.29099911508185E-03	-3.49714239264692E-02			8.23762671190125E-03	-3.50295250835563E-02	-0.768403697338788	-0.281856219347172
307150000	-0.792156279665339	-0.139575134331658	8.20556661836216E-03	-3.49832230598618E-02			8.32236532597478E-03	-0.035006219691496	-0.767054314982183	-0.281766750222442
307156250	-0.793224897301208	-0.138789946644371	8.25581652444614E-03	-3.50989787178103E-02			8.28440942670424E-03	-3.49179681674261E-02	-0.766397774755045	-0.282352078370434
307162500	-0.792336619953905	-0.13842683493423	8.22538618074887E-03	-3.50077665280233E-02			8.22717340175601E-03	-3.49331242640645E-02	-0.766462291851084	-0.281046623705473
307168750	-0.794259645246882	-0.137255450826183	8.15540834120287E-03	-3.49459751763366E-02			8.20585052366256E-03	-3.49851588164576E-02	-0.769121255873121	-0.280574798186315
307175000	-0.794036429451628	-0.13864188396006	8.24593499786988E-03	-3.49121476220018E-02			8.17764058759081E-03	-3.50418164927301E-02	-0.767838771683371	-0.279657204600339
307181250	-0.791907128587914	-0.136915447560298	8.21473687428215E-03	-3.50526343624139E-02			8.27161255708539E-03	-3.49179040252266E-02	-0.766576883803609	-0.280260493300564
307187500	-0.792302697644988	-0.135695406125012	8.07013050576117E-03	-3.49173782645262E-02			8.14273208508121E-03	-3.49009407379121E-02	-0.768388510688874	-0.280223657152684
307193750	-0.792485453616527	-0.137032258773449	8.28261231040917E-03	-3.48342435985637E-02			8.21030243439733E-03	-0.034933847365108	-0.767655299797989	-0.280167770965104
307200000	-0.792194404034579	-0.134603682677233	8.21775737750241E-03	-3.48533029644155E-02			8.16628006795491E-03	-3.49453413944362E-02	-0.768903855713504	-0.279579313860789
307206250	-0.794623748370217	-0.135954607674654	8.21990707575643E-03	-3.49831533211601E-02			8.16824487589929E-03	-3.49594326816602E-02	-0.767658070101092	-0.279086774171351
307212500	-0.793398006418991	-0.135418931447922	8.1748335870738E-03	-3.49221229063519E-02			8.2564783180494E-03	-3.48734937615732E-02	-0.767919654529048	-0.279793970447169
307218750	-0.793504633031885	-0.136073362004925	8.18841033029201E-03	-3.49119674031033E-02			8.17219449695217E-03	-3.50249911167536E-02	-0.769726985452742	-0.277972411462143
307225000	-0.793144034017603	-0.133458960880578	8.05438010652035E-03	-3.49347818217856E-02			8.09424813706934E-03	-3.49938955656436E-02	-0.768191187526331	-0.278614056037111
307231250	-0.794799210008521	-0.134775465423573	8.15776930386737E-03	-3.49503845801209E-02			8.2866570371925E-03	-3.49391274613436E-02	-0.768851847910062	-0.278235502507154
307237500	-0.793579081443389	-0.133214391414615	8.0829357890274E-03	-0.034941993991762			8.15095080363359E-03	-3.48814356782296E-02	-0.769684894536732	-0.277228751613858
307243750	-0.792465685983724	-0.13413059403478	8.1542506378881E-03	-3.48820595302159E-02			8.16284933039713E-03	-3.48954884772227E-02	-0.769148450764459	-0.276413093019523
307250000	-0.792874581504064	-0.133055148003821	8.13594205266734E-03	-3.48224418111309E-02			8.18605817904426E-03	-3.49052344815381E-02	-0.766478218749047	-0.276841061068653
307256250	-0.794271621488409	-0.132782450794454	8.26867434590961E-03	-3.49354268066865E-02			8.09182243865426E-03	-3.49729960330126E-02	-0.768345607424153	-0.276163480567245
307262500	-0.792782445029191	-0.132896137377332	8.18996836018677E-03	-3.48666207894092E-02			8.1076202630922E-03	-3.49576667195155E-02	-0.768789222325826	-0.275597882771967
307268750	-0.793244304804088	-0.133438792837359	8.10644701230184E-03	-3.49915018314607E-02			8.21865479060804E-03	-3.48732131439592E-02	-0.767690772542849	-0.276408582424767
307275000	-0.79334124378427	-0.131705478107096	8.10385096391578E-03	-0.034894558240673			8.12090271336307E-03	-3.49422902149683E-02	-0.768438629643847	-0.275930839487086
307281250	-0.793205364873821	-0.131049913614275	8.05201268123483E-03	-3.48479272597423E-02			8.15879167739701E-03	-3.49046972376701E-02	-0.769114449679899	-0.275385770086295
307287500	-0.794317398593584	-0.132085591191776	8.04123965222138E-03	-3.48876696940707E-02			8.06968283034532E-03	-3.48895010988282E-02	-0.769146228297059	-0.274345249567865
307293750	-0.793644361374819	-0.130828704101476	8.14881437485037E-03	-3.48815417014937E-02			8.17756006206365E-03	-3.47837361749307E-02	-0.767337578163501	-0.273731951701489
307300000	-0.792981548826458	-0.129693233103991	8.17995115190801E-03	-3.48862343403917E-02			8.12527940905789E-03	-0.03489477914559	-0.769413663000726	-0.273943645705726
307306250	-0.793955730091963	-0.129695217192637	8.14614494616752E-03	-3.48254680571621E-02			8.25119400339278E-03	-3.50608355422447E-02	-0.77009085303625	-0.274631804011297
307312500	-0.793515311186015	-0.128897002748062	8.10715323835386E-03	-3.49463124317835E-02			8.13070574941369E-03	-0.034968249134121	-0.769710894896509	-0.274300814983646
307318750	-0.7928465571018	-0.128800319408647	8.15020433948973E-03	-3.48234557820386E-02			8.11964453987271E-03	-3.49225480590904E-02	-0.770084294429897	-0.2735686406315
307325000	-0.793949844477868	-0.128330873190446	8.08744568001457E-03	-3.49555437925909E-02			8.14962505721772E-03	-3.49559918628113E-02	-0.769166371947995	-0.27316612427878
307331250	-0.791801532889582	-0.130397767350747	0.008157401083528	-3.47469880162283E-02			8.1863245602409E-03	-3.48506624800778E-02	-0.769738930592522	-0.272222774286987
307337500	-0.793657025635124	-0.127661859260674	8.09548594208091E-03	-3.48758268576987E-02			8.13196678750269E-03	-3.48851811382861E-02	-0.770065227392594	-0.2729041232245
307343750	-0.794199534226865	-0.127323482658386	8.02847375952655E-03	-3.48440648598424E-02			8.14157256386065E-03	-3.49038409420883E-02	-0.771368629407142	-0.271431241399421
307350000	-0.794668167189102	-0.12893203560358	8.14031252661011E-03	-3.49170595217157E-02			8.06959120153412E-03	-0.034904371021628	-0.769079713697168	-0.271920338949236
307356250	-0.793896020345298	-0.126350800332734	8.11028478152499E-03	-3.48347961492947E-02			8.09974238293355E-03	-3.48986673145972E-02	-0.76895942964587	-0.27158362962975
307362500	-0.792146796479786	-0.127163033299451	8.06845763878265E-03	-3.47607138944455E-02			8.12983096503617E-03	-3.50098996676041E-02	-0.770850585500131	-0.271672709023092
307368750	-0.793206016221007	-0.126517420049911	8.02369610612191E-03	-3.49019604405404E-02			8.11962232572775E-03	-3.49003305137192E-02	-0.768067436921638	-0.270570928958266
307375000	-0.793238782231786	-0.125706933873825	8.02458785972105E-03	-3.49246980808815E-02			8.13352400536006E-03	-3.48776314763618E-02	-0.770479616995945	-0.269892979613852
307381250	-0.792591020426885	-0.125449773153966	8.15961075494318E-03	-3.48441690859058E-02			8.11393517950777E-03	-3.49508572300484E-02	-0.770185651731652	-0.269643078100383
307387500	-0.7932977302261	-0.125901924557868	8.02544016537436E-03	-3.48499882668011E-02			8.21081278711206E-03	-3.49737243395713E-02	-0.770997922827665	-0.26986262270843
307393750	-0.794207885273733	-0.124869747265895	8.13622347912242E-03	-3.49736812239226E-02			8.1188650610917E-03	-3.49628706245045E-02	-0.770408131550688	-0.270454645614013
307400000	-0.794902181046321	-0.124949176635852	8.1525462688276E-03	-3.49179796750638E-02			8.05487162586111E-03	-3.49439398237854E-02	-0.770185251149338	-0.268203440955884
307406250	-0.794715449762374	-0.124627271401996	8.06872453638518E-03	-3.49406506724297E-02			8.03711231046126E-03	-3.50015930236207E-02	-0.769799079075664	-0.268162022409947
307412500	-0.795119696118513	-0.124451229894407	8.00461442682197E-03	-3.49397445351681E-02			8.05823129661377E-03	-3.48883077300547E-02	-0.771044426619722	-0.266834331218657
307418750	-0.79311093767962	-0.123361897464386	8.01219436179218E-03	-3.49076653399058E-02			8.04585980890177E-03	-3.49139239232136E-02	-0.771378244665102	-0.268739967234874
307425000	-0.79476462679358	-0.12456605413978	8.03228842103517E-03	-3.49143829251431E-02			8.05850356262909E-03	-3.50299238903926E-02	-0.771009430199212	-0.267717950918751
307431250	-0.794880152364787	-0.1220289686369	8.07843750135618E-03	-3.50045982223523E-02			8.04477314451702E-03	-3.50558105961057E-02	-0.771546557452289	-0.268341084261076
307437500	-0.794157946308584	-0.124634013052461	8.01482154661491E-03	-3.49136453926611E-02			8.04912002568093E-03	-3.50043809351045E-02	-0.77171406942685	-0.267338341714136
307443750	-0.793370341286136	-0.122151692591849	8.09982905403372E-03	-0.03491222324355			8.01750286629774E-03	-3.49938663565531E-02	-0.771830298762027	-0.266211740564789
307450000	-0.794418531713478	-0.122032978624352	8.06587339704809E-03	-3.50168099404491E-02			7.94018550303331E-03	-3.50303804240275E-02	-0.771479343645363	-0.265617402147691
307456250	-0.794469477166074	-0.122249494837516	8.0477487678368E-03	-3.49606421414885E-02			8.0311228107246E-03	-3.50143537073687E-02	-0.771400695188375	-0.265355508512869
307462500	-0.793434018605658	-0.121993344562862	8.04548302587295E-03	-3.48709332634554E-02			8.09241667128057E-03	-3.49812811786655E-02	-0.770210059339662	-0.265253792209595
307468750	-0.794925319105705	-0.120072619674662	7.9252189856568E-03	-3.48995125217005E-02			8.04827718827688E-03	-3.50655018721164E-02	-0.77132694845137	-0.265324883071877
307475000	-0.792806104813354	-0.121643120844465	7.88390755483975E-03	-3.49602728681284E-02			7.89174867009334E-03	-3.50077812042083E-02	-0.772243801248446	-0.264733324353449
307481250	-0.793006443345648	-0.118594943711849	7.95819324383959E-03	-3.49832748039924E-02			8.00473680351674E-03	-3.50661680712355E-02	-0.772756223455474	-0.264697558654286
307487500	-0.793548661974622	-0.120047419788488	7.9845224197792E-03	-3.49927976367118E-02			7.94387803216839E-03	-3.49969249650214E-02	-0.770402850872073	-0.264886146507065
307493750	-0.794230287841673	-0.121809010440562	7.93798173918625E-03	-3.50010715768887E-02			7.88575437637131E-03	-3.50533512883462E-02	-0.771779294015818	-0.263692375246472
307500000	-0.794979229079238	-0.119289970674946	7.94768032755756E-03	-3.49772925533946E-02			7.90116126825623E-03	-3.51099456782819E-02	-0.771678806167424	-0.26342089822333
307506250	-0.796253557379665	-0.117670706758714	7.75447687455648E-03	-3.51369394245556E-02			7.87869367635467E-03	-3.50486420123998E-02	-0.772846580346518	-0.262608096960924
307512500	-0.793265771606769	-0.118704671822813	7.9272844305652E-03	-3.49810913058709E-02			7.94230544926216E-03	-0.035079920718854	-0.773818103822296	-0.263265073901284
307518750	-0.794653323728423	-0.117838742507924	7.81704263662622E-03	-3.49718716503555E-02			7.90152955908375E-03	-3.50765623890809E-02	-0.773004152342436	-0.262056807717571
307525000	-0.793962689541195	-0.11755504492804	7.82258212647034E-03	-3.49860683806665E-02			7.9060651238174E-03	-3.49967756754144E-02	-0.773010151200493	-0.261693388602509
307531250	-0.793052387977136	-0.117469135656873	7.8599183281326E-03	-3.49912230138698E-02			7.82717785863758E-03	-3.50796043295276E-02	-0.773256800370117	-0.262333422645913
307537500	-0.794215450224716	-0.116515643848043	7.75722557617386E-03	-3.50312076326316E-02			7.80172954775763E-03	-3.50809214841642E-02	-0.772492364749761	-0.262107291991816
307543750	-0.795455054790441	-0.116837508560336	7.80451300593774E-03	-3.49952836233024E-02			7.84940989333611E-03	-3.50482812454424E-02	-0.772168453188852	-0.261104871200753
307550000	-0.794350790297744	-0.116450603125864	7.75288790499368E-03	-3.51498974811338E-02			7.7987642129477E-03	-3.50605459428373E-02	-0.772641105316529	-0.261039916082582
307556250	-0.793434163384205	-0.116423366634756	7.7631593629497E-03	-3.49907940483937E-02			7.78659800517943E-03	-3.50240551594853E-02	-0.771414176877229	-0.259767117968664
307562500	-0.794696760986244	-0.114462737280775	7.69380529263834E-03	-3.49577100525054E-02			7.77370924393307E-03	-3.49876556071228E-02	-0.773803554287666	-0.259759948372163
307568750	-0.794150111495532	-0.116392873900597	7.85523166335153E-03	-3.49455596174636E-02			7.78119981008668E-03	-0.034958337400818	-0.77355151642508	-0.259171599438396
307575000	-0.795307318701569	-0.114963677677379	7.73493483269713E-03	-3.49950690616958E-02			7.70053114470626E-03	-3.50850546564558E-02	-0.771795676713846	-0.259150105034537
307581250	-0.794606388814094	-0.113897610235467	7.75480380185237E-03	-3.49512760417447E-02			7.74612035890881E-03	-3.49743384280546E-02	-0.773269977192844	-0.258961242103643
307587500	-0.795541792814293	-0.112916816861998	7.62039288248996E-03	-3.49797044361889E-02			7.76714751014672E-03	-3.49578374553661E-02	-0.773231372571685	-0.259655623447877
307593750	-0.794794773480339	-0.114064607288631	7.63005818106297E-03	-3.49877130070436E-02			7.80051079271703E-03	-3.49701386996695E-02	-0.772556916349339	-0.258716254928258
307600000	-0.79545902126093	-0.113558244246717	7.74351240851927E-03	-3.50188276968729E-02			7.69373466350093E-03	-3.50458750950435E-02	-0.774125874360236	-0.2583737905702
307606250	-0.795763486368884	-0.113302377846688	7.70223338617579E-03	-3.49938499852156E-02			7.67443060870073E-03	-3.49997267750227E-02	-0.774524884199132	-0.256644635371552
307612500	-0.794652900048389	-0.112323622284257	7.57463294442183E-03	-3.49490188853434E-02			7.57552811285756E-03	-3.50062657848204E-02	-0.773742457583668	-0.257034582144604
307618750	-0.794858594350314	-0.111333319958486	7.64534382802828E-03	-3.49599209819852E-02			7.67798008456795E-03	-3.48983252372412E-02	-0.773177353327875	-0.25612251675317
307625000	-0.794774216606254	-0.111499139282923	7.70857567679786E-03	-3.48964125683155E-02			7.5680952050697E-03	-3.49890946892032E-02	-0.773586031378681	-0.25666866236227
307631250	-0.79535982819266	-0.11244162257011	7.69910149619762E-03	-3.49391072351628E-02			7.68337671013289E-03	-3.49463840095297E-02	-0.772920113886125	-0.255040812758227
307637500	-0.795006384525132	-0.110918384006581	7.67066567830682E-03	-3.49293025779675E-02			7.67165845293952E-03	-0.03501166539218	-0.774447417996041	-0.256562073853932
307643750	-0.793666812292011	-0.111021967035706	7.61411449894686E-03	-3.48389432643378E-02			7.65929528588821E-03	-3.49359746668976E-02	-0.77332531005984	-0.254508725014014
307650000	-0.795164081509431	-0.11029729370756	7.67331828591665E-03	-3.50178788564694E-02			7.5364673797596E-03	-3.49540891593916E-02	-0.774615470349723	-0.254933759945894
307656250	-0.793978541562545	-0.109956838479406	7.59045341461518E-03	-3.48700618266269E-02			7.64133671428716E-03	-3.49807374042993E-02	-0.772974845311203	-0.255401951884965
307662500	-0.793522801362084	-0.110416800033028	7.53678957751082E-03	-3.48309671990656E-02			7.63545310973773E-03	-0.03492509751683	-0.772816603247676	-0.254625077651105
307668750	-0.794349667053198	-0.110732771248927	7.56194629174721E-03	-3.49192959969252E-02			7.58448652928664E-03	-3.49928198369776E-02	-0.773839495785278	-0.253860230174021
307675000	-0.794040636818479	-0.109481160253898	7.63893257095125E-03	-3.48816030082333E-02			7.55251344218899E-03	-3.49205013254684E-02	-0.773029707240283	-0.252502779000889
307681250	-0.795661347196927	-0.106584084423992	7.58063245877652E-03	-3.48713857506385E-02			7.53951395068454E-03	-3.49194227074967E-02	-0.776165266394425	-0.253283438755554
307687500	-0.79585113536411	-0.107682126156681	7.48923259535292E-03	-3.49230532070665E-02			7.52002363911957E-03	-3.49067496350127E-02	-0.772095699683928	-0.251753519066571
307693750	-0.794481967163194	-0.108394498872113	7.59476022854574E-03	-0.034969731030706			7.50499671577608E-03	-3.49411304623259E-02	-0.773941072790696	-0.25344636307838
307700000	-0.79429644337511	-0.107145396536527	7.55407319932372E-03	-3.49316937655916E-02			7.52434565974207E-03	-0.034789734667677	-0.774514758479867	-0.251616632348963
307706250	-0.792027844781437	-0.108343294180359	7.64649269278192E-03	-3.47297945900863E-02			7.59579132279893E-03	-3.48995964217418E-02	-0.774604981826988	-0.252009984271599
307712500	-0.793367423508967	-0.10714829555688	7.48964152798464E-03	-3.47802537427271E-02			7.57516463329734E-03	-3.47531720847521E-02	-0.774744173592925	-0.251629589405165
