# Hz S RI R 50
1350000000	-0.880698967475302	-0.32550491666689	-6.44124277589904E-04	7.33726634262951E-04			-5.91686309868421E-04	7.53734078416755E-04	-0.870064739917709	-0.374665740151814
1350625000	-0.881051882112169	-0.32351467323941	-6.26156327188562E-04	7.42698749911326E-04			-6.32501567530332E-04	7.16169707701017E-04	-0.870281934554558	-0.373091044042412
1351250000	-0.881966352151216	-0.322346132273922	-6.66716064333089E-04	7.3451664955368E-04			-6.63642902120246E-04	7.45030690439535E-04	-0.871186379124723	-0.371782501012557
1351875000	-0.882778814364196	-0.320119891759558	-6.46343543227656E-04	7.65903265097123E-04			-6.44082509567875E-04	7.28812837536526E-04	-0.872098953890004	-0.37001024987696
1352500000	-0.8826833607442	-0.318783757456644	-6.49313315298275E-04	7.63286807795365E-04			-6.52859717474371E-04	7.47482758467998E-04	-0.872757894001286	-0.368326729860105
1353125000	-0.883566530397391	-0.316549604453792	-6.72421834216731E-04	7.35465121680421E-04			-6.47956295856556E-04	7.4683248630136E-04	-0.872925662911937	-0.366978969582669
1353750000	-0.884590175955333	-0.315417092046409	-6.6692415395036E-04	7.40368766791196E-04			-6.53513516577271E-04	7.14950984015557E-04	-0.873836581068968	-0.365361187524097
1354375000	-0.884703709526546	-0.31393888977445	-6.67304435082765E-04	7.26147407725514E-04			-6.65534997290745E-04	7.21749754632476E-04	-0.874437406734343	-0.363847908187388
1355000000	-0.885581697123964	-0.312002852940675	-6.82451732497939E-04	7.6041234939022E-04			-6.83359086838541E-04	7.35865172595221E-04	-0.875093192655162	-0.362171988300686
1355625000	-0.88624977011962	-0.310486286289819	-6.69172255966715E-04	7.31882460832789E-04			-6.80258471643557E-04	7.2968485280349E-04	-0.875555805682926	-0.360794692690371
1356250000	-0.886743951110392	-0.30919044131898	-6.90659314343729E-04	7.2647321989289E-04			-7.1604906471877E-04	7.27326429420333E-04	-0.876249003360779	-0.359378396012925
1356875000	-0.88759137222272	-0.307402563044826	-7.11755507246933E-04	7.07870000449162E-04			-7.13521148538001E-04	7.20326154923252E-04	-0.877155089050419	-0.357710526698192
1357500000	-0.887815027032274	-0.305874702996296	-7.20143189004185E-04	7.28285170973085E-04			-7.2763423672338E-04	7.12536215483407E-04	-0.877711295534515	-0.356082565754692
1358125000	-0.888779968636899	-0.304169329833752	-7.39083790855435E-04	7.16173486069152E-04			-7.39160502141377E-04	7.24367662184466E-04	-0.878172015395888	-0.354448376893743
1358750000	-0.889299111354047	-0.302443958381955	-7.41159537096253E-04	7.02026660401834E-04			-7.31841715836738E-04	7.07956292187334E-04	-0.879334406615739	-0.352778526529206
1359375000	-0.889767488221706	-0.300886418291623	-7.6143624459343E-04	7.16725847588774E-04			-7.3317555421727E-04	7.14431936905929E-04	-0.879625189794612	-0.350966131660133
1360000000	-0.890345021757638	-0.298776070403883	-7.73390852384279E-04	7.09921686727148E-04			-7.88999865457859E-04	7.27756555213777E-04	-0.880459364710377	-0.349523888370727
1360625000	-0.891345126125211	-0.297312875631322	-7.95517998666198E-04	7.42177702796575E-04			-8.20773934517969E-04	7.11890903083792E-04	-0.881029259926229	-0.347702455808464
1361250000	-0.891623974695389	-0.295268589624876	-7.95789690873087E-04	7.35846345990181E-04			-8.37737267590711E-04	7.44791975303815E-04	-0.881418448319103	-0.346007697746578
1361875000	-0.89242629075379	-0.294069021612504	-7.98347227513289E-04	7.68582360484287E-04			-8.00884445089931E-04	7.67084850243531E-04	-0.882049568296312	-0.344695247457191
1362500000	-0.893084204954926	-0.291920474380857	-8.45781055381045E-04	7.68229189299882E-04			-8.37512530062873E-04	7.41583319076682E-04	-0.882777185932333	-0.34248032627868
1363125000	-0.893466774896965	-0.290129404389071	-8.30579326091646E-04	7.5745291615391E-04			-8.45075208284081E-04	7.60981353177376E-04	-0.883228424271577	-0.340763027399336
1363750000	-0.893911553323426	-0.288264258617738	-8.15633628526995E-04	8.07710731622414E-04			-8.31356150602642E-04	7.97241591420093E-04	-0.884462059331351	-0.338885637984026
1364375000	-0.894642004757537	-0.286199411476865	-8.3222946362097E-04	7.9823296901076E-04			-8.6165796624554E-04	7.65647111182955E-04	-0.884700918298687	-0.336990546718891
1365000000	-0.895393358749377	-0.285005785170258	-8.27173105072967E-04	8.25264390833505E-04			-8.16703655809494E-04	8.19100154907127E-04	-0.885267068446465	-0.335224813442698
1365625000	-0.895811912027472	-0.282632485868718	-8.30092457450968E-04	8.28115773573584E-04			-8.54659069985575E-04	7.95563276984061E-04	-0.885931156766421	-0.333583107884554
1366250000	-0.896583520518836	-0.281180368347427	-8.23155318064912E-04	8.29069630325687E-04			-8.3667786481779E-04	8.27551989710229E-04	-0.886206583193589	-0.331936470308349
1366875000	-0.897125937295754	-0.279014244063597	-8.41760018461669E-04	8.22709137451896E-04			-8.24964697915474E-04	8.33174535621378E-04	-0.886909961199037	-0.330131904946205
1367500000	-0.897472537990869	-0.277190572710542	-8.44440514067931E-04	8.38840577005183E-04			-8.36923123423699E-04	8.17917900277558E-04	-0.88755062792814	-0.328260148028134
1368125000	-0.897652291450932	-0.27521815840847	-8.63604672004102E-04	8.52028179806311E-04			-8.35007344661333E-04	8.60536931388136E-04	-0.88809558346999	-0.326319921504318
1368750000	-0.898352177888452	-0.272738331335856	-8.54627225904555E-04	8.32014899991976E-04			-8.22665517382811E-04	8.18184187759311E-04	-0.888543309837972	-0.324132763414014
1369375000	-0.898801620041738	-0.27103762472678	-8.70740462258648E-04	8.61482614728086E-04			-8.58956588765573E-04	8.47176176476442E-04	-0.889039447322828	-0.322087433594803
1370000000	-0.899214742494385	-0.269836493501401	-8.57708022056219E-04	8.561872603832E-04			-8.31022106655937E-04	8.76763229420197E-04	-0.88955508250723	-0.320585417436961
1370625000	-0.89971596216143	-0.267664394636577	-8.49426654654511E-04	8.76254364336903E-04			-8.43533259281222E-04	8.90309762510651E-04	-0.889967082969004	-0.318560532927502
1371250000	-0.90001379797409	-0.265371767557866	-8.41586517145176E-04	8.84388303261265E-04			-8.43172825063336E-04	9.06219254442775E-04	-0.890363254723313	-0.317068421117677
1371875000	-0.900474105181964	-0.263415078159324	-8.58962092868726E-04	9.00588528850625E-04			-8.38271702033371E-04	8.82781206166627E-04	-0.891352486917646	-0.314893623220024
1372500000	-0.901172665142344	-0.261293220848244	-8.45973973505196E-04	9.03694552708579E-04			-8.57020518431503E-04	8.97092949685255E-04	-0.891525773536128	-0.313192708323273
1373125000	-0.901379489351452	-0.259388438121123	-8.46038291729211E-04	9.14115410262525E-04			-8.44991458515863E-04	9.07885196359079E-04	-0.892223614953092	-0.311168668709888
1373750000	-0.901593474363807	-0.25728262004142	-8.40578421166276E-04	9.17841413887619E-04			-8.59071574545664E-04	9.30900244948762E-04	-0.892436606076665	-0.309611565299102
1374375000	-0.902097204754664	-0.25536975858494	-8.3773761909439E-04	9.26621034190753E-04			-8.344263631553E-04	9.35056125977963E-04	-0.892909717772624	-0.307559870850278
1375000000	-0.902702516889118	-0.253477168220645	-8.4474522864122E-04	9.21458111190345E-04			-8.31236331911574E-04	9.41024791665812E-04	-0.893492144496864	-0.305211867836853
1375625000	-0.902990370106733	-0.251461955210219	-8.39691535618753E-04	9.39809963806901E-04			-8.1757638588925E-04	9.48604677058149E-04	-0.893697384169387	-0.303381037325728
1376250000	-0.902794645462829	-0.249807633657785	-8.32317117575268E-04	9.60339970135497E-04			-8.32226455665727E-04	9.55384296112708E-04	-0.894380250586978	-0.301055675623488
1376875000	-0.903053655870861	-0.247073884719493	-8.23429354686455E-04	9.55916072242093E-04			-8.29158831029292E-04	9.36824939772077E-04	-0.894466720596233	-0.299645447367306
1377500000	-0.903618816994734	-0.245522004370009	-8.1033829561596E-04	9.54994582298251E-04			-8.32134037069313E-04	9.62723115693458E-04	-0.894757299083209	-0.297351122881913
1378125000	-0.903816044453601	-0.243500711297093	-8.0766886113906E-04	9.72028073219271E-04			-8.31696127679169E-04	9.37622445579391E-04	-0.895274103276583	-0.294989306773207
1378750000	-0.904251615454844	-0.242030726647728	-8.00235704491979E-04	9.87205347862934E-04			-8.14503389068199E-04	9.84075198719408E-04	-0.895118560973126	-0.293070075080431
1379375000	-0.904468567491235	-0.239665042067838	-7.8848450594073E-04	9.63071206866298E-04			-8.26182072779494E-04	9.81226960656499E-04	-0.895289551542545	-0.291328040605117
1380000000	-0.90513911749824	-0.237909550937119	-7.83171682606755E-04	1.00371309056494E-03			-7.97705622144686E-04	9.71565909209533E-04	-0.895560165503451	-0.289364156755087
1380625000	-0.905213508363689	-0.236233266490501	-7.72550358661294E-04	1.01476746371172E-03			-7.71385680019481E-04	1.01043665223811E-03	-0.895457691512378	-0.287205643978017
1381250000	-0.905430526900239	-0.233249877517405	-7.85059645407895E-04	9.865734685081E-04			-7.9346486386201E-04	9.94673323553345E-04	-0.895647816180596	-0.285339570052719
1381875000	-0.905423127232348	-0.231786855406546	-7.73670411500135E-04	9.93141361658731E-04			-7.87342753625652E-04	9.95708417818687E-04	-0.895698775292881	-0.283528062500749
1382500000	-0.905560808366481	-0.228974805380178	-7.63336213882976E-04	9.77258204356295E-04			-7.68381692431025E-04	9.9946269737001E-04	-0.895908886906666	-0.28221132384546
1383125000	-0.905949493213232	-0.227628368878473	-7.52342174403666E-04	9.8992404103558E-04			-7.35651122349777E-04	1.00002773630211E-03	-0.896284725505691	-0.280243442300726
1383750000	-0.906052688831829	-0.225840174775546	-7.54588743315571E-04	9.82125288651961E-04			-7.46890504819268E-04	9.72957156839882E-04	-0.897031044265747	-0.278669759813099
1384375000	-0.906421688053348	-0.223326942758311	-7.38041346346796E-04	9.70309937127808E-04			-7.49469374018596E-04	1.00359128211992E-03	-0.897142271993433	-0.276491334477268
1385000000	-0.90649983750267	-0.221649643664644	-7.8298596309798E-04	9.90168164381389E-04			-7.6595292539907E-04	9.89598886288539E-04	-0.89728494119387	-0.274585774157618
1385625000	-0.906661671252243	-0.218804270429271	-7.78174736769067E-04	1.00478906558941E-03			-7.69895650539657E-04	9.63199555462634E-04	-0.897669400112226	-0.272434705239928
1386250000	-0.906887177789855	-0.216534150645605	-7.43907809113969E-04	9.76647315747371E-04			-7.56063489413715E-04	9.80305795288131E-04	-0.898089933769939	-0.270063888531588
1386875000	-0.906264305732297	-0.213878150241631	-7.49908263776212E-04	9.87644355299939E-04			-7.33481645793858E-04	9.95437241584396E-04	-0.898075907483379	-0.267498566593733
1387500000	-0.905809792029203	-0.211527444248436	-7.47016509262914E-04	9.9310501536395E-04			-7.53824370413139E-04	9.95960227945672E-04	-0.897951969312048	-0.265877340616332
1388125000	-0.904947409709635	-0.209715376842589	-7.19912301037253E-04	1.02070135944003E-03			-7.4078719313224E-04	1.02348627604546E-03	-0.898000913974895	-0.263839208704886
1388750000	-0.903306670305254	-0.208587963666805	-7.43911218065158E-04	1.02250459274055E-03			-7.2438045999333E-04	1.00022261358249E-03	-0.897287283653781	-0.261770271924857
1389375000	-0.903039013426839	-0.208225025494943	-6.87624155579885E-04	9.81304461342869E-04			-7.11646756794342E-04	9.99168877882255E-04	-0.897200734559393	-0.260660117871586
1390000000	-0.903652216947642	-0.208738149545435	-6.67082096250776E-04	1.00154410052678E-03			-6.8708841775104E-04	9.9038215606436E-04	-0.896926431309701	-0.259305233287761
1390625000	-0.905371804070751	-0.208345262838912	-6.70367248629697E-04	9.75412377138854E-04			-6.73567587927662E-04	9.82744306157488E-04	-0.89740752256204	-0.258050276616766
1391250000	-0.907337080888593	-0.206069626208604	-6.62518683600868E-04	9.69934166594977E-04			-6.89750379360186E-04	9.74390041068209E-04	-0.89833576382649	-0.256435887235203
1391875000	-0.908391350460811	-0.203555703242564	-6.9526611773448E-04	9.51520386323435E-04			-0.000699758337876	9.2765908903898E-04	-0.899072099803921	-0.254970940338581
1392500000	-0.909571941854602	-0.201026404889711	-7.08189981852914E-04	9.39093528878117E-04			-6.87244707682093E-04	9.50919437918737E-04	-0.899440096508031	-0.252956551490493
1393125000	-0.910108109863081	-0.198073077677308	-0.000698519393706	9.40652478815257E-04			-7.24323487231373E-04	9.33896597444909E-04	-0.900077644552529	-0.250331428887816
1393750000	-0.910569260657905	-0.194787813697348	-7.0284961643794E-04	9.17543352776887E-04			-7.43591126563102E-04	9.14750359708612E-04	-0.900986055098786	-0.248040498145764
1394375000	-0.911287034641414	-0.192411096892062	-7.08913928746929E-04	9.37302333798287E-04			-7.00612133906403E-04	9.38261509920717E-04	-0.900796481821386	-0.245777229469785
1395000000	-0.911061333666473	-0.188957204723555	-7.28513758339718E-04	9.53579940462302E-04			-7.5292401621892E-04	9.40006240241476E-04	-0.900807303320852	-0.243027183786635
1395625000	-0.911183646962723	-0.186124516206952	-6.93853505389054E-04	9.55277893557739E-04			-7.13214674842455E-04	9.53081920855551E-04	-0.901024015942996	-0.240200266978971
1396250000	-0.910613134592884	-0.182691926267052	-7.05662571409987E-04	9.26295271027345E-04			-7.1596377094433E-04	9.30978315787506E-04	-0.900557923524758	-0.237870200037689
1396875000	-0.909813311169199	-0.179714622272518	-7.13813524542637E-04	9.36262526042393E-04			-7.00499193254138E-04	9.47795704360545E-04	-0.900174503854165	-0.235485754959529
1397500000	-0.90816782161455	-0.176497209573748	-7.27659827614564E-04	9.09561828058752E-04			-7.00197476687268E-04	9.34499120513426E-04	-0.899479294243139	-0.232976568457561
1398125000	-0.905394000871881	-0.173792480047931	-6.84828446563723E-04	9.64865024992534E-04			-7.10822191775028E-04	9.85958174087555E-04	-0.898615164172856	-0.230965421952694
1398750000	-0.902641137142339	-0.172859993530947	-7.25643122170701E-04	9.61398291635388E-04			-7.35907384066425E-04	9.40219305684198E-04	-0.897745178951896	-0.229121348271872
1399375000	-0.900463452819362	-0.174161872473646	-7.1422534387008E-04	9.45122195076195E-04			-7.0344639945674E-04	9.40824390139384E-04	-0.896119043123813	-0.227858206649584
1400000000	-0.90074325384403	-0.175616918976164	-6.85065931300129E-04	9.23360446882545E-04			-6.98308778368107E-04	9.18767563679675E-04	-0.895739814310759	-0.227357645737694
1400625000	-0.902763143143437	-0.175549339044496	-7.11506595581733E-04	9.06205753971332E-04			-7.21836769926847E-04	8.98016024513422E-04	-0.895091547292099	-0.227088289994169
1401250000	-0.904336489399116	-0.17396046175589	-7.24142740717683E-04	9.16833954364287E-04			-7.16913041374069E-04	9.13288459556942E-04	-0.895737383821035	-0.225919495196549
1401875000	-0.905487329302273	-0.172428111946385	-7.2408670028804E-04	8.64840774487548E-04			-7.00922335493624E-04	8.79356179703031E-04	-0.896792205483533	-0.224803161817729
1402500000	-0.90685432998735	-0.16986130800795	-7.14144384673106E-04	8.75747174987109E-04			-7.29686919382476E-04	8.63190012130738E-04	-0.897978704698008	-0.223031681345139
1403125000	-0.907396327718362	-0.167438248772649	-7.23788306834795E-04	8.44815820743059E-04			-7.43929752831911E-04	8.58800483797616E-04	-0.898531723600715	-0.221300516552049
1403750000	-0.907982970144528	-0.164172447345017	-7.36020506415946E-04	8.81243465234149E-04			-7.57109564046323E-04	8.67855135824946E-04	-0.898759801216699	-0.218757376683994
1404375000	-0.907189681383357	-0.161230241116792	-7.35364567882727E-04	8.73233064296968E-04			-7.60645207044482E-04	8.70901886718566E-04	-0.898841649599534	-0.216565724981821
1405000000	-0.907397198666315	-0.15833973916922	-7.70292504367928E-04	8.6618550476667E-04			-7.62441958933584E-04	8.80582718811887E-04	-0.898867555260479	-0.214229697973685
1405625000	-0.906218258909881	-0.156056106398987	-8.13714244767262E-04	8.66355221290868E-04			-8.25283402809456E-04	8.54826217937031E-04	-0.898303360360858	-0.211589094403106
1406250000	-0.905053373094558	-0.154414600488822	-8.33703012932555E-04	8.60732365489254E-04			-8.04918822523432E-04	8.45664337773028E-04	-0.897695839060546	-0.209322386154046
1406875000	-0.903481754820885	-0.152906816461279	-8.57154708995901E-04	8.61728986849779E-04			-8.567703172689E-04	8.69565325289405E-04	-0.897145222783874	-0.207492564782282
1407500000	-0.9024998780175	-0.152068898831187	-8.75268201892901E-04	9.05774976474558E-04			-8.73089319770781E-04	8.75570173188611E-04	-0.896044951618611	-0.206190696928274
1408125000	-0.902039958064178	-0.152084701689128	-8.5426431533547E-04	9.40252713282009E-04			-8.65685139881651E-04	9.28376435383278E-04	-0.895019625679149	-0.204704542169612
1408750000	-0.902315347506045	-0.151662140753265	-8.6460618932004E-04	9.65834892706618E-04			-8.73355064909823E-04	9.48953024256904E-04	-0.894287848887041	-0.20364630776363
1409375000	-0.902599686678314	-0.150934917222771	-8.40225094807244E-04	1.02895539334252E-03			-8.56584821173905E-04	1.00559871481132E-03	-0.893842661755552	-0.203097133059596
1410000000	-0.903670762862275	-0.14981346425675	-8.38354373768442E-04	9.82583451955399E-04			-8.46756037710507E-04	1.01089139229751E-03	-0.893850080883113	-0.202832816651842
1410625000	-0.905274269762938	-0.149175349229437	-8.28463789982806E-04	1.03975248161965E-03			-8.4183152991588E-04	1.01610942718697E-03	-0.894501669862849	-0.202875878189062
1411250000	-0.906583591897155	-0.147951653230979	-8.1713166530439E-04	1.02216635759172E-03			-8.09747258793991E-04	1.01722217268306E-03	-0.895477809085657	-0.201977754872832
1411875000	-0.908099144219433	-0.145371467324331	-7.80280537640927E-04	1.02814061974694E-03			-7.59114868887782E-04	1.02647310690538E-03	-0.896800295364512	-0.200998579148546
1412500000	-0.909357323151703	-0.142614789677464	-7.73467271439656E-04	1.01111949375641E-03			-7.94174176920523E-04	1.0303241327771E-03	-0.897816683542783	-0.199560645713372
1413125000	-0.910232499181136	-0.139885296294678	-7.87007868423523E-04	1.01295516914212E-03			-8.00944545557527E-04	1.02187859353806E-03	-0.899200958451748	-0.197629618741094
1413750000	-0.910250998212117	-0.13694014176601	-8.04168147820049E-04	1.00580268044089E-03			-7.8693551887723E-04	9.82740601934986E-04	-0.900060235095316	-0.195663502761333
1414375000	-0.910431124780942	-0.1340445754136	-8.08704526403723E-04	9.91820240459758E-04			-7.95589220709966E-04	9.78474100984764E-04	-0.901154702521099	-0.193192127540719
1415000000	-0.909692288537858	-0.131220677086348	-7.79204916589637E-04	1.00385051869908E-03			-8.12477153311755E-04	9.72788428156987E-04	-0.901414170066257	-0.191133379297551
1415625000	-0.908985476413636	-0.129115790435058	-8.15613743325208E-04	1.03931650477546E-03			-8.15296242784508E-04	1.03964843758546E-03	-0.902041952298746	-0.188639796395787
1416250000	-0.907880073586408	-0.126753209130901	-8.23586556841774E-04	1.01923418609359E-03			-7.999578380681E-04	1.02046341288979E-03	-0.902718859955707	-0.186166698989382
1416875000	-0.906645607559422	-0.125264855461669	-7.89928714627016E-04	1.01841284254624E-03			-8.09455890992944E-04	1.02822130019288E-03	-0.902955488814437	-0.183742902071725
1417500000	-0.905710929419264	-0.124311938036071	-8.39292298977127E-04	1.03752624650096E-03			-8.67190534716246E-04	1.02067287881141E-03	-0.902763573377881	-0.181412527128169
1418125000	-0.904575594629459	-0.124042955263074	-8.233577306289E-04	1.07671274947086E-03			-8.02706137005274E-04	1.07782293734647E-03	-0.903186268123941	-0.17908473785649
1418750000	-0.905444962268467	-0.124311234413684	-7.99430608324753E-04	0.001121885490618			-8.0478717146431E-04	1.09592760170883E-03	-0.903296811481808	-0.177083847394652
1419375000	-0.907339926528226	-0.123688096715855	-7.65622370978551E-04	1.08906518919215E-03			-7.62527006054819E-04	1.11891686821122E-03	-0.902616936928454	-0.17442047701725
1420000000	-0.908626580537366	-0.122456640031576	-7.15485893569719E-04	1.1224914171089E-03			-7.42828965711451E-04	1.11365124013368E-03	-0.902369210477496	-0.17245184051588
1420625000	-0.910572807760707	-0.12019055671254	-6.89707054678243E-04	1.09936053634806E-03			-7.2503495259116E-04	1.11154425858347E-03	-0.901952722211096	-0.170577012763159
