# Hz S RI R 50
1352000000	0.464327841689547	-0.752571262754015	0.330356532135196	0.195202543002972	2.16080671875203E-04	1.21392288284643E-03	-8.09834240334672E-04	-5.31208893766802E-04
			0.330713378591132	0.195428460221252	0.468959315638693	-0.745613815620474	-5.99896254628044E-04	-3.98030365566265E-04	-2.96649660671818E-03	-1.5025370279887E-03
			2.44202386473414E-04	1.26363933172449E-03	-6.33598413782221E-04	-3.87825915035928E-04	0.465871739227272	-0.759111185970264	0.324700863901444	0.20386287021841
			-7.87770187423367E-04	-4.97752908028182E-04	-2.99386376708956E-03	-1.45668633175272E-03	0.324403206290258	0.203638596139315	0.50963465551142	-0.721994136051618
1352625000	0.463667773232218	-0.75271989551602	0.330714803173201	0.194825480060123	2.02879855937956E-04	1.22890389458837E-03	-8.41817195029741E-04	-5.17833327646467E-04
			0.330773530764867	0.195294795392935	0.468125543645483	-0.745825984550198	-5.96302485584972E-04	-4.17586687245722E-04	-2.96532040409085E-03	-1.49507925424971E-03
			2.67021153235761E-04	1.24601112185734E-03	-6.22234347774122E-04	-4.3390539241176E-04	0.465627310049246	-0.759454867432435	0.324964387571538	0.203848740135802
			-8.55892035508276E-04	-5.15117094571644E-04	-2.98003929411093E-03	-1.48599368741712E-03	0.324732109560833	0.203781654310501	0.509494638772227	-0.722215631737206
1353250000	0.462788502520779	-0.753001264366067	0.33082653008782	0.195049447592174	2.53525728248447E-04	1.22737286015192E-03	-8.53860618310231E-04	-5.32777298262597E-04
			0.331030217226538	0.194800535217026	0.468334186446389	-0.745426305344248	-6.12963265993072E-04	-4.356918037934E-04	-2.94229591513259E-03	-1.52664479592753E-03
			2.61914292797051E-04	1.25664764826853E-03	-6.21928582356103E-04	-4.23420384045861E-04	0.464962230101293	-0.75979210834698	0.325010935843324	0.203808584200458
			-8.581597945908E-04	-5.20405307814886E-04	-2.96642416685265E-03	-1.50745293235494E-03	0.324992723958765	0.203816424283428	0.50934600979599	-0.722203723080972
1353875000	0.462602648346119	-0.75292457348284	0.331009485616279	0.194912067349356	2.45099036751787E-04	1.22405621607755E-03	-8.62741819345554E-04	-5.45054513083383E-04
			0.331142792989135	0.195139262465951	0.467528010971426	-0.745792336036508	-6.72123257868474E-04	-4.49525299099379E-04	-2.99244340105842E-03	-1.52687094145726E-03
			2.74379588203179E-04	1.25262381525956E-03	-6.46769173482302E-04	-4.45599650746449E-04	0.464249896732131	-0.759958615900187	0.325396771234296	0.204169062078809
			-8.41165683829483E-04	-5.18150693049194E-04	-2.97597496043157E-03	-1.51162126828112E-03	0.325443086349257	0.203867587490863	0.508944687805946	-0.722815183413933
1354500000	0.462472646093199	-0.753436105995994	0.331217504473442	0.194968467152167	2.63998607348852E-04	1.22966861881261E-03	-8.66772838012599E-04	-5.39178705633308E-04
			0.331469227660379	0.195320473925831	0.467366224437346	-0.746094957068061	-6.63185265083953E-04	-4.40256793583677E-04	-2.98322048479125E-03	-1.53630085705419E-03
			2.64593928005361E-04	1.25123332558617E-03	-6.72800192281717E-04	-4.31601307147367E-04	0.463942928020515	-0.75995167690903	0.32567332529333	0.204297518768384
			-8.41635765499058E-04	-5.32488893988567E-04	-3.00306810387859E-03	-1.53149507383801E-03	0.325638593959504	0.203952417974047	0.508614667597352	-0.722813657919466
1355125000	0.461669323433692	-0.753639699579754	0.331698512853298	0.195149116258635	2.49262278960935E-04	1.21145905633159E-03	-8.73901962489681E-04	-5.34589724066876E-04
			0.332100885007849	0.195027935317279	0.466312052624226	-0.746677667043226	-6.49202700301701E-04	-4.47637740185907E-04	-2.99866637888153E-03	-1.50704485352335E-03
			2.44386568610628E-04	1.22980409169538E-03	-6.41260301910029E-04	-4.67994645837593E-04	0.463240344497902	-0.760315695209601	0.325850296541315	0.204171364967426
			-8.89928041194818E-04	-5.35549375125813E-04	-3.00862924838171E-03	-1.5179361608687E-03	0.325786586045035	0.204039504172513	0.508305010181254	-0.723007311040891
1355750000	0.461396694782641	-0.754119019493732	0.332261452246001	0.195184348742678	2.66840768151514E-04	1.21656261930999E-03	-8.71344570762765E-04	-5.36554277622812E-04
			0.33244191659428	0.195319646738062	0.46605084676723	-0.747329865712476	-6.63289451330528E-04	-4.58804934355426E-04	-2.98251272989767E-03	-1.52271330543132E-03
			2.73052442954685E-04	1.22503404241892E-03	-6.71387019214481E-04	-4.42096547016747E-04	0.462782555348727	-0.760587585360653	0.326364078285272	0.204400279829645
			-8.7733182724306E-04	-5.38052250659291E-04	-3.0007054452566E-03	-1.49844034390395E-03	0.326271213721063	0.203860288080758	0.507541029080103	-0.723546402105679
1356375000	0.460229012382707	-0.754587523098395	0.33248415388472	0.194988916391237	2.28364763440905E-04	1.16716259269492E-03	-8.82608708613292E-04	-5.55469795780097E-04
			0.332809210674521	0.195186130213352	0.465141654291402	-0.747283419840782	-6.45935723713126E-04	-4.3472474802029E-04	-3.00090065073328E-03	-1.54642274704122E-03
			2.8902958476961E-04	1.20930898426181E-03	-6.52507546141765E-04	-4.2035703001205E-04	0.462463091820821	-0.760939414177846	0.326715547456777	0.204279104185495
			-8.93329816836523E-04	-5.42423328515657E-04	-3.02751530239236E-03	-1.54913340142665E-03	0.326654092406501	0.20384261990834	0.507197272892833	-0.724072647627336
1357000000	0.459832294132914	-0.75428800334586	0.33288762667642	0.195016617385886	2.6118862854984E-04	1.20048673184378E-03	-9.18357823547153E-04	-5.7862872325498E-04
			0.333040033641416	0.194976621924396	0.464877878755209	-0.747273141577312	-6.45415530796553E-04	-4.68860628702131E-04	-2.9797698020271E-03	-1.53938016499038E-03
			2.65129099209475E-04	1.2030141448759E-03	-6.60544225439793E-04	-4.65447390785761E-04	0.461729996818282	-0.760963410457448	0.327064657217979	0.204264146802091
			-8.88089789633991E-04	-5.54129010484046E-04	-3.03085978313827E-03	-1.55156668650901E-03	0.326891607388184	0.203988007183738	0.507016730124849	-0.723887482456652
1357625000	0.459341473664427	-0.75424624338099	0.333056690196837	0.195076083786928	2.53125473317665E-04	1.17722575301273E-03	-9.09402943517137E-04	-5.53170562706252E-04
			0.33341002105888	0.195064237425788	0.464534049576321	-0.747578075731528	-6.56165001160508E-04	-4.83731957117512E-04	-3.01499643590334E-03	-1.55557903873265E-03
			2.64032702934415E-04	1.22429387700027E-03	-6.68378688901389E-04	-4.6649151065671E-04	0.461350312465019	-0.761351533326328	0.327286703787654	0.204231002877189
			-9.09618128635045E-04	-5.70181985995324E-04	-3.03027090782585E-03	-1.56050381532265E-03	0.327483637184829	0.204031441495739	0.505827513268893	-0.72446456185566
1358250000	0.458497406789287	-0.754634765452828	0.333476506082568	0.19480636313392	2.45832894150941E-04	1.15854592187042E-03	-8.93100029629679E-04	-6.05093310505132E-04
			0.333685728410242	0.194985504193152	0.463551954728194	-0.748001184522404	-6.74354660165112E-04	-4.90502178402795E-04	-3.00906415431201E-03	-1.57434413963543E-03
			2.66663814278436E-04	1.19799468528275E-03	-6.70627730555018E-04	-4.93321955054356E-04	0.460820015257774	-0.761703521453696	0.327578782165864	0.20415883125255
			-8.84900785125384E-04	-5.44872703039681E-04	-2.99750246642397E-03	-1.52993385251274E-03	0.327688416356392	0.204036525477083	0.505304005671342	-0.724567784637097
1358875000	0.458144819203952	-0.754861290304426	0.333895873586277	0.194926089700506	2.74663221722563E-04	1.18388171952042E-03	-8.94526840006345E-04	-5.6359073773335E-04
			0.334023121077017	0.195000021935686	0.462527970646061	-0.748272623815133	-6.85550757439855E-04	-4.88855584171777E-04	-3.03313598183228E-03	-1.56989552569633E-03
			2.6736789219513E-04	1.20251230003439E-03	-6.79620290798607E-04	-4.71084186623625E-04	0.459953673947977	-0.761771434013906	0.328002568700057	0.204115784001478
			-8.84032131932884E-04	-5.67818850920736E-04	-3.0272419593222E-03	-1.56518127322125E-03	0.328070895153272	0.203930265514208	0.50494720470267	-0.724539598060222
1359500000	0.457718603389171	-0.754856945072183	0.334255183921248	0.194824466033135	2.43995253813942E-04	1.1986666852754E-03	-9.32928968839919E-04	-6.14151368527906E-04
			0.334420802594376	0.19501889801017	0.461854116816977	-0.748682894730596	-6.97266050797994E-04	-4.86141343938236E-04	-3.03980121772481E-03	-1.5266012575878E-03
			2.85934904156469E-04	1.22511689177469E-03	-6.90728864620435E-04	-4.68617359814274E-04	0.459541880193605	-0.76174104825945	0.328513670680232	0.203972238021772
			-8.80304054082877E-04	-5.79062134788995E-04	-3.02465408455641E-03	-1.56766933054293E-03	0.328282908319228	0.203772171932579	0.504335470295736	-0.724742822939251
1360125000	0.456807223939547	-0.755504694079185	0.334850855225175	0.194686546639311	2.73588868015732E-04	1.16961095586863E-03	-9.05852806379592E-04	-6.03647299559012E-04
			0.334815508042085	0.194835283176305	0.461175731106994	-0.748800733037312	-7.10428858169372E-04	-5.19819862012054E-04	-3.05137793710607E-03	-1.54055602094798E-03
			2.90170890353094E-04	1.23543282983676E-03	-6.83473568456819E-04	-5.02807295311331E-04	0.459026977600639	-0.761825365638694	0.32886466043787	0.203965303094092
			-8.89480018595064E-04	-6.06643939116066E-04	-3.0218336924504E-03	-1.55312482083223E-03	0.32878105438239	0.203652316436207	0.503858796431433	-0.724771581803735
1360750000	0.456134559651387	-0.755386188820256	0.335042158642371	0.194441929131283	2.50222737499502E-04	1.19530297949948E-03	-9.38131816125186E-04	-6.3486686108861E-04
			0.335082833676417	0.194549994514278	0.460481007468024	-0.748412169157298	-6.99712016493681E-04	-5.1696840081586E-04	-3.03627377942535E-03	-1.56386300752414E-03
			2.53130911052365E-04	1.19450568728818E-03	-6.93256036794712E-04	-4.90145498069727E-04	0.458628417127982	-0.762141760070918	0.328905758356088	0.203649014311787
			-9.17300926194958E-04	-6.05714573368501E-04	-3.05409115435883E-03	-1.55352169742279E-03	0.328786596750064	0.203540013082414	0.503566372877781	-0.724612372265683
1361375000	0.455671636403241	-0.755678689587285	0.335253272985791	0.194382583564585	2.94829843091596E-04	1.14998250229546E-03	-9.49455939501314E-04	-6.59769991653271E-04
			0.335371463214321	0.194429569018147	0.460255555224526	-0.7485602711921	-6.64885057075901E-04	-5.24202769813233E-04	-3.02449354547291E-03	-1.62483525043041E-03
			2.79882415026235E-04	1.18109529632933E-03	-6.74041104501887E-04	-5.18436214587173E-04	0.458672782811845	-0.761970264082594	0.32920895161137	0.203935750763547
			-9.31872243134549E-04	-6.70774013280946E-04	-3.02663151581214E-03	-1.58599168334934E-03	0.328896674282019	0.203771514149792	0.503275328000291	-0.724658878712969
1362000000	0.455416042298217	-0.75581987146877	0.33556672009271	0.194314155676957	3.23532092225431E-04	1.18978155662476E-03	-9.66243378354245E-04	-6.56874871417266E-04
			0.335575506475475	0.194618604623541	0.459642357879588	-0.748538827680493	-7.13796880516908E-04	-5.49111066074436E-04	-3.06070726898268E-03	-1.57871975614997E-03
			3.10389140530078E-04	1.18027158653998E-03	-7.22576454909599E-04	-5.17076859765833E-04	0.457884838181629	-0.762684742572255	0.329580975504756	0.204178817787166
			-9.33177723082554E-04	-6.54014935616107E-04	-3.06548897123226E-03	-1.5783388807636E-03	0.329279908799875	0.203777261179913	0.503386059040131	-0.724811648209551
1362625000	0.454918174762325	-0.756242836384945	0.335743160236439	0.194316500249577	3.08755179300591E-04	1.16393566332646E-03	-9.87952439353305E-04	-6.3269850638602E-04
			0.336081638544982	0.194530113626414	0.459155247062651	-0.749000521039704	-7.45375888744614E-04	-5.51932928901875E-04	-3.06600642180177E-03	-1.61334834054446E-03
			3.19945449788988E-04	1.16951864993371E-03	-7.55716578418291E-04	-5.21048325355125E-04	0.456944696837195	-0.762934967258676	0.329668168872928	0.20383020842436
			-9.9680516790256E-04	-6.46879150921118E-04	-3.0504629995681E-03	-1.58606231313584E-03	0.329699534923293	0.203768800370258	0.502392930602952	-0.72514121593536
1363250000	0.45393374601617	-0.756051755115439	0.336089455707376	0.194307500038736	3.28087445805414E-04	1.11233032871925E-03	-1.00713436114243E-03	-6.74437784133301E-04
			0.336170592346682	0.194530150235605	0.458880065356308	-0.748936785014177	-7.79253079196173E-04	-5.6445090106119E-04	-3.07958663899748E-03	-0.001613368766291
			3.10039936184681E-04	1.15454213006846E-03	-7.58179269734005E-04	-5.32165195106026E-04	0.456356703556895	-0.763094983763177	0.329966113063899	0.204159380631807
			-1.0030174456474E-03	-5.99561804706085E-04	-3.07030336874576E-03	-1.6091777898029E-03	0.329902817306852	0.203839369296864	0.502558728050039	-0.725580945647224
1363875000	0.453558155784243	-0.756530298774842	0.336462666633111	0.194252055950783	3.05731122573765E-04	1.10853621732845E-03	-0.001007861841154	-6.40471847155687E-04
			0.336529826018932	0.194490423782198	0.45836945883632	-0.749534229098643	-7.49043875594826E-04	-5.47352894605971E-04	-3.11184336978776E-03	-1.60940948064932E-03
			3.06029721136837E-04	1.11904590295737E-03	-7.52059809057481E-04	-5.48669904936744E-04	0.455656217065455	-0.763274574224038	0.330516916244782	0.204284147016316
			-0.001025967016177	-6.38110339930161E-04	-3.06801289880269E-03	-1.6052958579355E-03	0.330304060868624	0.203780680221045	0.502396860699633	-0.725913991656482
1364500000	0.453132522940898	-0.756711582590385	0.336744353514362	0.194243129833565	2.59790517853575E-04	1.06775665500715E-03	-1.03378618267291E-03	-6.58130461309767E-04
			0.336932904907722	0.194615361354574	0.457613317739844	-0.749870889006879	-7.80645016840566E-04	-5.55004765682397E-04	-3.12187967199447E-03	-1.63598792653163E-03
			3.09533082597296E-04	1.10156358167576E-03	-8.02473558242342E-04	-5.32628437399905E-04	0.455155980313944	-0.763456848718201	0.330713738914653	0.204142232073139
			-1.01771950632104E-03	-6.27195982596091E-04	-3.0825065926629E-03	-1.61218437490026E-03	0.330661941967337	0.203987405310158	0.501466011977153	-0.726573467773393
1365125000	0.452361429263905	-0.756876571410135	0.337478609048779	0.194446356659519	2.51853573108786E-04	1.08201225862283E-03	-1.04005921241589E-03	-6.36730404180898E-04
			0.337299516142961	0.194397119089843	0.457363009103069	-0.750437901991965	-8.05856707418724E-04	-5.55712159873829E-04	-3.14354621291184E-03	-1.61897907624994E-03
			3.11424025679314E-04	1.08992057494539E-03	-7.53070807189104E-04	-5.58329266873603E-04	0.454394865623344	-0.763770724007831	0.331234934008357	0.204544472331154
			-1.0269453335303E-03	-6.01236010367846E-04	-3.06897618244232E-03	-1.60030672566988E-03	0.331049569892619	0.203916203388588	0.501482918676314	-0.726455716420016
1365750000	0.452077667537159	-0.75728413917405	0.337563254816914	0.194322850682022	2.71789789249292E-04	1.06125732009407E-03	-1.04618090898386E-03	-6.30790966472261E-04
			0.337689923998292	0.194566643426376	0.456644523840356	-0.750565045482412	-7.90245070550751E-04	-5.43068780847475E-04	-3.11978385570983E-03	-1.60944139663639E-03
			3.00574687684643E-04	1.06172279802511E-03	-7.88123108677018E-04	-5.27204890709784E-04	0.453811671631073	-0.763972437095518	0.331744112041306	0.204426175016374
			-1.0459588813688E-03	-6.20146219355883E-04	-3.13032317382748E-03	-1.62803147291911E-03	0.331478004709974	0.203926873930772	0.500698520372324	-0.72683886799446
1366375000	0.451242414620682	-0.757903307542175	0.338153669450381	0.194446276133027	2.26543260740476E-04	1.02346208768408E-03	-1.03007337349712E-03	-6.24320191965548E-04
			0.338289166719302	0.194588224464962	0.456108883749581	-0.750951429219257	-8.11471846700411E-04	-5.41791220997729E-04	-3.14710544047149E-03	-1.59284767636603E-03
			2.63183325517617E-04	1.07148895349755E-03	-7.91816648395377E-04	-5.28298293319691E-04	0.453334756416978	-0.764124126210879	0.332100736478999	0.204190855875337
			-1.04583736729296E-03	-6.24125625176983E-04	-3.12984808177987E-03	-1.59202225667675E-03	0.331827068647872	0.204131757872207	0.499945493795077	-0.727358294916393
1367000000	0.450300387464348	-0.757776031215595	0.338280214588116	0.194271129426573	2.49188355667465E-04	1.01188109847768E-03	-1.06343240817104E-03	-6.27177146504673E-04
			0.338769101164135	0.194249398872154	0.455187256650933	-0.75095332448729	-8.29619729124407E-04	-5.64877575395967E-04	-3.1666583047555E-03	-1.61514725647809E-03
			2.65014218563649E-04	1.05035261216739E-03	-8.24929557488838E-04	-5.32492128257436E-04	0.453060213399952	-0.764168536361045	0.332595374693945	0.20432028717627
			-1.02766136852369E-03	-6.01832451284238E-04	-3.13933244918376E-03	-1.63107333370702E-03	0.332322853094257	0.203945307512616	0.499629356038191	-0.727464953273241
1367625000	0.449828003180066	-0.757806264501294	0.339017332291204	0.194321321031614	2.07393281537382E-04	9.95221836772798E-04	-1.07129787817936E-03	-6.50935904256293E-04
			0.339063387970811	0.194331331148529	0.454624876893402	-0.751515100588685	-8.17918033994138E-04	-5.29786459530082E-04	-3.16764926805358E-03	-1.59871540370072E-03
			2.40479905619486E-04	1.02904667758522E-03	-7.90241189715294E-04	-5.09454859803247E-04	0.452155297942482	-0.764755615072706	0.332708195119902	0.20423366735487
			-1.06625557295565E-03	-5.98218881215915E-04	-3.15908829600393E-03	-1.61614590055759E-03	0.332675291990369	0.20381362033802	0.49834877653993	-0.727817462164036
1368250000	0.449375309208183	-0.758232361529786	0.339269141967	0.194167059130222	2.08196725542559E-04	9.81895255855549E-04	-1.04449905216148E-03	-6.05289648741702E-04
			0.339328424007464	0.194488242190281	0.45364716047433	-0.751800094854713	-8.41793714896795E-04	-5.30205360973436E-04	-0.003167140674836	-1.61192340296917E-03
			2.48731077553992E-04	1.01854614364428E-03	-8.10744925907106E-04	-5.42110490398321E-04	0.451339147735621	-0.764790141419598	0.33313372292927	0.204167946780773
			-1.04681085023502E-03	-5.97347617965463E-04	-3.16707526374023E-03	-1.60913302663549E-03	0.333107439631662	0.203839633194887	0.497829669600935	-0.727793347110167
1368875000	0.448570565808503	-0.759100334972473	0.339548890523356	0.194068695837467	2.26412278014093E-04	9.91826726957854E-04	-1.06568587720613E-03	-6.46343213352626E-04
			0.33985284628619	0.194092521227367	0.452890065666042	-0.751869737309832	-8.29359340395578E-04	-5.468523607245E-04	-3.18175235653249E-03	-1.6231634722707E-03
			2.40438771838231E-04	9.9853330526085E-04	-8.21640309469698E-04	-5.34113755380533E-04	0.450760311193797	-0.76477051089686	0.333565300004206	0.204161824787493
			-1.06078730129822E-03	-5.91018656935947E-04	-3.19120117788717E-03	-1.62144687369715E-03	0.333309023482256	0.203789233255086	0.497553218957241	-0.727518655900095
1369500000	0.448110242036453	-0.758737973329927	0.33989599302403	0.194053719994113	2.17617117699537E-04	9.67954086293739E-04	-1.08437296021764E-03	-6.14309616746299E-04
			0.340218761495949	0.194152472241017	0.45224270345781	-0.752163617132323	-8.42112256034976E-04	-5.43098103443632E-04	-3.15630478391986E-03	-1.63318176302706E-03
			2.100439983494E-04	1.00126470096745E-03	-8.18740475824735E-04	-5.27422691762109E-04	0.450402415062498	-0.765520221026741	0.333733883031593	0.204100566186463
			-1.07250290934837E-03	-6.15040285068499E-04	-3.17461998988607E-03	-1.60242593815031E-03	0.333813259186337	0.204004181145621	0.496864936995891	-0.728033448199744
1370125000	0.446951346323462	-0.758730929921751	0.340289200130222	0.19404097689076	1.8733192320221E-04	9.83655964207851E-04	-1.08918273667913E-03	-6.22402569336522E-04
			0.340701725695264	0.193994949793799	0.451650722059936	-0.751980376072749	-8.63013578485903E-04	-5.1700293808291E-04	-3.19347363453418E-03	-1.62757325540885E-03
			2.43378511731843E-04	9.76695407993259E-04	-8.2731209095374E-04	-5.1263428051518E-04	0.449676912106971	-0.765408624964324	0.334186561490458	0.204165406328111
			-1.07093512763462E-03	-5.98335509202971E-04	-3.20670046273153E-03	-1.58795823238073E-03	0.334072234265592	0.203846451864134	0.496241662360209	-0.727986826361933
1370750000	0.446517910622459	-0.758902772300986	0.340827172941388	0.194069723088473	1.54665902095092E-04	9.41346307415676E-04	-1.08612586106618E-03	-6.10421239335922E-04
