# Hz S RI R 50
1650000000	-0.934142395578544	3.92119714789234E-02	9.16666355634891E-04	-1.17642355949665E-02			8.77908181238952E-04	-1.17303250282658E-02	-0.95237693874999	6.51862396477651E-02
1650312500	-0.933325627287141	4.04088629460737E-02	9.21337424417597E-04	-1.17250043845505E-02			9.0927171891379E-04	-1.16544476252062E-02	-0.950338166581235	6.57628582262585E-02
1650625000	-0.93376697966582	3.85178341152603E-02	9.24149610820461E-04	-1.16733079015074E-02			8.7164982364691E-04	-1.17179068793222E-02	-0.953534561662762	6.59984117865526E-02
1650937500	-0.93476497077748	4.17072389919799E-02	8.98380727240851E-04	-1.17400037385209E-02			8.66801899229425E-04	-1.16867159310431E-02	-0.95164505210454	6.77831618819681E-02
1651250000	-0.933629793360827	4.01232656537185E-02	9.06958254826884E-04	-1.16549871423816E-02			8.34218657790622E-04	-1.16941730529696E-02	-0.953051794209419	6.74429718197894E-02
1651562500	-0.933038121960595	4.40211702975259E-02	8.85860513009362E-04	-0.011661650878558			8.42855024263259E-04	-1.16952164948253E-02	-0.951978542417297	0.069479016916292
1651875000	-0.933475403760162	4.38979297650248E-02	8.5696737665502E-04	-0.011694008264994			8.33778046561065E-04	-1.16829923468058E-02	-0.952653513640569	6.80448506165487E-02
1652187500	-0.93280691490704	4.31218730810587E-02	8.41724633403171E-04	-1.16484332262315E-02			8.317972081746E-04	-0.011657796174998	-0.951982046209349	7.05729641585166E-02
1652500000	-0.933510242912869	4.40128474809309E-02	8.37460517513349E-04	-1.16493050028489E-02			8.06402904746967E-04	-1.15893813665104E-02	-0.952307868211068	7.11252756649117E-02
1652812500	-0.933130560402485	4.46557580817975E-02	8.20216407209736E-04	-1.16016051693954E-02			8.02661989984398E-04	-1.16252652458258E-02	-0.952640118121974	7.14012555344029E-02
1653125000	-0.933106443045205	4.73288647106066E-02	7.78801969197892E-04	-1.15965242018697E-02			7.53192772346457E-04	-1.16188882249869E-02	-0.951231093170699	7.30230204740791E-02
1653437500	-0.93241721049155	4.50958837476593E-02	8.26456473530976E-04	-1.15890765912726E-02			7.9978659542247E-04	-1.15528622186331E-02	-0.951007397820755	7.27294290582803E-02
1653750000	-0.932586771026116	4.58791425270144E-02	7.82667388389895E-04	-1.15878746863431E-02			7.10261040123003E-04	-1.15407678866496E-02	-0.948990079631245	7.48877605701835E-02
1654062500	-0.931653523711217	4.90580490274735E-02	7.69316841119249E-04	-1.15441319693554E-02			7.45067088855576E-04	-1.15080790439436E-02	-0.949105367702347	0.074508026878491
1654375000	-0.931083816620754	4.89942565170855E-02	8.05241812572755E-04	-0.011521319819266			7.23140080271456E-04	-1.15325527016489E-02	-0.950203279206089	7.58179577599406E-02
1654687500	-0.932112587840714	5.03606681865493E-02	7.48166774843258E-04	-1.15386582595596E-02			7.18884928320883E-04	-1.14858155819099E-02	-0.948737361323418	7.70954962277994E-02
1655000000	-0.932163223016899	5.11608561525085E-02	7.66912633593562E-04	-1.15014788945764E-02			7.3774980187445E-04	-0.011451343522783	-0.947728149332361	7.71073080022622E-02
1655312500	-0.929541688676954	5.15822899167977E-02	7.6608814233851E-04	-1.14310656941334E-02			7.47133375871253E-04	-1.14934979245108E-02	-0.951384780369425	7.71377699156136E-02
1655625000	-0.93242584335304	5.16078903794027E-02	7.63031588649882E-04	-1.14390851076677E-02			7.33917738650612E-04	-1.14082921055081E-02	-0.949088116389006	0.079507019680178
1655937500	-0.931066156946925	5.30900211796908E-02	7.28994147822648E-04	-1.14444085866787E-02			7.12341676852979E-04	-1.14470693796063E-02	-0.948700846305738	7.89906786836986E-02
1656250000	-0.930746425198857	5.26255049835156E-02	7.25440819809212E-04	-0.01143937527634			7.16030424368543E-04	-1.14140067884897E-02	-0.949196806601287	7.89517150653405E-02
1656562500	-0.930102718587414	5.32363285871237E-02	7.83207807241642E-04	-1.13762838940533E-02			7.02866495881791E-04	-1.14153822967269E-02	-0.947471996707765	8.08440346708159E-02
1656875000	-0.929589397865735	5.42270018943051E-02	7.7550617888382E-04	-1.13898944651637E-02			7.18820211658439E-04	-1.13807548834569E-02	-0.948705459340234	8.05730080904414E-02
1657187500	-0.929792830249275	5.60048743052809E-02	7.53464180870441E-04	-1.13719870969317E-02			7.27992799524842E-04	-1.13434240122976E-02	-0.948570266403833	7.94472928895887E-02
1657500000	-0.929991222310946	0.053719672484443	7.49917148096907E-04	-1.13717567918792E-02			7.32971168136979E-04	-1.13768933695617E-02	-0.950066822422421	0.081293666195638
1657812500	-0.930620863610653	5.69485767738399E-02	7.55253436736047E-04	-1.13367933268597E-02			7.3810075341583E-04	-1.13212983465658E-02	-0.948477063022731	8.02498566222654E-02
1658125000	-0.92929032753867	0.0569010450057	7.42765590840598E-04	-1.13428204004703E-02			0.000742579361916	-1.13432315669664E-02	-0.948278326648116	8.03588011956179E-02
1658437500	-0.929958142596241	5.80035408554286E-02	7.42198063549246E-04	-1.13327091630824E-02			6.8886163117929E-04	-1.13700498398429E-02	-0.948879053163977	8.39618381783205E-02
1658750000	-0.930580628929527	5.75902027883528E-02	7.51036102227078E-04	-0.011360623207544			6.91539784384064E-04	-1.13479136469979E-02	-0.948483708577407	8.35318592192058E-02
1659062500	-0.928078161137067	5.88971831250341E-02	7.05925179840475E-04	-1.12936112796127E-02			7.26311636430842E-04	-1.13295495212636E-02	-0.947979636401718	8.36036021336877E-02
1659375000	-0.93209726874741	5.98496356407819E-02	7.51274649489901E-04	-1.13535253845037E-02			7.24739329239351E-04	-0.011345318748142	-0.948839760007112	8.43674845723095E-02
1659687500	-0.928837403581693	5.91044138984793E-02	6.96239205966706E-04	-1.12885509925963E-02			6.84885397279242E-04	-1.12873450135243E-02	-0.949251491021204	8.68111295012819E-02
1660000000	-0.930051171659381	6.04898117555361E-02	7.41430989588187E-04	-1.13133230205499E-02			6.90706059429156E-04	-1.13019296849525E-02	-0.949850084384433	8.71436657281602E-02
1660312500	-0.931252328478145	6.13841824151342E-02	7.2081628326153E-04	-1.13095048095499E-02			6.70850304455999E-04	-1.12506652334493E-02	-0.949903578927345	8.81415117228447E-02
1660625000	-0.927995368426483	6.14182099545789E-02	6.8555402945153E-04	-1.12388768709034E-02			6.68122362635688E-04	-1.12541744474849E-02	-0.94974230946291	8.97746744252232E-02
1660937500	-0.928038553418154	6.18948812426266E-02	6.93887348364679E-04	-1.12637999665017E-02			6.9025314705766E-04	-1.12569613763258E-02	-0.948807235384885	8.65456959099049E-02
1661250000	-0.930152661084319	6.30552471995327E-02	6.68822645046984E-04	-0.011243623272058			6.30287323451816E-04	-1.12340852445333E-02	-0.949825376536694	9.10350501646542E-02
1661562500	-0.929760525725867	6.37552773038768E-02	6.93394110969246E-04	-1.12411303098831E-02			6.74664360540459E-04	-1.12590539903433E-02	-0.949167111513939	8.99818446142442E-02
1661875000	-0.929404708600184	6.34432131401204E-02	7.04720235367585E-04	-1.12167374699714E-02			6.86264693662368E-04	-1.11661028126277E-02	-0.948831173940332	0.090284539251438
1662187500	-0.930398324617774	6.40700192669781E-02	6.8057231840622E-04	-0.011202936727368			6.34781176464277E-04	-1.11893616877118E-02	-0.948586845550853	9.19751943202681E-02
1662500000	-0.929841762157871	6.59683516491233E-02	6.57481215894804E-04	-0.011219458428879			6.32962408857067E-04	-1.12059537341454E-02	-0.948404068667224	9.20564856235249E-02
1662812500	-0.929774719289069	6.64489659387146E-02	6.96186059196444E-04	-0.011211648566858			6.42206457252162E-04	-1.11670368625445E-02	-0.948921864312966	9.33619765604313E-02
1663125000	-0.929493376052886	6.59384879596079E-02	7.10347608026314E-04	-1.11949292869593E-02			6.68933914170005E-04	-1.11831225809744E-02	-0.950219760202695	9.46572760926739E-02
1663437500	-0.932016653334329	6.81812361543108E-02	6.88109383942097E-04	-0.011177589865449			6.40480084096739E-04	-1.12013535870354E-02	-0.949814290997391	9.58962784127664E-02
1663750000	-0.929723686395488	6.88089938592202E-02	6.74970906967884E-04	-1.11754771492061E-02			6.22226019385021E-04	-1.11240153707133E-02	-0.950917114495938	9.72123290275893E-02
1664062500	-0.930496239290666	6.99595128975302E-02	6.52004872720969E-04	-1.11783537377146E-02			6.70072947653486E-04	-1.11403667961635E-02	-0.947807381119498	9.68159337622194E-02
1664375000	-0.931242968534008	7.01217720618901E-02	6.8544640961027E-04	-0.01117300314988			6.23842424681363E-04	-1.11332182889885E-02	-0.949087022196239	0.097214672282491
1664687500	-0.929026296218122	7.05486573907133E-02	6.63790973844578E-04	-1.11248340825136E-02			6.5233492645016E-04	-1.11289707917092E-02	-0.949052443153278	9.84774459649386E-02
1665000000	-0.93149978210679	7.15159630886712E-02	6.58988900353392E-04	-1.11288371423904E-02			6.5339238969436E-04	-1.10782309052374E-02	-0.94679720304001	9.86174915202267E-02
1665312500	-0.931810196148115	7.21531221676179E-02	6.58193987407722E-04	-1.11079012973206E-02			6.47579726105819E-04	-1.11063277930353E-02	-0.949287591764383	0.101038423228721
1665625000	-0.930041602964132	7.32378526276942E-02	6.11022626423373E-04	-0.011127098641992			6.46224651861867E-04	-1.10946282248694E-02	-0.950730718294891	0.101697415559523
1665937500	-0.930065370513041	0.074430989011748	6.49886485647548E-04	-1.11096511756496E-02			6.15269152030431E-04	-0.011112527452217	-0.948677464964643	0.101820425362942
1666250000	-0.929675716978603	7.48311555901897E-02	6.27755420182049E-04	-1.11140995532709E-02			5.67882651528947E-04	-0.01108888887145	-0.948922862429025	0.103255218133544
1666562500	-0.931220178621636	7.53792029669768E-02	6.34736335760259E-04	-1.10889314288975E-02			6.2048672764313E-04	-1.11105181803398E-02	-0.948930858178376	0.102501510702906
1666875000	-0.931688084694873	7.59186319596184E-02	6.32208888675955E-04	-1.10839584554047E-02			5.91670291918883E-04	-1.10729420571954E-02	-0.949537578151304	0.104919931546555
1667187500	-0.931805647130391	7.68493076233626E-02	5.97745393255214E-04	-1.11066671975925E-02			5.90577434573058E-04	-1.11114891911785E-02	-0.948749764250617	0.105037446547748
1667500000	-0.930241470564712	7.72365719363134E-02	6.16257166950254E-04	-1.10815340961312E-02			5.99045637618172E-04	-1.10630888335123E-02	-0.948365535250391	0.106886463722301
1667812500	-0.930763365992967	7.97622702632708E-02	5.47408951623327E-04	-1.10784373903043E-02			5.74199579386467E-04	-1.10811244880787E-02	-0.949225659464567	0.107310420766982
1668125000	-0.929501228582272	7.91656568052225E-02	5.96285649709411E-04	-1.10460347218549E-02			5.09734567814343E-04	-1.10523539638091E-02	-0.949347354480007	0.108125610910724
1668437500	-0.929825259156059	8.10842819169944E-02	5.42490131185474E-04	-1.10220587087846E-02			5.28078084330092E-04	-1.10137745686519E-02	-0.947941748168691	0.110353030171837
1668750000	-0.929924714264275	8.09654892863688E-02	5.36013671862387E-04	-1.10583706772042E-02			5.26808495743882E-04	-0.011036133750137	-0.949806825329635	0.111645608076972
1669062500	-0.929945404726591	8.12430669970011E-02	5.26083597681302E-04	-0.011018963332206			4.91885932886883E-04	-1.09969469636694E-02	-0.947662143429895	0.111048698604686
1669375000	-0.930482054845943	8.36762356858992E-02	4.96787816492045E-04	-1.09977821694302E-02			4.60569838992855E-04	-1.09723617890645E-02	-0.94697474651859	0.112079130679372
1669687500	-0.930882172705332	8.41065963376346E-02	4.8931310451186E-04	-0.010980552660185			4.54781085725908E-04	-1.09772820568921E-02	-0.946534799704247	0.113356673965619
1670000000	-0.929635149288534	8.47742444724603E-02	4.78674463462098E-04	-1.09615842385921E-02			4.39544662461007E-04	-1.09695306307493E-02	-0.94656522442644	0.113941235176869
1670312500	-0.929811375643287	8.61506810720038E-02	4.74840328040658E-04	-1.09441741737124E-02			4.30350932230781E-04	-1.09116637415337E-02	-0.945684119238809	0.116274238215031
1670625000	-0.929924718035652	8.61202621917375E-02	4.72489225144331E-04	-1.09489162079557E-02			4.30005099013939E-04	-1.09065170755254E-02	-0.945017168295268	0.116056524774177
1670937500	-0.92903286297743	0.087046839308953	4.72162210766317E-04	-1.08793326380613E-02			4.45380246748715E-04	-1.09250436370259E-02	-0.946746764983224	0.115315601012688
1671250000	-0.930145307565428	8.78344773787769E-02	4.56204986017937E-04	-1.08647811983422E-02			4.28458597644981E-04	-1.09032456790042E-02	-0.94673740840289	0.117101341767735
1671562500	-0.930019744833447	8.96212098593889E-02	4.6489455828541E-04	-0.010868875777446			4.45428864286106E-04	-1.08617312376172E-02	-0.945033235169558	0.116175043869088
1671875000	-0.928768203107334	9.01182011881418E-02	4.15240503141368E-04	-1.08652124632035E-02			4.15232446491212E-04	-1.08251450681424E-02	-0.944981923340734	0.119756205165757
1672187500	-0.927597129334629	9.03976089522842E-02	4.63503566244355E-04	-1.07832608573959E-02			4.1315517413448E-04	-1.08568533055816E-02	-0.945078956417926	0.119224147170889
1672500000	-0.928233396915716	9.14220692446228E-02	4.52919167157158E-04	-1.08147455944963E-02			3.88771756188508E-04	-1.08207922526398E-02	-0.943655032136888	0.120743476039171
1672812500	-0.929175232598134	9.23323144852397E-02	3.81072083920673E-04	-1.08137450840127E-02			3.67396211207457E-04	-1.08176663494924E-02	-0.943816468822782	0.121315387362783
1673125000	-0.928367541220112	9.40281141597577E-02	4.37870372349431E-04	-1.07990956747769E-02			4.12344134674754E-04	-1.08116895072753E-02	-0.94543141894126	0.122037908617799
1673437500	-0.927535442801108	9.44541173860925E-02	3.96016924372125E-04	-1.07683222854638E-02			3.66537955665389E-04	-1.07636733262297E-02	-0.942239132320509	0.123329057295227
1673750000	-0.928661422835379	9.40955548510586E-02	4.20987333628214E-04	-1.07916418619217E-02			3.92907580146998E-04	-1.07535657643226E-02	-0.944675221291459	0.121017412023221
1674062500	-0.929253365881867	9.46578158188477E-02	3.68955524764652E-04	-1.07372097621567E-02			3.7531430648571E-04	-1.07564628907977E-02	-0.944267867568674	0.123770459418106
1674375000	-0.927532534866415	9.66265020715525E-02	4.08833730608185E-04	-1.07024708229691E-02			3.8401315450171E-04	-1.07166630132909E-02	-0.942450101752175	0.124040183019512
1674687500	-0.926559300944925	9.65388077223161E-02	3.75922107504216E-04	-1.06731747851016E-02			3.56273397705032E-04	-1.06910788106514E-02	-0.943068190045099	0.126045559361753
1675000000	-0.926841393247375	9.90515585233683E-02	3.8665503353832E-04	-1.07274903220926E-02			3.89150395978874E-04	-1.06690314310738E-02	-0.943611022947658	0.126023414381479
1675312500	-0.926695996793713	9.77746286637071E-02	3.70432214002495E-04	-1.06782789034474E-02			3.68632623924079E-04	-0.010691566431197	-0.943198450278168	0.126240673462158
1675625000	-0.928462160463506	9.90171867593787E-02	3.69693981492304E-04	-1.06430524563177E-02			3.12824444230171E-04	-1.06220747095464E-02	-0.942688526753978	0.126370861260963
1675937500	-0.926645604911559	9.96091298485648E-02	3.63874740532657E-04	-1.06203302675898E-02			3.32726792097751E-04	-1.06264017736173E-02	-0.942047833169049	0.127247668397514
1676250000	-0.92656610237218	0.100398826775982	3.38182187326623E-04	-1.06165916595118E-02			3.25597977981501E-04	-1.06186594115397E-02	-0.942461943014049	0.127706639192753
1676562500	-0.92766421137068	0.101210890142407	3.44084663280759E-04	-1.05695890427143E-02			3.1881728129443E-04	-1.05658126379922E-02	-0.942415749248449	0.129764476477831
1676875000	-0.926907300174183	0.101540702141621	3.63229874935712E-04	-1.05599139393991E-02			2.88682132928755E-04	-1.05569839180475E-02	-0.94257586897975	0.130263196350422
1677187500	-0.926359226900917	0.101916991723461	3.51898077471062E-04	-1.05575582997239E-02			3.14022825380489E-04	-1.05245695906126E-02	-0.942191469973887	0.131875769118481
1677500000	-0.92480011528219	0.103023177414776	3.47251801626865E-04	-1.05454486664611E-02			2.79700012857489E-04	-1.05582437370821E-02	-0.943330570923928	0.131495702462912
1677812500	-0.927160330010009	0.102587442684746	3.41971368138581E-04	-1.05046280160462E-02			3.19998915484221E-04	-1.05315162286794E-02	-0.94414083419662	0.131598299790271
1678125000	-0.925084162538246	0.104469202369379	3.62616773866776E-04	-0.010481505408592			3.09077540662363E-04	-1.04900540841565E-02	-0.941843649997778	0.132223010024777
1678437500	-0.924501750949797	0.104781832932541	3.91295067325046E-04	-1.04522270778222E-02			3.37745789955553E-04	-1.04442275931044E-02	-0.942156337890473	0.13390585791972
1678750000	-0.925330365874406	0.10457408113089	3.56716843296217E-04	-1.04335368269562E-02			3.33605716252514E-04	-1.05004389273888E-02	-0.94404892832528	0.134347518011115
1679062500	-0.925858090773767	0.107565676157487	3.63059432671468E-04	-1.04425630728891E-02			3.10227170995282E-04	-0.010431426845038	-0.941873578969877	0.137547616972483
1679375000	-0.924698230857638	0.107318799655124	3.50885989157914E-04	-0.010425478606279			3.46409952030941E-04	-1.04225218530843E-02	-0.942721412850655	0.1357304490276
1679687500	-0.925689053002026	0.106998113448678	3.76256119857157E-04	-1.04245595808263E-02			3.2949500494496E-04	-1.03880952202059E-02	-0.941261136826283	0.13701510442317
1680000000	-0.926607977432911	0.108878032865532	3.75987021276697E-04	-1.04032128484065E-02			3.64643144379828E-04	-1.03721173697619E-02	-0.941992742564122	0.137784920360023
1680312500	-0.924346888204363	0.110187144349317	3.52544866748586E-04	-1.03722702588971E-02			3.59466844561359E-04	-1.03672983249316E-02	-0.941967187563055	0.137958017654546
1680625000	-0.925308298185228	0.110305307844024	4.11578258181643E-04	-0.010405300508834			3.3978911468515E-04	-1.03997035145413E-02	-0.94326086927915	0.138558790962669
1680937500	-0.92548228319147	0.110093923279824	3.5570640194781E-04	-1.03841931985193E-02			3.59634629115325E-04	-1.03540998948425E-02	-0.942140598092896	0.140075197222256
1681250000	-0.925099508473613	0.110904056113991	3.81507794431009E-04	-1.03848506768709E-02			3.43178493271537E-04	-0.010371604355107	-0.941706177844508	0.14074966519926
1681562500	-0.924987779011435	0.111408166567897	3.61979005180896E-04	-0.010336003253357			3.54017503326831E-04	-1.03743551048208E-02	-0.941713383316574	0.141286813477553
1681875000	-0.926800363207538	0.112429554518979	3.5062114712116E-04	-1.03552325736046E-02			3.14428632789165E-04	-1.03754947678414E-02	-0.942226540890166	0.143787849684399
1682187500	-0.925926492437575	0.114487887225024	3.56531339831355E-04	-1.03533764690042E-02			2.93647504590569E-04	-1.03680032801969E-02	-0.941501200409376	0.143763679201606
1682500000	-0.925665304963497	0.113765095861101	3.40608255214524E-04	-1.03234609979874E-02			3.36708103704561E-04	-1.02720210306506E-02	-0.941405691501414	0.142613559744275
1682812500	-0.922997761001959	0.114894160985654	3.31369064651649E-04	-0.010320940394331			3.11472097926701E-04	-1.03270105529182E-02	-0.941412749906869	0.145134579455613
1683125000	-0.924472948605186	0.115354275222289	3.45132054582062E-04	-1.03332177032034E-02			3.02376155630778E-04	-1.03072571826348E-02	-0.940672728203767	0.146759978186492
1683437500	-0.924904517159194	0.116555943694458	3.26805572952372E-04	-1.02693317236465E-02			2.83440892142663E-04	-1.03079860362815E-02	-0.941898492056832	0.145009871885897
1683750000	-0.926490565583953	0.115662443762706	3.5144521028726E-04	-1.02769742343898E-02			2.81316854705139E-04	-1.02762251145161E-02	-0.940049600601307	0.14942391826575
1684062500	-0.925336803526656	0.116968225782272	3.11219348110054E-04	-1.02685253612526E-02			3.02756835420675E-04	-1.02652941364313E-02	-0.942184728392335	0.148284666466339
1684375000	-0.922779946359789	0.118323451134083	3.17251923359118E-04	-1.02398556322931E-02			2.72185681926718E-04	-1.02313793985448E-02	-0.939506625167772	0.151349495866046
1684687500	-0.924806142238735	0.120261667686063	2.96044465928453E-04	-1.02372305193105E-02			2.67659576971472E-04	-1.02395504997151E-02	-0.941840395034547	0.151384081872662
1685000000	-0.923874935032873	0.120695218341229	3.44478098395241E-04	-1.02216074070715E-02			2.76177645842086E-04	-1.02016823577426E-02	-0.941046282385443	0.15144733163595
1685312500	-0.92253292645099	0.122479846866161	2.90015545817038E-04	-1.01848400590132E-02			2.45873934080208E-04	-1.01899437523453E-02	-0.940412758056617	0.153635356712495
