! Network Analyzer HP8753E.07.72: Apr 03, 2002 Serial No. US38161084
! Hewlett-Packard
! 27 Jun 2006  14:49:53
! Frequency       S11                S21                S12                S22
# HZ  S  DB R  50 
1840000000  -.6992   -124.44   -33.402    14.713   -33.582    17.851   -.6729   -121.54   
1840750000  -.6795   -124.6   -33.478    14.528   -33.651    17.952   -.6687   -121.56   
1841500000  -.6938   -124.61   -33.523    14.987   -33.67    17.996   -.6773   -121.69   
1842250000  -.6913   -124.72   -33.574    14.797   -33.698    18.077   -.6771   -121.82   
1843000000  -.6883   -124.78   -33.626    14.678   -33.677    18.232   -.6705   -121.9   
1843750000  -.6843   -124.79   -33.672    14.731   -33.754    17.891   -.6706   -121.96   
1844500000  -.6899   -124.94   -33.718    14.429   -33.75    18.096   -.6812   -122.12   
1845250000  -.6945   -125.06   -33.691    15.018   -33.813    18.364   -.6837   -122.15   
1846000000  -.6930   -125.15   -33.75    14.572   -33.795    18.211   -.6733   -122.21   
1846750000  -.6961   -125.26   -33.75    14.961   -33.766    18.034   -.6670   -122.33   
1847500000  -.7042   -125.32   -33.769    15.073   -33.871    18.086   -.6846   -122.36   
1848250000  -.7082   -125.38   -33.862    14.851   -33.832    18.265   -.6921   -122.36   
1849000000  -.7089   -125.47   -33.859    14.702   -33.871    18.3   -.6876   -122.53   
1849750000  -.7172   -125.55   -33.967    14.275   -33.916    18.099   -.6902   -122.51   
1850500000  -.7073   -125.61   -33.965    14.527   -33.924    18.031   -.6917   -122.62   
1851250000  -.7084   -125.73   -34.014    14.88   -33.927    18.186   -.6941   -122.7   
1852000000  -.7058   -125.79   -34.078    14.723   -33.986    17.949   -.7039   -122.72   
1852750000  -.7143   -125.89   -34.135    14.764   -33.996    18.055   -.6928   -122.86   
1853500000  -.7042   -125.91   -34.149    14.73   -34.067    18.431   -.6917   -122.94   
1854250000  -.7132   -126.01   -34.216    14.843   -34.107    18.246   -.7039   -123.04   
1855000000  -.7111   -126.03   -34.21    15.128   -34.141    17.853   -.6930   -123.01   
1855750000  -.7167   -126.12   -34.303    14.759   -34.122    18.436   -.6935   -123.09   
1856500000  -.7096   -126.22   -34.343    15.204   -34.19    18.195   -.6987   -123.28   
1857250000  -.6992   -126.28   -34.344    15.065   -34.214    18.659   -.6854   -123.33   
1858000000  -.7041   -126.35   -34.393    15.495   -34.186    18.42   -.6859   -123.35   
1858750000  -.7043   -126.48   -34.471    15.584   -34.268    18.13   -.6807   -123.5   
1859500000  -.7038   -126.62   -34.518    15.513   -34.249    18.178   -.6739   -123.55   
1860250000  -.7078   -126.71   -34.606    15.64   -34.247    18.294   -.6845   -123.68   
1861000000  -.6981   -126.81   -34.557    16.024   -34.365    18.302   -.6896   -123.81   
1861750000  -.7102   -126.91   -34.65    16.002   -34.342    18.717   -.6906   -123.9   
1862500000  -.7054   -127.01   -34.666    16.305   -34.395    18.81   -.6907   -124.02   
1863250000  -.7049   -127.1   -34.741    16.243   -34.415    18.747   -.6907   -124.11   
1864000000  -.7146   -127.18   -34.781    16.611   -34.468    19.002   -.6896   -124.2   
1864750000  -.7037   -127.31   -34.838    16.62   -34.495    19.006   -.6943   -124.29   
1865500000  -.7164   -127.33   -34.853    17.284   -34.546    18.903   -.6965   -124.4   
1866250000  -.7182   -127.46   -34.898    17.755   -34.577    19.182   -.7054   -124.38   
1867000000  -.7203   -127.56   -34.931    17.794   -34.558    19.585   -.7054   -124.52   
1867750000  -.7229   -127.67   -34.884    17.196   -34.585    19.376   -.7070   -124.57   
1868500000  -.7314   -127.64   -34.876    17.982   -34.593    19.482   -.7145   -124.64   
1869250000  -.7235   -127.7   -34.916    18.013   -34.544    19.287   -.7093   -124.75   
1870000000  -.7250   -127.89   -34.95    18.004   -34.526    19.698   -.7184   -124.88   
1870750000  -.7248   -127.86   -34.979    17.963   -34.583    19.583   -.7118   -124.97   
1871500000  -.7223   -127.96   -35.025    18.222   -34.64    19.109   -.7051   -124.95   
1872250000  -.7186   -128.1   -35.021    18.564   -34.638    19.535   -.7095   -125.1   
1873000000  -.7138   -128.15   -35.066    18.517   -34.719    19.354   -.7075   -125.18   
1873750000  -.7135   -128.29   -35.094    18.703   -34.748    19.547   -.7128   -125.26   
1874500000  -.7105   -128.38   -35.165    18.979   -34.786    19.254   -.7031   -125.39   
1875250000  -.7116   -128.44   -35.182    18.755   -34.824    19.829   -.7032   -125.51   
1876000000  -.7139   -128.54   -35.213    19.601   -34.845    19.649   -.7117   -125.52   
1876750000  -.7139   -128.69   -35.225    19.374   -34.873    19.936   -.7053   -125.67   
1877500000  -.7165   -128.8   -35.285    20.128   -34.934    19.859   -.7046   -125.75   
1878250000  -.7121   -128.91   -35.264    20.571   -34.903    20.138   -.7185   -125.86   
1879000000  -.7189   -128.97   -35.247    20.564   -34.934    20.652   -.7121   -125.9   
1879750000  -.7303   -129.1   -35.263    20.856   -34.926    20.196   -.7180   -126.01   
1880500000  -.7356   -129.17   -35.268    21.057   -34.95    20.941   -.7179   -126.07   
1881250000  -.7384   -129.2   -35.306    21.146   -34.972    20.601   -.7139   -126.25   
1882000000  -.7398   -129.37   -35.223    21.335   -35.001    21.017   -.719   -126.26   
1882750000  -.7414   -129.45   -35.303    21.555   -34.969    21.097   -.7204   -126.37   
1883500000  -.7392   -129.52   -35.226    21.625   -34.995    20.778   -.7164   -126.52   
1884250000  -.7465   -129.63   -35.256    21.861   -34.997    21.123   -.7201   -126.58   
1885000000  -.7502   -129.75   -35.253    21.583   -35.014    20.73   -.7235   -126.66   
1885750000  -.7451   -129.8   -35.251    21.808   -35.014    20.551   -.7239   -126.77   
1886500000  -.7495   -129.9   -35.231    21.992   -35.023    20.818   -.7313   -126.82   
1887250000  -.7597   -129.93   -35.276    22.128   -35.052    20.343   -.7168   -126.99   
1888000000  -.7485   -130.05   -35.28    22.12   -35.087    20.731   -.7223   -126.96   
1888750000  -.7509   -130.13   -35.3    22.251   -35.081    20.789   -.7167   -127.06   
1889500000  -.7416   -130.28   -35.312    22.242   -35.127    20.701   -.7301   -127.15   
1890250000  -.7543   -130.31   -35.282    22.466   -35.16    20.756   -.7204   -127.26   
1891000000  -.7441   -130.41   -35.278    22.317   -35.251    20.616   -.7202   -127.35   
1891750000  -.7502   -130.51   -35.301    22.479   -35.275    20.652   -.7231   -127.39   
1892500000  -.7547   -130.62   -35.35    22.812   -35.288    20.807   -.7273   -127.6   
1893250000  -.7509   -130.78   -35.354    23.009   -35.302    20.936   -.7269   -127.67   
1894000000  -.7410   -130.89   -35.355    23.06   -35.34    20.9   -.7290   -127.82   
1894750000  -.7437   -130.99   -35.314    23.126   -35.345    21.221   -.7251   -127.89   
1895500000  -.7536   -131.07   -35.305    23.284   -35.365    21.318   -.7241   -127.93   
1896250000  -.7574   -131.2   -35.313    23.448   -35.338    21.695   -.7334   -128.03   
1897000000  -.7412   -131.35   -35.258    23.503   -35.39    21.334   -.7301   -128.14   
1897750000  -.7597   -131.36   -35.291    23.199   -35.41    21.594   -.7365   -128.2   
1898500000  -.7657   -131.51   -35.312    23.627   -35.401    21.278   -.7378   -128.37   
1899250000  -.7698   -131.55   -35.274    23.744   -35.368    21.456   -.7391   -128.49   
1900000000  -.7691   -131.61   -35.223    23.566   -35.41    21.658   -.7439   -128.5   
1900750000  -.7710   -131.79   -35.183    23.71   -35.381    21.738   -.7382   -128.63   
1901500000  -.7756   -131.85   -35.238    23.667   -35.368    21.682   -.7371   -128.71   
1902250000  -.7675   -131.95   -35.15    22.971   -35.393    21.348   -.7389   -128.81   
1903000000  -.7733   -132.02   -35.205    22.802   -35.428    20.974   -.7524   -128.88   
1903750000  -.7679   -132.05   -35.221    22.944   -35.423    20.974   -.7351   -129.09   
1904500000  -.7859   -132.21   -35.267    22.621   -35.532    20.889   -.7471   -129.15   
1905250000  -.7758   -132.24   -35.242    22.58   -35.479    20.623   -.7419   -129.21   
1906000000  -.7717   -132.42   -35.297    22.31   -35.545    20.697   -.7456   -129.4   
1906750000  -.7643   -132.47   -35.249    22.261   -35.643    20.636   -.7509   -129.37   
1907500000  -.7742   -132.67   -35.277    22.028   -35.631    20.859   -.7343   -129.59   
1908250000  -.7739   -132.76   -35.276    21.96   -35.67    20.664   -.7342   -129.63   
1909000000  -.7841   -132.82   -35.349    22.142   -35.762    21.248   -.7457   -129.75   
1909750000  -.7653   -132.96   -35.347    21.962   -35.838    20.494   -.7472   -129.89   
1910500000  -.7748   -133.14   -35.4    22.183   -35.76    20.749   -.7548   -130   
1911250000  -.7887   -133.23   -35.371    22   -35.801    21.228   -.7524   -130.06   
1912000000  -.7794   -133.34   -35.387    22.17   -35.874    21.433   -.7574   -130.19   
1912750000  -.7798   -133.34   -35.365    21.92   -35.943    21.595   -.7618   -130.25   
1913500000  -.7856   -133.45   -35.358    21.734   -35.842    21.267   -.7643   -130.45   
1914250000  -.7812   -133.6   -35.386    21.546   -35.866    21.055   -.7705   -130.46   
1915000000  -.7888   -133.75   -35.379    21.327   -35.891    20.851   -.7661   -130.53   
1915750000  -.7857   -133.82   -35.372    20.969   -35.884    20.614   -.7690   -130.61   
1916500000  -.7856   -133.92   -35.401    20.811   -35.884    20.642   -.7728   -130.69   
1917250000  -.7868   -134.05   -35.437    20.332   -35.94    20.465   -.7637   -130.83   
1918000000  -.7891   -134.17   -35.459    20.19   -35.987    20.609   -.7616   -130.98   
1918750000  -.7802   -134.26   -35.491    19.675   -36.057    19.946   -.7691   -131.06   
1919500000  -.7817   -134.36   -35.567    19.454   -36.045    19.763   -.7724   -131.11   
1920250000  -.7822   -134.45   -35.584    18.913   -36.102    19.444   -.7656   -131.29   
1921000000  -.7885   -134.52   -35.613    18.909   -36.091    19.648   -.7619   -131.4   
1921750000  -.7870   -134.66   -35.668    18.682   -36.206    19.465   -.7664   -131.54   
1922500000  -.7829   -134.75   -35.781    18.457   -36.306    19.424   -.763   -131.61   
1923250000  -.7949   -134.88   -35.755    18.173   -36.351    19.763   -.7715   -131.74   
1924000000  -.7929   -134.99   -35.868    17.643   -36.417    19.177   -.7613   -131.85   
1924750000  -.7888   -135.11   -35.906    18.009   -36.54    19.351   -.7689   -131.93   
1925500000  -.7850   -135.22   -36.027    17.834   -36.586    19.278   -.7738   -132.19   
1926250000  -.7932   -135.32   -36.064    17.692   -36.614    19.476   -.7649   -132.2   
1927000000  -.7934   -135.51   -36.129    17.703   -36.679    19.307   -.7673   -132.31   
1927750000  -.8006   -135.6   -36.144    17.919   -36.702    19.226   -.7679   -132.52   
1928500000  -.7943   -135.68   -36.23    17.706   -36.69    19.302   -.7739   -132.56   
1929250000  -.7998   -135.81   -36.249    17.573   -36.826    19.458   -.7699   -132.64   
1930000000  -.8004   -135.91   -36.322    17.144   -36.841    19.538   -.7709   -132.75   
1930750000  -.7956   -136.05   -36.332    17.129   -36.802    19.652   -.7735   -132.91   
1931500000  -.7990   -136.13   -36.374    17.302   -36.944    19.585   -.7735   -133.05   
1932250000  -.8044   -136.24   -36.442    17.037   -36.954    19.575   -.7779   -133.12   
1933000000  -.7946   -136.35   -36.458    16.957   -36.95    19.586   -.7872   -133.25   
1933750000  -.8019   -136.49   -36.52    17.071   -37.02    19.484   -.7700   -133.35   
1934500000  -.8028   -136.58   -36.654    16.675   -37.188    19.418   -.7929   -133.43   
1935250000  -.8052   -136.78   -36.655    16.441   -37.108    19.122   -.7841   -133.6   
1936000000  -.7938   -136.83   -36.753    15.823   -37.278    18.53   -.7849   -133.7   
1936750000  -.7921   -137.01   -36.777    15.374   -37.263    18.354   -.7803   -133.81   
1937500000  -.7979   -137.14   -36.929    15.286   -37.319    18.333   -.7766   -133.96   
1938250000  -.7969   -137.26   -37.063    15.33   -37.548    17.799   -.7873   -134.11   
1939000000  -.8017   -137.46   -37.177    15.051   -37.645    18.121   -.7884   -134.23   
1939750000  -.7978   -137.56   -37.321    15.092   -37.636    18.535   -.7853   -134.35   
1940500000  -.8053   -137.72   -37.4    15.386   -37.88    18.344   -.7876   -134.52   
1941250000  -.8038   -137.87   -37.477    15.102   -37.98    18.88   -.7951   -134.57   
1942000000  -.8207   -138.02   -37.669    15.212   -37.95    18.648   -.7874   -134.71   
1942750000  -.8350   -138.15   -37.789    15.364   -38.062    18.669   -.7929   -134.84   
1943500000  -.8358   -138.2   -37.878    16.177   -38.27    18.813   -.8077   -134.98   
1944250000  -.8522   -138.36   -38.003    15.822   -38.302    19.482   -.7999   -135.05   
1945000000  -.8393   -138.42   -38.014    16.458   -38.247    19.931   -.8109   -135.26   
1945750000  -.8465   -138.53   -38.026    16.455   -38.357    20.108   -.8014   -135.31   
1946500000  -.8393   -138.6   -38.071    16.482   -38.433    20.31   -.8005   -135.37   
1947250000  -.8353   -138.71   -38.05    16.122   -38.326    20.411   -.8088   -135.61   
1948000000  -.8458   -138.86   -38.243    16.184   -38.461    20.134   -.8107   -135.72   
1948750000  -.8358   -138.91   -38.291    16.095   -38.518    19.81   -.8002   -135.84   
1949500000  -.8259   -139.06   -38.397    16.584   -38.613    19.558   -.8049   -135.94   
1950250000  -.8237   -139.22   -38.54    15.775   -38.763    19.781   -.8118   -136.13   
1951000000  -.8173   -139.35   -38.661    15.076   -38.893    19.641   -.8118   -136.23   
1951750000  -.8161   -139.45   -38.744    15.461   -38.939    19.589   -.8124   -136.41   
1952500000  -.824   -139.66   -38.879    15.561   -39.097    19.306   -.8186   -136.51   
1953250000  -.8346   -139.86   -39.051    15.334   -39.21    19.297   -.8180   -136.67   
1954000000  -.8246   -139.99   -39.151    15.206   -39.309    19.341   -.8249   -136.7   
1954750000  -.8285   -140.17   -39.275    15.667   -39.504    19.832   -.8233   -136.86   
1955500000  -.8379   -140.18   -39.435    16.213   -39.555    20.039   -.8229   -137.02   
1956250000  -.8399   -140.44   -39.611    16.651   -39.718    20.165   -.8275   -137.15   
1957000000  -.8427   -140.5   -39.745    17.106   -39.868    20.958   -.8196   -137.23   
1957750000  -.8422   -140.68   -39.905    17.489   -39.904    21.868   -.8284   -137.41   
1958500000  -.8615   -140.78   -39.946    17.471   -40.123    22.411   -.8271   -137.56   
1959250000  -.8489   -140.98   -40.232    18.629   -40.067    22.655   -.8237   -137.68   
1960000000  -.8538   -141.03   -40.208    18.798   -40.159    23.041   -.8280   -137.77   
1960750000  -.8556   -141.2   -40.281    19.171   -40.355    23.08   -.8390   -137.96   
1961500000  -.8639   -141.3   -40.468    20.047   -40.427    23.508   -.8291   -138.17   
1962250000  -.8506   -141.54   -40.466    19.72   -40.464    24.483   -.8247   -138.23   
1963000000  -.8536   -141.52   -40.605    20.157   -40.497    23.983   -.8223   -138.37   
1963750000  -.8593   -141.71   -40.692    21.481   -40.614    24.663   -.8213   -138.61   
1964500000  -.8617   -141.88   -40.827    20.535   -40.789    24.81   -.8308   -138.74   
1965250000  -.8512   -141.95   -40.858    21.298   -40.865    24.015   -.8328   -138.83   
1966000000  -.8528   -142.2   -40.971    21.411   -40.999    25.859   -.8259   -139.02   
1966750000  -.8595   -142.37   -41.133    22.577   -40.968    25.428   -.8308   -139.25   
1967500000  -.8438   -142.49   -41.24    21.498   -41.176    25.93   -.8443   -139.38   
1968250000  -.8463   -142.68   -41.394    22.381   -41.273    24.634   -.8347   -139.52   
1969000000  -.8569   -142.89   -41.559    22.36   -41.367    25.405   -.8393   -139.71   
1969750000  -.8600   -143.04   -41.778    22.867   -41.712    25.697   -.8456   -139.84   
1970500000  -.8552   -143.28   -41.954    23.309   -41.802    27.515   -.8661   -139.99   
1971250000  -.8654   -143.44   -42.106    24.004   -41.889    27.388   -.8602   -140.15   
1972000000  -.8765   -143.62   -42.201    24.567   -42.078    29.049   -.8542   -140.25   
1972750000  -.8857   -143.82   -42.406    26.261   -42.268    29.34   -.8706   -140.42   
1973500000  -.8844   -143.84   -42.626    27.063   -42.341    30.359   -.8685   -140.59   
1974250000  -.8891   -144.16   -42.65    28.654   -42.423    31.159   -.8678   -140.58   
1975000000  -.9035   -144.25   -42.798    28.276   -42.702    33.234   -.8732   -140.84   
1975750000  -.9230   -144.43   -42.87    29.792   -42.726    32.889   -.8832   -140.99   
1976500000  -.9164   -144.54   -42.99    31.042   -42.767    33.864   -.8782   -141.1   
1977250000  -.9289   -144.58   -42.973    31.69   -43.053    35.48   -.8730   -141.23   
1978000000  -.9236   -144.69   -43.123    32.433   -42.823    34.888   -.8771   -141.41   
1978750000  -.9260   -144.74   -43.071    32.309   -42.903    35.052   -.8733   -141.51   
1979500000  -.9164   -144.88   -43.1    32.514   -43.043    35.567   -.8885   -141.67   
1980250000  -.9111   -145.02   -43.139    33.132   -42.994    35.427   -.8685   -141.83   
1981000000  -.8982   -145.17   -43.361    33.253   -43.122    35.35   -.8585   -142.1   
1981750000  -.9006   -145.4   -43.559    34.386   -43.5    35.921   -.8563   -142.3   
1982500000  -.8848   -145.58   -43.692    34.902   -43.508    36.834   -.8614   -142.42   
1983250000  -.8798   -145.81   -43.903    35.225   -43.741    36.95   -.8613   -142.66   
1984000000  -.8814   -145.99   -44.086    35.462   -44.088    38.331   -.8704   -142.98   
1984750000  -.8791   -146.23   -44.378    37.13   -43.944    38.259   -.8715   -143.11   
1985500000  -.8830   -146.43   -44.595    39.39   -44.397    39.224   -.8992   -143.28   
1986250000  -.8781   -146.71   -44.749    39.474   -44.618    41.924   -.8928   -143.53   
1987000000  -.8967   -146.9   -45.02    41.141   -44.923    43.228   -.9225   -143.66   
1987750000  -.9144   -147.11   -45.02    42.529   -44.819    44.048   -.9195   -143.7   
1988500000  -.9184   -147.2   -45.132    45.162   -45.161    46.138   -.9290   -143.86   
1989250000  -.9099   -147.42   -45.015    46.27   -45    47.479   -.9398   -143.98   
1990000000  -.9224   -147.57   -45.218    47.111   -45.135    49.54   -.9455   -144.17   
1990750000  -.9194   -147.68   -45.288    48.376   -45.13    49.179   -.9249   -144.28   
1991500000  -.9269   -147.85   -45.314    49.112   -45.174    50.043   -.9308   -144.49   
1992250000  -.9294   -148.06   -45.309    50.095   -45.304    51.877   -.9356   -144.63   
1993000000  -.9188   -148.2   -45.597    51.593   -45.468    52.946   -.9338   -144.74   
1993750000  -.9296   -148.38   -45.718    53.057   -45.58    53.892   -.9214   -144.96   
1994500000  -.9241   -148.67   -45.583    53.269   -45.746    55.874   -.9173   -145.15   
1995250000  -.9172   -148.82   -45.732    55.309   -45.675    56.082   -.9124   -145.37   
1996000000  -.9257   -148.98   -45.767    56.28   -45.801    57.379   -.8975   -145.5   
1996750000  -.9074   -149.16   -45.887    57.015   -45.819    58.366   -.9008   -145.78   
1997500000  -.9077   -149.4   -46.176    57.678   -46.046    60.079   -.9000   -146.03   
1998250000  -.8999   -149.6   -46.193    59.496   -46.151    59.899   -.898   -146.14   
1999000000  -.9049   -149.85   -46.534    60.536   -46.57    61.673   -.9021   -146.48   
1999750000  -.8933   -150.13   -46.588    62.757   -46.598    63.127   -.9173   -146.71   
2000500000  -.9054   -150.38   -46.71    65.23   -46.756    66.267   -.9067   -146.98   
2001250000  -.9065   -150.69   -46.812    66.75   -46.824    68.99   -.9144   -147.22   
2002000000  -.9081   -150.92   -46.842    69.894   -47.118    71.8   -.9154   -147.41   
2002750000  -.9183   -151.19   -46.976    72.392   -47.214    75.435   -.9250   -147.7   
2003500000  -.924   -151.4   -46.842    74.927   -47.15    76.742   -.9401   -147.97   
