# Hz S RI R 50
105000000	0.678269766697741	-0.707243188099602	1.17536801070353E-03	-1.36320121098571E-04			1.18407504430156E-03	-1.45849866312204E-04	0.704036619772294	-0.675328238055995
105062500	0.677255312893875	-0.70587287339492	-9.1232956119303E-06	-2.54126176860097E-04			-4.52116206872543E-06	-2.51516475016904E-04	0.703900746998222	-0.673306793511649
105125000	0.679296725622921	-0.704479563589317	-9.34001367342252E-04	6.33244960358224E-04			-9.40053745571297E-04	6.09439892404156E-04	0.70250060784089	-0.673528771638794
105187500	0.678799026253538	-0.705726169974883	-4.57319220139401E-04	2.10186180065526E-03			-4.60249123411775E-04	2.08966131023154E-03	0.704403578742761	-0.673687295584253
105250000	0.679383345383203	-0.705429623861984	8.73327248574899E-04	2.27611294472127E-03			8.55651426871755E-04	2.27544745993683E-03	0.704548630418998	-0.674509473274228
105312500	0.680233316415641	-0.707541745237295	1.12853105850798E-03	1.84245870829548E-03			1.12721012545809E-03	1.84980333685933E-03	0.704878521101125	-0.675161430895273
105375000	0.678923896682218	-0.707080055197962	1.41326512341648E-03	1.31564069084666E-03			1.42402870500558E-03	1.28670413063527E-03	0.705404318384011	-0.678094585427529
105437500	0.680869142818662	-0.706505573608482	7.90832352283005E-04	1.22285687522235E-03			7.8859765652885E-04	1.23413118205448E-03	0.701208542571213	-0.676982054169892
105500000	0.678838596135353	-0.709166659908694	1.01414505971779E-03	1.81847125498192E-03			9.8826601340613E-04	1.81809566292906E-03	0.699647099351156	-0.675148023032665
105562500	0.678576756258924	-0.709533084981975	1.83698958362473E-03	1.43915077093453E-03			1.82821304157945E-03	1.39353853112767E-03	0.701338064747982	-0.674305497059747
105625000	0.678703734416894	-0.708889474269459	1.20952488455362E-03	4.50625924829344E-04			1.22849933026904E-03	4.26207321330437E-04	0.700564144028576	-0.675543144484832
105687500	0.679111664848944	-0.709668162647115	6.51107763217106E-04	1.05763176775872E-03			6.26312042228427E-04	1.05714618587506E-03	0.70143316651684	-0.676139213722824
105750000	0.678297858085032	-0.710449200102215	1.15984140655511E-03	1.52247537858916E-03			1.15355021924939E-03	1.53214808365814E-03	0.702416934688144	-0.678240696244209
105812500	0.679409513971556	-0.711390344367439	1.37068580628124E-03	1.15450191308871E-03			1.37573302158269E-03	1.14461666288798E-03	0.702209011470477	-0.677095731655261
105875000	0.675720259134688	-0.711989653299895	1.21428195686821E-03	1.35421802125556E-03			1.21138415683486E-03	1.33532148903985E-03	0.700820770044625	-0.676431934585866
105937500	0.676331818387625	-0.712543719925133	1.71768852782829E-03	1.09685825746455E-03			1.74688369831627E-03	1.09259792634603E-03	0.700979148029434	-0.678600701560941
106000000	0.675786486463152	-0.712133485708242	1.55477555157532E-03	5.88221241184883E-04			1.51835768080248E-03	5.71260955774803E-04	0.699135122163329	-0.677236782919848
106062500	0.67595751336782	-0.712266293158948	1.10248347190098E-03	5.8873552326471E-04			1.1159057190816E-03	5.58355660852378E-04	0.70025783494298	-0.677236651355228
106125000	0.674982737064939	-0.713886371390405	1.1213856907254E-03	7.15798646448764E-04			1.11725461023778E-03	7.25658904285819E-04	0.700023527941489	-0.677714966417177
106187500	0.675074565233118	-0.713713192908119	1.14564435651153E-03	7.15378721728947E-04			1.15997247864377E-03	7.04604036019797E-04	0.699167690863018	-0.677657060283824
106250000	0.673792013921026	-0.713730407244498	1.21071068815216E-03	6.63972652906268E-04			1.23594123786803E-03	6.97522392247244E-04	0.698562861043125	-0.679428639008379
106312500	0.672317315472225	-0.714781010771415	1.12256977340719E-03	2.97481083628086E-04			1.16153188468586E-03	2.52608003419957E-04	0.696966148646472	-0.678676290283606
106375000	0.674571133072259	-0.71490702797476	7.21020160780554E-04	4.72859604616529E-04			7.29802112480144E-04	5.03412425006849E-04	0.697802937386695	-0.678595663634622
106437500	0.67378406461284	-0.715227349113106	5.0792147191625E-04	4.44385932436826E-04			5.49185190838774E-04	4.37079114086122E-04	0.696870139726601	-0.679629458092901
106500000	0.672629837674004	-0.715683160108026	4.7582822225004E-04	9.16428388132401E-04			4.59473972315019E-04	9.29099833445441E-04	0.698268867690469	-0.678622429255908
106562500	0.673888307074656	-0.716734642800116	6.04900906436613E-04	8.89244372257863E-04			5.97469188790749E-04	9.03393447333494E-04	0.698748973737525	-0.680867499996142
106625000	0.672552340370661	-0.717033362628204	4.6848005191805E-04	1.0362765452649E-03			4.51943821048617E-04	1.00965693894893E-03	0.697022305422954	-0.678943515461969
106687500	0.672249815756614	-0.717013422516034	7.37266036332719E-04	1.40889732134624E-03			7.56605046796116E-04	1.41541403897872E-03	0.695415208959753	-0.680703420439756
106750000	0.670131358288153	-0.717330249440868	9.44040938591917E-04	1.24321308439908E-03			9.49256116335692E-04	1.23005627177516E-03	0.698008891047664	-0.681288035923249
106812500	0.668807540042045	-0.718914683533026	9.87644938823091E-04	1.21523965574297E-03			1.00710208718413E-03	1.22720504577747E-03	0.69680544874188	-0.682466989093653
106875000	0.669255027431901	-0.717849059053929	1.16459398051449E-03	1.16293734791908E-03			1.15413956697715E-03	1.14833734996971E-03	0.696013934952275	-0.682503195057615
106937500	0.670216483410748	-0.71884375297585	1.24998630284998E-03	1.01301898384249E-03			1.27066481554966E-03	0.001002608861501	0.693848915242276	-0.681931622045789
107000000	0.669250089085882	-0.718882827124149	1.24545925354607E-03	6.70264770672216E-04			1.28704951628124E-03	6.70054938461846E-04	0.69505462134628	-0.683165593312859
107062500	0.667103164559422	-0.719674796481319	8.72534738726996E-04	6.6015713743495E-04			8.6860716578508E-04	6.69056839369017E-04	0.694670580126799	-0.684209708659274
107125000	0.667424495201398	-0.720128872516573	8.49750968770822E-04	7.82634885409318E-04			8.67088665166606E-04	7.91350499848399E-04	0.694271622720494	-0.685258539678849
107187500	0.667008550456995	-0.719468168496419	8.6465135350256E-04	9.27286967858027E-04			8.92954224446189E-04	9.26447221484373E-04	0.692982754288166	-0.684589728061394
107250000	0.664746895970393	-0.719714633904861	1.11426251780747E-03	7.47274597119815E-04			1.1148134365975E-03	7.20945887175376E-04	0.693469585099538	-0.686484813329944
107312500	0.666721687914778	-0.719288023491646	7.1954971443389E-04	6.39662325310103E-04			7.31714054005617E-04	6.37149149227249E-04	0.69087307688488	-0.686733565457351
107375000	0.666063111492318	-0.719584475624314	6.18807420458803E-04	5.25178805595253E-04			5.80857352973784E-04	5.23567337582255E-04	0.691992715535594	-0.687859561016524
107437500	0.663795426528486	-0.720291304964242	1.37822709414192E-04	8.58104763363617E-04			1.43698784639192E-04	8.60591288233053E-04	0.689193922622776	-0.68568220889224
107500000	0.664936758274653	-0.720007847322185	3.34780829512286E-04	1.4502908836222E-03			3.34682216511784E-04	1.42702029901584E-03	0.68811157414426	-0.685578624753643
107562500	0.665101316753217	-0.720867103829449	6.19101706041445E-04	1.44218856184395E-03			6.02974569921347E-04	1.44844431735283E-03	0.688292472750001	-0.686319220497508
107625000	0.663647279557755	-0.720853605285111	7.97222154634237E-04	1.63534638162308E-03			7.98205541936596E-04	1.60762290757502E-03	0.688379159744125	-0.686566429171197
107687500	0.664891571411238	-0.720500035326508	9.98173459491129E-04	1.5453349431168E-03			9.8808426642326E-04	1.56468626330612E-03	0.690768229689378	-0.687471904772823
107750000	0.66471573649092	-0.721237958214826	1.25151106748732E-03	1.45670931148059E-03			1.2726426385479E-03	1.45050122022076E-03	0.688211721259665	-0.687846507174501
107812500	0.662997363671116	-0.722546426010606	1.18686302174445E-03	1.18072954912983E-03			1.16771487550704E-03	1.18274858864416E-03	0.687149729761259	-0.687971501351168
107875000	0.663435533752429	-0.722644434118381	1.13536094268741E-03	1.23428420780035E-03			1.12522718470345E-03	1.25975224728908E-03	0.686661897890383	-0.688259748747902
107937500	0.663811831691616	-0.722721300603505	1.34335456223689E-03	1.36582209055592E-03			1.33062170302601E-03	1.35106897870717E-03	0.688825564325156	-0.687066919223807
108000000	0.663974128270398	-0.724128072844385	1.42973410711018E-03	1.06105752215906E-03			1.44869318898664E-03	1.04174776439797E-03	0.690337961085769	-0.68879489348794
108062500	0.662179119707746	-0.724137073451411	1.37575981803401E-03	9.38613381836905E-04			1.38856898995359E-03	9.44582154222382E-04	0.688110458951956	-0.68863958723392
108125000	0.660979231613004	-0.724657746120087	1.19199611017589E-03	8.32262302365231E-04			1.19524158305079E-03	8.2391266309457E-04	0.686592728100281	-0.6893301780038
108187500	0.66005776179759	-0.724581491504652	1.04028990009928E-03	9.78030321063131E-04			1.03831891185515E-03	9.35698956870689E-04	0.687215151570728	-0.689413312582757
108250000	0.660999282448101	-0.726113444861616	1.09140960912722E-03	1.09973240491146E-03			1.04659759382093E-03	1.11843221559446E-03	0.684338692541539	-0.689713720939887
108312500	0.659724224392002	-0.726767564011675	1.26134493972274E-03	1.32799559989003E-03			1.27997538191295E-03	1.31034024443511E-03	0.683797865613331	-0.689900429491684
108375000	0.657369180316123	-0.727775930005695	1.7731526029956E-03	1.36661221317283E-03			1.76112785462448E-03	1.34367292970004E-03	0.682394910535324	-0.688513463358878
108437500	0.656468764772838	-0.726813010495368	2.46644954549024E-03	4.01712793148075E-04			2.48805197958601E-03	3.69203718119148E-04	0.684172360129476	-0.690119376539433
108500000	0.653116137437892	-0.725582957959848	1.36404396896166E-03	-7.42378263743449E-04			1.37258751009203E-03	-7.59232267519857E-04	0.68332416388512	-0.687752305947566
108562500	0.655446393008794	-0.72469778768324	3.54799538852082E-04	-3.48556883508013E-04			3.49913797584729E-04	-3.37344700453166E-04	0.683127532459207	-0.689982788978013
108625000	0.656419020887927	-0.724587914759381	-4.79644025884535E-04	1.91812505877106E-04			-4.89418400550065E-04	2.04121782028478E-04	0.678520969733096	-0.688955744376477
108687500	0.655516608478333	-0.723762503815698	-5.647507435075E-04	1.81374411426015E-03			-5.59612768013132E-04	1.80555765548808E-03	0.682321530436131	-0.685544003964724
108750000	0.658514811556679	-0.724061949855755	1.18406073800258E-03	2.63744003727891E-03			1.18917946289681E-03	2.60742787576749E-03	0.682574655431812	-0.685516410534069
108812500	0.656488401278296	-0.726015566069282	1.95083828421427E-03	1.85996850822609E-03			1.91734908927962E-03	1.86928798141147E-03	0.682147325391531	-0.687928920452108
108875000	0.655297191308429	-0.726271100212632	2.43457623036249E-03	8.10743442746518E-04			2.45490417433141E-03	7.8985558882215E-04	0.680066491349188	-0.687145829398504
108937500	0.659507506364329	-0.725931924858892	0.001292656085663	2.61977936203058E-04			1.30971603151706E-03	2.53947806096768E-04	0.681309237884627	-0.687702433717586
109000000	0.655036964614306	-0.728186142093755	1.32329477062828E-03	7.44027442710204E-04			1.30053108802092E-03	7.5516580657495E-04	0.680400748869109	-0.683618778669182
109062500	0.65539755327079	-0.727808741367282	1.61201228429279E-03	5.69559491035976E-04			1.61132449455505E-03	5.60804510858574E-04	0.685512202723266	-0.68515393928709
109125000	0.655447386368017	-0.728094564712489	1.31703051527203E-03	-1.96698910924589E-04			1.30905342356223E-03	-2.3318396849855E-04	0.684802359151598	-0.687555722094134
109187500	0.65477143869579	-0.728602743328876	3.74785828321708E-04	1.76065090886723E-04			3.7190332856631E-04	1.59092375979673E-04	0.685645547986859	-0.689660170813888
109250000	0.654650369987482	-0.728742183464389	5.79032619509387E-04	9.71258354692821E-04			6.1201188804397E-04	9.86313680278539E-04	0.684630734534195	-0.68918576335155
109312500	0.654271130765955	-0.72953777648086	1.04350000187882E-03	8.45283519347993E-04			1.0506340661833E-03	8.41642236847637E-04	0.685746329404422	-0.692178247903505
109375000	0.654106299702282	-0.729733175217353	1.24756049970181E-03	9.1453067067361E-04			1.2359902538962E-03	9.18779401547299E-04	0.685391798306506	-0.694152143400742
109437500	0.652153087637998	-0.730931897723773	1.59814273397826E-03	4.38230703552456E-04			1.62558704961676E-03	4.34692153327458E-04	0.681718583378712	-0.694377825792815
109500000	0.652161266785607	-0.730114278547513	1.13737300822888E-03	-2.3883905568789E-04			1.14478260942048E-03	-2.30543053791928E-04	0.682029960370343	-0.690909986591834
109562500	0.651357513382555	-0.730572577151139	5.2078536069716E-04	3.78325758721345E-05			5.31319614040749E-04	2.54241948470257E-05	0.682964779711313	-0.695998436082274
109625000	0.650867989889078	-0.732563526039227	3.96268891309263E-04	2.84489429989845E-04			3.88523760609833E-04	2.67304865898939E-04	0.683914133876615	-0.694481839888098
109687500	0.651624324246969	-0.731820166617057	3.10030399947523E-04	5.39511052024035E-04			2.92738805684757E-04	5.45205489812894E-04	0.682473856562114	-0.695897087157815
109750000	0.651078863508655	-0.731761218592655	5.16329087303796E-04	7.38429355984366E-04			5.20851480180985E-04	7.49169178149711E-04	0.681031545169809	-0.697400265657939
109812500	0.649490050546755	-0.732874963429564	7.05515970487868E-04	5.13518202115156E-04			6.86849928792901E-04	5.04327586673455E-04	0.677788329031902	-0.696917326083523
109875000	0.648993403196401	-0.731680740905561	3.40647159794037E-04	3.89308333887179E-04			3.42892411006664E-04	3.98397309831933E-04	0.680623113160883	-0.696835335779183
109937500	0.649467264395775	-0.732805007438054	1.48084538244707E-04	5.72817329583411E-04			1.27774723399697E-04	5.79065314604723E-04	0.680535653445936	-0.695549696835108
110000000	0.649539887636818	-0.733447860117491	1.02931521002519E-04	8.41203348328465E-04			1.01654103037413E-04	8.30912425188566E-04	0.678732271175496	-0.698108292292535
110062500	0.647779395889495	-0.733626235974873	2.85523798876397E-04	9.61734770862904E-04			2.60546628078357E-04	9.29382177119761E-04	0.677617532317413	-0.698196382929953
110125000	0.649484238634014	-0.734496296141066	1.76260776420432E-04	9.11234931393281E-04			1.93584748951511E-04	9.28480096312726E-04	0.677627748624664	-0.699722127117488
110187500	0.647683952229551	-0.73479807111047	1.76515251798615E-04	1.24453038039523E-03			1.87187948018397E-04	1.23168061118761E-03	0.677175944683799	-0.697983718316431
110250000	0.645483630364766	-0.735171991705075	5.53613818218781E-04	1.31301714737519E-03			5.5920220917327E-04	1.32298702212896E-03	0.676396526198601	-0.701035735678518
110312500	0.646243162031834	-0.734815962741783	5.8151685920274E-04	9.46137446583293E-04			5.91299430147677E-04	9.58106618099322E-04	0.67686296900735	-0.699290513292885
110375000	0.644857552200751	-0.735341910980731	1.34214065883819E-04	1.03469467031607E-03			1.51214016112911E-04	1.05284769671442E-03	0.675492389622347	-0.700982901674599
110437500	0.646026620881374	-0.734827908630061	4.44763008561069E-04	1.54915784073655E-03			4.4549916239773E-04	1.53867687559916E-03	0.67508667662824	-0.70055809510971
110500000	0.646165019725403	-0.735975812416282	6.24281198850361E-04	1.17856038168933E-03			6.20103241574583E-04	1.16129943201003E-03	0.674971452811517	-0.701401076750449
110562500	0.645726388877734	-0.736185137738317	3.20980033273211E-04	1.36865096034117E-03			3.30779223427269E-04	1.36894955630937E-03	0.671886173709123	-0.699520267193702
110625000	0.644408947448481	-0.736424180848658	6.09683946116482E-04	1.46424503562647E-03			6.3179832798279E-04	1.44672747882018E-03	0.671949184496018	-0.700147193336498
110687500	0.643153965519092	-0.738356718820433	5.4354560064689E-04	1.18677868137969E-03			5.5253439703791E-04	1.16617435904903E-03	0.672640864297077	-0.699362269278954
110750000	0.644437928755038	-0.737908298598412	6.23482782293177E-04	1.65647253298607E-03			6.22095605580025E-04	1.66745256098776E-03	0.673279150028509	-0.698630512967359
110812500	0.642800653080699	-0.738434234639632	8.84987286872865E-04	1.33006090718272E-03			9.02368473194002E-04	1.32830412991052E-03	0.672860358530183	-0.700134050607375
110875000	0.640722907447122	-0.738932427176014	8.23517427184723E-04	1.15123585643874E-03			7.98829416242054E-04	1.14065104427392E-03	0.672722546011226	-0.697453512443311
110937500	0.6406717406919	-0.739168577630164	6.92061478664511E-04	1.0990379563537E-03			6.77786455983153E-04	1.0906990988653E-03	0.67264162464991	-0.701487105388055
111000000	0.641808765043343	-0.738689050110876	3.72002362396913E-04	1.11189231262575E-03			3.60158929248047E-04	1.10974320320375E-03	0.673073984094114	-0.70248946225471
111062500	0.640628440571318	-0.738692049306067	2.854620660662E-04	1.47201303698354E-03			2.99617406534817E-04	1.47428936514125E-03	0.669768572485196	-0.702255874404964
111125000	0.64051685474426	-0.738918569812277	3.75231740961473E-04	1.66166724452616E-03			3.81501277494522E-04	1.68288909195168E-03	0.671779347065555	-0.702315315315392
111187500	0.640398834533463	-0.738311564897591	5.48014938113301E-04	1.90616862853446E-03			5.5653186953614E-04	1.92289450251796E-03	0.668785955660181	-0.701265500470418
111250000	0.639744730133152	-0.73976090495343	9.50033458191906E-04	1.79734027849578E-03			9.75364040770177E-04	1.79939923704291E-03	0.669523933383724	-0.701864347611278
111312500	0.640187243539912	-0.739891901358796	9.31909082697674E-04	1.51831431726932E-03			9.0242383104226E-04	1.49724145224238E-03	0.670426286421102	-0.700251380970824
111375000	0.640368699017565	-0.739799244865315	6.09767900253769E-04	1.60840530759436E-03			5.87949772468322E-04	1.60106341813491E-03	0.669600745180406	-0.701950324902929
111437500	0.637235132444819	-0.74120437176416	7.00215597199578E-04	2.10839743209636E-03			6.58987636520313E-04	2.09765256834852E-03	0.669682527839903	-0.705006445423308
111500000	0.637490158099965	-0.742542805800406	1.14281872331608E-03	2.10434756551357E-03			1.15816430335624E-03	2.10956871654586E-03	0.667351777973465	-0.704732544032736
111562500	0.638305980184456	-0.741278908010322	1.4272878425179E-03	1.99989181564877E-03			1.43466992200286E-03	1.99560135188307E-03	0.671339644067484	-0.700823692333295
111625000	0.6382086813226	-0.741226157341594	1.59464527125202E-03	1.78469930352489E-03			1.58417679154716E-03	1.82171446874868E-03	0.671761222255595	-0.702368461413125
111687500	0.637637093719828	-0.741465314774208	1.51956705947654E-03	1.51370840418772E-03			1.50550884733619E-03	1.48248819942754E-03	0.669449258786632	-0.705311699335488
111750000	0.63630632990785	-0.742249951564303	1.48321784587398E-03	1.52131148633177E-03			1.50059283366111E-03	1.50114182932928E-03	0.669973040683183	-0.706336211210604
111812500	0.634264673134645	-0.744331236126115	1.44679622231047E-03	1.71386095268202E-03			1.42899241699317E-03	1.70387114710569E-03	0.668751889046199	-0.705142903126441
111875000	0.633798914074001	-0.744914937766074	1.85792336299523E-03	1.6224564143807E-03			1.86476354331648E-03	1.58140144316823E-03	0.668992612145239	-0.705560258915854
111937500	0.631772604958039	-0.744949604933887	2.21623966339908E-03	9.74095342293607E-04			2.2495831036141E-03	9.45196194572414E-04	0.668064937680923	-0.707970159325847
112000000	0.630737011173058	-0.742963057199042	1.43828769443699E-03	2.16665792402166E-04			1.43031449883527E-03	2.29254200242818E-04	0.667584278524821	-0.708226411272323
112062500	0.629840713835563	-0.742222921040861	5.84684721884497E-04	5.20269797547113E-04			5.58740476813464E-04	5.00498011898621E-04	0.666071528757649	-0.708767428360472
112125000	0.630831138442406	-0.741608069297116	-1.60920461409474E-04	1.29600358794879E-03			-1.82306550819525E-04	1.28770670950404E-03	0.662944276163938	-0.706909582553846
112187500	0.62957584587432	-0.740695172131155	5.79460988255435E-04	2.69521743296322E-03			5.63130508071375E-04	2.70917871163912E-03	0.666610159110121	-0.7053619603279
112250000	0.633445816416215	-0.739497593876277	1.8329450722264E-03	2.32366936279451E-03			1.84825030389487E-03	2.35215964823183E-03	0.666476257692973	-0.707978200112485
112312500	0.63179143564253	-0.742357246685661	2.05370416327429E-03	2.08665650983166E-03			2.05043713211704E-03	2.08552836938439E-03	0.663932156002428	-0.708127026373776
