# Hz  S  RI  R  50
! ADVANTEST Corporation R3860A
! Date: Thu May 17 15:43:47 2018
8.4000000000e+008 -7.491982e-001 -5.897656e-001  1.298735e-003 -1.979550e-003  1.279435e-003 -1.990520e-003 -7.658164e-001 -5.585409e-001
8.4009375000e+008 -7.497205e-001 -5.894045e-001  1.273255e-003 -2.013044e-003  1.276516e-003 -2.029659e-003 -7.673483e-001 -5.571873e-001
8.4018750000e+008 -7.502906e-001 -5.882637e-001  1.270730e-003 -2.036001e-003  1.301824e-003 -2.037985e-003 -7.677712e-001 -5.563688e-001
8.4028125000e+008 -7.495942e-001 -5.885359e-001  1.255244e-003 -2.051532e-003  1.264757e-003 -2.042100e-003 -7.685402e-001 -5.557372e-001
8.4037500000e+008 -7.500274e-001 -5.871764e-001  1.280911e-003 -2.078604e-003  1.280896e-003 -2.032627e-003 -7.687979e-001 -5.551968e-001
8.4046875000e+008 -7.511523e-001 -5.861705e-001  1.226031e-003 -2.052155e-003  1.244688e-003 -2.034718e-003 -7.692758e-001 -5.541115e-001
8.4056250000e+008 -7.510294e-001 -5.858303e-001  1.276519e-003 -2.100549e-003  1.308767e-003 -2.067010e-003 -7.695265e-001 -5.535181e-001
8.4065625000e+008 -7.513849e-001 -5.845641e-001  1.301501e-003 -2.105446e-003  1.287568e-003 -2.077813e-003 -7.698331e-001 -5.526443e-001
8.4075000000e+008 -7.517846e-001 -5.832030e-001  1.232990e-003 -2.100609e-003  1.225370e-003 -2.095817e-003 -7.699984e-001 -5.517555e-001
8.4084375000e+008 -7.520614e-001 -5.827262e-001  1.249406e-003 -2.116654e-003  1.215182e-003 -2.125640e-003 -7.700915e-001 -5.507355e-001
8.4093750000e+008 -7.529157e-001 -5.808821e-001  1.215039e-003 -2.113902e-003  1.197171e-003 -2.087486e-003 -7.708504e-001 -5.507862e-001
8.4103125000e+008 -7.527792e-001 -5.805942e-001  1.169397e-003 -2.066201e-003  1.175226e-003 -2.087889e-003 -7.702703e-001 -5.496113e-001
8.4112500000e+008 -7.528551e-001 -5.788204e-001  1.192821e-003 -2.071158e-003  1.152374e-003 -2.079144e-003 -7.712911e-001 -5.500051e-001
8.4121875000e+008 -7.524585e-001 -5.779718e-001  1.160112e-003 -2.079971e-003  1.189575e-003 -2.101927e-003 -7.715790e-001 -5.493456e-001
8.4131250000e+008 -7.531861e-001 -5.772671e-001  1.241530e-003 -2.070947e-003  1.208041e-003 -2.051939e-003 -7.719671e-001 -5.487122e-001
8.4140625000e+008 -7.523895e-001 -5.760520e-001  1.236641e-003 -2.089132e-003  1.234918e-003 -2.135377e-003 -7.730801e-001 -5.477713e-001
8.4150000000e+008 -7.531027e-001 -5.752280e-001  1.201033e-003 -2.094714e-003  1.203766e-003 -2.120127e-003 -7.734874e-001 -5.475743e-001
8.4159375000e+008 -7.529581e-001 -5.737150e-001  1.212987e-003 -2.076700e-003  1.243487e-003 -2.088897e-003 -7.743936e-001 -5.465487e-001
8.4168750000e+008 -7.535501e-001 -5.725524e-001  1.193957e-003 -2.036729e-003  1.136508e-003 -2.105465e-003 -7.753005e-001 -5.452797e-001
8.4178125000e+008 -7.528483e-001 -5.715653e-001  1.209848e-003 -2.018243e-003  1.209654e-003 -2.041261e-003 -7.755430e-001 -5.444125e-001
8.4187500000e+008 -7.528232e-001 -5.709866e-001  1.248953e-003 -2.010697e-003  1.239072e-003 -2.008847e-003 -7.754606e-001 -5.431105e-001
8.4196875000e+008 -7.525702e-001 -5.700220e-001  1.314986e-003 -2.034277e-003  1.325963e-003 -1.994581e-003 -7.760093e-001 -5.417995e-001
8.4206250000e+008 -7.517248e-001 -5.690317e-001  1.356760e-003 -2.118615e-003  1.350551e-003 -2.100327e-003 -7.760354e-001 -5.409391e-001
8.4215625000e+008 -7.524103e-001 -5.686218e-001  1.347628e-003 -2.223904e-003  1.339431e-003 -2.245895e-003 -7.763542e-001 -5.398485e-001
8.4225000000e+008 -7.520505e-001 -5.662311e-001  1.222710e-003 -2.209718e-003  1.243550e-003 -2.279659e-003 -7.768337e-001 -5.391471e-001
8.4234375000e+008 -7.510458e-001 -5.649835e-001  1.184918e-003 -2.150609e-003  1.136284e-003 -2.211888e-003 -7.768956e-001 -5.375910e-001
8.4243750000e+008 -7.499925e-001 -5.652232e-001  1.139437e-003 -2.121103e-003  1.183675e-003 -2.135480e-003 -7.765861e-001 -5.372591e-001
8.4253125000e+008 -7.491390e-001 -5.638866e-001  1.155830e-003 -2.056165e-003  1.141567e-003 -2.100316e-003 -7.766460e-001 -5.365930e-001
8.4262500000e+008 -7.480419e-001 -5.646407e-001  1.258204e-003 -1.995491e-003  1.268898e-003 -2.026110e-003 -7.771260e-001 -5.353242e-001
8.4271875000e+008 -7.468428e-001 -5.642970e-001  1.274629e-003 -2.078393e-003  1.288875e-003 -2.080630e-003 -7.771386e-001 -5.352548e-001
8.4281250000e+008 -7.465420e-001 -5.649461e-001  1.218794e-003 -2.055099e-003  1.205790e-003 -2.083968e-003 -7.773547e-001 -5.339062e-001
8.4290625000e+008 -7.480723e-001 -5.669087e-001  1.294892e-003 -2.017860e-003  1.312422e-003 -2.041957e-003 -7.772567e-001 -5.340787e-001
8.4300000000e+008 -7.462786e-001 -5.666977e-001  1.365248e-003 -2.085576e-003  1.428243e-003 -2.087000e-003 -7.776676e-001 -5.331665e-001
8.4309375000e+008 -7.481586e-001 -5.675629e-001  1.307386e-003 -2.207979e-003  1.290831e-003 -2.173116e-003 -7.788107e-001 -5.333885e-001
8.4318750000e+008 -7.485135e-001 -5.680306e-001  1.264307e-003 -2.142154e-003  1.321238e-003 -2.130385e-003 -7.788929e-001 -5.318081e-001
8.4328125000e+008 -7.495361e-001 -5.688702e-001  1.303191e-003 -2.145319e-003  1.302492e-003 -2.116120e-003 -7.800946e-001 -5.309216e-001
8.4337500000e+008 -7.510520e-001 -5.688576e-001  1.331943e-003 -2.112076e-003  1.330537e-003 -2.138769e-003 -7.806920e-001 -5.292932e-001
8.4346875000e+008 -7.511556e-001 -5.689790e-001  1.381436e-003 -2.124737e-003  1.393544e-003 -2.136274e-003 -7.810985e-001 -5.275475e-001
8.4356250000e+008 -7.521877e-001 -5.685005e-001  1.394527e-003 -2.241320e-003  1.387091e-003 -2.212346e-003 -7.814382e-001 -5.259792e-001
8.4365625000e+008 -7.525814e-001 -5.681209e-001  1.365758e-003 -2.160401e-003  1.333221e-003 -2.194066e-003 -7.813177e-001 -5.240213e-001
8.4375000000e+008 -7.529932e-001 -5.678948e-001  1.438106e-003 -2.184797e-003  1.439462e-003 -2.192359e-003 -7.813591e-001 -5.228363e-001
8.4384375000e+008 -7.537882e-001 -5.674605e-001  1.464140e-003 -2.265554e-003  1.466536e-003 -2.263654e-003 -7.806227e-001 -5.207371e-001
8.4393750000e+008 -7.544485e-001 -5.670139e-001  1.449830e-003 -2.363696e-003  1.450001e-003 -2.319874e-003 -7.803604e-001 -5.195745e-001
8.4403125000e+008 -7.555709e-001 -5.670340e-001  1.352168e-003 -2.431767e-003  1.383286e-003 -2.444889e-003 -7.790577e-001 -5.185736e-001
8.4412500000e+008 -7.562047e-001 -5.670159e-001  1.223466e-003 -2.338867e-003  1.262274e-003 -2.422605e-003 -7.779105e-001 -5.178558e-001
8.4421875000e+008 -7.570502e-001 -5.666283e-001  1.252678e-003 -2.295308e-003  1.197668e-003 -2.268472e-003 -7.770427e-001 -5.172874e-001
8.4431250000e+008 -7.576347e-001 -5.658674e-001  1.321675e-003 -2.190748e-003  1.302699e-003 -2.237703e-003 -7.762968e-001 -5.171591e-001
8.4440625000e+008 -7.595075e-001 -5.655791e-001  1.375903e-003 -2.317479e-003  1.368731e-003 -2.289435e-003 -7.760531e-001 -5.172796e-001
8.4450000000e+008 -7.603737e-001 -5.644570e-001  1.382673e-003 -2.280307e-003  1.378267e-003 -2.281605e-003 -7.760324e-001 -5.169489e-001
8.4459375000e+008 -7.612219e-001 -5.633807e-001  1.382485e-003 -2.312805e-003  1.434939e-003 -2.325277e-003 -7.761607e-001 -5.166252e-001
8.4468750000e+008 -7.616499e-001 -5.620344e-001  1.437237e-003 -2.341072e-003  1.429238e-003 -2.332845e-003 -7.768958e-001 -5.164075e-001
8.4478125000e+008 -7.631673e-001 -5.617952e-001  1.447139e-003 -2.392629e-003  1.442635e-003 -2.395432e-003 -7.774826e-001 -5.150812e-001
8.4487500000e+008 -7.635724e-001 -5.603157e-001  1.387953e-003 -2.394184e-003  1.410181e-003 -2.378802e-003 -7.777454e-001 -5.134187e-001
8.4496875000e+008 -7.642271e-001 -5.591390e-001  1.421323e-003 -2.433651e-003  1.467732e-003 -2.421296e-003 -7.769335e-001 -5.123324e-001
8.4506250000e+008 -7.643771e-001 -5.581604e-001  1.390354e-003 -2.535597e-003  1.408464e-003 -2.546641e-003 -7.765226e-001 -5.116368e-001
8.4515625000e+008 -7.647074e-001 -5.574830e-001  1.456317e-003 -2.463569e-003  1.444036e-003 -2.437851e-003 -7.760324e-001 -5.111393e-001
8.4525000000e+008 -7.656173e-001 -5.561921e-001  1.353243e-003 -2.599017e-003  1.364635e-003 -2.561681e-003 -7.759734e-001 -5.101982e-001
8.4534375000e+008 -7.663450e-001 -5.557606e-001  1.354590e-003 -2.439746e-003  1.372719e-003 -2.456867e-003 -7.746390e-001 -5.083903e-001
8.4543750000e+008 -7.677657e-001 -5.543581e-001  1.550491e-003 -2.576779e-003  1.527270e-003 -2.582217e-003 -7.730955e-001 -5.081095e-001
8.4553125000e+008 -7.685708e-001 -5.521979e-001  1.366994e-003 -2.752272e-003  1.373545e-003 -2.759771e-003 -7.711763e-001 -5.078779e-001
8.4562500000e+008 -7.681158e-001 -5.500194e-001  1.316166e-003 -2.703939e-003  1.302008e-003 -2.715829e-003 -7.706407e-001 -5.094917e-001
8.4571875000e+008 -7.679689e-001 -5.491999e-001  1.263413e-003 -2.645045e-003  1.303489e-003 -2.709084e-003 -7.706080e-001 -5.103827e-001
8.4581250000e+008 -7.681631e-001 -5.482186e-001  1.205101e-003 -2.721811e-003  1.241334e-003 -2.711162e-003 -7.711812e-001 -5.109078e-001
8.4590625000e+008 -7.682427e-001 -5.471826e-001  1.156396e-003 -2.617192e-003  1.127572e-003 -2.591117e-003 -7.719071e-001 -5.105874e-001
8.4600000000e+008 -7.680254e-001 -5.458348e-001  1.235323e-003 -2.565790e-003  1.201220e-003 -2.543998e-003 -7.714916e-001 -5.110572e-001
8.4609375000e+008 -7.692326e-001 -5.448976e-001  1.277136e-003 -2.537008e-003  1.244695e-003 -2.575669e-003 -7.722920e-001 -5.109175e-001
8.4618750000e+008 -7.697627e-001 -5.431980e-001  1.389627e-003 -2.622063e-003  1.378700e-003 -2.613176e-003 -7.731270e-001 -5.094050e-001
8.4628125000e+008 -7.699496e-001 -5.412699e-001  1.372423e-003 -2.696184e-003  1.382469e-003 -2.684198e-003 -7.733372e-001 -5.102304e-001
8.4637500000e+008 -7.696571e-001 -5.395323e-001  1.334892e-003 -2.749504e-003  1.383574e-003 -2.742043e-003 -7.736936e-001 -5.093024e-001
8.4646875000e+008 -7.695811e-001 -5.379551e-001  1.408444e-003 -2.767896e-003  1.374654e-003 -2.781354e-003 -7.733051e-001 -5.087078e-001
8.4656250000e+008 -7.692735e-001 -5.363612e-001  1.374496e-003 -2.952483e-003  1.372728e-003 -2.981545e-003 -7.725990e-001 -5.081274e-001
8.4665625000e+008 -7.688116e-001 -5.347618e-001  1.172748e-003 -2.995216e-003  1.195087e-003 -3.016052e-003 -7.719603e-001 -5.083787e-001
8.4675000000e+008 -7.672501e-001 -5.334738e-001  1.093527e-003 -2.960339e-003  1.121326e-003 -2.999317e-003 -7.720698e-001 -5.092884e-001
8.4684375000e+008 -7.671331e-001 -5.318909e-001  1.035406e-003 -2.956100e-003  1.007017e-003 -2.957830e-003 -7.723879e-001 -5.108281e-001
8.4693750000e+008 -7.667940e-001 -5.306352e-001  9.924008e-004 -2.879561e-003  9.776573e-004 -2.909192e-003 -7.729973e-001 -5.110246e-001
8.4703125000e+008 -7.653956e-001 -5.294222e-001  8.749026e-004 -2.782734e-003  8.846190e-004 -2.847555e-003 -7.744117e-001 -5.116799e-001
8.4712500000e+008 -7.638736e-001 -5.276996e-001  9.757082e-004 -2.770342e-003  9.753756e-004 -2.802677e-003 -7.755206e-001 -5.124156e-001
8.4721875000e+008 -7.631077e-001 -5.275561e-001  9.724706e-004 -2.798821e-003  9.450769e-004 -2.776202e-003 -7.779176e-001 -5.122969e-001
8.4731250000e+008 -7.608703e-001 -5.265508e-001  1.005828e-003 -2.751163e-003  1.012898e-003 -2.769666e-003 -7.799523e-001 -5.117744e-001
8.4740625000e+008 -7.601017e-001 -5.268392e-001  1.056776e-003 -2.813641e-003  1.086139e-003 -2.839732e-003 -7.812946e-001 -5.097857e-001
8.4750000000e+008 -7.594085e-001 -5.271640e-001  1.011106e-003 -2.833773e-003  9.912032e-004 -2.859673e-003 -7.816795e-001 -5.079783e-001
8.4759375000e+008 -7.592530e-001 -5.277221e-001  1.101889e-003 -2.858295e-003  1.067079e-003 -2.872108e-003 -7.818326e-001 -5.074567e-001
8.4768750000e+008 -7.585479e-001 -5.277647e-001  1.001845e-003 -3.031103e-003  9.695843e-004 -2.996732e-003 -7.822761e-001 -5.066694e-001
8.4778125000e+008 -7.576559e-001 -5.281712e-001  8.043844e-004 -2.915771e-003  8.280854e-004 -2.897359e-003 -7.831131e-001 -5.062203e-001
8.4787500000e+008 -7.580186e-001 -5.277098e-001  8.415947e-004 -2.833751e-003  8.585808e-004 -2.826148e-003 -7.840508e-001 -5.053847e-001
8.4796875000e+008 -7.581977e-001 -5.280312e-001  9.575118e-004 -2.843839e-003  9.671240e-004 -2.803439e-003 -7.849982e-001 -5.035059e-001
8.4806250000e+008 -7.579452e-001 -5.275893e-001  1.009025e-003 -2.985893e-003  1.029903e-003 -2.962818e-003 -7.847296e-001 -5.029107e-001
8.4815625000e+008 -7.571477e-001 -5.272378e-001  8.064468e-004 -3.005524e-003  7.611582e-004 -2.994237e-003 -7.850825e-001 -5.022987e-001
8.4825000000e+008 -7.568258e-001 -5.271595e-001  8.111570e-004 -2.867895e-003  7.821510e-004 -2.887574e-003 -7.851149e-001 -5.012560e-001
8.4834375000e+008 -7.563982e-001 -5.274376e-001  8.502554e-004 -2.897254e-003  8.316215e-004 -2.934905e-003 -7.858975e-001 -5.002512e-001
8.4843750000e+008 -7.559778e-001 -5.275074e-001  7.606964e-004 -2.953022e-003  7.759255e-004 -2.935126e-003 -7.857872e-001 -4.994934e-001
8.4853125000e+008 -7.554171e-001 -5.286612e-001  7.317142e-004 -2.862627e-003  7.684535e-004 -2.831456e-003 -7.862028e-001 -4.995464e-001
8.4862500000e+008 -7.561748e-001 -5.299295e-001  8.057217e-004 -2.921847e-003  8.166282e-004 -2.905086e-003 -7.873757e-001 -4.988078e-001
8.4871875000e+008 -7.571053e-001 -5.302148e-001  7.780723e-004 -2.968324e-003  7.376099e-004 -2.959742e-003 -7.881883e-001 -4.977066e-001
8.4881250000e+008 -7.576907e-001 -5.305912e-001  6.520843e-004 -2.986264e-003  6.334573e-004 -2.974681e-003 -7.881530e-001 -4.977243e-001
8.4890625000e+008 -7.583404e-001 -5.308362e-001  5.212130e-004 -2.825437e-003  5.508693e-004 -2.826620e-003 -7.893749e-001 -4.975477e-001
8.4900000000e+008 -7.589310e-001 -5.312657e-001  6.912564e-004 -2.651955e-003  7.014085e-004 -2.702984e-003 -7.905967e-001 -4.958517e-001
8.4909375000e+008 -7.613121e-001 -5.315495e-001  7.630807e-004 -2.808899e-003  7.974068e-004 -2.815563e-003 -7.911299e-001 -4.949154e-001
8.4918750000e+008 -7.629271e-001 -5.311995e-001  6.858743e-004 -2.778568e-003  6.980551e-004 -2.726957e-003 -7.922997e-001 -4.940873e-001
8.4928125000e+008 -7.638473e-001 -5.302126e-001  7.324602e-004 -2.715571e-003  7.215851e-004 -2.728607e-003 -7.935124e-001 -4.929352e-001
8.4937500000e+008 -7.636323e-001 -5.289500e-001  8.650330e-004 -2.744448e-003  8.720875e-004 -2.710212e-003 -7.949344e-001 -4.910957e-001
8.4946875000e+008 -7.644419e-001 -5.286387e-001  8.650198e-004 -2.948923e-003  8.894339e-004 -2.943441e-003 -7.961507e-001 -4.886534e-001
8.4956250000e+008 -7.649947e-001 -5.277718e-001  7.475539e-004 -2.931360e-003  7.750969e-004 -2.966843e-003 -7.960324e-001 -4.862157e-001
8.4965625000e+008 -7.656156e-001 -5.272140e-001  7.246101e-004 -3.014479e-003  7.538745e-004 -2.987961e-003 -7.964069e-001 -4.843890e-001
8.4975000000e+008 -7.661621e-001 -5.272875e-001  6.000405e-004 -3.021491e-003  6.063671e-004 -2.996249e-003 -7.959269e-001 -4.823392e-001
8.4984375000e+008 -7.673208e-001 -5.270764e-001  5.515288e-004 -2.823330e-003  5.682274e-004 -2.821873e-003 -7.960839e-001 -4.799898e-001
8.4993750000e+008 -7.688046e-001 -5.267977e-001  7.477038e-004 -2.845932e-003  7.305634e-004 -2.843991e-003 -7.954108e-001 -4.774374e-001
8.5003125000e+008 -7.703609e-001 -5.254306e-001  6.574845e-004 -2.942189e-003  6.753748e-004 -2.927945e-003 -7.936411e-001 -4.763029e-001
8.5012500000e+008 -7.711448e-001 -5.238931e-001  6.755675e-004 -2.988379e-003  6.722574e-004 -2.942486e-003 -7.926469e-001 -4.761810e-001
8.5021875000e+008 -7.714655e-001 -5.220762e-001  6.262040e-004 -2.945653e-003  6.221065e-004 -2.995662e-003 -7.923151e-001 -4.763636e-001
8.5031250000e+008 -7.711749e-001 -5.209329e-001  6.723402e-004 -3.034099e-003  6.257838e-004 -2.974611e-003 -7.925240e-001 -4.756961e-001
8.5040625000e+008 -7.711024e-001 -5.201424e-001  4.815014e-004 -3.013495e-003  4.931524e-004 -3.034149e-003 -7.931120e-001 -4.748530e-001
8.5050000000e+008 -7.715988e-001 -5.198103e-001  4.538572e-004 -2.936333e-003  4.482903e-004 -2.959102e-003 -7.931853e-001 -4.735689e-001
8.5059375000e+008 -7.726641e-001 -5.192224e-001  5.347733e-004 -2.846358e-003  5.648999e-004 -2.894621e-003 -7.943968e-001 -4.720177e-001
8.5068750000e+008 -7.734698e-001 -5.186390e-001  5.586320e-004 -2.902921e-003  5.371929e-004 -2.927497e-003 -7.943647e-001 -4.699971e-001
8.5078125000e+008 -7.749317e-001 -5.169957e-001  5.261815e-004 -2.948769e-003  5.277005e-004 -2.953602e-003 -7.941804e-001 -4.682463e-001
8.5087500000e+008 -7.756015e-001 -5.151089e-001  5.763629e-004 -3.024761e-003  5.691373e-004 -3.021529e-003 -7.935446e-001 -4.662593e-001
8.5096875000e+008 -7.756563e-001 -5.136935e-001  4.286638e-004 -3.101835e-003  4.310309e-004 -3.063820e-003 -7.926250e-001 -4.644679e-001
8.5106250000e+008 -7.759560e-001 -5.125585e-001  5.113391e-004 -3.043969e-003  4.779154e-004 -3.042108e-003 -7.926627e-001 -4.629521e-001
8.5115625000e+008 -7.756856e-001 -5.108485e-001  4.757209e-004 -3.100800e-003  4.874574e-004 -3.111764e-003 -7.914634e-001 -4.605170e-001
8.5125000000e+008 -7.759259e-001 -5.102996e-001  4.127355e-004 -3.173539e-003  3.710496e-004 -3.140022e-003 -7.892312e-001 -4.590289e-001
8.5134375000e+008 -7.760774e-001 -5.089103e-001  3.413382e-004 -3.183728e-003  3.321587e-004 -3.169846e-003 -7.872866e-001 -4.584035e-001
8.5143750000e+008 -7.760411e-001 -5.074971e-001  1.473835e-004 -3.233389e-003  1.533077e-004 -3.225480e-003 -7.862207e-001 -4.589874e-001
8.5153125000e+008 -7.765042e-001 -5.065060e-001  5.687723e-005 -3.096964e-003  6.574883e-005 -3.058880e-003 -7.849847e-001 -4.587605e-001
8.5162500000e+008 -7.758757e-001 -5.045171e-001  1.762348e-004 -3.068484e-003  1.695787e-004 -3.059094e-003 -7.855315e-001 -4.585723e-001
8.5171875000e+008 -7.750269e-001 -5.040576e-001 -1.695135e-005 -3.098616e-003 -1.149138e-005 -3.051742e-003 -7.849118e-001 -4.580942e-001
8.5181250000e+008 -7.750185e-001 -5.037269e-001  9.162875e-006 -2.920114e-003  2.020199e-006 -2.944129e-003 -7.845883e-001 -4.573155e-001
8.5190625000e+008 -7.756647e-001 -5.030305e-001 -6.841072e-005 -2.959098e-003 -2.948733e-005 -2.990642e-003 -7.844712e-001 -4.573532e-001
8.5200000000e+008 -7.767004e-001 -5.023306e-001 -3.483642e-005 -2.897709e-003 -3.754091e-005 -2.880481e-003 -7.857692e-001 -4.556249e-001
8.5209375000e+008 -7.765534e-001 -5.006420e-001  1.164600e-005 -2.748647e-003  5.846159e-005 -2.731454e-003 -7.851732e-001 -4.524188e-001
8.5218750000e+008 -7.770036e-001 -4.993282e-001  1.689403e-004 -2.873503e-003  2.144400e-004 -2.838682e-003 -7.829362e-001 -4.497143e-001
8.5228125000e+008 -7.768907e-001 -4.979443e-001  1.745474e-004 -3.125577e-003  2.082562e-004 -3.132579e-003 -7.796453e-001 -4.492206e-001
8.5237500000e+008 -7.772977e-001 -4.968095e-001 -1.851246e-004 -3.159038e-003 -1.771162e-004 -3.188469e-003 -7.783641e-001 -4.501462e-001
8.5246875000e+008 -7.774294e-001 -4.950241e-001 -2.215063e-004 -3.078781e-003 -2.404729e-004 -3.067351e-003 -7.783259e-001 -4.496437e-001
8.5256250000e+008 -7.777957e-001 -4.934926e-001 -3.643672e-004 -2.938893e-003 -3.328161e-004 -3.021507e-003 -7.759267e-001 -4.476632e-001
8.5265625000e+008 -7.770759e-001 -4.914446e-001 -5.002363e-004 -3.020578e-003 -4.517995e-004 -3.083133e-003 -7.724980e-001 -4.473996e-001
8.5275000000e+008 -7.766434e-001 -4.889829e-001 -6.640363e-004 -2.866784e-003 -7.087729e-004 -2.853675e-003 -7.704259e-001 -4.493426e-001
8.5284375000e+008 -7.753834e-001 -4.877506e-001 -6.601348e-004 -2.584671e-003 -6.917324e-004 -2.603646e-003 -7.690665e-001 -4.510583e-001
8.5293750000e+008 -7.738563e-001 -4.859311e-001 -6.057937e-004 -2.525264e-003 -6.217809e-004 -2.550562e-003 -7.667465e-001 -4.518596e-001
8.5303125000e+008 -7.721471e-001 -4.841403e-001 -6.734914e-004 -2.445948e-003 -6.805782e-004 -2.446798e-003 -7.644939e-001 -4.551618e-001
8.5312500000e+008 -7.702340e-001 -4.842193e-001 -7.697277e-004 -2.168509e-003 -7.763457e-004 -2.156258e-003 -7.649727e-001 -4.595725e-001
8.5321875000e+008 -7.691151e-001 -4.846281e-001 -5.151215e-004 -1.900613e-003 -5.223550e-004 -1.915563e-003 -7.683696e-001 -4.617121e-001
8.5331250000e+008 -7.681853e-001 -4.851544e-001 -1.337251e-004 -2.001950e-003 -1.267605e-004 -2.003881e-003 -7.701955e-001 -4.618208e-001
8.5340625000e+008 -7.685452e-001 -4.850302e-001 -1.731167e-004 -2.201196e-003 -1.378541e-004 -2.215084e-003 -7.707496e-001 -4.617724e-001
