# Hz S RI R 50
1650000000	-0.3463088490798	-0.799112905236553	1.13793166458344E-02	5.42653298121293E-03			1.07703935374868E-02	5.63949628927594E-03	-0.374423549585367	-0.817319249651869
1650750000	-0.347420140289745	-0.799011422562929	1.13555019430984E-02	5.40640982386153E-03			0.010738342217953	5.66534495749277E-03	-0.375155023512058	-0.816752682777897
1651500000	-0.347908402202676	-0.798389027401484	1.12763659343826E-02	5.41866315439844E-03			1.07057106193996E-02	5.65176884213868E-03	-0.376583523385709	-0.816181459446052
1652250000	-0.347953666140196	-0.798054488556188	1.12640194402122E-02	5.41196416166935E-03			1.06910179370379E-02	5.66913256820542E-03	-0.377794726731171	-0.815722569432986
1653000000	-0.34893470987793	-0.797212254489646	1.12417439512075E-02	5.39066752937744E-03			1.06760724946075E-02	5.65666210582303E-03	-0.378872529915369	-0.815007219694445
1653750000	-0.349995722693524	-0.797255818761295	1.12281559723253E-02	5.41251711830022E-03			1.06507197034743E-02	5.62307728758261E-03	-0.379770276871167	-0.814994298085182
1654500000	-0.350725950217734	-0.797043298219594	1.11623504037402E-02	5.40539132726381E-03			1.06347220288485E-02	5.65037058949923E-03	-0.380802745331029	-0.814319290242514
1655250000	-0.351891316055064	-0.796444354638101	1.11684571978686E-02	5.36714156814498E-03			0.010605051467099	5.61285142771805E-03	-0.382297260960225	-0.813421639797528
1656000000	-0.352780973809725	-0.796443587880934	1.11449871375355E-02	5.40383462542076E-03			1.05770736928215E-02	5.64729928330227E-03	-0.383246615437113	-0.813381753352375
1656750000	-0.354331246358428	-0.79615069479346	1.11313665188217E-02	5.37073825293417E-03			1.05317749282997E-02	5.64972298174281E-03	-0.384444462105051	-0.812168899993997
1657500000	-0.355440129247701	-0.795704352675437	1.10694189905429E-02	5.37284534021408E-03			1.05451216306611E-02	5.61234341572732E-03	-0.385380912075608	-0.811986150784338
1658250000	-0.356223317774063	-0.795344812228652	1.10903549024764E-02	5.33420700156533E-03			1.05061158795767E-02	5.6136257577646E-03	-0.386483238589997	-0.811097993084637
1659000000	-0.35812069824547	-0.795442328717124	1.10360756580828E-02	5.33241078236453E-03			1.04708850440602E-02	5.58870436740004E-03	-0.387588123978039	-0.810249920145074
1659750000	-0.35890347594665	-0.794727274583401	1.10190675481672E-02	5.31792177793575E-03			1.04496111053539E-02	5.56944032307505E-03	-0.388837252516619	-0.809987914631278
1660500000	-0.360531067695519	-0.794231038091008	1.09729593646543E-02	5.28968684164782E-03			1.04394843876426E-02	5.53633404272104E-03	-0.389927429886298	-0.809082583221334
1661250000	-0.362132412169537	-0.793634765926243	1.09747965637583E-02	5.25620167204931E-03			1.04085398718794E-02	5.53041916818933E-03	-0.390923785993494	-0.808346223237006
1662000000	-0.363265620707254	-0.792761824560642	1.09370090389369E-02	5.25162305907448E-03			1.03524466670509E-02	5.51325193451038E-03	-0.391620288508527	-0.807798163006471
1662750000	-0.364677569253009	-0.791699322827196	0.010871785567227	5.22161025305774E-03			1.03556135663467E-02	5.47169769456742E-03	-0.393090244100236	-0.807392220355832
1663500000	-0.365909929616057	-0.79082415630707	1.08628709111633E-02	5.20784560114098E-03			1.03032678891192E-02	5.4872861087042E-03	-0.393840440117553	-0.80643992905811
1664250000	-0.366881737962712	-0.790443381192805	1.07885370286945E-02	5.18169336879784E-03			1.02839869089322E-02	5.43914183514794E-03	-0.394952759330138	-0.805875664944133
1665000000	-0.367997266714426	-0.788490344897863	1.07486103842036E-02	5.15865163427141E-03			1.02135891433693E-02	5.43884539080662E-03	-0.395800217581736	-0.805335474812893
1665750000	-0.369151726776046	-0.788038339948088	1.07230759843475E-02	5.14865648499681E-03			1.02045905851498E-02	5.41071482785879E-03	-0.396825752424252	-0.804692848970364
1666500000	-0.369541764613288	-0.787461314938763	0.010680503177206	5.1471164431924E-03			1.01219673713462E-02	5.44127587345107E-03	-0.398416060281252	-0.804311249590974
1667250000	-0.370962337167776	-0.786135513202524	1.06047705318327E-02	0.005142830243598			1.00894486940819E-02	5.41265978557221E-03	-0.399365462126355	-0.803665242648164
1668000000	-0.371695088846177	-0.785421348951936	1.05622599954887E-02	5.15662994520816E-03			1.00587616531731E-02	5.42254892527523E-03	-0.400345030072835	-0.803085764509424
1668750000	-0.372177242506735	-0.784475577989365	1.05294157331024E-02	5.15602489887669E-03			9.99639121679392E-03	5.44210939092802E-03	-0.401264981781298	-0.802259987849106
1669500000	-0.373129974476313	-0.783919141931242	1.04940080935504E-02	5.18993003653182E-03			9.97481239946614E-03	5.43864426631256E-03	-0.40233522041435	-0.801658013037388
1670250000	-0.373308898021033	-0.783404805419403	1.04471785527527E-02	5.16059301889259E-03			9.95215638462448E-03	5.44405328147861E-03	-0.40352997816647	-0.801163120255964
1671000000	-0.374091001175559	-0.782657495331993	1.04548415701671E-02	5.17256371776372E-03			9.93983482251688E-03	5.44566576531914E-03	-0.404664775121008	-0.800342538168192
1671750000	-0.374924479978664	-0.781907518694784	1.04051759624419E-02	5.1813031603244E-03			9.91220740254068E-03	5.44192769987121E-03	-0.405554159845469	-0.799787714344486
1672500000	-0.376463192417316	-0.78213699872168	0.010384548792814	5.17453579901997E-03			9.88939422943758E-03	5.45244909654138E-03	-0.406780580879276	-0.799208915705779
1673250000	-0.376883346165553	-0.781416857114209	0.010359210431255	5.15736596617423E-03			9.87741515046501E-03	5.44128725260344E-03	-0.407907780159608	-0.798564183109979
1674000000	-0.37788751648116	-0.781290370592525	1.03557373750475E-02	5.16010394491454E-03			9.85086058833789E-03	5.4559066491546E-03	-0.409071046886989	-0.797888050885359
1674750000	-0.379057010493128	-0.780955164689675	1.03454630066304E-02	5.14424150303384E-03			9.82945049920363E-03	5.41238507210831E-03	-0.409706474723569	-0.797289517500321
1675500000	-0.380280323390226	-0.780696920810502	1.03035708837362E-02	5.14767710129681E-03			9.81805153112508E-03	5.41768357134367E-03	-0.411256150743983	-0.796428147986183
1676250000	-0.380954089783238	-0.78057492435158	1.02897447159809E-02	5.10388764908937E-03			9.80091367059874E-03	5.37020856178835E-03	-0.412341811099553	-0.795838185593213
1677000000	-0.382543479508688	-0.780036936536718	1.02639474393219E-02	5.10127181156666E-03			9.78975238081424E-03	5.36814520423866E-03	-0.413026788664542	-0.795186099827104
1677750000	-0.384212126834411	-0.779370631728336	1.02403163473652E-02	5.09256954717534E-03			9.73354977389974E-03	5.36048083147048E-03	-0.414477739889036	-0.79416103705036
1678500000	-0.385670246400958	-0.778652287038683	1.02171355343122E-02	5.06824943558387E-03			9.73105038092876E-03	5.31514048126389E-03	-0.415432323429127	-0.793200123760255
1679250000	-0.38689793854336	-0.778122774406266	1.01749909514607E-02	5.03816157366905E-03			9.70641228293886E-03	5.29445388882643E-03	-0.416520585122929	-0.792824088580935
1680000000	-0.388136836564536	-0.776793634310758	1.01394444667164E-02	5.00918329708859E-03			9.66591346360112E-03	5.27481322359218E-03	-0.417839841026237	-0.792014142533121
1680750000	-0.389757189898949	-0.776215259460108	1.01102862764416E-02	4.9617455575643E-03			9.61237050515991E-03	5.25847374919584E-03	-0.418459004242749	-0.791064413194115
1681500000	-0.390686321031648	-0.775093142708997	1.00642067517016E-02	4.94649836687954E-03			9.57163825975489E-03	5.23418915647306E-03	-0.419852848414964	-0.790949129908123
1682250000	-0.39180816909779	-0.774041709622061	1.00028802826677E-02	4.94256399063413E-03			9.52055295036293E-03	5.23792750435091E-03	-0.421065407715157	-0.789859419282961
1683000000	-0.393122270388971	-0.773331098794308	9.97006793477125E-03	4.93391552157445E-03			9.49553213546855E-03	5.22179054257924E-03	-0.42195807794227	-0.789563112858304
1683750000	-0.393456398830392	-0.772038424157341	9.90310037592285E-03	4.92540789932339E-03			9.44191837039443E-03	5.21653281995748E-03	-0.422948079271574	-0.788579451930019
1684500000	-0.394737130386208	-0.771312977065044	9.86511678523978E-03	4.92275539914372E-03			9.39418754489649E-03	5.19639159389664E-03	-0.423905358023672	-0.787799935699626
1685250000	-0.395423335058742	-0.770162559666003	9.80249497199184E-03	4.93074056149767E-03			9.35326781166802E-03	5.20254429816292E-03	-0.424894639279779	-0.787223812955046
1686000000	-0.395857466371191	-0.768987633639012	9.7855426254131E-03	4.91619901322484E-03			9.30607286614979E-03	5.18176386150727E-03	-0.425886728034422	-0.786404711162972
1686750000	-0.396761152753934	-0.768754248485009	9.73608820962188E-03	4.93928473613374E-03			9.27457009592611E-03	5.17249081578499E-03	-0.426877239746892	-0.786249748579527
1687500000	-0.397270722479272	-0.768282454192381	9.67961326457737E-03	4.90945463336073E-03			9.24947013082949E-03	5.22326463024709E-03	-0.428008698133649	-0.785860001629894
1688250000	-0.397828392644306	-0.768093427563937	9.66705521376872E-03	4.93146145882565E-03			9.21687402890023E-03	5.20199897782024E-03	-0.429349783556834	-0.784633568051328
1689000000	-0.39901169359946	-0.766958895965371	9.64874662755557E-03	4.92800881876934E-03			9.20852504648929E-03	5.18428965059077E-03	-0.430434877180667	-0.784119336582147
1689750000	-0.400072855635861	-0.766770467470852	9.65587408463277E-03	4.92712760266589E-03			9.19450140729136E-03	5.21126848569581E-03	-0.431449255300893	-0.78368979132646
1690500000	-0.401014831397888	-0.766383444681803	9.62133519650592E-03	4.90220197468999E-03			9.16368493886279E-03	5.1986343246944E-03	-0.432934528296725	-0.78280088106054
1691250000	-0.401765209265657	-0.766079343716929	9.6053079882713E-03	4.88765310156883E-03			9.14650466198326E-03	5.13849807346809E-03	-0.434146307414601	-0.781830296869902
1692000000	-0.403409086983255	-0.766133457999975	9.57069692742256E-03	4.86197548959219E-03			9.13207203151648E-03	5.13756771563179E-03	-0.435288407724181	-0.781315193873842
1692750000	-0.404645725578522	-0.765461311105726	9.5378318061432E-03	4.80109659066037E-03			9.09473419451953E-03	5.13937136206081E-03	-0.436371946203118	-0.780455514227673
1693500000	-0.405948759492003	-0.765049425429766	9.51709855630025E-03	4.82277949412659E-03			9.08057277148476E-03	5.11271032221817E-03	-0.43769890687703	-0.779315604047335
1694250000	-0.407639872330849	-0.764691222378983	9.47104122318669E-03	4.78045587760891E-03			9.0339659165119E-03	5.05374655915313E-03	-0.438769180087391	-0.77880465850389
1695000000	-0.408770219366896	-0.763745242146055	9.41675983407757E-03	4.73740601428975E-03			9.01028779847232E-03	5.02597405624239E-03	-0.43989359832363	-0.777777083228265
1695750000	-0.409953871775987	-0.76340951567552	9.40967628535217E-03	4.71715303791746E-03			8.95913100847391E-03	4.99564639614205E-03	-0.440958568251519	-0.777473443834819
1696500000	-0.411838819499339	-0.762630851906779	9.35010666113696E-03	4.71017551507994E-03			8.90712818346754E-03	4.99583313183891E-03	-0.442058666844389	-0.776413111604341
1697250000	-0.412989389476594	-0.761681290386373	9.27856049030044E-03	4.67478929134503E-03			8.85077104781032E-03	4.96215333296789E-03	-0.442968160959553	-0.775628697522849
1698000000	-0.414263370023914	-0.760625088947229	9.22757406309993E-03	4.66690358075556E-03			8.80227531562353E-03	4.94895355267396E-03	-0.444120564106432	-0.774804005937062
1698750000	-0.415829945691354	-0.759623456911937	0.009200256927337	4.68751750000053E-03			8.7659902157237E-03	4.96441151886042E-03	-0.445246406560606	-0.774118257492981
1699500000	-0.4169445580489	-0.758430516447867	9.15125254676245E-03	4.64205744513927E-03			8.74854940945151E-03	4.94125934275829E-03	-0.446177967561699	-0.77344718959168
1700250000	-0.418087475315069	-0.757583807423058	9.10978104634974E-03	4.61110428064879E-03			8.68663362552608E-03	4.89616317258962E-03	-0.447317618098603	-0.77285600696024
1701000000	-0.419312742959159	-0.756269998555693	9.04469951435106E-03	4.58893778812424E-03			8.66511864232697E-03	4.89068347541247E-03	-0.448364486752876	-0.772121605284967
1701750000	-0.420157695956843	-0.75565437821407	9.02889645860567E-03	4.58015483253857E-03			8.5917874843027E-03	4.87054710561077E-03	-0.449295316228417	-0.771405129902945
1702500000	-0.421408191690511	-0.754821969785996	8.95975543905519E-03	4.56882726550343E-03			8.54952594585564E-03	4.85265849662207E-03	-0.450961632720168	-0.77084795706218
1703250000	-0.422293861958804	-0.753364007211422	8.90973656727162E-03	4.52679559919112E-03			8.49274414921663E-03	4.81143028569502E-03	-0.452145234490909	-0.770235856081315
1704000000	-0.423244190055856	-0.752798855267524	8.86076418987055E-03	4.54200670331159E-03			8.41681363465221E-03	4.82029533923525E-03	-0.453547676964442	-0.769606722862154
1704750000	-0.42406601939088	-0.751447979952958	8.78687929736235E-03	4.52949037498935E-03			8.38350283755993E-03	4.80799183794363E-03	-0.454999160753519	-0.768617490797408
1705500000	-0.42522767574898	-0.750987282304012	8.73057195489809E-03	4.50106831739695E-03			8.32947854462718E-03	4.80596509947555E-03	-0.456135827072466	-0.767908141587379
1706250000	-0.426020550099483	-0.750244127923638	8.66434993084402E-03	4.51212198041232E-03			8.27032945456807E-03	4.80391079373752E-03	-0.457527060671998	-0.766824900368536
1707000000	-0.42671759117198	-0.749272908115169	8.59638522740494E-03	4.51492583547671E-03			8.19014710543922E-03	4.80911909247235E-03	-0.458732718294726	-0.766241546288407
1707750000	-0.427814119280264	-0.749068361720575	8.53424807028502E-03	4.54588766057872E-03			8.10577612842087E-03	4.83535849443493E-03	-0.460241785820099	-0.76504581716001
1708500000	-0.428620410250864	-0.747998836954212	8.48272030984914E-03	4.57018795156264E-03			8.10775901776299E-03	4.86158047382728E-03	-0.461596106109374	-0.764008401000174
1709250000	-0.429329889006379	-0.74758874308938	8.44928658667915E-03	4.62501674982606E-03			8.05572215390278E-03	4.88008038757997E-03	-0.462611467124252	-0.762751995417237
1710000000	-0.43031301665055	-0.747311478078252	8.43454384470498E-03	4.65989643379217E-03			8.04267895023748E-03	4.92846136601291E-03	-0.463607066733763	-0.761682932164697
1710750000	-0.431718479030716	-0.746657661561646	8.46955268481863E-03	4.68894697390335E-03			8.0441725518229E-03	4.94240633434865E-03	-0.464385156408388	-0.760709590778911
1711500000	-0.432804885171921	-0.74628869760936	8.47186140123854E-03	4.66396127268623E-03			8.04755148166138E-03	4.93683992408368E-03	-0.465039921180551	-0.759660057756666
1712250000	-0.434529572414403	-0.745987818657513	8.46946782679514E-03	4.60778412400792E-03			8.0618082169767E-03	4.93215127663324E-03	-0.466283596939097	-0.758804799605131
1713000000	-0.43597531579152	-0.74472252465747	8.44887463735875E-03	4.56288907818593E-03			8.0603178159552E-03	4.91599218752999E-03	-0.467465428815757	-0.758481708768099
1713750000	-0.437464465849419	-0.744560630964316	8.44825092628138E-03	4.54799470400085E-03			8.04805510071323E-03	4.84845219187886E-03	-0.468675184813548	-0.757737272302309
1714500000	-0.439217314224614	-0.743610872473098	8.42817233434367E-03	4.47930620423416E-03			8.02351813688088E-03	4.8053013800068E-03	-0.469778391197411	-0.756871895507639
1715250000	-0.440496717718859	-0.741854410515509	8.39387702908157E-03	4.43243375383298E-03			7.97540006648858E-03	4.7580093637586E-03	-0.470847240348326	-0.755736762191434
1716000000	-0.441457454886219	-0.741459525619176	8.31018474224129E-03	4.4116984049275E-03			7.91379946260728E-03	4.72950754070794E-03	-0.471679843981599	-0.755086719610965
1716750000	-0.443127981614387	-0.740167028166833	8.26300599517436E-03	4.38426805791355E-03			7.89794023956411E-03	4.68275592293239E-03	-0.472887413783596	-0.754448839479815
1717500000	-0.444227713413386	-0.739318447770488	8.22888239035209E-03	4.32127562553136E-03			7.83501705961223E-03	4.66015610857294E-03	-0.473930303530097	-0.753654792015482
1718250000	-0.445559741109151	-0.73792534226705	8.1440780198365E-03	4.28455475859011E-03			7.79149329334609E-03	4.61868391575028E-03	-0.475452941067468	-0.752670039038957
1719000000	-0.446774269442066	-0.736763749923073	8.11630555365981E-03	4.26070880877516E-03			7.72158209606998E-03	4.58959722187016E-03	-0.476413584873278	-0.751942963346533
1719750000	-0.44779308832603	-0.735866886976402	8.02117731890946E-03	4.2325433475082E-03			7.63438487923044E-03	4.57402902899387E-03	-0.477631955085829	-0.751246753049522
1720500000	-0.448785665622674	-0.734714984554818	7.95585106925007E-03	4.24228970442145E-03			7.59039598781062E-03	4.54084893194763E-03	-0.479448073813998	-0.750419905536421
1721250000	-0.449358257899552	-0.733536183728804	7.86272056013725E-03	4.20424167299104E-03			7.5088398798315E-03	4.53416416976009E-03	-0.480565572139522	-0.749595559698927
1722000000	-0.450414595974247	-0.732599703367776	7.85181263012947E-03	4.20825251393201E-03			7.46780076593099E-03	4.52184340493354E-03	-0.481701181816905	-0.748651236298328
1722750000	-0.451625918013188	-0.731989003551382	7.75605960539836E-03	4.21076325959981E-03			7.38606974078678E-03	4.54212358543175E-03	-0.483361539478791	-0.747687057026592
1723500000	-0.452416858785016	-0.731138176581186	7.71567693833028E-03	4.22645442163528E-03			7.33179036464943E-03	4.50558633861345E-03	-0.484672372881427	-0.746887823242308
1724250000	-0.453370780565373	-0.730625551550483	7.66339882089387E-03	4.20560503533986E-03			7.30753046221769E-03	4.49139850801724E-03	-0.486192174844013	-0.745533008950095
1725000000	-0.454534515272701	-0.729783259919914	7.57410870601068E-03	4.20507010078061E-03			7.24498265446971E-03	4.49953722067138E-03	-0.48737111072007	-0.744575380277765
1725750000	-0.455503141530835	-0.728925609434074	7.55266430873134E-03	4.2043385804919E-03			7.19824377319569E-03	4.53323070497984E-03	-0.488549975469801	-0.743424715978654
1726500000	-0.456577526967292	-0.728505553750769	7.48659134374655E-03	4.21271277377733E-03			7.15762058415834E-03	4.5308485638596E-03	-0.490170506931386	-0.742423056786862
1727250000	-0.458145122806721	-0.727651430812649	7.45001310508295E-03	4.2138234824937E-03			7.10932764510073E-03	4.51365649335083E-03	-0.490919122417016	-0.74101519167967
1728000000	-0.459432109422372	-0.726982398239673	7.40307617469655E-03	4.18604965422691E-03			7.06123679687507E-03	4.54085292859852E-03	-0.492121617278531	-0.739648036456391
1728750000	-0.460780660610383	-0.72562772250347	7.36052512777613E-03	4.18236681532651E-03			7.04719633581956E-03	4.51337691233944E-03	-0.493112276577912	-0.738562869642556
1729500000	-0.461754051254805	-0.724906850721408	7.33108957223745E-03	4.19456628270858E-03			7.00693706191532E-03	4.48920053885657E-03	-0.493954435370705	-0.737855939023274
1730250000	-0.463247827157405	-0.724244632289133	7.29992332743827E-03	4.15776451318455E-03			6.9694063931917E-03	4.50252196493971E-03	-0.494902663743895	-0.73634217527738
1731000000	-0.464792756692055	-0.723392618378886	7.26706335372542E-03	4.16769167137461E-03			6.9381026268773E-03	4.50922833075964E-03	-0.495819957118945	-0.735467969787818
1731750000	-0.465909878930452	-0.722820708308143	7.25905829668983E-03	4.13317672018358E-03			6.92132249057741E-03	4.44304803991436E-03	-0.496395730856701	-0.734699381801638
1732500000	-0.467661532404873	-0.721562749710053	7.22310261661011E-03	4.07973269130089E-03			6.89720018224095E-03	4.41829371377423E-03	-0.497779061221889	-0.733939659322297
1733250000	-0.469039119281578	-0.720426621195424	7.17190145956358E-03	4.04633016915026E-03			6.84329629168972E-03	4.39353271042394E-03	-0.498805902039211	-0.733462705009297
1734000000	-0.47042051258903	-0.719279053889194	7.10280175446028E-03	4.00605533853182E-03			6.78095023528347E-03	4.32578476045312E-03	-0.499727824934383	-0.732701807120722
1734750000	-0.47180093025621	-0.71780710060971	7.03922311373452E-03	3.94502278993562E-03			6.71760245612556E-03	4.28515847079546E-03	-0.50134122746908	-0.732047966916835
1735500000	-0.472913628404111	-0.716813911281329	6.95573485123473E-03	3.90531148004923E-03			6.64686973181852E-03	4.22923979220368E-03	-0.502738920920675	-0.731253923056361
1736250000	-0.473699186916688	-0.715533437464093	6.86995980909389E-03	3.89618933119811E-03			6.54921578397811E-03	4.24164080345622E-03	-0.504015629110312	-0.730744079893195
