!Agilent Technologies,E5070B,MY42401607,A.08.11
!Date: Tue Nov 30 11:27:51 2010
!Data & Calibration Information:
!Freq	S11:SOLT2(ON)	S21:SOLT2(ON)	S12:SOLT2(ON)	S22:SOLT2(ON)
# Hz S dB R 50
956000000	-5.644964e-001	-1.514519e+002	-4.471359e+001	-6.465870e+001	-4.479686e+001	-6.429069e+001	2.633042e+000	-1.548127e+002
956125000	-5.648047e-001	-1.514469e+002	-4.457635e+001	-6.394634e+001	-4.471350e+001	-6.228515e+001	2.664732e+000	-1.548653e+002
956250000	-5.853847e-001	-1.514853e+002	-4.481795e+001	-6.652740e+001	-4.466069e+001	-6.206476e+001	2.639335e+000	-1.550269e+002
956375000	-5.890133e-001	-1.516619e+002	-4.460983e+001	-6.397565e+001	-4.475675e+001	-6.316272e+001	2.662216e+000	-1.548795e+002
956500000	-5.853089e-001	-1.516443e+002	-4.461069e+001	-6.552418e+001	-4.450208e+001	-6.286948e+001	2.650792e+000	-1.551055e+002
956625000	-5.797748e-001	-1.517260e+002	-4.457195e+001	-6.488191e+001	-4.479847e+001	-6.223003e+001	2.662377e+000	-1.548268e+002
956750000	-5.681493e-001	-1.516262e+002	-4.452102e+001	-6.431510e+001	-4.451776e+001	-6.252999e+001	2.675396e+000	-1.550203e+002
956875000	-5.851786e-001	-1.517596e+002	-4.456805e+001	-6.444517e+001	-4.477577e+001	-6.222684e+001	2.652794e+000	-1.552041e+002
957000000	-5.786678e-001	-1.518547e+002	-4.455480e+001	-6.510353e+001	-4.443975e+001	-6.255746e+001	2.650882e+000	-1.551286e+002
957125000	-5.849646e-001	-1.519454e+002	-4.441263e+001	-6.467133e+001	-4.440329e+001	-6.258393e+001	2.681785e+000	-1.550897e+002
957250000	-5.888990e-001	-1.519483e+002	-4.445101e+001	-6.479021e+001	-4.449510e+001	-6.213414e+001	2.654352e+000	-1.552878e+002
957375000	-5.717522e-001	-1.520671e+002	-4.451626e+001	-6.556808e+001	-4.461349e+001	-6.322479e+001	2.663919e+000	-1.551420e+002
957500000	-5.874191e-001	-1.520200e+002	-4.448024e+001	-6.571904e+001	-4.463636e+001	-6.233998e+001	2.649598e+000	-1.554909e+002
957625000	-5.874085e-001	-1.521452e+002	-4.454886e+001	-6.453543e+001	-4.451952e+001	-6.229575e+001	2.675592e+000	-1.553472e+002
957750000	-5.912805e-001	-1.520506e+002	-4.430271e+001	-6.473699e+001	-4.454924e+001	-6.402255e+001	2.655873e+000	-1.555031e+002
957875000	-6.127363e-001	-1.522791e+002	-4.452080e+001	-6.772441e+001	-4.456593e+001	-6.308939e+001	2.660766e+000	-1.554755e+002
958000000	-6.074876e-001	-1.523044e+002	-4.443700e+001	-6.626188e+001	-4.450785e+001	-6.496134e+001	2.681920e+000	-1.558485e+002
958125000	-6.056832e-001	-1.523290e+002	-4.450796e+001	-6.697058e+001	-4.446119e+001	-6.362646e+001	2.683689e+000	-1.555267e+002
958250000	-6.121526e-001	-1.523922e+002	-4.442644e+001	-6.569930e+001	-4.454235e+001	-6.355504e+001	2.679959e+000	-1.555738e+002
958375000	-6.067557e-001	-1.524543e+002	-4.426854e+001	-6.730308e+001	-4.443861e+001	-6.454857e+001	2.678580e+000	-1.557048e+002
958500000	-5.993899e-001	-1.524138e+002	-4.437441e+001	-6.481257e+001	-4.451918e+001	-6.607976e+001	2.637737e+000	-1.560341e+002
958625000	-6.108748e-001	-1.525405e+002	-4.454035e+001	-6.587666e+001	-4.448565e+001	-6.401991e+001	2.648415e+000	-1.560502e+002
958750000	-6.123614e-001	-1.525778e+002	-4.431433e+001	-6.600455e+001	-4.436744e+001	-6.459561e+001	2.668288e+000	-1.560688e+002
958875000	-6.309850e-001	-1.526518e+002	-4.437938e+001	-6.690513e+001	-4.456715e+001	-6.387106e+001	2.649990e+000	-1.561843e+002
959000000	-6.156869e-001	-1.526731e+002	-4.450846e+001	-6.587851e+001	-4.458569e+001	-6.409125e+001	2.670303e+000	-1.559915e+002
959125000	-6.104389e-001	-1.527409e+002	-4.435178e+001	-6.701016e+001	-4.455420e+001	-6.353650e+001	2.635089e+000	-1.564752e+002
959250000	-6.124321e-001	-1.528281e+002	-4.457114e+001	-6.638826e+001	-4.446971e+001	-6.338493e+001	2.658158e+000	-1.561784e+002
959375000	-6.252551e-001	-1.528911e+002	-4.432028e+001	-6.508157e+001	-4.445650e+001	-6.557757e+001	2.638877e+000	-1.564179e+002
959500000	-6.175605e-001	-1.529612e+002	-4.452296e+001	-6.628040e+001	-4.444399e+001	-6.443171e+001	2.664979e+000	-1.564833e+002
959625000	-6.248988e-001	-1.529892e+002	-4.443680e+001	-6.537424e+001	-4.441237e+001	-6.287318e+001	2.639844e+000	-1.563365e+002
959750000	-6.279898e-001	-1.530799e+002	-4.425840e+001	-6.526756e+001	-4.451994e+001	-6.335592e+001	2.651290e+000	-1.565879e+002
959875000	-6.288511e-001	-1.531242e+002	-4.417586e+001	-6.636066e+001	-4.446700e+001	-6.349955e+001	2.609538e+000	-1.568246e+002
960000000	-6.350266e-001	-1.533181e+002	-4.414472e+001	-6.571912e+001	-4.436422e+001	-6.319765e+001	2.625202e+000	-1.566915e+002
960125000	-6.300162e-001	-1.532332e+002	-4.406214e+001	-6.593314e+001	-4.418005e+001	-6.389687e+001	2.620353e+000	-1.567865e+002
960250000	-6.504772e-001	-1.533962e+002	-4.416808e+001	-6.633547e+001	-4.416095e+001	-6.454783e+001	2.599266e+000	-1.569901e+002
960375000	-6.578182e-001	-1.533714e+002	-4.412149e+001	-6.607629e+001	-4.418741e+001	-6.540394e+001	2.602982e+000	-1.568734e+002
960500000	-6.514335e-001	-1.534573e+002	-4.430432e+001	-6.579819e+001	-4.422255e+001	-6.376307e+001	2.599418e+000	-1.569120e+002
960625000	-6.635249e-001	-1.535502e+002	-4.416693e+001	-6.555769e+001	-4.422522e+001	-6.312307e+001	2.575080e+000	-1.569090e+002
960750000	-6.832380e-001	-1.535917e+002	-4.408380e+001	-6.585564e+001	-4.426843e+001	-6.666072e+001	2.576472e+000	-1.567951e+002
960875000	-6.703124e-001	-1.536297e+002	-4.408314e+001	-6.574130e+001	-4.435365e+001	-6.458559e+001	2.557414e+000	-1.568910e+002
961000000	-6.825556e-001	-1.536566e+002	-4.414147e+001	-6.531303e+001	-4.411164e+001	-6.362862e+001	2.550577e+000	-1.570054e+002
961125000	-6.915790e-001	-1.537523e+002	-4.409562e+001	-6.583780e+001	-4.407189e+001	-6.454840e+001	2.557384e+000	-1.571365e+002
961250000	-7.046657e-001	-1.537830e+002	-4.409606e+001	-6.576676e+001	-4.405379e+001	-6.546123e+001	2.556593e+000	-1.571763e+002
961375000	-7.145714e-001	-1.538382e+002	-4.385024e+001	-6.614759e+001	-4.404694e+001	-6.482645e+001	2.563827e+000	-1.571617e+002
961500000	-7.223416e-001	-1.538002e+002	-4.411837e+001	-6.645412e+001	-4.409711e+001	-6.582226e+001	2.564176e+000	-1.569965e+002
961625000	-7.335743e-001	-1.538826e+002	-4.390509e+001	-6.746736e+001	-4.401336e+001	-6.515946e+001	2.546720e+000	-1.571860e+002
961750000	-7.341861e-001	-1.538875e+002	-4.394560e+001	-6.593330e+001	-4.420122e+001	-6.636871e+001	2.548570e+000	-1.571132e+002
961875000	-7.488095e-001	-1.539099e+002	-4.398808e+001	-6.719604e+001	-4.399788e+001	-6.533289e+001	2.528160e+000	-1.572203e+002
962000000	-7.449016e-001	-1.538451e+002	-4.397043e+001	-6.733943e+001	-4.406864e+001	-6.588220e+001	2.561681e+000	-1.573733e+002
962125000	-7.427903e-001	-1.537734e+002	-4.390130e+001	-6.707077e+001	-4.392970e+001	-6.585886e+001	2.548962e+000	-1.573326e+002
962250000	-7.614522e-001	-1.538224e+002	-4.386704e+001	-6.747864e+001	-4.417054e+001	-6.449576e+001	2.569670e+000	-1.573937e+002
962375000	-7.496988e-001	-1.538212e+002	-4.380038e+001	-6.700117e+001	-4.393162e+001	-6.579529e+001	2.558481e+000	-1.573169e+002
962500000	-7.691025e-001	-1.537693e+002	-4.378545e+001	-6.709591e+001	-4.388483e+001	-6.512153e+001	2.556934e+000	-1.572325e+002
962625000	-7.582553e-001	-1.537943e+002	-4.384701e+001	-6.756443e+001	-4.404019e+001	-6.670392e+001	2.538470e+000	-1.574435e+002
962750000	-7.585165e-001	-1.538280e+002	-4.380152e+001	-6.712550e+001	-4.390184e+001	-6.679994e+001	2.564787e+000	-1.575102e+002
962875000	-7.601219e-001	-1.537398e+002	-4.374788e+001	-6.828238e+001	-4.377272e+001	-6.788887e+001	2.537952e+000	-1.575445e+002
963000000	-7.343458e-001	-1.537439e+002	-4.366746e+001	-6.798048e+001	-4.375996e+001	-6.696446e+001	2.546639e+000	-1.575045e+002
963125000	-7.387340e-001	-1.538439e+002	-4.384415e+001	-6.811108e+001	-4.384442e+001	-6.538782e+001	2.550483e+000	-1.575075e+002
963250000	-7.302911e-001	-1.538398e+002	-4.377445e+001	-6.852409e+001	-4.387197e+001	-6.588700e+001	2.533838e+000	-1.575461e+002
963375000	-7.327471e-001	-1.539696e+002	-4.371888e+001	-6.771287e+001	-4.358366e+001	-6.640070e+001	2.542682e+000	-1.573709e+002
963500000	-7.159249e-001	-1.539176e+002	-4.362720e+001	-6.815105e+001	-4.379193e+001	-6.798557e+001	2.573745e+000	-1.576387e+002
963625000	-7.126452e-001	-1.540285e+002	-4.335911e+001	-6.854280e+001	-4.357714e+001	-6.622903e+001	2.565185e+000	-1.577750e+002
963750000	-7.005127e-001	-1.541055e+002	-4.362623e+001	-6.875770e+001	-4.355151e+001	-6.745641e+001	2.565458e+000	-1.576922e+002
963875000	-7.074780e-001	-1.542739e+002	-4.369565e+001	-6.973877e+001	-4.379274e+001	-6.804648e+001	2.564755e+000	-1.577167e+002
964000000	-7.010915e-001	-1.542779e+002	-4.354943e+001	-6.910035e+001	-4.379149e+001	-6.722496e+001	2.541752e+000	-1.577165e+002
964125000	-7.192377e-001	-1.543905e+002	-4.357394e+001	-7.014264e+001	-4.378398e+001	-6.652124e+001	2.554982e+000	-1.579574e+002
964250000	-7.061240e-001	-1.545127e+002	-4.339143e+001	-6.851713e+001	-4.347472e+001	-6.685850e+001	2.572616e+000	-1.579343e+002
964375000	-7.060906e-001	-1.545474e+002	-4.338698e+001	-6.866349e+001	-4.352228e+001	-6.794039e+001	2.565975e+000	-1.581929e+002
964500000	-7.011449e-001	-1.546071e+002	-4.325117e+001	-6.955297e+001	-4.352744e+001	-6.768771e+001	2.583293e+000	-1.580820e+002
964625000	-7.143455e-001	-1.546811e+002	-4.336382e+001	-6.913550e+001	-4.347686e+001	-6.840760e+001	2.586625e+000	-1.579024e+002
964750000	-7.200104e-001	-1.548039e+002	-4.350848e+001	-7.000154e+001	-4.328723e+001	-6.842766e+001	2.580409e+000	-1.582439e+002
964875000	-7.138067e-001	-1.548364e+002	-4.344472e+001	-7.095560e+001	-4.344883e+001	-6.962412e+001	2.596402e+000	-1.583543e+002
965000000	-7.120534e-001	-1.549036e+002	-4.311380e+001	-7.099604e+001	-4.332638e+001	-6.978405e+001	2.579237e+000	-1.584412e+002
965125000	-7.169108e-001	-1.550562e+002	-4.331216e+001	-7.109666e+001	-4.332573e+001	-6.876422e+001	2.580250e+000	-1.585420e+002
965250000	-7.206402e-001	-1.550179e+002	-4.312888e+001	-7.175076e+001	-4.330095e+001	-6.949171e+001	2.600192e+000	-1.586360e+002
965375000	-7.202983e-001	-1.551806e+002	-4.332382e+001	-7.203409e+001	-4.339338e+001	-7.130631e+001	2.603902e+000	-1.587180e+002
965500000	-7.319799e-001	-1.551840e+002	-4.327628e+001	-7.258163e+001	-4.339313e+001	-6.994306e+001	2.587455e+000	-1.587323e+002
965625000	-7.344256e-001	-1.553365e+002	-4.328922e+001	-7.250081e+001	-4.310668e+001	-7.110714e+001	2.556003e+000	-1.588578e+002
965750000	-7.362384e-001	-1.554820e+002	-4.313536e+001	-7.256065e+001	-4.296562e+001	-7.071717e+001	2.591873e+000	-1.589782e+002
965875000	-7.512758e-001	-1.554858e+002	-4.295701e+001	-7.327936e+001	-4.342796e+001	-7.223462e+001	2.560795e+000	-1.590994e+002
966000000	-7.457255e-001	-1.555268e+002	-4.304336e+001	-7.437044e+001	-4.319816e+001	-7.360806e+001	2.577057e+000	-1.591827e+002
966125000	-7.379107e-001	-1.555527e+002	-4.311124e+001	-7.442386e+001	-4.323053e+001	-7.349311e+001	2.546269e+000	-1.592549e+002
966250000	-7.767833e-001	-1.558053e+002	-4.300308e+001	-7.391849e+001	-4.314406e+001	-7.275950e+001	2.565319e+000	-1.593523e+002
966375000	-7.785644e-001	-1.557293e+002	-4.308461e+001	-7.310778e+001	-4.308507e+001	-7.242042e+001	2.551916e+000	-1.594246e+002
966500000	-7.707701e-001	-1.557737e+002	-4.298707e+001	-7.476089e+001	-4.294418e+001	-7.274587e+001	2.579569e+000	-1.594745e+002
966625000	-7.907892e-001	-1.557952e+002	-4.310574e+001	-7.462148e+001	-4.315277e+001	-7.444606e+001	2.542695e+000	-1.596935e+002
966750000	-7.921093e-001	-1.558578e+002	-4.318347e+001	-7.666319e+001	-4.311917e+001	-7.380316e+001	2.530614e+000	-1.596836e+002
966875000	-8.087603e-001	-1.559399e+002	-4.310281e+001	-7.651396e+001	-4.325294e+001	-7.612586e+001	2.533000e+000	-1.596713e+002
967000000	-7.926838e-001	-1.559749e+002	-4.317351e+001	-7.654142e+001	-4.318317e+001	-7.593015e+001	2.499081e+000	-1.599833e+002
967125000	-8.159894e-001	-1.560443e+002	-4.315815e+001	-7.667976e+001	-4.325298e+001	-7.532601e+001	2.473043e+000	-1.597973e+002
967250000	-8.161965e-001	-1.561044e+002	-4.322024e+001	-7.679230e+001	-4.329403e+001	-7.594112e+001	2.466920e+000	-1.600153e+002
967375000	-8.171321e-001	-1.561639e+002	-4.331044e+001	-7.850398e+001	-4.317842e+001	-7.684780e+001	2.462489e+000	-1.601592e+002
967500000	-8.384981e-001	-1.562884e+002	-4.332619e+001	-7.820410e+001	-4.314918e+001	-7.830525e+001	2.415403e+000	-1.600138e+002
967625000	-8.478702e-001	-1.563236e+002	-4.327937e+001	-7.788197e+001	-4.316268e+001	-7.737675e+001	2.419607e+000	-1.601854e+002
967750000	-8.501099e-001	-1.562731e+002	-4.309880e+001	-7.924568e+001	-4.323783e+001	-7.775386e+001	2.387527e+000	-1.601248e+002
967875000	-8.637857e-001	-1.564213e+002	-4.336466e+001	-7.981286e+001	-4.330518e+001	-7.831853e+001	2.376039e+000	-1.598985e+002
968000000	-8.685579e-001	-1.564319e+002	-4.311185e+001	-8.081580e+001	-4.327584e+001	-7.844787e+001	2.374709e+000	-1.599785e+002
968125000	-8.873567e-001	-1.564899e+002	-4.349348e+001	-8.114019e+001	-4.346283e+001	-8.019459e+001	2.358089e+000	-1.598441e+002
968250000	-8.947002e-001	-1.564196e+002	-4.355519e+001	-8.038005e+001	-4.367556e+001	-8.063778e+001	2.368473e+000	-1.597984e+002
968375000	-9.145624e-001	-1.565278e+002	-4.357651e+001	-7.996183e+001	-4.360351e+001	-7.928612e+001	2.347030e+000	-1.599596e+002
968500000	-9.121911e-001	-1.563991e+002	-4.346800e+001	-8.152653e+001	-4.368174e+001	-8.042273e+001	2.358013e+000	-1.596931e+002
968625000	-9.382271e-001	-1.563541e+002	-4.357120e+001	-8.268166e+001	-4.382386e+001	-8.021154e+001	2.383801e+000	-1.597192e+002
968750000	-9.470285e-001	-1.563917e+002	-4.378732e+001	-8.256486e+001	-4.361838e+001	-8.067592e+001	2.362627e+000	-1.596304e+002
968875000	-9.555079e-001	-1.563580e+002	-4.359463e+001	-8.206797e+001	-4.378306e+001	-8.067703e+001	2.378371e+000	-1.595585e+002
969000000	-9.640427e-001	-1.563271e+002	-4.394439e+001	-8.272688e+001	-4.392442e+001	-8.041901e+001	2.350208e+000	-1.594550e+002
969125000	-9.742370e-001	-1.561590e+002	-4.391934e+001	-8.184604e+001	-4.407838e+001	-7.935247e+001	2.398565e+000	-1.594238e+002
969250000	-9.623499e-001	-1.560622e+002	-4.409356e+001	-8.080824e+001	-4.420362e+001	-8.003190e+001	2.410800e+000	-1.595740e+002
969375000	-9.774512e-001	-1.560930e+002	-4.402183e+001	-8.115624e+001	-4.404646e+001	-7.929240e+001	2.394219e+000	-1.595968e+002
969500000	-9.606494e-001	-1.560686e+002	-4.418763e+001	-8.215250e+001	-4.414922e+001	-7.963185e+001	2.455383e+000	-1.594910e+002
969625000	-9.386402e-001	-1.559860e+002	-4.406939e+001	-8.165877e+001	-4.422113e+001	-7.875292e+001	2.415017e+000	-1.595502e+002
969750000	-9.447747e-001	-1.559285e+002	-4.415131e+001	-8.217244e+001	-4.424867e+001	-7.794206e+001	2.448176e+000	-1.596121e+002
969875000	-9.237821e-001	-1.559475e+002	-4.430701e+001	-8.008241e+001	-4.448438e+001	-7.909816e+001	2.443285e+000	-1.597185e+002
970000000	-8.980122e-001	-1.558889e+002	-4.424765e+001	-8.046266e+001	-4.433067e+001	-7.861897e+001	2.451440e+000	-1.597825e+002
970125000	-8.838275e-001	-1.559890e+002	-4.417628e+001	-7.986490e+001	-4.441479e+001	-7.801838e+001	2.478449e+000	-1.599355e+002
970250000	-8.912478e-001	-1.560588e+002	-4.425752e+001	-7.879687e+001	-4.446984e+001	-7.646890e+001	2.485752e+000	-1.599378e+002
970375000	-8.392445e-001	-1.560948e+002	-4.416766e+001	-7.902059e+001	-4.431332e+001	-7.731659e+001	2.478333e+000	-1.599222e+002
970500000	-8.537845e-001	-1.562525e+002	-4.424741e+001	-7.895568e+001	-4.431589e+001	-7.812406e+001	2.509203e+000	-1.600038e+002
970625000	-8.482761e-001	-1.561997e+002	-4.417484e+001	-7.738313e+001	-4.436814e+001	-7.695578e+001	2.485757e+000	-1.601818e+002
970750000	-8.257410e-001	-1.563266e+002	-4.427284e+001	-7.735816e+001	-4.419274e+001	-7.542784e+001	2.494305e+000	-1.603005e+002
970875000	-8.223557e-001	-1.564568e+002	-4.410101e+001	-7.816272e+001	-4.413093e+001	-7.528692e+001	2.479147e+000	-1.603120e+002
971000000	-8.108361e-001	-1.566246e+002	-4.399286e+001	-7.758913e+001	-4.392128e+001	-7.514489e+001	2.506079e+000	-1.604528e+002
971125000	-7.943391e-001	-1.566585e+002	-4.377409e+001	-7.720204e+001	-4.388462e+001	-7.639492e+001	2.506466e+000	-1.605115e+002
971250000	-7.991888e-001	-1.567400e+002	-4.382647e+001	-7.735027e+001	-4.391500e+001	-7.547942e+001	2.501983e+000	-1.607569e+002
971375000	-8.129056e-001	-1.568842e+002	-4.377178e+001	-7.730387e+001	-4.409389e+001	-7.616212e+001	2.490019e+000	-1.607691e+002
971500000	-7.959463e-001	-1.571061e+002	-4.369892e+001	-7.682983e+001	-4.370408e+001	-7.521841e+001	2.502636e+000	-1.608228e+002
971625000	-8.048487e-001	-1.572275e+002	-4.355340e+001	-7.857443e+001	-4.360998e+001	-7.656748e+001	2.525887e+000	-1.609895e+002
971750000	-7.963223e-001	-1.572911e+002	-4.339522e+001	-7.747015e+001	-4.365690e+001	-7.624128e+001	2.493506e+000	-1.609523e+002
971875000	-7.870648e-001	-1.573814e+002	-4.358850e+001	-8.023162e+001	-4.362176e+001	-7.647211e+001	2.510573e+000	-1.611348e+002
972000000	-8.062209e-001	-1.575008e+002	-4.339632e+001	-7.986746e+001	-4.347381e+001	-7.794970e+001	2.533895e+000	-1.613240e+002
972125000	-8.021561e-001	-1.576694e+002	-4.348605e+001	-8.052564e+001	-4.336028e+001	-7.755930e+001	2.509013e+000	-1.613759e+002
972250000	-8.080829e-001	-1.578222e+002	-4.340736e+001	-8.006178e+001	-4.331693e+001	-7.830033e+001	2.515740e+000	-1.614799e+002
972375000	-8.133265e-001	-1.579237e+002	-4.327217e+001	-8.021045e+001	-4.346863e+001	-7.917922e+001	2.502087e+000	-1.616582e+002
972500000	-8.337662e-001	-1.581847e+002	-4.320030e+001	-8.099647e+001	-4.333755e+001	-7.873695e+001	2.499533e+000	-1.616461e+002
972625000	-8.351954e-001	-1.582149e+002	-4.315040e+001	-8.147441e+001	-4.339168e+001	-8.098788e+001	2.495165e+000	-1.619046e+002
972750000	-8.433137e-001	-1.582857e+002	-4.308624e+001	-8.309999e+001	-4.317715e+001	-8.168125e+001	2.497597e+000	-1.619245e+002
972875000	-8.485141e-001	-1.585106e+002	-4.304071e+001	-8.387060e+001	-4.320760e+001	-8.190769e+001	2.462916e+000	-1.620973e+002
973000000	-8.717713e-001	-1.585549e+002	-4.302910e+001	-8.481012e+001	-4.291153e+001	-8.387225e+001	2.483153e+000	-1.621153e+002
973125000	-8.675876e-001	-1.586067e+002	-4.299778e+001	-8.552088e+001	-4.338593e+001	-8.443396e+001	2.455540e+000	-1.624012e+002
973250000	-8.904220e-001	-1.587607e+002	-4.296847e+001	-8.632341e+001	-4.316160e+001	-8.619123e+001	2.447474e+000	-1.623567e+002
973375000	-9.152634e-001	-1.588981e+002	-4.302158e+001	-8.816159e+001	-4.304815e+001	-8.793041e+001	2.423793e+000	-1.625565e+002
973500000	-9.421792e-001	-1.589653e+002	-4.319181e+001	-9.175961e+001	-4.320946e+001	-8.854441e+001	2.424853e+000	-1.625864e+002
973625000	-9.752072e-001	-1.591125e+002	-4.347817e+001	-9.140361e+001	-4.323864e+001	-8.985111e+001	2.423907e+000	-1.628086e+002
973750000	-9.812367e-001	-1.591903e+002	-4.339086e+001	-9.340344e+001	-4.340168e+001	-9.034388e+001	2.395768e+000	-1.627639e+002
973875000	-1.003799e+000	-1.590932e+002	-4.359543e+001	-9.201862e+001	-4.350630e+001	-9.152577e+001	2.364680e+000	-1.628884e+002
974000000	-1.030004e+000	-1.591485e+002	-4.350866e+001	-9.569189e+001	-4.371983e+001	-9.202491e+001	2.362143e+000	-1.629442e+002
974125000	-1.050567e+000	-1.592126e+002	-4.391197e+001	-9.610137e+001	-4.407899e+001	-9.622567e+001	2.327275e+000	-1.631461e+002
974250000	-1.061463e+000	-1.591640e+002	-4.431427e+001	-9.709330e+001	-4.441578e+001	-9.475611e+001	2.288550e+000	-1.629864e+002
974375000	-1.100606e+000	-1.590958e+002	-4.462433e+001	-9.889445e+001	-4.464353e+001	-9.592312e+001	2.252957e+000	-1.630400e+002
974500000	-1.100507e+000	-1.590693e+002	-4.474755e+001	-9.820701e+001	-4.469918e+001	-9.664570e+001	2.222902e+000	-1.629542e+002
974625000	-1.108812e+000	-1.589366e+002	-4.515616e+001	-1.005746e+002	-4.522354e+001	-9.848062e+001	2.219639e+000	-1.630462e+002
974750000	-1.131308e+000	-1.588934e+002	-4.555312e+001	-9.869355e+001	-4.577856e+001	-1.000348e+002	2.228435e+000	-1.628998e+002
974875000	-1.135222e+000	-1.587349e+002	-4.599160e+001	-1.002820e+002	-4.629049e+001	-9.782151e+001	2.183081e+000	-1.628408e+002
975000000	-1.152276e+000	-1.586907e+002	-4.648878e+001	-9.651333e+001	-4.684888e+001	-9.509319e+001	2.148611e+000	-1.626049e+002
