!Agilent Technologies,E5071C,MY46104547,A.08.12
!Date: Thu May 02 14:17:23 2019
!Data & Calibration Information:
!Freq	S11:SOLT2(ON)	S21:SOLT2(ON)	S12:SOLT2(ON)	S22:SOLT2(ON)
# Hz S dB R 50
250000000	-9.263495e-002	-5.977413e+001	-7.213583e+001	3.548123e+001	-7.253590e+001	3.272739e+001	1.955156e-001	-5.825261e+001
250831250	-9.444576e-002	-6.005844e+001	-7.578221e+001	1.727431e+001	-7.556740e+001	2.555419e+001	2.006977e-001	-5.852895e+001
251662500	-9.235800e-002	-6.038249e+001	-7.469890e+001	3.370028e+001	-7.399699e+001	3.682805e+001	2.024425e-001	-5.886578e+001
252493750	-1.042862e-001	-6.069166e+001	-7.852701e+001	1.589286e+001	-8.007411e+001	9.831463e+000	2.068536e-001	-5.905622e+001
253325000	-1.042974e-001	-6.079953e+001	-7.265664e+001	3.537238e+001	-7.275122e+001	3.708010e+001	2.063781e-001	-5.941584e+001
254156250	-9.691258e-002	-6.123926e+001	-7.327893e+001	4.177467e+001	-7.316972e+001	4.080302e+001	1.777211e-001	-5.975187e+001
254987500	-1.422612e-001	-6.157974e+001	-8.128275e+001	5.925759e+001	-8.049918e+001	4.165304e+001	1.923528e-001	-5.984931e+001
255818750	-1.166410e-001	-6.155676e+001	-8.097879e+001	1.922410e+001	-8.051112e+001	1.641455e+001	2.004846e-001	-6.008084e+001
256650000	-1.106079e-001	-6.195350e+001	-7.531498e+001	8.738132e+000	-7.661136e+001	7.639031e+000	1.886942e-001	-6.033271e+001
257481250	-1.870196e-001	-6.219467e+001	-7.545103e+001	5.635094e+000	-7.636440e+001	9.854698e+000	1.576298e-001	-6.083774e+001
258312500	-1.359406e-001	-6.247809e+001	-6.880157e+001	2.683841e+001	-6.897322e+001	2.907420e+001	2.006054e-001	-6.068579e+001
259143750	-1.238586e-001	-6.256583e+001	-7.323837e+001	4.774440e+001	-7.282253e+001	4.435357e+001	2.043032e-001	-6.113607e+001
259975000	-1.105629e-001	-6.289181e+001	-7.022835e+001	4.641854e+001	-7.047184e+001	4.469234e+001	1.723184e-001	-6.100238e+001
260806250	-1.711593e-001	-6.320326e+001	-7.882892e+001	2.513826e+001	-7.961739e+001	1.699002e+001	2.124085e-001	-6.152842e+001
261637500	-1.007948e-001	-6.338349e+001	-7.200428e+001	3.258813e+001	-7.249034e+001	3.322678e+001	2.188521e-001	-6.185073e+001
262468750	-1.050407e-001	-6.383090e+001	-7.003745e+001	1.779208e+001	-7.025097e+001	1.562766e+001	2.271305e-001	-6.214965e+001
263300000	-1.027850e-001	-6.408191e+001	-7.452526e+001	1.870550e+001	-7.401007e+001	2.542555e+001	2.321095e-001	-6.241912e+001
264131250	-1.029326e-001	-6.448115e+001	-7.183219e+001	3.831541e+001	-7.193651e+001	3.774617e+001	2.377367e-001	-6.281633e+001
264962500	-1.020340e-001	-6.482075e+001	-7.433209e+001	4.124482e+001	-7.474808e+001	3.799298e+001	2.404558e-001	-6.316842e+001
265793750	-1.074153e-001	-6.519705e+001	-7.458028e+001	2.808476e+001	-7.568061e+001	3.146029e+001	2.439400e-001	-6.351932e+001
266625000	-1.084158e-001	-6.548870e+001	-7.194942e+001	3.407407e+001	-7.224163e+001	3.375062e+001	2.421965e-001	-6.388702e+001
267456250	-1.212684e-001	-6.597296e+001	-7.074946e+001	2.872696e+001	-7.073120e+001	2.440555e+001	2.239439e-001	-6.441144e+001
268287500	-1.417529e-001	-6.632049e+001	-6.948675e+001	1.146796e+001	-6.957626e+001	1.294985e+001	2.171204e-001	-6.443557e+001
269118750	-1.463060e-001	-6.637718e+001	-7.472173e+001	3.202668e+000	-7.381224e+001	-2.017985e-001	2.275180e-001	-6.482441e+001
269950000	-1.270347e-001	-6.686766e+001	-6.889442e+001	2.195838e+001	-6.881119e+001	2.120085e+001	1.624026e-001	-6.515373e+001
270781250	-2.018251e-001	-6.748609e+001	-7.893814e+001	1.438686e+001	-7.932255e+001	1.430137e+001	1.988059e-001	-6.574319e+001
271612500	-1.536334e-001	-6.719525e+001	-7.447017e+001	7.794395e+001	-7.588363e+001	7.697933e+001	2.203001e-001	-6.534067e+001
272443750	-1.474849e-001	-6.758517e+001	-7.802398e+001	6.963581e+001	-7.826440e+001	8.228473e+001	2.409737e-001	-6.609585e+001
273275000	-1.731673e-001	-6.787758e+001	-6.479168e+001	1.029898e+002	-6.466348e+001	1.037094e+002	1.105305e-001	-6.605826e+001
274106250	-2.046236e-001	-6.835001e+001	-6.755996e+001	3.569683e+001	-6.741723e+001	3.478016e+001	2.354607e-001	-6.637373e+001
274937500	-1.331694e-001	-6.836680e+001	-7.602756e+001	3.545947e+001	-7.708722e+001	4.051940e+001	2.485957e-001	-6.687031e+001
275768750	-1.293991e-001	-6.901869e+001	-7.331859e+001	1.349131e+001	-7.296870e+001	1.225587e+001	2.343295e-001	-6.719564e+001
276600000	-1.698627e-001	-6.941624e+001	-7.027695e+001	-3.357214e+000	-6.993457e+001	1.846524e+000	2.309867e-001	-6.765415e+001
277431250	-1.305244e-001	-6.975496e+001	-7.976865e+001	3.088614e+001	-8.043085e+001	2.021383e+001	2.675845e-001	-6.797007e+001
278262500	-1.206977e-001	-7.023499e+001	-7.243003e+001	4.176849e+001	-7.241489e+001	3.636754e+001	2.771674e-001	-6.844375e+001
279093750	-1.211464e-001	-7.073339e+001	-7.486758e+001	3.249744e+001	-7.572005e+001	3.275752e+001	2.851042e-001	-6.895039e+001
279925000	-1.215355e-001	-7.126643e+001	-7.597760e+001	6.464541e+001	-7.598898e+001	6.294881e+001	2.793513e-001	-6.947286e+001
280756250	-1.521750e-001	-7.181181e+001	-6.887391e+001	2.524289e+001	-6.931690e+001	2.737173e+001	2.684194e-001	-7.006323e+001
281587500	-1.620502e-001	-7.218308e+001	-7.280351e+001	-3.188933e+001	-7.296149e+001	-2.819549e+001	2.502773e-001	-7.023598e+001
282418750	-1.692708e-001	-7.258218e+001	-7.810672e+001	2.383853e+001	-7.793962e+001	2.823517e+001	2.706542e-001	-7.092703e+001
283250000	-1.580939e-001	-7.331775e+001	-7.546862e+001	-1.810677e+000	-7.564140e+001	4.496150e+000	2.354908e-001	-7.179881e+001
284081250	-2.692373e-001	-7.400980e+001	-6.596615e+001	-2.398540e+001	-6.600436e+001	-2.332695e+001	2.410907e-001	-7.190396e+001
284912500	-2.345759e-001	-7.345839e+001	-7.389648e+001	1.795458e+002	-7.411045e+001	-1.771772e+002	1.763267e-001	-7.171705e+001
285743750	-2.078817e-001	-7.448827e+001	-7.207756e+001	-1.283207e+001	-7.239104e+001	-7.787239e+000	2.429009e-001	-7.271783e+001
286575000	-2.984232e-001	-7.503571e+001	-7.310869e+001	7.903917e+001	-7.316258e+001	7.851242e+001	1.694917e-001	-7.365217e+001
287406250	-2.654531e-001	-7.522060e+001	-7.444937e+001	6.070921e+001	-7.403788e+001	5.904276e+001	2.488898e-001	-7.273241e+001
288237500	-1.982161e-001	-7.523052e+001	-6.744191e+001	5.440172e+000	-6.738221e+001	6.477255e+000	2.541752e-001	-7.383775e+001
289068750	-1.942191e-001	-7.637047e+001	-7.009653e+001	4.361801e+001	-6.982147e+001	4.091249e+001	1.899581e-001	-7.444354e+001
289900000	-2.693602e-001	-7.682167e+001	-7.867860e+001	-1.875274e+001	-7.714006e+001	-1.937276e+001	2.639624e-001	-7.511941e+001
290731250	-1.654072e-001	-7.751026e+001	-8.312553e+001	-2.982233e+001	-8.206956e+001	-4.478774e+001	3.182241e-001	-7.552432e+001
291562500	-1.657816e-001	-7.833519e+001	-7.096227e+001	-1.384501e+001	-7.013456e+001	-1.830171e+001	3.262242e-001	-7.650523e+001
292393750	-1.585162e-001	-7.933875e+001	-7.060156e+001	1.098302e+001	-7.084831e+001	9.270310e+000	3.426375e-001	-7.740197e+001
293225000	-1.602212e-001	-8.030617e+001	-7.473154e+001	1.411488e+001	-7.455035e+001	1.511697e+001	3.254574e-001	-7.846498e+001
294056250	-2.429743e-001	-8.157132e+001	-7.509916e+001	-4.932932e+001	-7.508523e+001	-5.646354e+001	3.061675e-001	-7.939805e+001
294887500	-2.633463e-001	-8.224835e+001	-7.035742e+001	-1.752280e+002	-7.002243e+001	-1.758397e+002	3.075132e-001	-8.012193e+001
295718750	-2.913908e-001	-8.321709e+001	-6.715102e+001	-1.084840e+002	-6.664742e+001	-1.088373e+002	2.938422e-001	-8.166692e+001
296550000	-2.883413e-001	-8.420176e+001	-6.257731e+001	8.983937e+001	-6.281911e+001	8.996657e+001	8.776409e-002	-8.159158e+001
297381250	-6.579325e-001	-8.490396e+001	-6.187829e+001	-1.106550e+001	-6.187996e+001	-1.064274e+001	1.646093e-001	-8.299474e+001
298212500	-3.362344e-001	-8.554551e+001	-6.143180e+001	1.554235e+001	-6.152319e+001	1.805511e+001	1.830043e-001	-8.411305e+001
299043750	-6.594211e-001	-8.795025e+001	-5.787115e+001	-5.594831e+001	-5.788883e+001	-5.576399e+001	8.016690e-002	-8.568509e+001
299875000	-4.687943e-001	-8.541122e+001	-6.856765e+001	-1.711600e+002	-6.817183e+001	-1.713098e+002	2.176626e-002	-8.409516e+001
300706250	-4.365791e-001	-8.875316e+001	-6.543727e+001	-9.568990e+001	-6.539550e+001	-9.593876e+001	2.210233e-001	-8.723130e+001
301537500	-6.489880e-001	-9.017946e+001	-5.424471e+001	1.673835e+002	-5.421245e+001	1.684003e+002	-2.097635e-001	-8.858310e+001
302368750	-6.222517e-001	-9.100892e+001	-6.109710e+001	2.813945e+001	-6.086894e+001	2.808896e+001	1.838448e-001	-8.901936e+001
303200000	-3.570360e-001	-9.340479e+001	-7.048054e+001	1.095097e+002	-7.085064e+001	1.079002e+002	3.060438e-001	-9.205215e+001
304031250	-3.195360e-001	-9.602986e+001	-7.058282e+001	4.711987e-001	-7.077620e+001	2.915723e+000	3.387408e-001	-9.357059e+001
304862500	-2.676324e-001	-9.862426e+001	-7.437068e+001	-7.286996e-001	-7.377627e+001	-1.105668e+000	4.357387e-001	-9.658526e+001
305693750	-3.027452e-001	-1.025974e+002	-7.264585e+001	-4.998299e+001	-7.207280e+001	-5.039254e+001	4.494292e-001	-1.006002e+002
306525000	-4.152440e-001	-1.073538e+002	-7.621984e+001	-3.625468e+001	-7.655835e+001	-3.693707e+001	3.325250e-001	-1.059913e+002
307356250	-6.718834e-001	-1.050690e+002	-4.215959e+001	2.543178e+001	-4.214005e+001	2.549952e+001	4.128699e-002	-1.027114e+002
308187500	-4.432553e-001	-1.166178e+002	-6.083156e+001	-4.265188e+001	-6.107629e+001	-4.157422e+001	4.531922e-001	-1.145895e+002
309018750	-7.073482e-001	-1.259153e+002	-6.855406e+001	-7.844025e+001	-6.840950e+001	-7.754698e+001	3.063427e-001	-1.241797e+002
309850000	-6.685643e-001	-1.384067e+002	-5.768661e+001	-6.742528e+001	-5.793599e+001	-6.724898e+001	3.926655e-001	-1.367013e+002
310681250	-9.438578e-001	-1.612553e+002	-3.624501e+001	-9.111443e+001	-3.623485e+001	-9.106195e+001	2.228086e-001	-1.599525e+002
311512500	-4.874854e+000	1.309788e+002	-7.863132e+000	-1.743643e+002	-7.854211e+000	-1.744338e+002	-3.973245e+000	1.323210e+002
312343750	-1.515512e+001	1.167463e+002	-2.309234e+000	1.271724e+001	-2.310186e+000	1.269677e+001	-1.390714e+001	1.155980e+002
313175000	-3.433187e+001	1.778736e+002	-1.345846e+000	-8.328540e+001	-1.346840e+000	-8.329601e+001	-2.230219e+001	-1.640002e+002
314006250	-2.390244e+001	-7.496458e+001	-1.244761e+000	-1.539847e+002	-1.247297e+000	-1.539876e+002	-2.604357e+001	-1.010566e+002
314837500	-2.478902e+001	4.418470e+001	-1.163514e+000	1.445795e+002	-1.167871e+000	1.445673e+002	-3.192925e+001	5.882174e+001
315668750	-1.408836e+001	-3.861312e-001	-1.340833e+000	8.914665e+001	-1.346711e+000	8.913890e+001	-1.630844e+001	4.871824e+000
316500000	-2.652737e+001	3.128773e+000	-1.248115e+000	3.227551e+001	-1.252313e+000	3.226700e+001	-2.469758e+001	4.282760e+001
317331250	-5.044763e+000	5.008858e+001	-3.447517e+000	-3.303258e+001	-3.458465e+000	-3.308083e+001	-4.871133e+000	5.153039e+001
318162500	-1.742936e+000	7.071959e+000	-8.654863e+000	-7.804907e+001	-8.673264e+000	-7.805023e+001	-1.677920e+000	7.535754e+000
318993750	-1.079787e+000	-1.560526e+001	-1.255720e+001	-1.037578e+002	-1.257496e+001	-1.036819e+002	-1.056749e+000	-1.460339e+001
319825000	-1.079984e+000	-2.931030e+001	-1.624576e+001	-1.175448e+002	-1.625554e+001	-1.174468e+002	-1.162062e+000	-2.557766e+001
320656250	-2.099120e+000	-3.801122e+001	-1.718399e+001	-1.353633e+002	-1.718987e+001	-1.353024e+002	-1.734727e+000	-3.549442e+001
321487500	-2.185946e+000	-4.050200e+001	-1.890279e+001	-1.675060e+002	-1.890900e+001	-1.674422e+002	-1.808454e+000	-3.768184e+001
322318750	-2.618032e+000	-3.756938e+001	-2.184003e+001	1.452772e+002	-2.184928e+001	1.453381e+002	-1.889771e+000	-4.237520e+001
323150000	-2.781951e+000	-4.248129e+001	-2.441678e+001	1.288073e+002	-2.441878e+001	1.288839e+002	-1.928061e+000	-4.438602e+001
323981250	-1.984259e+000	-4.341182e+001	-2.498712e+001	1.148275e+002	-2.499205e+001	1.148352e+002	-1.630437e+000	-4.466098e+001
324812500	-1.544609e+000	-4.660384e+001	-3.481921e+001	1.009752e+002	-3.483148e+001	1.010086e+002	-1.159458e+000	-4.654153e+001
325643750	-1.671824e+000	-5.117246e+001	-3.593305e+001	1.213062e+002	-3.592466e+001	1.213653e+002	-9.434487e-001	-4.692643e+001
326475000	-1.252820e+000	-5.007271e+001	-3.556507e+001	1.386410e+002	-3.555900e+001	1.386741e+002	-1.226465e+000	-4.593245e+001
327306250	-1.327138e+000	-4.896890e+001	-3.699648e+001	1.339862e+002	-3.699339e+001	1.340161e+002	-1.065746e+000	-4.999311e+001
328137500	-1.509608e+000	-5.213845e+001	-3.430767e+001	8.171243e+001	-3.430517e+001	8.184603e+001	-9.781689e-001	-5.170035e+001
328968750	-1.247617e+000	-5.552992e+001	-3.686529e+001	7.549950e+001	-3.687782e+001	7.568913e+001	-8.678511e-001	-5.159417e+001
329800000	-1.789284e+000	-5.595507e+001	-3.228684e+001	4.747369e+001	-3.228940e+001	4.764435e+001	-1.049494e+000	-5.457475e+001
330631250	-1.374858e+000	-5.551825e+001	-3.509263e+001	-7.254349e+000	-3.509934e+001	-7.097050e+000	-1.105073e+000	-5.462360e+001
331462500	-1.649910e+000	-5.898868e+001	-3.180610e+001	-6.715488e+001	-3.181277e+001	-6.700710e+001	-1.003101e+000	-5.735214e+001
332293750	-1.213813e+000	-5.785316e+001	-4.134138e+001	-3.939680e+001	-4.132499e+001	-3.916191e+001	-5.780477e-001	-5.672739e+001
333125000	-1.012948e+000	-5.794771e+001	-4.415149e+001	-1.228722e+002	-4.413029e+001	-1.227003e+002	-6.449086e-001	-5.589794e+001
333956250	-1.108179e+000	-5.759218e+001	-4.105149e+001	1.576309e+002	-4.105819e+001	1.576086e+002	-9.374708e-001	-5.621438e+001
334787500	-1.184888e+000	-5.914948e+001	-4.372330e+001	1.507435e+002	-4.373119e+001	1.507916e+002	-8.299315e-001	-5.584623e+001
335618750	-9.630773e-001	-6.166495e+001	-5.507970e+001	1.432448e+002	-5.502576e+001	1.433758e+002	-3.861351e-001	-5.939771e+001
336450000	-8.301011e-001	-6.060976e+001	-5.210264e+001	-1.085542e+002	-5.209783e+001	-1.088933e+002	-4.803162e-001	-5.872912e+001
337281250	-1.109765e+000	-6.083049e+001	-5.263000e+001	1.356239e+002	-5.262181e+001	1.360216e+002	-8.158899e-001	-6.095207e+001
338112500	-8.036005e-001	-6.279214e+001	-7.121043e+001	-1.349622e+002	-7.075432e+001	-1.363804e+002	-6.048030e-001	-6.254891e+001
338943750	-7.291811e-001	-6.487401e+001	-5.717617e+001	2.184112e+001	-5.708639e+001	2.223164e+001	-4.299755e-001	-6.214076e+001
339775000	-9.461394e-001	-6.313544e+001	-6.230533e+001	3.114104e+001	-6.236583e+001	3.267542e+001	-5.949650e-001	-6.119812e+001
340606250	-1.267497e+000	-6.535951e+001	-5.599956e+001	1.499470e+002	-5.603205e+001	1.505226e+002	-1.035142e+000	-6.445141e+001
341437500	-1.289759e+000	-6.614500e+001	-5.310517e+001	-7.857129e+001	-5.311545e+001	-7.831369e+001	-6.656676e-001	-6.420459e+001
342268750	-8.864465e-001	-6.596673e+001	-5.448236e+001	-1.402519e+001	-5.448502e+001	-1.399116e+001	-4.701986e-001	-6.421166e+001
343100000	-1.031823e+000	-6.289780e+001	-5.859122e+001	-7.885475e+000	-5.843242e+001	-7.308314e+000	-8.909489e-001	-6.126405e+001
343931250	-1.150011e+000	-6.616836e+001	-7.212233e+001	7.322025e+001	-7.260574e+001	7.196243e+001	-8.988382e-001	-6.628960e+001
344762500	-9.850989e-001	-6.668904e+001	-5.005821e+001	-1.572521e+002	-5.002573e+001	-1.571578e+002	-7.955020e-001	-6.402419e+001
345593750	-1.036811e+000	-6.741549e+001	-5.833684e+001	-1.042306e+002	-5.849123e+001	-1.042318e+002	-4.878530e-001	-6.549605e+001
346425000	-1.002628e+000	-6.528694e+001	-7.092614e+001	-4.671668e+001	-7.025484e+001	-4.981390e+001	-8.074485e-001	-6.354321e+001
347256250	-1.055971e+000	-6.780421e+001	-5.374235e+001	-1.469094e+002	-5.376854e+001	-1.471521e+002	-6.390024e-001	-6.647111e+001
348087500	-8.872693e-001	-6.694088e+001	-6.949503e+001	1.647073e+002	-6.973517e+001	1.701869e+002	-5.507040e-001	-6.495866e+001
348918750	-7.717030e-001	-6.706064e+001	-7.738889e+001	8.589044e+001	-7.843270e+001	1.009584e+002	-4.286976e-001	-6.464275e+001
349750000	-8.216125e-001	-6.732102e+001	-6.218590e+001	6.592280e+001	-6.229334e+001	6.868864e+001	-4.935732e-001	-6.542819e+001
350581250	-8.413366e-001	-6.873739e+001	-6.589719e+001	-1.013693e+001	-6.595713e+001	-9.388390e+000	-3.480463e-001	-6.638552e+001
351412500	-7.495889e-001	-6.826645e+001	-6.415855e+001	7.379290e+001	-6.405012e+001	7.452874e+001	-4.539820e-001	-6.651812e+001
352243750	-7.301815e-001	-7.045977e+001	-6.812831e+001	1.733628e+001	-6.845977e+001	1.675109e+001	-2.532985e-001	-6.688458e+001
353075000	-7.096195e-001	-6.920892e+001	-6.473528e+001	4.748854e+001	-6.447661e+001	4.931647e+001	-5.122858e-001	-6.715263e+001
353906250	-7.396466e-001	-7.142930e+001	-7.035605e+001	-6.286014e+001	-7.014517e+001	-6.605824e+001	-2.263286e-001	-6.779607e+001
354737500	-8.111725e-001	-6.975591e+001	-6.068586e+001	5.858747e+001	-6.065754e+001	5.693827e+001	-7.019207e-001	-6.841114e+001
355568750	-7.810393e-001	-7.149359e+001	-6.414163e+001	7.718924e+001	-6.368577e+001	7.431069e+001	-2.971934e-001	-6.809953e+001
356400000	-1.050480e+000	-7.200746e+001	-6.486866e+001	1.558845e+000	-6.511101e+001	3.304838e+000	-4.242821e-001	-7.132748e+001
357231250	-8.899547e-001	-7.190056e+001	-7.194345e+001	5.933106e+001	-7.271550e+001	6.497021e+001	-4.023380e-001	-6.873545e+001
358062500	-8.683812e-001	-7.096529e+001	-5.940160e+001	1.280725e+002	-5.940893e+001	1.294518e+002	-4.013734e-001	-7.005014e+001
358893750	-8.060765e-001	-7.195309e+001	-5.597974e+001	-6.824029e+001	-5.591099e+001	-6.747061e+001	-4.638477e-001	-6.869667e+001
359725000	-1.077647e+000	-7.106568e+001	-5.572695e+001	1.191953e+002	-5.563309e+001	1.192819e+002	-4.667571e-001	-7.048170e+001
360556250	-8.296092e-001	-7.157252e+001	-6.368173e+001	7.635368e+001	-6.390711e+001	7.612669e+001	-5.432302e-001	-7.027105e+001
361387500	-1.006722e+000	-7.378722e+001	-7.580555e+001	1.348938e+002	-7.553530e+001	1.420588e+002	-3.736493e-001	-7.089824e+001
362218750	-7.160253e-001	-7.263303e+001	-6.335842e+001	9.337315e+000	-6.352300e+001	7.568295e+000	-3.234291e-001	-7.028390e+001
363050000	-7.988715e-001	-7.312520e+001	-6.461285e+001	-1.143820e+002	-6.448624e+001	-1.155405e+002	-2.937012e-001	-7.084091e+001
363881250	-7.947618e-001	-7.217316e+001	-5.177242e+001	6.105321e+001	-5.168957e+001	6.171667e+001	-5.186253e-001	-7.018546e+001
364712500	-6.842637e-001	-7.329362e+001	-7.197532e+001	4.640454e+000	-7.108872e+001	1.216733e+001	-2.372271e-001	-7.137355e+001
365543750	-9.257525e-001	-7.475102e+001	-5.925956e+001	-1.076848e+002	-5.929038e+001	-1.096232e+002	-3.060855e-001	-7.337076e+001
366375000	-6.491703e-001	-7.398620e+001	-7.050336e+001	1.775070e+002	-7.038562e+001	-1.781289e+002	-2.372020e-001	-7.118845e+001
367206250	-6.389754e-001	-7.495826e+001	-8.129047e+001	-5.204309e+001	-8.056360e+001	-3.349547e+001	-1.267548e-001	-7.242241e+001
368037500	-7.128978e-001	-7.447287e+001	-5.990865e+001	4.924318e+001	-5.962824e+001	5.002089e+001	-3.160786e-001	-7.200007e+001
368868750	-7.578470e-001	-7.387411e+001	-7.393064e+001	1.688249e+002	-7.286614e+001	1.692532e+002	-2.877713e-001	-7.273012e+001
369700000	-7.355628e-001	-7.518791e+001	-6.903907e+001	8.355525e+001	-6.921875e+001	7.911630e+001	-4.020419e-001	-7.407435e+001
370531250	-8.086166e-001	-7.612733e+001	-7.063481e+001	-7.925464e+001	-7.042481e+001	-8.032241e+001	-3.404330e-001	-7.339583e+001
371362500	-7.400499e-001	-7.552117e+001	-6.869652e+001	-1.855795e+001	-6.781601e+001	-2.103643e+001	-1.677985e-001	-7.424296e+001
372193750	-7.241126e-001	-7.651393e+001	-6.203135e+001	2.911651e+001	-6.205183e+001	3.019454e+001	-3.408591e-001	-7.431365e+001
373025000	-9.008746e-001	-7.629851e+001	-6.260398e+001	9.519251e+001	-6.264342e+001	9.687457e+001	-3.457978e-001	-7.383942e+001
373856250	-6.666483e-001	-7.664542e+001	-7.013126e+001	7.276426e+001	-6.998279e+001	7.408850e+001	-2.276089e-001	-7.458039e+001
374687500	-8.791178e-001	-7.833718e+001	-6.314180e+001	6.706548e+001	-6.309413e+001	6.694201e+001	-3.109332e-001	-7.558047e+001
375518750	-7.579374e-001	-7.646065e+001	-7.223158e+001	-7.488847e+000	-7.169915e+001	-4.833294e+000	-3.159391e-001	-7.404083e+001
376350000	-6.942120e-001	-7.739033e+001	-6.408545e+001	-1.592524e+002	-6.403530e+001	-1.590533e+002	-1.963928e-001	-7.517840e+001
377181250	-8.405651e-001	-7.749702e+001	-6.030959e+001	6.699466e+001	-6.022242e+001	6.790524e+001	-2.799102e-001	-7.580367e+001
