# Hz S RI R 50
1290000000	-0.855115838115152	-0.403608887168901	-7.45860037986954E-04	1.17106457754164E-03			-7.40265328476784E-04	1.17145509770481E-03	-0.886248821823331	-0.461402359994621
1290750000	-0.855776011205588	-0.401974537651899	-7.63063688826952E-04	1.16300581131389E-03			-7.62695712796095E-04	1.16742118413831E-03	-0.886802251672306	-0.459680972156021
1291500000	-0.856435831743581	-0.400253661821121	-7.69139345168908E-04	1.1761647244691E-03			-7.63648948916573E-04	1.17704918303572E-03	-0.887484906188335	-0.458027285666994
1292250000	-0.857264748921668	-0.398480377837038	-7.55817876518794E-04	1.19261291605605E-03			-7.52524070227818E-04	1.19356808031176E-03	-0.888256834055567	-0.456358768256524
1293000000	-0.857696160819144	-0.396528773880465	-7.6356194017153E-04	1.18518260041833E-03			-7.59545345975217E-04	1.18512351345467E-03	-0.889118593363195	-0.454652264281429
1293750000	-0.858432093751197	-0.394724004912539	-7.63072850838681E-04	1.20038148681927E-03			-7.67981495014691E-04	1.20052941460056E-03	-0.889711003447389	-0.452686626578653
1294500000	-0.858908562124777	-0.393119921213309	-7.64904859211251E-04	1.20395217572052E-03			-7.61780489063986E-04	1.20397316888285E-03	-0.890458174729885	-0.450814165754516
1295250000	-0.859605376895925	-0.391321087419703	-7.69232994294528E-04	1.21910868671535E-03			-7.72411304743684E-04	1.22340371000624E-03	-0.891089493967076	-0.449039210279817
1296000000	-0.860189739889115	-0.38958995535087	-7.73377681579975E-04	1.21676463717295E-03			-7.73317224746672E-04	1.22117500449923E-03	-0.891775283367468	-0.447274560684268
1296750000	-0.860756978545373	-0.387485690153291	-7.68969760720315E-04	1.2181592292456E-03			-7.77103380696999E-04	1.22129194360915E-03	-0.892521032839755	-0.445596929466941
1297500000	-0.861185947767863	-0.385600142177951	-7.7543446891318E-04	1.2353343469837E-03			-7.66747973621054E-04	1.22077857038037E-03	-0.893319289769025	-0.443651655548023
1298250000	-0.861413967695671	-0.383878349201418	-7.90044623446826E-04	1.25557484921248E-03			-7.74119295663642E-04	1.25488485383375E-03	-0.893942573754485	-0.441727977647497
1299000000	-0.861809657970531	-0.382413510862334	-7.75402374628722E-04	1.25438635588744E-03			-7.85406925562025E-04	1.25138307738818E-03	-0.894489217779299	-0.439901259920479
1299750000	-0.862511170821731	-0.380672225480131	-7.7274037604765E-04	1.27489997246886E-03			-7.70480330301499E-04	1.28177448049179E-03	-0.894955636806733	-0.437966609481326
1300500000	-0.863433103329131	-0.378956919911269	-7.73207972372375E-04	1.27959888386016E-03			-7.71390733346415E-04	1.2828767421284E-03	-0.895663794283067	-0.436308768198785
1301250000	-0.863658446412863	-0.376887025116028	-7.6765339040234E-04	1.29883743959009E-03			-7.66141033164786E-04	1.29862050508535E-03	-0.89630364136277	-0.434428608142026
1302000000	-0.863622580515233	-0.37519638189459	-7.80403960749193E-04	1.30969074927944E-03			-7.74689720519903E-04	1.31698506954541E-03	-0.896842619381506	-0.432473445918168
1302750000	-0.864319137654571	-0.373792098579032	-7.46676014692246E-04	1.30175523349793E-03			-7.39499486357178E-04	1.31612649775065E-03	-0.897229408824762	-0.430557096995033
1303500000	-0.864899999239059	-0.372373474770341	-7.38084819306425E-04	1.33891921380229E-03			-7.53217535369981E-04	1.33543552002005E-03	-0.897517487991911	-0.428877439319525
1304250000	-0.865867212995016	-0.370525016275798	-7.24723892283879E-04	1.3366940037708E-03			-7.28163695225493E-04	1.33277500480119E-03	-0.897850059521545	-0.427456203726963
1305000000	-0.866433227464351	-0.368350719135565	-7.15689067096215E-04	1.34070068412777E-03			-7.11825127637909E-04	1.33431512397715E-03	-0.89863019931921	-0.426034226965937
1305750000	-0.866654428549937	-0.366379154254262	-7.13578346764254E-04	1.3432271386209E-03			-7.12927477655632E-04	1.33829274991329E-03	-0.899267097006895	-0.424303382352624
1306500000	-0.86704799703307	-0.364817724832547	-7.21180916069517E-04	1.35474571212177E-03			-7.22429682564108E-04	1.35871533010662E-03	-0.899854391773679	-0.422618056071282
1307250000	-0.867646270956492	-0.363401143422629	-7.01455092317809E-04	1.36366716352715E-03			-7.04127748690248E-04	1.35546787634829E-03	-0.900402187502732	-0.420966851491091
1308000000	-0.868383928920582	-0.361569150487662	-6.95344083673496E-04	1.36410446811617E-03			-7.02812655544879E-04	1.36094377031314E-03	-0.901171463107267	-0.419494072731435
1308750000	-0.869106762231641	-0.359606797750217	-6.88847353422361E-04	1.36757309293646E-03			-6.89002486787955E-04	1.36625794577992E-03	-0.902173889860731	-0.417913789954588
1309500000	-0.869211072401989	-0.357415755156675	-6.73088682075033E-04	1.37903805868284E-03			-6.71453561164686E-04	1.37954521661536E-03	-0.903069882343825	-0.415817908281473
1310250000	-0.869178269681914	-0.355668118439831	-6.50075698504637E-04	1.3678433968994E-03			-6.40943439535656E-04	1.37382387938376E-03	-0.903958797269304	-0.413705724380533
1311000000	-0.86945449937103	-0.354365563176155	-6.37675278337198E-04	1.36932339143271E-03			-6.35435295226281E-04	1.37463948337621E-03	-0.904235802803452	-0.411828348498291
1311750000	-0.870091352046214	-0.353112111495582	-6.38130663801142E-04	1.37197128669283E-03			-6.24203305162476E-04	1.37067268922415E-03	-0.904674846171476	-0.410104990523537
1312500000	-0.87102246557138	-0.351412148271423	-6.5011812294656E-04	1.36875970222101E-03			-6.45522511316021E-04	1.36538198661044E-03	-0.905346995591276	-0.408365710919613
1313250000	-0.87131525653567	-0.349109448924197	-6.34484168813616E-04	1.38094687069434E-03			-6.335719596053E-04	1.3764020983079E-03	-0.90602275236957	-0.406538775010893
1314000000	-0.871394927359896	-0.347916714751465	-6.07886637510927E-04	1.39603625487516E-03			-5.97037333179055E-04	1.40033343053163E-03	-0.906588302298613	-0.404314357000727
1314750000	-0.872133905647502	-0.346590878098228	-5.93173764567456E-04	1.37727846761011E-03			-5.99281457404781E-04	1.38097595288877E-03	-0.90685242323729	-0.40227505286182
1315500000	-0.873084654801952	-0.345195060401782	-6.01793249200418E-04	1.38342490616342E-03			-5.96224173659328E-04	1.38591617935716E-03	-0.906913237303937	-0.400693457349198
1316250000	-0.874198969942164	-0.343303378324036	-5.74136315009732E-04	1.38647985929206E-03			-5.76828162648187E-04	1.38189129314682E-03	-0.90708717829816	-0.399222422387767
1317000000	-0.874952114643587	-0.340865491438698	-5.76410924209965E-04	1.38269951370693E-03			-5.6642486990392E-04	1.38840666731308E-03	-0.907858738725121	-0.397996656297349
1317750000	-0.87502112740626	-0.338872252875886	-5.46466610007872E-04	1.36581828090477E-03			-5.43432177819818E-04	1.36747290191183E-03	-0.908823144031131	-0.396328331326289
1318500000	-0.875239392189822	-0.337287403617685	-5.19458412243312E-04	1.33629327698175E-03			-5.19040639125364E-04	1.34660199315141E-03	-0.909236907681497	-0.394572138430729
1319250000	-0.875800333759386	-0.335618172701829	-5.40104511557032E-04	1.32918765367499E-03			-5.45974669159544E-04	1.33780401633728E-03	-0.909590772258651	-0.39305231717898
1320000000	-0.876394125168198	-0.333846605794883	-5.4954187239107E-04	1.33176641082739E-03			-5.46371132138466E-04	1.34109887045483E-03	-0.91066305858981	-0.391709763902784
1320750000	-0.877079716337671	-0.331774290220992	-5.45990673320828E-04	1.3309652270213E-03			-5.54504188175057E-04	1.34258211676494E-03	-0.911448816592918	-0.390096547998202
1321500000	-0.877095095761953	-0.329389241282264	-5.45853528250617E-04	1.33750902090706E-03			-5.44080703367985E-04	1.33844354985201E-03	-0.912571768332321	-0.388321561942774
1322250000	-0.876729391027746	-0.32819534097829	-5.32144012832585E-04	1.33522987999762E-03			-5.35926538080297E-04	1.3374209037399E-03	-0.913411586579395	-0.386302338742662
1323000000	-0.877094377560868	-0.327391410544506	-5.27199653706626E-04	1.32819428358039E-03			-5.34751085256737E-04	1.33137794278562E-03	-0.913947849527754	-0.384320997234976
1323750000	-0.878135086544273	-0.326340855918965	-5.38434506229134E-04	1.31771992191839E-03			-5.46147454838512E-04	1.32795980560076E-03	-0.914278412363052	-0.382551233406053
1324500000	-0.879397492373623	-0.324583400954684	-5.39474549496812E-04	1.33010557470987E-03			-5.38239656169852E-04	1.32545762285995E-03	-0.915062601544945	-0.380900153700385
1325250000	-0.880343687274942	-0.322518123770268	-5.26840130410607E-04	1.34642936081463E-03			-5.26693997555103E-04	1.3447009594535E-03	-0.915901404494848	-0.379205241471751
1326000000	-0.880597830514222	-0.320664713646833	-5.0393042848183E-04	1.32898341907579E-03			-4.94504719767808E-04	1.32755203898575E-03	-0.916713104314275	-0.376994839493903
1326750000	-0.881326308660242	-0.319202979863034	-4.77438666452395E-04	0.001307802602345			-4.76404894292938E-04	1.30593201781481E-03	-0.917095123153103	-0.375086838418034
1327500000	-0.882199530894723	-0.317515594714843	-5.05050632587707E-04	1.2935445023179E-03			-5.02694016241317E-04	1.29270374112394E-03	-0.917487044989979	-0.373311288811398
1328250000	-0.883373338003262	-0.31558651224124	-4.9282831269915E-04	1.27549995923787E-03			-4.93668626567935E-04	1.28473529402404E-03	-0.918178775403725	-0.371707321064796
1329000000	-0.884078046789985	-0.313218347284802	-5.03833447938085E-04	0.001287103816844			-5.04164644359094E-04	1.28449898115366E-03	-0.918905140135677	-0.370141791198984
1329750000	-0.884464672047746	-0.311024910118249	-4.8222403163867E-04	1.29219243187743E-03			-4.91575915772778E-04	1.28957884717323E-03	-0.919861638873899	-0.36815510494883
1330500000	-0.8845694754859	-0.309312364524035	-4.90826463310369E-04	1.28691970533403E-03			-4.92121959138811E-04	1.29216101392424E-03	-0.920520897128106	-0.366188500275588
1331250000	-0.885135489786914	-0.307741047828	-4.82526900328461E-04	1.27240442502505E-03			-4.81543099109293E-04	1.27106267798132E-03	-0.9208358606168	-0.364450373591671
1332000000	-0.885718533561307	-0.306151917797271	-4.90476096124442E-04	1.26424925414621E-03			-4.8307993912305E-04	1.2684967320686E-03	-0.921424188705464	-0.363000719454085
1332750000	-0.886482627234257	-0.304204909383037	-4.76072348968167E-04	1.25691544444362E-03			-4.73691657034594E-04	1.25919092144734E-03	-0.922431148600967	-0.36130911828863
1333500000	-0.887082590043311	-0.302053897686224	-4.68726127293433E-04	1.25947956002727E-03			-4.72812340225681E-04	1.2632663882465E-03	-0.923408265522466	-0.359628310941364
1334250000	-0.887357258685765	-0.300694900146693	-4.70513611669248E-04	1.23035931295516E-03			-4.63261019788199E-04	1.22615608087187E-03	-0.924332367682794	-0.35749954115555
1335000000	-0.888308075115171	-0.299455936793105	-4.73860441901409E-04	1.21428221902852E-03			-4.71521534353689E-04	1.21761797575231E-03	-0.924853400313231	-0.355675027217304
1335750000	-0.889338740262545	-0.297549760135953	-4.92588226837257E-04	1.19006648073957E-03			-4.9311199883739E-04	1.19195515029384E-03	-0.925681096295058	-0.353886952220716
1336500000	-0.890436859354394	-0.295431940181746	-5.07374621132031E-04	1.18505178994586E-03			-5.02664086068373E-04	1.1825616717429E-03	-0.926555007923037	-0.351996263013749
1337250000	-0.891234290503829	-0.293116723398947	-5.22119763548216E-04	1.19825929758306E-03			-5.12707218403511E-04	1.19771333345292E-03	-0.927450879417945	-0.34993448860245
1338000000	-0.891505854885272	-0.290977367876753	-5.20407497904451E-04	1.19196141592283E-03			-5.15897896711055E-04	1.19002694302928E-03	-0.928370398384498	-0.347758865706796
1338750000	-0.892255033433187	-0.289145317224715	-5.20898576205727E-04	1.18535233284199E-03			-5.28605885599269E-04	1.19102320453519E-03	-0.929082375339692	-0.345710604459857
1339500000	-0.893047561294118	-0.287269224119832	-5.53333061651051E-04	1.18103370398976E-03			-5.53984761101655E-04	1.18611313241412E-03	-0.929553069895455	-0.343668732613453
1340250000	-0.893891451188073	-0.285197912423654	-5.5119876197812E-04	1.18224038383832E-03			-5.47070287307622E-04	1.17927492728485E-03	-0.930461132023095	-0.341636265226489
1341000000	-0.894468522428416	-0.283001471052834	-5.51972164339299E-04	1.17549443452657E-03			-5.49130346793462E-04	1.17677409133528E-03	-0.931207960803978	-0.339785451756429
1341750000	-0.895100716701242	-0.280865701436396	-5.67651841441393E-04	1.18111763487561E-03			-5.6353261139108E-04	1.18328975838044E-03	-0.932057136941009	-0.337604596074652
1342500000	-0.895416127715129	-0.279041145687997	-5.66810517067259E-04	1.15804571616959E-03			-5.60323531782218E-04	1.16621537642826E-03	-0.932680370962177	-0.33548062198043
1343250000	-0.896303281090616	-0.277330220534422	-5.76878597573462E-04	1.15797349752732E-03			-5.68898126822877E-04	1.15937391599441E-03	-0.933286125324249	-0.333507177583831
1344000000	-0.897132250117243	-0.275312113139781	-5.8159095121505E-04	1.15490303631543E-03			-5.85619728024143E-04	1.16198797039037E-03	-0.933959777572734	-0.331457649307361
1344750000	-0.897975914486314	-0.27319221301631	-6.05538104434347E-04	1.16241272760657E-03			-5.96775487743889E-04	1.15027588845188E-03	-0.934698311643515	-0.329505807765527
1345500000	-0.898740858167576	-0.270905375162162	-6.14998435933249E-04	1.15296068578085E-03			-6.10363459048117E-04	1.15035523221979E-03	-0.935537547126665	-0.327342497933072
1346250000	-0.899255096436694	-0.26879005532156	-6.33198140830787E-04	1.14579338088998E-03			-6.3099748350884E-04	1.14478219691785E-03	-0.936472170421158	-0.325166969733413
1347000000	-0.900061556068125	-0.266636550837364	-6.48968732304073E-04	1.15449733810859E-03			-6.46387825143748E-04	1.15717565547726E-03	-0.937124748386523	-0.322915857604966
1347750000	-0.900711646710828	-0.264492232211759	-6.73056743829999E-04	1.17164809942279E-03			-6.74279322206744E-04	1.17657569322766E-03	-0.937949452819046	-0.320761638654565
1348500000	-0.901550160131656	-0.26220565644844	-6.85208906059816E-04	1.1695945454718E-03			-6.77862144754113E-04	1.17733430585379E-03	-0.938782295007761	-0.318579321146395
1349250000	-0.902150904157659	-0.260117598996008	-6.9305507746256E-04	1.19301118937484E-03			-6.90059237583216E-04	1.19046886043073E-03	-0.939321508233278	-0.3161453524038
1350000000	-0.902718776511183	-0.257688952622147	-6.96252701584857E-04	1.21230816583054E-03			-7.03291100796252E-04	1.21235286284678E-03	-0.940188622701614	-0.313874365439661
1350750000	-0.903318261200636	-0.255575123187534	-7.00123920223309E-04	1.21863864197963E-03			-7.00848006218295E-04	1.22317776046775E-03	-0.940756768303467	-0.311621809115538
1351500000	-0.903860140173851	-0.253286898869452	-7.02774457233685E-04	1.23313865624035E-03			-7.02874451009245E-04	1.22688213819418E-03	-0.941313735673677	-0.309306059973679
1352250000	-0.904547383786309	-0.250873830796011	-7.15290156530949E-04	1.24682540306453E-03			-7.13238712675956E-04	1.25071168577576E-03	-0.942118755283739	-0.307044654470619
1353000000	-0.905272107786658	-0.248648519832335	-7.18185046460205E-04	1.26491630461011E-03			-7.16199801800968E-04	1.25586212805682E-03	-0.942902825367454	-0.304786987650086
1353750000	-0.905793451584714	-0.246256287860926	-7.11791104109844E-04	1.27351670950315E-03			-7.22524195886988E-04	1.27191390800014E-03	-0.943417841595991	-0.302470137941109
1354500000	-0.906339843214246	-0.243992088109442	-7.15697028296826E-04	1.27881366089078E-03			-7.18917881572517E-04	1.27743287425418E-03	-0.944145853070739	-0.299981399120007
1355250000	-0.906849370135672	-0.241497429835695	-7.21226785690295E-04	1.28260064547267E-03			-7.18567656899086E-04	1.28832546735122E-03	-0.944885410520035	-0.297711452846942
1356000000	-0.907438634810417	-0.239205052596203	-7.28233642763787E-04	1.29389417991752E-03			-7.21600713392575E-04	1.29196370545396E-03	-0.94535941203825	-0.295066457774503
1356750000	-0.907817059982593	-0.236721437576236	-7.33449264891907E-04	1.31163361664173E-03			-7.36098499452471E-04	1.30703726351463E-03	-0.945953529739744	-0.29272978084301
1357500000	-0.908284471575404	-0.23425595020131	-7.25936564552192E-04	1.32573471712702E-03			-7.28107777282291E-04	1.32464536567493E-03	-0.946551062878094	-0.290253725887173
1358250000	-0.908859621210482	-0.231946576464804	-7.37502453366956E-04	1.33571779820915E-03			-7.35480701788556E-04	1.33192534806033E-03	-0.94692276542682	-0.287682603421325
1359000000	-0.909256102423022	-0.229405042327373	-7.22074962504495E-04	1.34500629217574E-03			-7.18152646255268E-04	1.3530443951108E-03	-0.947674259122017	-0.285262775687751
1359750000	-0.909643509064229	-0.22691133971232	-7.1838277802467E-04	1.36830712975183E-03			-7.20101452579652E-04	1.37334799532935E-03	-0.948022085878072	-0.282697227113146
1360500000	-0.909891298997582	-0.224708110763843	-7.07303179878156E-04	1.37655926541776E-03			-7.10020705431518E-04	1.37528075302994E-03	-0.94854757277901	-0.280289413765886
1361250000	-0.910457903645578	-0.222230228883673	-7.02640194684211E-04	1.36992166446359E-03			-6.9668544942664E-04	1.37694866556439E-03	-0.948950287231995	-0.277784104763476
1362000000	-0.910858543348854	-0.219619773454014	-6.91124614741251E-04	1.38687357974709E-03			-6.9009408298126E-04	1.38743663744104E-03	-0.949367644294451	-0.275300063911313
1362750000	-0.911227434545311	-0.21727466271073	-6.84655658376664E-04	1.38218284040912E-03			-6.82716576425035E-04	1.38571657964906E-03	-0.949914396384725	-0.272540768286414
1363500000	-0.91141971133597	-0.214733407656754	-6.9795174225281E-04	1.38893952331678E-03			-6.96192340643949E-04	1.37854747515364E-03	-0.950381992301938	-0.270132371728311
1364250000	-0.911683359648005	-0.212342805018226	-6.99462353101043E-04	1.39886111214002E-03			-7.0291549159223E-04	1.39840228439822E-03	-0.950814872403745	-0.267590815267895
1365000000	-0.91199361165672	-0.209946523134713	-7.0430073968157E-04	1.42025468504618E-03			-6.9681157114425E-04	1.42373142651398E-03	-0.951222302114291	-0.264970599691823
1365750000	-0.912265966571767	-0.207423740766428	-6.87325135858506E-04	1.42613610720848E-03			-6.8649769041407E-04	1.43124446598055E-03	-0.951448640894738	-0.26207856384453
1366500000	-0.912513603113531	-0.204970983493376	-6.73300970755852E-04	1.43877444333142E-03			-6.67381321047037E-04	1.44298591854347E-03	-0.951799812298776	-0.259589802505971
1367250000	-0.912899811169824	-0.202400934408628	-6.49569577180352E-04	1.45398603728047E-03			-6.58158748478677E-04	1.4535903916611E-03	-0.952152772024988	-0.256744362086067
1368000000	-0.913053811721839	-0.199965790796789	-6.48044792537788E-04	1.44000766934779E-03			-6.51283723538526E-04	1.43907652092223E-03	-0.952190191802162	-0.254123760742387
1368750000	-0.913163593004407	-0.197542092003347	-6.40796360682483E-04	1.44969986245444E-03			-6.37820706548092E-04	1.45844161876633E-03	-0.952145151356144	-0.251597535095039
1369500000	-0.913477582042455	-0.194925628388639	-6.20919154256101E-04	1.46713937731331E-03			-6.20580478082471E-04	1.46892372531366E-03	-0.952261442771985	-0.249224610577952
1370250000	-0.913606100625414	-0.192293742873699	-6.06903957336845E-04	1.46147362723518E-03			-6.01977393468105E-04	1.45322405345632E-03	-0.952360981569443	-0.246759672019668
1371000000	-0.913564123437351	-0.189890548315741	-6.13583788096629E-04	1.44796185273839E-03			-5.93005137062787E-04	1.44949213695248E-03	-0.952509661687617	-0.244392632160284
1371750000	-0.913858615897118	-0.187540498663392	-5.96592737080158E-04	1.46051558425937E-03			-5.92741960792991E-04	1.44941834318831E-03	-0.952832636239834	-0.241980287881193
1372500000	-0.913974894596675	-0.184903121868119	-6.07268156556731E-04	1.44609938622368E-03			-5.97014624687686E-04	1.44654500938757E-03	-0.95324949938679	-0.239464524231532
1373250000	-0.91433223966613	-0.18204180387582	-5.74134914475968E-04	1.44960417920335E-03			-5.80579530009234E-04	1.44574061937367E-03	-0.953465083971074	-0.236579003994382
1374000000	-0.914288226892354	-0.178842747993552	-5.78714798979562E-04	1.45856022979798E-03			-5.79748933944683E-04	1.46059285941481E-03	-0.953591642838952	-0.233941581212242
1374750000	-0.913704318471394	-0.175828491595047	-5.80033304749996E-04	1.45398946855014E-03			-5.7241400797013E-04	1.4540951821248E-03	-0.953325252398125	-0.231145797411003
