!Agilent Technologies,E5071C,MY46104547,A.08.12
!Date: Thu May 02 14:14:40 2019
!Data & Calibration Information:
!Freq	S11:SOLT2(ON)	S21:SOLT2(ON)	S12:SOLT2(ON)	S22:SOLT2(ON)
# Hz S dB R 50
270000000	-1.288292e-001	-6.695109e+001	-7.244747e+001	7.205744e+000	-7.270900e+001	5.857266e+000	1.760176e-001	-6.500885e+001
270055438	-1.343867e-001	-6.700029e+001	-7.175927e+001	2.440039e+001	-7.161145e+001	2.489739e+001	1.975604e-001	-6.500452e+001
270110875	-1.367320e-001	-6.703116e+001	-7.079802e+001	1.223679e+001	-7.077431e+001	1.234886e+001	2.111128e-001	-6.505946e+001
270166313	-1.417010e-001	-6.708194e+001	-6.950445e+001	-9.507783e+000	-6.908785e+001	-1.014461e+001	2.166665e-001	-6.513975e+001
270221750	-1.444684e-001	-6.711909e+001	-7.565193e+001	-2.953346e+001	-7.616503e+001	-2.163437e+001	2.175898e-001	-6.521195e+001
270277188	-1.545401e-001	-6.716113e+001	-7.514120e+001	-3.323407e+001	-7.586718e+001	-3.150742e+001	2.165084e-001	-6.525156e+001
270332625	-1.599256e-001	-6.715066e+001	-8.361897e+001	-1.592849e+001	-8.391649e+001	-2.757046e+001	2.152292e-001	-6.530112e+001
270388063	-1.599137e-001	-6.716306e+001	-7.992690e+001	8.258663e+001	-8.046461e+001	9.468497e+001	2.122719e-001	-6.533190e+001
270443500	-1.635506e-001	-6.718785e+001	-7.054108e+001	2.645579e+001	-7.074419e+001	3.158279e+001	2.114504e-001	-6.535034e+001
270498938	-1.657271e-001	-6.717576e+001	-7.339692e+001	-3.289571e+001	-7.387303e+001	-3.717004e+001	2.144438e-001	-6.537712e+001
270554375	-1.609819e-001	-6.723157e+001	-8.379460e+001	4.081286e+001	-8.569446e+001	5.451696e+001	2.138727e-001	-6.543553e+001
270609813	-1.627152e-001	-6.729813e+001	-7.674730e+001	6.332909e+001	-7.619378e+001	5.694468e+001	2.127835e-001	-6.547544e+001
270665250	-1.685320e-001	-6.738087e+001	-7.490748e+001	1.556415e+001	-7.616016e+001	2.674199e+001	2.149523e-001	-6.553322e+001
270720688	-1.810877e-001	-6.746837e+001	-7.591070e+001	2.259991e+001	-7.583012e+001	1.452932e+001	2.124527e-001	-6.563936e+001
270776125	-2.026210e-001	-6.750612e+001	-7.762473e+001	-3.779397e-002	-7.886638e+001	1.842294e+001	2.009931e-001	-6.573785e+001
270831563	-2.262587e-001	-6.748978e+001	-7.726204e+001	3.480660e+001	-7.765133e+001	3.300615e+001	1.843553e-001	-6.580012e+001
270887000	-2.475293e-001	-6.738568e+001	-7.402655e+001	7.124890e+000	-7.315396e+001	7.492797e+000	1.647638e-001	-6.584512e+001
270942438	-2.620040e-001	-6.720749e+001	-7.115098e+001	-7.714118e+001	-7.178647e+001	-7.556269e+001	1.389927e-001	-6.582798e+001
270997875	-2.550401e-001	-6.701229e+001	-6.846074e+001	1.496311e+002	-6.801679e+001	1.507817e+002	1.127396e-001	-6.573775e+001
271053313	-2.371402e-001	-6.687430e+001	-7.210494e+001	6.301486e+001	-7.233694e+001	6.278742e+001	9.485098e-002	-6.551984e+001
271108750	-2.073931e-001	-6.684729e+001	-7.636526e+001	5.950299e+001	-7.579576e+001	6.121375e+001	9.817374e-002	-6.531497e+001
271164188	-1.910565e-001	-6.692487e+001	-7.407022e+001	2.547779e+001	-7.372116e+001	2.141666e+001	1.202919e-001	-6.508556e+001
271219625	-1.866050e-001	-6.700052e+001	-8.859018e+001	3.604413e+001	-8.593240e+001	4.385490e+001	1.521587e-001	-6.504917e+001
271275063	-1.891894e-001	-6.702774e+001	-7.577623e+001	9.508631e+001	-7.568268e+001	8.571624e+001	1.743629e-001	-6.509267e+001
271330500	-1.849995e-001	-6.698657e+001	-7.559558e+001	1.010564e+002	-7.540342e+001	9.196542e+001	1.850417e-001	-6.516663e+001
271385938	-1.712759e-001	-6.701214e+001	-7.019628e+001	6.152334e+001	-6.969589e+001	6.518975e+001	1.907620e-001	-6.519386e+001
271441375	-1.654598e-001	-6.707609e+001	-7.711858e+001	5.956200e+001	-7.567527e+001	5.418466e+001	1.994614e-001	-6.522206e+001
271496813	-1.631942e-001	-6.711494e+001	-7.214731e+001	6.100642e+001	-7.238798e+001	6.405271e+001	2.066558e-001	-6.524411e+001
271552250	-1.572556e-001	-6.715510e+001	-7.239760e+001	3.595799e+001	-7.333379e+001	4.070933e+001	2.151539e-001	-6.528004e+001
271607688	-1.538172e-001	-6.721720e+001	-7.433108e+001	7.723804e+001	-7.480309e+001	7.840738e+001	2.228642e-001	-6.533760e+001
271663125	-1.516748e-001	-6.727346e+001	-7.141909e+001	5.791565e+001	-7.083477e+001	5.928870e+001	2.288904e-001	-6.538930e+001
271718563	-1.527838e-001	-6.733747e+001	-7.043508e+001	4.637774e+001	-7.096633e+001	4.789311e+001	2.328821e-001	-6.545422e+001
271774000	-1.547210e-001	-6.738099e+001	-7.103602e+001	4.722504e+001	-7.077218e+001	4.247747e+001	2.341998e-001	-6.551078e+001
271829438	-1.569174e-001	-6.744709e+001	-7.197909e+001	2.573233e+001	-7.223497e+001	2.770803e+001	2.351263e-001	-6.556553e+001
271884875	-1.650911e-001	-6.750599e+001	-7.521812e+001	1.600614e+001	-7.589527e+001	1.196794e+001	2.371247e-001	-6.559673e+001
271940313	-1.780285e-001	-6.754816e+001	-7.402248e+001	5.725103e+001	-7.386164e+001	5.513879e+001	2.388670e-001	-6.563388e+001
271995750	-1.999163e-001	-6.746982e+001	-7.197336e+001	2.173558e+001	-7.266789e+001	2.445666e+001	2.432559e-001	-6.567220e+001
272051188	-1.897334e-001	-6.727428e+001	-7.878346e+001	7.798704e+001	-7.880469e+001	8.596671e+001	2.454529e-001	-6.573774e+001
272106625	-1.625336e-001	-6.727205e+001	-7.136260e+001	6.620890e+001	-7.078518e+001	6.468609e+001	2.452502e-001	-6.578677e+001
272162063	-1.519177e-001	-6.736798e+001	-7.073155e+001	4.280038e+001	-7.026210e+001	4.542688e+001	2.460309e-001	-6.582146e+001
272217500	-1.480376e-001	-6.743983e+001	-7.056457e+001	2.762637e+001	-7.054816e+001	3.039905e+001	2.474234e-001	-6.587651e+001
272272938	-1.495141e-001	-6.750590e+001	-7.081494e+001	2.091655e+001	-7.159215e+001	2.079782e+001	2.485277e-001	-6.592850e+001
272328375	-1.509084e-001	-6.752475e+001	-7.342236e+001	2.922123e+000	-7.264578e+001	-1.069132e+000	2.483053e-001	-6.599262e+001
272383813	-1.479314e-001	-6.756098e+001	-8.077930e+001	-2.041074e+001	-8.236279e+001	-1.904863e+001	2.459240e-001	-6.605366e+001
272439250	-1.473802e-001	-6.760214e+001	-7.786705e+001	7.614043e+001	-7.725460e+001	7.292876e+001	2.432353e-001	-6.609674e+001
272494688	-1.462923e-001	-6.765734e+001	-7.255624e+001	6.694059e+001	-7.246253e+001	6.097549e+001	2.408745e-001	-6.614528e+001
272550125	-1.523837e-001	-6.768477e+001	-7.386823e+001	1.439331e+001	-7.306580e+001	1.314411e+001	2.389526e-001	-6.619441e+001
272605563	-1.486115e-001	-6.767318e+001	-7.969237e+001	9.284490e+001	-8.083423e+001	9.006211e+001	2.323178e-001	-6.624762e+001
272661000	-1.413658e-001	-6.771327e+001	-7.254858e+001	7.399659e+001	-7.198030e+001	7.420271e+001	2.260605e-001	-6.624790e+001
272716438	-1.399608e-001	-6.778956e+001	-7.041844e+001	4.970078e+001	-7.067810e+001	4.776041e+001	2.305740e-001	-6.625173e+001
272771875	-1.414895e-001	-6.785778e+001	-7.210235e+001	2.757911e+001	-7.231236e+001	2.009972e+001	2.343747e-001	-6.632571e+001
272827313	-1.423364e-001	-6.790507e+001	-7.645422e+001	4.858812e+001	-7.820291e+001	3.978108e+001	2.303105e-001	-6.642654e+001
272882750	-1.450779e-001	-6.798429e+001	-7.425202e+001	4.613105e+001	-7.359548e+001	4.865078e+001	2.231881e-001	-6.647010e+001
272938188	-1.526721e-001	-6.806035e+001	-7.310950e+001	4.000047e+001	-7.299708e+001	4.722336e+001	2.218111e-001	-6.656271e+001
272993625	-1.672548e-001	-6.812476e+001	-7.236716e+001	2.571805e+001	-7.248240e+001	2.409151e+001	2.107205e-001	-6.668809e+001
273049063	-1.898927e-001	-6.809617e+001	-7.212125e+001	4.750916e+001	-7.154886e+001	4.501315e+001	1.865923e-001	-6.682333e+001
273104500	-1.923842e-001	-6.796245e+001	-6.790142e+001	-4.976448e+001	-6.782287e+001	-4.894101e+001	1.422866e-001	-6.687997e+001
273159938	-1.842460e-001	-6.794391e+001	-6.846009e+001	-1.689963e+002	-6.773261e+001	-1.651529e+002	8.787580e-002	-6.668430e+001
273215375	-1.829603e-001	-6.791453e+001	-6.763770e+001	1.295521e+002	-6.724315e+001	1.294633e+002	8.145623e-002	-6.624335e+001
273270813	-1.722856e-001	-6.789727e+001	-6.486075e+001	9.692161e+001	-6.450309e+001	1.006808e+002	1.132665e-001	-6.605047e+001
273326250	-1.639128e-001	-6.794494e+001	-6.600149e+001	5.929883e+001	-6.560645e+001	5.782897e+001	1.369256e-001	-6.601224e+001
273381688	-1.618735e-001	-6.801009e+001	-6.910154e+001	5.037741e+001	-6.922551e+001	5.228648e+001	1.491211e-001	-6.599307e+001
273437125	-1.617457e-001	-6.806681e+001	-6.863302e+001	6.102808e+001	-6.868368e+001	5.879748e+001	1.629151e-001	-6.597117e+001
273492563	-1.652803e-001	-6.810083e+001	-6.949859e+001	5.145361e+001	-6.948495e+001	5.045412e+001	1.785377e-001	-6.597620e+001
273548000	-1.713449e-001	-6.811614e+001	-7.146197e+001	5.481889e+001	-7.113663e+001	5.821814e+001	1.899060e-001	-6.602598e+001
273603438	-1.702135e-001	-6.809567e+001	-6.794444e+001	5.884368e+001	-6.783139e+001	5.946659e+001	1.954598e-001	-6.609027e+001
273658875	-1.683190e-001	-6.812773e+001	-6.813912e+001	4.363298e+001	-6.804669e+001	4.663095e+001	1.962935e-001	-6.612326e+001
273714313	-1.675546e-001	-6.813524e+001	-6.956485e+001	3.808875e+001	-6.953907e+001	3.429052e+001	1.976375e-001	-6.613098e+001
273769750	-1.613054e-001	-6.815583e+001	-6.922736e+001	3.988497e+001	-7.000705e+001	4.006723e+001	2.008282e-001	-6.612524e+001
273825188	-1.567508e-001	-6.822668e+001	-7.240008e+001	3.407065e+001	-7.240887e+001	3.827612e+001	2.079888e-001	-6.611543e+001
273880625	-1.612677e-001	-6.831789e+001	-7.068141e+001	6.361694e+001	-7.039303e+001	6.165790e+001	2.197447e-001	-6.613307e+001
273936063	-1.689568e-001	-6.835923e+001	-6.652824e+001	4.286004e+001	-6.702900e+001	4.480543e+001	2.289320e-001	-6.619525e+001
273991500	-1.770687e-001	-6.841469e+001	-6.947038e+001	3.227371e+001	-6.890720e+001	3.590270e+001	2.333214e-001	-6.625771e+001
274046938	-1.932035e-001	-6.843106e+001	-6.883196e+001	4.469172e+001	-6.876195e+001	4.378273e+001	2.356929e-001	-6.631374e+001
274102375	-2.051399e-001	-6.836433e+001	-6.701769e+001	3.059656e+001	-6.746638e+001	3.465784e+001	2.380617e-001	-6.636943e+001
274157813	-2.052891e-001	-6.828337e+001	-6.877948e+001	2.057770e+001	-6.877792e+001	1.825072e+001	2.364838e-001	-6.641081e+001
274213250	-1.993483e-001	-6.823797e+001	-6.989014e+001	3.719000e+001	-6.986157e+001	3.280825e+001	2.387880e-001	-6.644445e+001
274268688	-1.961000e-001	-6.825448e+001	-6.814905e+001	1.610803e+001	-6.807167e+001	1.446328e+001	2.405180e-001	-6.649590e+001
274324125	-1.993966e-001	-6.822361e+001	-7.239369e+001	6.577236e+000	-7.272180e+001	7.274243e+000	2.385262e-001	-6.655284e+001
274379563	-1.933030e-001	-6.816180e+001	-7.235524e+001	3.345907e+001	-7.273750e+001	3.579694e+001	2.334125e-001	-6.657783e+001
274435000	-1.823139e-001	-6.816720e+001	-7.119944e+001	3.659867e+001	-7.042372e+001	3.422092e+001	2.320284e-001	-6.657078e+001
274490438	-1.753343e-001	-6.816724e+001	-6.914022e+001	3.725582e+001	-6.918505e+001	3.570404e+001	2.350887e-001	-6.656816e+001
274545875	-1.683470e-001	-6.821043e+001	-7.004711e+001	1.416579e+001	-6.921609e+001	1.643381e+001	2.395981e-001	-6.658796e+001
274601313	-1.646798e-001	-6.822543e+001	-7.399478e+001	1.880979e+001	-7.382356e+001	2.482085e+001	2.429217e-001	-6.662396e+001
274656750	-1.596305e-001	-6.824768e+001	-7.016941e+001	3.130099e+001	-7.007659e+001	3.176841e+001	2.453094e-001	-6.665318e+001
274712188	-1.558801e-001	-6.828235e+001	-7.125005e+001	1.471884e+001	-7.067833e+001	9.500431e+000	2.510623e-001	-6.667437e+001
274767625	-1.540351e-001	-6.830056e+001	-7.268753e+001	1.909557e+001	-7.259473e+001	1.794045e+001	2.538688e-001	-6.673874e+001
274823063	-1.490804e-001	-6.830647e+001	-7.268977e+001	1.534976e+001	-7.282886e+001	1.346351e+001	2.549051e-001	-6.679433e+001
274878500	-1.400043e-001	-6.832436e+001	-7.504274e+001	2.502576e+001	-7.585841e+001	2.142394e+001	2.516947e-001	-6.684838e+001
274933938	-1.321322e-001	-6.839014e+001	-7.582858e+001	4.505283e+001	-7.714235e+001	4.746870e+001	2.516598e-001	-6.686579e+001
274989375	-1.304689e-001	-6.845725e+001	-7.176392e+001	4.352024e+001	-7.208063e+001	4.643240e+001	2.530715e-001	-6.690912e+001
275044813	-1.283867e-001	-6.848942e+001	-7.227396e+001	3.808352e+001	-7.132163e+001	3.444544e+001	2.509177e-001	-6.695325e+001
275100250	-1.255897e-001	-6.853969e+001	-7.472636e+001	4.128708e+001	-7.435797e+001	4.258764e+001	2.475005e-001	-6.697675e+001
275155688	-1.236105e-001	-6.859736e+001	-6.971512e+001	4.780331e+001	-6.996458e+001	5.081972e+001	2.479452e-001	-6.697296e+001
275211125	-1.222618e-001	-6.865132e+001	-6.963608e+001	3.129737e+001	-6.998011e+001	2.980175e+001	2.535311e-001	-6.701551e+001
275266563	-1.233748e-001	-6.870162e+001	-7.092280e+001	2.774113e+001	-7.082749e+001	2.831178e+001	2.539771e-001	-6.707687e+001
275322000	-1.257127e-001	-6.875160e+001	-7.076959e+001	2.684103e+001	-7.137037e+001	2.750292e+001	2.511887e-001	-6.713169e+001
275377438	-1.266224e-001	-6.877428e+001	-7.191120e+001	2.734886e+001	-7.255141e+001	2.642849e+001	2.457831e-001	-6.717017e+001
275432875	-1.264320e-001	-6.880021e+001	-7.237677e+001	5.387612e+001	-7.296936e+001	5.274606e+001	2.421448e-001	-6.718666e+001
275488313	-1.230808e-001	-6.883630e+001	-6.805418e+001	4.568105e+001	-6.818194e+001	4.009769e+001	2.401064e-001	-6.721924e+001
275543750	-1.225994e-001	-6.889119e+001	-6.896139e+001	2.314351e+001	-6.929510e+001	2.545907e+001	2.346085e-001	-6.723805e+001
275599188	-1.239517e-001	-6.894298e+001	-7.009099e+001	1.789538e+001	-7.077592e+001	2.048116e+001	2.303680e-001	-6.723038e+001
275654625	-1.269228e-001	-6.898239e+001	-6.945054e+001	2.227216e+001	-6.884633e+001	2.915437e+001	2.269121e-001	-6.721119e+001
275710063	-1.285118e-001	-6.900755e+001	-7.009132e+001	1.217487e+001	-7.055683e+001	1.161156e+001	2.308352e-001	-6.718376e+001
275765500	-1.297004e-001	-6.903861e+001	-7.308621e+001	1.149762e+001	-7.248792e+001	9.786047e+000	2.373805e-001	-6.719394e+001
275820938	-1.294695e-001	-6.907313e+001	-7.622890e+001	4.338553e+001	-7.630979e+001	3.820723e+001	2.393401e-001	-6.722508e+001
275876375	-1.325308e-001	-6.910315e+001	-6.911116e+001	4.465320e+001	-6.891867e+001	4.793367e+001	2.416660e-001	-6.723294e+001
275931813	-1.326208e-001	-6.912593e+001	-6.860175e+001	2.497298e+001	-6.879605e+001	2.706354e+001	2.451910e-001	-6.725914e+001
275987250	-1.333859e-001	-6.914657e+001	-6.888280e+001	2.557000e+001	-6.906301e+001	2.027936e+001	2.495400e-001	-6.728155e+001
276042688	-1.309521e-001	-6.917828e+001	-7.066896e+001	5.505971e+000	-7.017203e+001	8.336076e+000	2.527513e-001	-6.732054e+001
276098125	-1.306454e-001	-6.922067e+001	-7.246894e+001	1.479551e+001	-7.189450e+001	1.499222e+001	2.557501e-001	-6.736474e+001
276153563	-1.319530e-001	-6.926524e+001	-7.362382e+001	2.775976e+001	-7.205398e+001	2.758346e+001	2.577876e-001	-6.741563e+001
276209000	-1.323018e-001	-6.930195e+001	-6.859638e+001	2.412866e+001	-6.907264e+001	2.596297e+001	2.565305e-001	-6.746519e+001
276264438	-1.344687e-001	-6.935433e+001	-6.950174e+001	6.297181e+000	-6.896458e+001	5.533598e+000	2.558741e-001	-6.749433e+001
276319875	-1.390465e-001	-6.939118e+001	-7.168518e+001	-8.052393e+000	-7.112021e+001	-6.777824e+000	2.569489e-001	-6.754456e+001
276375313	-1.429204e-001	-6.941813e+001	-7.312926e+001	8.765641e+000	-7.372695e+001	6.487348e+000	2.546928e-001	-6.760639e+001
276430750	-1.471016e-001	-6.945486e+001	-7.264871e+001	2.258266e+001	-7.337210e+001	2.014400e+001	2.489460e-001	-6.765343e+001
276486188	-1.542373e-001	-6.948243e+001	-7.158265e+001	2.222697e+001	-7.097670e+001	1.996901e+001	2.410821e-001	-6.766857e+001
276541625	-1.635781e-001	-6.947699e+001	-6.973424e+001	1.302971e+001	-7.026690e+001	1.545291e+001	2.359931e-001	-6.766308e+001
276597063	-1.701800e-001	-6.942882e+001	-6.919147e+001	3.271292e+000	-6.967661e+001	-1.334998e+000	2.331926e-001	-6.764839e+001
276652500	-1.661525e-001	-6.936384e+001	-7.379890e+001	-4.447480e+001	-7.386625e+001	-3.413771e+001	2.336422e-001	-6.763376e+001
276707938	-1.568095e-001	-6.935239e+001	-7.860652e+001	4.500892e+001	-7.874029e+001	4.138964e+001	2.347904e-001	-6.762530e+001
276763375	-1.509262e-001	-6.936682e+001	-7.186501e+001	2.851251e+001	-7.178593e+001	2.873153e+001	2.375095e-001	-6.762267e+001
276818813	-1.459027e-001	-6.939556e+001	-7.206908e+001	1.096822e+001	-7.190749e+001	1.555035e+001	2.406733e-001	-6.761420e+001
276874250	-1.417288e-001	-6.943666e+001	-7.475588e+001	2.018900e+001	-7.473145e+001	1.218881e+001	2.458604e-001	-6.761317e+001
276929688	-1.402332e-001	-6.947853e+001	-7.381070e+001	2.558098e+001	-7.266832e+001	2.211854e+001	2.550731e-001	-6.763473e+001
276985125	-1.419924e-001	-6.950322e+001	-7.243560e+001	1.502360e+001	-7.298524e+001	1.774211e+001	2.605414e-001	-6.768608e+001
277040563	-1.412440e-001	-6.949759e+001	-7.280840e+001	1.369739e+001	-7.367303e+001	9.174644e+000	2.622472e-001	-6.774074e+001
277096000	-1.339518e-001	-6.951615e+001	-7.524618e+001	2.982754e+001	-7.397703e+001	2.033524e+001	2.624251e-001	-6.777279e+001
277151438	-1.291672e-001	-6.956259e+001	-7.222579e+001	2.346901e+001	-7.284008e+001	2.255085e+001	2.633063e-001	-6.779888e+001
277206875	-1.265352e-001	-6.961425e+001	-7.206168e+001	1.368208e+001	-7.226562e+001	1.513352e+001	2.657609e-001	-6.782046e+001
277262313	-1.261275e-001	-6.966645e+001	-7.477626e+001	7.904877e+000	-7.486467e+001	4.143959e+000	2.693194e-001	-6.786204e+001
277317750	-1.264141e-001	-6.971502e+001	-7.418372e+001	1.973029e+001	-7.394263e+001	2.050994e+001	2.694704e-001	-6.791167e+001
277373188	-1.297685e-001	-6.975254e+001	-7.253389e+001	1.091717e+001	-7.358924e+001	1.438820e+001	2.683489e-001	-6.793995e+001
277428625	-1.304790e-001	-6.977533e+001	-7.731630e+001	3.193949e+001	-7.731982e+001	3.340948e+001	2.698055e-001	-6.796596e+001
277484063	-1.297530e-001	-6.979366e+001	-7.294056e+001	2.498188e+001	-7.264909e+001	2.673575e+001	2.712990e-001	-6.799243e+001
277539500	-1.297332e-001	-6.982769e+001	-7.395867e+001	1.953157e+001	-7.436675e+001	1.877960e+001	2.719708e-001	-6.802187e+001
277594938	-1.290469e-001	-6.984169e+001	-7.534973e+001	2.854619e+001	-7.534988e+001	2.213714e+001	2.744262e-001	-6.805030e+001
277650375	-1.271644e-001	-6.987420e+001	-7.438114e+001	3.408050e+001	-7.417202e+001	3.061428e+001	2.758779e-001	-6.809367e+001
277705813	-1.271272e-001	-6.990308e+001	-7.390100e+001	3.320844e+001	-7.302958e+001	3.418471e+001	2.770759e-001	-6.812785e+001
277761250	-1.247318e-001	-6.993483e+001	-7.191166e+001	2.514043e+001	-7.118104e+001	2.494594e+001	2.774940e-001	-6.816142e+001
277816688	-1.238673e-001	-6.997731e+001	-7.155558e+001	2.026861e+001	-7.193150e+001	1.447835e+001	2.780968e-001	-6.819158e+001
277872125	-1.269055e-001	-6.999935e+001	-7.385890e+001	-6.254129e+000	-7.336049e+001	-1.050057e+001	2.797632e-001	-6.823789e+001
277927563	-1.217874e-001	-7.001429e+001	-7.724432e+001	4.336965e+001	-7.829706e+001	4.469045e+001	2.791057e-001	-6.827907e+001
277983000	-1.195282e-001	-7.006293e+001	-7.450715e+001	2.767459e+001	-7.528462e+001	1.516193e+001	2.774419e-001	-6.832094e+001
278038438	-1.188866e-001	-7.010454e+001	-7.587494e+001	3.169581e+001	-7.644059e+001	4.053688e+001	2.757231e-001	-6.833455e+001
278093875	-1.187002e-001	-7.014414e+001	-7.492955e+001	2.728793e+001	-7.445698e+001	3.465387e+001	2.775689e-001	-6.835927e+001
278149313	-1.184339e-001	-7.018813e+001	-7.357178e+001	4.171134e+001	-7.371422e+001	4.412223e+001	2.782115e-001	-6.838475e+001
278204750	-1.200098e-001	-7.022806e+001	-7.201012e+001	4.263907e+001	-7.238750e+001	4.144841e+001	2.778806e-001	-6.841967e+001
278260188	-1.199864e-001	-7.025436e+001	-7.246009e+001	3.535245e+001	-7.166407e+001	3.633417e+001	2.797419e-001	-6.844129e+001
278315625	-1.195690e-001	-7.029626e+001	-7.179579e+001	2.305996e+001	-7.260131e+001	2.185506e+001	2.813195e-001	-6.848217e+001
278371063	-1.204363e-001	-7.032894e+001	-7.277836e+001	4.512790e+001	-7.254935e+001	4.133967e+001	2.808083e-001	-6.850463e+001
278426500	-1.216764e-001	-7.036044e+001	-7.025137e+001	3.197368e+001	-6.974995e+001	2.844095e+001	2.827388e-001	-6.853145e+001
278481938	-1.213317e-001	-7.037783e+001	-7.379146e+001	1.386770e+001	-7.306846e+001	1.243808e+001	2.846753e-001	-6.856909e+001
278537375	-1.204768e-001	-7.041999e+001	-7.282167e+001	3.537465e+001	-7.342649e+001	3.104569e+001	2.849359e-001	-6.861256e+001
