# Hz S RI R 50
1415000000	-0.82823388623072	0.447350440007282	2.66406919816577E-03	3.99259816330316E-03			2.66929297690168E-03	3.9714730555589E-03	-0.756312831424984	0.485021631385106
1415500000	-0.827102449992857	0.448476674347733	2.65268763683425E-03	3.98560943172701E-03			2.68531531381704E-03	3.9720429265314E-03	-0.755219887930458	0.486462294844961
1416000000	-0.82617704433535	0.449650455841673	2.66830077474272E-03	3.99031854179438E-03			2.66859902992413E-03	3.96754959389305E-03	-0.753987003210791	0.487413412839562
1416500000	-0.824916323818949	0.451855000904824	2.70562039547441E-03	3.98276425264865E-03			2.69392402386893E-03	3.96149267635532E-03	-0.752845240377901	0.48894944862073
1417000000	-0.824031980752807	0.45288101880654	2.70197737944611E-03	3.98007375148025E-03			2.7001946703504E-03	3.99318514186199E-03	-0.751719832319892	0.490293189047846
1417500000	-0.82293513538889	0.45399280286601	2.72120925381749E-03	3.99347862646279E-03			2.74052308994146E-03	3.96929028557372E-03	-0.750980014863146	0.491580162862374
1418000000	-0.822182241697297	0.455634887594414	2.74198309425968E-03	3.97976463913259E-03			2.7492334689651E-03	3.97469778336895E-03	-0.749796349891434	0.492897619011744
1418500000	-0.82075203547092	0.45732511831745	0.002761979083736	3.97047085392615E-03			2.7556678873289E-03	3.96135412444559E-03	-0.748628317345961	0.493813794836195
1419000000	-0.819891761891288	0.45821195923856	2.75590848042078E-03	3.97546648340069E-03			2.76144972304955E-03	3.98569742605142E-03	-0.747557170933849	0.495259214638424
1419500000	-0.819120700755856	0.46014820533178	2.7566205039102E-03	3.96075853230843E-03			2.77450057743404E-03	3.9469655263686E-03	-0.746583808016287	0.496553597314458
1420000000	-0.818120786841625	0.461625083778735	0.002787252274719	3.96658695859963E-03			2.79851718560274E-03	3.93315771361054E-03	-0.745502920132681	0.498241296317059
1420500000	-0.816943077769427	0.463238934234737	2.76427972864093E-03	3.96208075119705E-03			2.78338221539649E-03	3.94456864192388E-03	-0.744803928739685	0.499791631195266
1421000000	-0.815824137296483	0.464769909077978	2.8098674167774E-03	3.92234529057525E-03			2.78320600270494E-03	3.95532312735682E-03	-0.743723943445173	0.501156737668896
1421500000	-0.814915522213041	0.466212568173837	2.82042177729203E-03	3.94485061181314E-03			2.80563297948762E-03	3.93516856805353E-03	-0.742330710636765	0.501876261318884
1422000000	-0.813839213438818	0.467660849959039	2.82184927952661E-03	3.95761766392465E-03			2.81490806966806E-03	3.91907372790747E-03	-0.741324830679689	0.503387973171761
1422500000	-0.81261585442005	0.469040588867319	2.84017682674126E-03	3.93704894097678E-03			2.81409382385371E-03	3.91158643181014E-03	-0.740128552303046	0.504583299310578
1423000000	-0.811675356691128	0.470704102610081	2.84534793982011E-03	3.91787899534352E-03			2.85593333046887E-03	3.92375543506151E-03	-0.738943785746546	0.506407106669605
1423500000	-0.810166308998315	0.4718332357293	2.83896897762495E-03	3.95112879860655E-03			2.84301206051238E-03	3.93291015308584E-03	-0.737772228481075	0.507619853747492
1424000000	-0.80901259257326	0.47284084160102	2.86806217920578E-03	3.94228025375944E-03			2.86385111888684E-03	3.9221059458905E-03	-0.736510371024594	0.509042014673103
1424500000	-0.808002318026958	0.474572218332077	2.85167464936679E-03	3.90603077284364E-03			2.86639780553444E-03	3.95129387667512E-03	-0.735137369167793	0.50983310203113
1425000000	-0.807520559305126	0.475711496310057	2.89016652520617E-03	3.91404911538757E-03			2.90057580444285E-03	3.9089842847167E-03	-0.734417680671056	0.511043702380736
1425500000	-0.806090869463921	0.477107869310089	2.9096026140198E-03	3.89182939807947E-03			2.89447061782215E-03	3.91207684714297E-03	-0.733403965812148	0.512194687516391
1426000000	-0.80549565188128	0.478586061437339	2.87007955053516E-03	3.89689358947778E-03			2.88359154893799E-03	3.88896710807075E-03	-0.732035010468613	0.513125768216576
1426500000	-0.804779306806279	0.479791344382731	2.90305880854647E-03	3.89375524959554E-03			2.88770697490787E-03	3.87581247153101E-03	-0.731143796126938	0.514310896096179
1427000000	-0.803529330454878	0.481095451120166	2.9013717992086E-03	3.87503322857622E-03			2.90965879144229E-03	3.87490046560742E-03	-0.730197889593854	0.515947643304865
1427500000	-0.802746597326988	0.483096373564683	2.9197659113695E-03	3.87853647200407E-03			2.94760996545515E-03	3.89360977565964E-03	-0.729134463759408	0.5173908801188
1428000000	-0.80151225456543	0.484438542136835	2.89975387251568E-03	3.87802103563093E-03			2.95335219892332E-03	3.89634241724294E-03	-0.727946914647456	0.518375351118943
1428500000	-0.800752758471193	0.485626874123063	2.9271868334534E-03	3.8838186914195E-03			2.90641983042509E-03	3.86399788150825E-03	-0.72699774787047	0.520273276133
1429000000	-0.799473862670146	0.487803012599474	2.93546781621575E-03	3.87615755478553E-03			2.93734693684805E-03	3.86381872674601E-03	-0.726412788170769	0.521781560540457
1429500000	-0.798693816225833	0.489327334725577	2.92476115093064E-03	3.84942578895456E-03			2.9470688810488E-03	3.84590446328682E-03	-0.725030230541191	0.522910001097504
1430000000	-0.797487964177428	0.4903882804906	2.93462836772041E-03	3.84416334105275E-03			2.93968827123711E-03	3.85686413527136E-03	-0.723794379925268	0.524381567106666
1430500000	-0.795884548334622	0.492471800555485	2.93925861931505E-03	3.85776873782329E-03			2.95150117183179E-03	3.86110747133224E-03	-0.722359816631763	0.5258136185167
1431000000	-0.795169950384282	0.493701991766254	2.9507540087126E-03	3.85691208205568E-03			2.9422667827067E-03	3.83996301747241E-03	-0.72079385447956	0.526685025446985
1431500000	-0.794087661626966	0.494431919422192	2.95802355716513E-03	3.86560008131409E-03			2.94023084700114E-03	3.85691879730848E-03	-0.720007964978048	0.528420506696001
1432000000	-0.79289622816909	0.496012973236652	2.97906592539085E-03	3.85771740470727E-03			2.98130511470675E-03	3.84319148603075E-03	-0.71887418217576	0.529508008478851
1432500000	-0.791668931586898	0.497262142365455	2.97886463774715E-03	3.84774060014617E-03			2.97117249686166E-03	3.85145909193567E-03	-0.717957238281121	0.530481856868354
1433000000	-0.790904014417879	0.498449451550025	2.97523728578786E-03	3.85558208771574E-03			3.00251789459093E-03	3.85029356458156E-03	-0.716434830464237	0.531744399008071
1433500000	-0.790039767725759	0.499808722086975	2.9862505962698E-03	3.85571253796785E-03			2.96414922578537E-03	3.81332488124477E-03	-0.715660970391391	0.532748437237125
1434000000	-0.789210425205755	0.501599966731791	3.0213214517055E-03	3.82465282825167E-03			2.99296634852771E-03	3.83246112648628E-03	-0.714913011353649	0.534340824864747
1434500000	-0.78887248969197	0.503052185180504	3.00055945672381E-03	3.86646079225629E-03			2.99711521643303E-03	3.85594451848435E-03	-0.714146798352809	0.535687050155097
1435000000	-0.787680704126368	0.504839258185603	3.01861129894764E-03	3.84834946190706E-03			3.00589100757655E-03	0.003831620362468	-0.713314388433148	0.536882136195067
1435500000	-0.786534915596276	0.506671721306807	3.04217223700352E-03	3.82982396813007E-03			3.03401006983589E-03	3.83780809374373E-03	-0.712244013358875	0.538413368864646
1436000000	-0.785746394217547	0.508160545520937	3.02961365626046E-03	3.84655342581102E-03			3.03905282117077E-03	3.81264159879663E-03	-0.711267299401442	0.540101489952149
1436500000	-0.784590443429871	0.510112304032139	3.04450069976115E-03	3.84216947248864E-03			3.06766576544508E-03	3.82478262782125E-03	-0.710030658057616	0.541537626134106
1437000000	-0.783207831314214	0.512052370315026	3.06387117470046E-03	3.83738353890956E-03			3.06965335229891E-03	3.82357323195006E-03	-0.709091397087651	0.54338298745348
1437500000	-0.782131078663232	0.513777956848483	3.07833060042829E-03	3.83808345672023E-03			3.05932316880265E-03	3.83592020252886E-03	-0.707473951708745	0.544726787432078
1438000000	-0.780672232833261	0.515111583502644	3.07480561132001E-03	3.82770358383019E-03			3.0912337059424E-03	3.83416924078068E-03	-0.706264984504352	0.546409751539334
1438500000	-0.779697086549349	0.516761477568711	3.09288460001884E-03	3.82715066063338E-03			3.10066022816159E-03	3.81692317193908E-03	-0.705132766082506	0.547669932937342
1439000000	-0.778608314608342	0.518064563998118	3.12402890936078E-03	3.85223820581292E-03			3.0848044241034E-03	3.83119924632398E-03	-0.703608072417329	0.548885885127164
1439500000	-0.777137692614031	0.519993624901199	3.12627795379354E-03	3.85515773113136E-03			3.11681897175621E-03	3.83621069804624E-03	-0.702438372478954	0.550723197620843
1440000000	-0.775903881092187	0.52172413225629	3.14607356140027E-03	3.82965344966988E-03			3.12927986713133E-03	3.81285023448785E-03	-0.701298656075246	0.551662719405634
1440500000	-0.775233833194815	0.522794992367907	3.11922947984076E-03	3.82730048988079E-03			3.13111858394591E-03	3.82952652656148E-03	-0.700149057876613	0.553120777269878
1441000000	-0.774384463533566	0.524457337843154	3.15016934403908E-03	3.83204984956426E-03			3.16495241437965E-03	3.82758393058997E-03	-0.69892241259779	0.554867022699729
1441500000	-0.77269929959719	0.526257354711689	3.15003024854585E-03	3.82920286120021E-03			3.15975036131033E-03	3.81222422382188E-03	-0.697910209195371	0.556146666860528
1442000000	-0.77227600847769	0.527815942703821	3.17100266083038E-03	3.82539920440418E-03			3.17024899974867E-03	3.83767379589779E-03	-0.696709643571042	0.557436626857511
1442500000	-0.771438600426217	0.529250165783758	3.18059828082749E-03	3.81101932336501E-03			3.17466330713479E-03	3.80387390675221E-03	-0.69577138726638	0.559079774658084
1443000000	-0.769362428277244	0.531555720839636	3.20914045148753E-03	3.79669180823372E-03			3.19551707328248E-03	3.80783586798838E-03	-0.694617768361124	0.560598425424292
1443500000	-0.768524531005163	0.533397490808205	3.20935470818931E-03	3.79160175665062E-03			3.22632678052579E-03	3.77097333620838E-03	-0.693323907186563	0.562222027933691
1444000000	-0.767414849417947	0.534587837121601	3.22599554456517E-03	3.77997312211404E-03			3.23502962897379E-03	3.78170552913426E-03	-0.692336789374202	0.56399021268954
1444500000	-0.765881639690596	0.536923935056659	3.21828791148736E-03	3.77821842034284E-03			3.25279677525318E-03	3.76863023625117E-03	-0.690990800435135	0.565549755953907
1445000000	-0.764896159311374	0.538551639061592	3.26548418073438E-03	3.78123160490279E-03			3.22725091121181E-03	3.77219119132023E-03	-0.689545832851661	0.567429676982342
1445500000	-0.763911738778279	0.540025563790878	3.25914152623859E-03	3.78677841638496E-03			3.25826251285435E-03	3.75502678064031E-03	-0.687909949805001	0.569118411407384
1446000000	-0.762348649219846	0.541985639490389	3.28289168728959E-03	3.74119370306996E-03			3.24921950833784E-03	3.77693356858029E-03	-0.686754058409728	0.570655657665111
1446500000	-0.76094135621613	0.543791523672806	3.27280733559592E-03	3.75768295037688E-03			3.2864829980585E-03	3.75162169767172E-03	-0.685192240199599	0.57211916354802
1447000000	-0.759543969973828	0.545598703100548	3.30464656596913E-03	3.71618647519506E-03			3.26310317697956E-03	3.76220180045327E-03	-0.684204667760896	0.573389620212424
1447500000	-0.758019832321442	0.547498192364169	3.29463595843415E-03	3.72780295389617E-03			3.3098761252658E-03	3.72926872781038E-03	-0.682651146269585	0.575175311576384
1448000000	-0.75682072489107	0.549676092175089	3.30920556589839E-03	3.72417516853149E-03			3.3170991637861E-03	3.73976613694122E-03	-0.681144034744587	0.576693785005532
1448500000	-0.755202845685989	0.55117524967391	3.31956421922177E-03	3.72996746989827E-03			3.29561845856774E-03	3.71926029314977E-03	-0.679779127822081	0.5784043131697
1449000000	-0.754167650238267	0.552815665891847	3.3280480013107E-03	3.70750388093504E-03			3.30710251043187E-03	3.71447302314579E-03	-0.678154327007611	0.579844809839096
1449500000	-0.75239298240967	0.554663881229782	0.003345821988984	3.69820626385561E-03			3.32407983391953E-03	3.70082954297854E-03	-0.676645342486134	0.58163335015064
1450000000	-0.751020450481925	0.556441775853879	3.35728341812697E-03	3.7005615077511E-03			3.33793334815882E-03	3.71867571139934E-03	-0.675260566796466	0.58320500792874
1450500000	-0.74951769409604	0.558007067946585	3.33568909311816E-03	3.70140637000481E-03			3.3517680124226E-03	3.69512351566209E-03	-0.6737547012418	0.584706857161682
1451000000	-0.74790591178368	0.560022168133643	3.37371145502771E-03	3.69124150781359E-03			3.3359505270023E-03	3.68768678993948E-03	-0.672236963811746	0.586483811944009
1451500000	-0.746151930071824	0.561868713331216	3.3674595805321E-03	3.68407083934753E-03			3.36616210075377E-03	3.66286820163744E-03	-0.670073975250074	0.587914289399017
1452000000	-0.744317352811485	0.563611144745546	3.3532044257548E-03	3.69962899178026E-03			3.37985856736047E-03	3.65885521982817E-03	-0.668770825429626	0.589602612515159
1452500000	-0.742900712743329	0.565135957796778	3.36581288435908E-03	3.66594519983854E-03			3.38164042594523E-03	3.64338964724877E-03	-0.666960134855762	0.590926096744983
1453000000	-0.741473514798867	0.566990016650426	3.37690660642498E-03	3.68826261016893E-03			3.36709072179768E-03	3.64885151493118E-03	-0.665651522383094	0.592682757366716
1453500000	-0.739439090711618	0.568743000911066	3.40413812712336E-03	3.6565333459343E-03			3.37497540368336E-03	3.65067312371913E-03	-0.663758695870322	0.594156250415199
1454000000	-0.737849451587319	0.570446529918151	3.36797972050619E-03	3.67907361348149E-03			3.36862725391262E-03	3.6719023091982E-03	-0.661997087124216	0.595507224722576
1454500000	-0.735802402160051	0.571900507626043	3.40283693704144E-03	3.66547602850323E-03			3.40372832127635E-03	3.67266037223073E-03	-0.660121615428933	0.597044174940502
1455000000	-0.733958816383835	0.573467513276536	3.41341260416407E-03	3.66145549623184E-03			3.40680339322577E-03	3.66701516143748E-03	-0.658497342793293	0.598575163952818
1455500000	-0.7323928340764	0.575078935145201	3.42239403376636E-03	3.65742076146728E-03			3.43811826864114E-03	3.68488921439543E-03	-0.656860408336041	0.59965387118922
1456000000	-0.731090630833489	0.576178379998053	3.46581776797518E-03	3.66321557422139E-03			3.44127558940225E-03	3.67178762933245E-03	-0.655113160889575	0.60105860511176
1456500000	-0.729952353940258	0.577677693797604	3.47647554390138E-03	3.67936732814181E-03			3.46022411527712E-03	3.66837645968563E-03	-0.65348381935121	0.6025687803723
1457000000	-0.727927586333782	0.579840000122167	3.47467720125408E-03	3.67098129935424E-03			3.47758321486802E-03	3.63616822529473E-03	-0.65158272299102	0.603505288736058
1457500000	-0.726378133770852	0.581001617596771	3.51380985190239E-03	3.64669425563807E-03			3.47018975528842E-03	3.63292502241448E-03	-0.650684276281272	0.604758186244209
1458000000	-0.725149909533348	0.582633559067195	3.5037038391685E-03	3.64966614896789E-03			3.49233813155441E-03	3.64509519952224E-03	-0.6486835030983	0.606308707962417
1458500000	-0.722828959262763	0.584835755947878	3.53331660399898E-03	3.63090677503005E-03			3.53550722386442E-03	3.64190373574598E-03	-0.647004786073349	0.608176557998483
1459000000	-0.72097318747784	0.586322619581785	3.53287686579771E-03	3.62341122580923E-03			3.53611190563925E-03	3.62566120809553E-03	-0.645291125786738	0.609588755817833
1459500000	-0.719521050697599	0.587749626296245	3.51957592210135E-03	3.6187347092019E-03			3.53838718091859E-03	3.60375968618749E-03	-0.643417914886304	0.611355823932189
1460000000	-0.717149347431749	0.589413494778063	3.53827348035143E-03	3.6216077548849E-03			3.5510806780235E-03	3.60876032606916E-03	-0.641486263004141	0.612675968142601
1460500000	-0.715316865752529	0.59082503940127	3.57465233098218E-03	3.58838033151111E-03			3.57704198882638E-03	3.60677939704919E-03	-0.639333604039331	0.61403522162236
1461000000	-0.71327848939529	0.591527347595342	3.5564035752815E-03	3.56915091166353E-03			3.58319261601694E-03	3.58848500537236E-03	-0.637130212683555	0.614947536099289
1461500000	-0.711430951395824	0.592955591416891	3.60132894221091E-03	3.57784085732084E-03			3.6109187986906E-03	3.5582888082998E-03	-0.635348116339812	0.616124522857879
1462000000	-0.709839307052156	0.594417606033551	0.003635713457326	3.57293456892126E-03			0.003617407814363	3.5454283961541E-03	-0.633514471773643	0.61676402896534
1462500000	-0.707886221739859	0.594724588433263	3.62266224926877E-03	3.55807201171536E-03			3.63074614998818E-03	3.53949544089942E-03	-0.631714528347624	0.617840816558673
1463000000	-0.706942022246953	0.59570412039583	3.64608724985996E-03	3.52819941488587E-03			3.6247043064078E-03	3.52403386968028E-03	-0.630049786651568	0.618848828138643
1463500000	-0.705839800109435	0.597402548732922	3.66617786819435E-03	3.47985747979151E-03			3.65071260453808E-03	3.48184918330997E-03	-0.62869053196262	0.619538238079262
1464000000	-0.70514201920165	0.598887927989157	3.63909209529212E-03	3.46562982652673E-03			3.65716280448552E-03	3.47169344720258E-03	-0.6279076643662	0.620649758367888
1464500000	-0.70390019116772	0.600728280018358	3.63331252624863E-03	3.44212592103051E-03			3.62953788501027E-03	3.44572244148149E-03	-0.627039781331729	0.621870680502092
1465000000	-0.702336341356876	0.602615585116475	3.64827890198041E-03	3.45014695140855E-03			3.61943216350985E-03	3.45102812264755E-03	-0.625582511032484	0.623811350940016
1465500000	-0.700364219183958	0.604765086837122	3.63726031011324E-03	3.46063645365298E-03			3.63314276861771E-03	3.43427671082942E-03	-0.623752199142278	0.625498821514364
1466000000	-0.698967132752511	0.606467446246325	3.62310866366056E-03	3.45877095074248E-03			3.62302920160322E-03	3.45250355195453E-03	-0.622612481989798	0.627263733378369
1466500000	-0.697249920569683	0.608295198940656	3.63451439036152E-03	3.44767992166778E-03			3.62510300206847E-03	3.43124411707615E-03	-0.620482378960628	0.628918943568194
1467000000	-0.694737484068598	0.609851293440058	3.6293242327977E-03	3.4368278840852E-03			3.62153876202082E-03	3.46592498028413E-03	-0.618518612250019	0.630826729503314
1467500000	-0.692705731902757	0.611426019823461	3.62169206746694E-03	3.44893839759904E-03			3.63948129031117E-03	3.41774849115617E-03	-0.616652582089959	0.632190117134523
1468000000	-0.690224241796638	0.612832191804943	3.63200184862424E-03	3.4236776522798E-03			3.63744098759238E-03	3.4507377806601E-03	-0.61455012431418	0.633479771849044
1468500000	-0.688594027597651	0.613858452079267	3.63926248483529E-03	3.44820368862261E-03			3.62045298690495E-03	3.44820982619356E-03	-0.612469888831443	0.634383144393671
1469000000	-0.686816852419258	0.614551562633183	3.64041952283031E-03	3.44938252614734E-03			3.64141893639615E-03	3.43852168102483E-03	-0.610340703652708	0.63560333351609
1469500000	-0.68485012481756	0.615827718778052	3.65644987765062E-03	3.47268169603283E-03			3.67323753732236E-03	3.44397346271847E-03	-0.60841528925356	0.636473333305785
1470000000	-0.684005960660469	0.616870131376428	3.64413747605855E-03	3.4702306902062E-03			3.66560100829118E-03	3.44199189517522E-03	-0.606608681720652	0.63723009928699
1470500000	-0.683234276502016	0.617433371645937	3.64883982595431E-03	3.45318505952432E-03			3.66951997193118E-03	3.4743911416166E-03	-0.605589512374083	0.637994854419423
1471000000	-0.681928326789276	0.619424659629937	3.71048844721779E-03	3.48319307253778E-03			3.69746305812462E-03	3.48247509332337E-03	-0.604418704766012	0.638773917988816
1471500000	-0.681096442417635	0.621360932462897	3.71865585116972E-03	3.46157943011694E-03			3.72956177674822E-03	3.46142599280862E-03	-0.603468610411192	0.640107205061103
1472000000	-0.680499089848284	0.622996733015282	3.7274587557073E-03	3.47243312341895E-03			3.72125149811219E-03	3.44495883632703E-03	-0.602360030338768	0.641620804816293
1472500000	-0.678669365898219	0.625850812917458	3.75091325549989E-03	3.46253009101901E-03			3.73883125890071E-03	3.45717433108062E-03	-0.601312642230514	0.643919348683333
1473000000	-0.677378189862521	0.627856346151088	3.75945100685264E-03	3.4420376777774E-03			3.74868759877463E-03	3.43915769360692E-03	-0.59994969124722	0.645932414716134
