# Hz S RI R 50
2342000000	-0.616660843013834	0.698471260008967	3.34447893751185E-03	2.31755697871963E-03			3.33357832312213E-03	2.32097121497898E-03	-0.638339791280324	0.719015310853002
2342187500	-0.61585371200192	0.698842627223027	3.34492706699661E-03	2.3285016384526E-03			3.35191787160703E-03	2.31901676754451E-03	-0.637542351126264	0.719397163519782
2342375000	-0.61514627301435	0.699235437578062	3.34481397479722E-03	2.34026448270684E-03			3.34357608050511E-03	2.32758108419619E-03	-0.636847293183104	0.719835146603745
2342562500	-0.614490898839857	0.699745549899455	3.34989055483586E-03	2.34615350004756E-03			3.34404990892499E-03	2.3425314676758E-03	-0.636118266334512	0.720160416954531
2342750000	-0.613899655572872	0.700144335305589	3.36477488384564E-03	2.3465293614045E-03			3.35126254360799E-03	2.33919090931195E-03	-0.635404682222478	0.720547568587063
2342937500	-0.613126830078663	0.700536373256342	3.36553322845185E-03	2.35136136228346E-03			3.36306149609112E-03	2.34320649013858E-03	-0.634751908334889	0.720925545893235
2343125000	-0.612496315954165	0.700971621910575	3.36514661640047E-03	2.34798451849108E-03			3.36177122343558E-03	2.33613669031789E-03	-0.634002037552731	0.72133254311289
2343312500	-0.611730738741215	0.701316858589539	3.36138904428463E-03	2.35884770855143E-03			3.35642524779095E-03	2.35771589993051E-03	-0.633352396715833	0.721682281068284
2343500000	-0.611101588445075	0.701619455291772	3.37422249112873E-03	2.36533066345346E-03			3.36856589787826E-03	2.36157116072248E-03	-0.632753938356811	0.721903759716954
2343687500	-0.610540544481347	0.702216925128613	3.37742618106877E-03	2.36813690152631E-03			3.37200483447966E-03	2.35918216454054E-03	-0.632217940131806	0.72234750955476
2343875000	-0.60995602559309	0.70252997827814	3.37709625479818E-03	2.36870202771455E-03			3.37346456907658E-03	2.37577368350776E-03	-0.631458067198312	0.722905674404493
2344062500	-0.609179319173072	0.70308309186522	3.37857689566075E-03	2.37983673035819E-03			3.38513265551012E-03	2.38209433930289E-03	-0.630836855889763	0.723168644620829
2344250000	-0.608530604220553	0.703640159465225	3.38390161941982E-03	2.39217649881415E-03			3.38805215820911E-03	2.37038751191447E-03	-0.630261255439541	0.723670047504294
2344437500	-0.60774801424576	0.704077252798486	3.39522673132782E-03	2.39336136258398E-03			3.38587837433049E-03	2.3850654697113E-03	-0.629445973815172	0.724086140526001
2344625000	-0.606968628912879	0.704419814083756	0.003393848036577	2.39176821298275E-03			3.39572115428874E-03	2.39359208486927E-03	-0.628765774783701	0.724570434588984
2344812500	-0.606282994151397	0.704838863410973	3.39551169508903E-03	2.40307927232812E-03			3.38820183341018E-03	2.40084096876225E-03	-0.628008511745425	0.724923408657244
2345000000	-0.605518200754083	0.705311551836454	3.40695203223397E-03	2.41314489673266E-03			3.39046725357821E-03	2.4009395178083E-03	-0.627295193844638	0.725215401553771
2345187500	-0.604747850468377	0.705615203895828	3.41836983071691E-03	2.40850803511213E-03			3.41024188924638E-03	2.41247874847416E-03	-0.626496995739267	0.725581585326098
2345375000	-0.603918253426534	0.705891539854807	3.41855568086748E-03	2.40785247902031E-03			3.40487967429458E-03	2.40578706220155E-03	-0.625667287795453	0.725765183067932
2345562500	-0.603081892376539	0.706166925621232	3.42397289218774E-03	2.42062968256596E-03			3.41537792485045E-03	2.40766460724717E-03	-0.625091399442888	0.726004436363642
2345750000	-0.602485556654771	0.706339111383755	3.4235741881669E-03	2.42007309052754E-03			3.41298457258301E-03	2.41839331673839E-03	-0.624435558811604	0.726276367836923
2345937500	-0.601731439195589	0.706647322847618	3.42815070992888E-03	2.42129315536167E-03			3.41614484953075E-03	2.41444315968271E-03	-0.62374591876143	0.726547124374502
2346125000	-0.601179445536293	0.706849688229369	3.42498358204607E-03	2.42489179400474E-03			3.41851153317237E-03	2.41769901994719E-03	-0.623233583516983	0.726709952675355
2346312500	-0.600743448400568	0.707040554625799	3.42423927122372E-03	2.43517703172818E-03			3.41874041587002E-03	2.42735013058471E-03	-0.62268219238936	0.727013753406522
2346500000	-0.600130961284781	0.707477191647228	3.42943030265372E-03	2.44517009303402E-03			3.42255846566323E-03	2.43409391077769E-03	-0.622265625934401	0.727226453398083
2346687500	-0.599673629321529	0.707797710715928	3.44337961975925E-03	2.45174944530389E-03			3.42730821001714E-03	2.44004556968166E-03	-0.621753068592691	0.727577503806734
2346875000	-0.599015865327516	0.708175078931323	3.4492354657556E-03	2.44888923964367E-03			3.44281096275368E-03	2.45743255034825E-03	-0.621205001688352	0.728055060179594
2347062500	-0.598516467612236	0.708613889961288	3.44122876965437E-03	2.45740241473266E-03			3.44205458382151E-03	2.45875082254605E-03	-0.620833930063952	0.728364884217367
2347250000	-0.597936969120269	0.709065230481278	3.45765691070117E-03	2.46105673228035E-03			3.44894922514635E-03	2.45841346834628E-03	-0.6202393339331	0.728990028330167
2347437500	-0.597285105361241	0.709443342815126	3.45642950647461E-03	2.45072620603927E-03			3.46301151557871E-03	2.44378354023571E-03	-0.619522434407272	0.729449696826689
2347625000	-0.596583428223269	0.710043681765199	3.45418557854028E-03	2.45138664774712E-03			3.45673547139443E-03	0.002439806038572	-0.618883275381221	0.729849431996702
2347812500	-0.595833417795636	0.710373818369499	3.45915515902454E-03	2.44756597199213E-03			3.44709376604033E-03	2.44336359140635E-03	-0.618257365790306	0.73022865786877
2348000000	-0.595158937099461	0.710710288060692	3.44986218774543E-03	2.46730300163504E-03			3.44520091148454E-03	2.45368117998568E-03	-0.617636948472485	0.730498235478836
2348187500	-0.594517924247551	0.710931324983333	3.44889748778939E-03	2.46612621620764E-03			3.44646192422193E-03	2.45800186330071E-03	-0.616935188990228	0.730884867025151
2348375000	-0.5938429949314	0.711263453661856	3.45138109463938E-03	2.47899873112213E-03			3.45724307287675E-03	2.47248109679317E-03	-0.616350201170386	0.731143511630054
2348562500	-0.593261355614351	0.71156661125341	3.45246122844733E-03	2.47258027344136E-03			3.44925790425022E-03	2.4813115863554E-03	-0.615814642055317	0.731465464600521
2348750000	-0.592621526285721	0.711922872040959	0.003452827498325	2.47681769254219E-03			3.44984930267609E-03	2.47642386581569E-03	-0.615234437774773	0.7317460149775
2348937500	-0.592131023752098	0.712075473147394	3.45674508568173E-03	2.4864986788681E-03			3.46339375717595E-03	2.48236975944029E-03	-0.614693060499816	0.731994667562237
2349125000	-0.591633936813512	0.712358191224248	3.45189580215662E-03	2.49170512295744E-03			3.45371402785306E-03	2.48367136993639E-03	-0.614286682256469	0.732335940181504
2349312500	-0.591051170737914	0.712756223400972	3.45811108122713E-03	2.49301296112951E-03			3.45169780310952E-03	2.48800185012679E-03	-0.613829132396253	0.732718771570891
2349500000	-0.590593752259971	0.713160228657417	3.46052025923502E-03	2.50306298632105E-03			3.45032750883154E-03	2.4934812150722E-03	-0.613450879413629	0.7331168204429
2349687500	-0.590245875905566	0.713678499925154	3.45887827048381E-03	2.51011650748308E-03			3.44868429002632E-03	2.51189393008005E-03	-0.612981746732989	0.733607216319976
2349875000	-0.589625186715841	0.714204472406615	3.45896892613761E-03	2.51940469911066E-03			3.45368802999727E-03	2.51680784486463E-03	-0.61255741767293	0.733952681463153
2350062500	-0.589220699041561	0.714778158115105	3.45640472476727E-03	2.53599102432914E-03			3.46301131019395E-03	2.53018423779797E-03	-0.612042520875097	0.734552435549223
2350250000	-0.5886680115485	0.715235509189185	3.47308001877628E-03	2.54261662003724E-03			3.45667761106302E-03	2.53392348691356E-03	-0.611338990577317	0.735157185546172
2350437500	-0.588122299408427	0.715848072447164	3.47354591651843E-03	2.53645405909652E-03			3.4736717773854E-03	2.5345946257287E-03	-0.610755911881794	0.735578569975125
2350625000	-0.5875824888759	0.716268113319939	3.46793886212331E-03	2.53648723790516E-03			3.4709492651134E-03	2.5371998304401E-03	-0.610184804958359	0.736118384603414
2350812500	-0.586928695511004	0.716668154097739	3.47207090957517E-03	2.54181422125084E-03			3.46534734225577E-03	2.54314965635481E-03	-0.609530912913998	0.736643367709478
2351000000	-0.586290160533661	0.717137593436587	3.47148026232183E-03	2.55224899024861E-03			3.47321145251293E-03	2.54857609754971E-03	-0.608983380472353	0.737148359292787
2351187500	-0.585733021399802	0.717437813344059	3.47618384794847E-03	2.56550652340431E-03			3.46955344356151E-03	2.55749431376262E-03	-0.608315972381335	0.737592298407368
2351375000	-0.585275874176079	0.717884275266549	3.48160458914853E-03	2.57070018254183E-03			3.47990728147568E-03	2.56511147759874E-03	-0.607722932786014	0.737978245373373
2351562500	-0.584749215460903	0.718268990067301	3.48687306153347E-03	2.57508310170481E-03			3.47427249975414E-03	2.57177108546664E-03	-0.607124392244097	0.738390142027451
2351750000	-0.584099358577915	0.718568545967062	3.48193609743737E-03	2.57316650294015E-03			3.47079081102994E-03	2.5785744712125E-03	-0.606589118495361	0.738935549082407
2351937500	-0.583674012709907	0.719033959213306	3.49924129683516E-03	2.58456336389691E-03			3.47840951867225E-03	2.58179806472397E-03	-0.606041488112277	0.739406895088667
2352125000	-0.583208158008991	0.719442454035259	3.49287078466527E-03	2.58267215339784E-03			3.48637314003989E-03	2.57873626572885E-03	-0.605491545756224	0.739804970377632
2352312500	-0.582840163255482	0.720015646437069	3.49372002643993E-03	2.58346699502679E-03			3.48484636918546E-03	2.58314769351538E-03	-0.605077513168221	0.740350751298476
2352500000	-0.582251288490664	0.720552684083933	3.49702197545473E-03	2.59059588873092E-03			3.49925533984742E-03	2.59543536215377E-03	-0.604497584754149	0.740952253647899
2352687500	-0.581811215956796	0.721088936327892	3.50717325613105E-03	2.60022853670039E-03			3.49092094175262E-03	2.59541813396197E-03	-0.604038144486272	0.741298649074363
2352875000	-0.581255431838466	0.721657195925699	3.50445350125736E-03	2.61196187470387E-03			3.50348333401477E-03	2.60223346220393E-03	-0.603505753274989	0.742013306675862
2353062500	-0.580658139830281	0.722291497256863	3.50569110938647E-03	2.61369897236648E-03			3.50686822390929E-03	2.61186410505817E-03	-0.602812770117653	0.742543532364842
2353250000	-0.580132343173664	0.722842532248715	3.50961696301092E-03	2.61687461403091E-03			3.49971968443736E-03	2.60944470396476E-03	-0.602204405364812	0.743192276711999
2353437500	-0.579460524090891	0.723482631555489	3.52430739019962E-03	2.61930628450785E-03			3.51291302965161E-03	2.6106671896096E-03	-0.601737943980404	0.743699322259093
2353625000	-0.57890846121306	0.724107864552511	3.51391590922048E-03	2.61663090468889E-03			3.51650658258543E-03	2.62567502006454E-03	-0.601146317747149	0.744322903730983
2353812500	-0.578165386763654	0.724680373303669	3.51410777007403E-03	2.61742399925613E-03			3.51964980291818E-03	2.63208204018678E-03	-0.600577602973162	0.745062761078145
2354000000	-0.577664658487848	0.725326443426542	3.51310700792372E-03	2.61855622654061E-03			3.5083105480678E-03	2.61026077189408E-03	-0.599932115035576	0.745728011328114
2354187500	-0.57689241578167	0.725835427070312	3.51163488852912E-03	2.62248819525045E-03			3.5142431077597E-03	2.62445031724995E-03	-0.599271903331965	0.746277912573437
2354375000	-0.576049155186604	0.726471796843513	3.51563898702481E-03	2.62982286995381E-03			3.5092132574247E-03	2.62532243399747E-03	-0.598526712715682	0.747017408076655
2354562500	-0.575542424304183	0.727116688774214	3.51752749184328E-03	2.63482471472419E-03			3.51397992663721E-03	2.63666513651813E-03	-0.597823469272256	0.747530629780752
2354750000	-0.574731954091866	0.727507535661683	3.51794789818597E-03	2.6384532241923E-03			0.003500794556949	2.63188131248006E-03	-0.59707465835762	0.74807559670136
2354937500	-0.574089873975417	0.728156395717523	3.5063192147087E-03	2.64204010395006E-03			3.5054360425367E-03	2.64693549308386E-03	-0.596481083095417	0.74874728816211
2355125000	-0.57337280577231	0.728703752699397	3.51896258620264E-03	2.64261120404954E-03			3.49588558753878E-03	2.64663349356051E-03	-0.595608717979623	0.749362700910906
2355312500	-0.572776075816475	0.729258540495277	3.50822489982837E-03	2.65668300255969E-03			3.50166737942338E-03	2.65327975152048E-03	-0.594995216522373	0.750019622274201
2355500000	-0.572070513064461	0.729918551644677	3.51733945075927E-03	2.66524488818997E-03			3.51728611999701E-03	2.65603949370849E-03	-0.59418460134117	0.750641195874427
2355687500	-0.571313042433845	0.730467533593422	3.50797091408487E-03	2.66579488195893E-03			3.50688637547247E-03	2.66379022805792E-03	-0.593634272882381	0.751262665864768
2355875000	-0.570684129665532	0.73115531194552	3.51493796598692E-03	2.67246159779485E-03			3.50537504846789E-03	2.67462659494919E-03	-0.592705593854442	0.751981350623995
2356062500	-0.57001897133164	0.731683415350558	3.51155417960014E-03	2.67638507037261E-03			3.51486989608011E-03	2.67495205356353E-03	-0.59194760779021	0.752439944151808
2356250000	-0.569181845822102	0.732281120099609	3.51382838343699E-03	2.68116597123708E-03			3.50788998154535E-03	2.68157108553165E-03	-0.591206739548674	0.753173790161709
2356437500	-0.568492888658486	0.733003191367105	3.51324911686717E-03	2.69000655354989E-03			3.50155055340099E-03	2.67982410336658E-03	-0.590372860243037	0.753692852146638
2356625000	-0.567586915986635	0.733496880919871	3.51573983620718E-03	2.69129229688409E-03			3.49434151378845E-03	2.69527096795688E-03	-0.589591650829055	0.754270153156535
2356812500	-0.566922791226348	0.734091221678063	3.51521630306358E-03	2.70574968630911E-03			3.50197910641683E-03	2.69579568578096E-03	-0.588857190723733	0.754880903324702
2357000000	-0.566085414018754	0.734764337630933	3.50418027643596E-03	2.69033165817816E-03			3.51467400144495E-03	2.70397404345195E-03	-0.587933554272257	0.75537065601252
2357187500	-0.56531269316138	0.735274804484526	3.5138351590637E-03	2.69876261965444E-03			3.51924493090489E-03	2.71297625531119E-03	-0.587145802613148	0.755993489052739
2357375000	-0.56455645992853	0.735944449760057	3.50722008210251E-03	2.70977056678246E-03			3.50480482615971E-03	2.7122623148044E-03	-0.586408894850897	0.756392109693079
2357562500	-0.563747274845757	0.736446493009134	3.50734307153762E-03	2.7186800913261E-03			3.51678031382686E-03	2.70674124140869E-03	-0.585474103899793	0.756913759904481
2357750000	-0.562942122564006	0.736995900444234	3.52299552426729E-03	2.71212386032905E-03			3.51408383706844E-03	2.71260460945324E-03	-0.584715292078342	0.757597161695958
2357937500	-0.562130765069447	0.737562135230492	3.50866189449473E-03	2.72091372431251E-03			3.50571305511602E-03	2.72062328964464E-03	-0.583824611455193	0.757942326008643
2358125000	-0.561283858335823	0.738206960633222	3.50999883704853E-03	2.72310292544776E-03			3.50432401889387E-03	2.73190276590686E-03	-0.583004807194398	0.758529106858148
2358312500	-0.560470779132625	0.738714085163003	3.50290675643632E-03	2.73686035592268E-03			3.50028192903083E-03	2.74581430669953E-03	-0.582129098048723	0.758922389797806
2358500000	-0.559576284269706	0.739213529453913	3.51896226826827E-03	2.74598444267833E-03			3.50547996681696E-03	2.74415487460686E-03	-0.58122914964317	0.759533893282982
2358687500	-0.558818455909814	0.739785175204062	3.50962222657386E-03	2.73649232929268E-03			3.51118263407197E-03	2.73906372147528E-03	-0.580531981159588	0.760025501056912
2358875000	-0.558006077595623	0.74037530464215	3.51347006581221E-03	2.7472195870609E-03			3.50708393325955E-03	2.75714923241353E-03	-0.579711299743061	0.760597014679276
2359062500	-0.557107566025459	0.740872136890747	3.51736769589948E-03	2.75797378995538E-03			3.5159634634099E-03	2.75122040938663E-03	-0.578893274009062	0.761053465314916
2359250000	-0.55622965906991	0.741416747071503	3.51860564539938E-03	2.75695633016812E-03			3.51530000982866E-03	2.76504823134639E-03	-0.578074356622343	0.761514466892291
2359437500	-0.555383568647454	0.741896492294096	3.5226276458787E-03	2.75786999487469E-03			3.51626612333226E-03	2.76308621306155E-03	-0.576985310594524	0.762036220162159
2359625000	-0.554515177453413	0.742573169061443	3.5158966549017E-03	2.76187359887564E-03			3.50806912386336E-03	2.76079760163436E-03	-0.576257581975994	0.762477945696334
2359812500	-0.553651343337053	0.743116652515356	3.51328957209391E-03	2.77005135798761E-03			3.5134046964192E-03	2.76144008229276E-03	-0.575268079087571	0.763030812413481
2360000000	-0.552655893080109	0.743756121722329	3.51345232793535E-03	2.76272091973307E-03			3.52118451714159E-03	2.76136619783209E-03	-0.57451467240917	0.763411951046948
2360187500	-0.5518148671242	0.744190779379472	3.50606977500249E-03	2.75752295206182E-03			3.50471741288401E-03	2.76014500377631E-03	-0.573642166560413	0.763833754628297
2360375000	-0.55094016476923	0.744700007853072	0.003507191246294	2.76833030369865E-03			3.51204786902099E-03	2.77551390412095E-03	-0.57279779103515	0.764328881427507
2360562500	-0.549900985385018	0.745217319583967	3.50667501068183E-03	2.77493919752788E-03			3.50241938256161E-03	2.7654662514464E-03	-0.571953337697873	0.764757748075308
2360750000	-0.549060887279953	0.745707339047438	3.50646587937021E-03	2.76925873391391E-03			3.49979616515114E-03	2.77730694789533E-03	-0.571107529324359	0.765296090388388
2360937500	-0.548008567956216	0.746169117296308	3.50327845040238E-03	2.77183474151627E-03			3.5032004477573E-03	2.78252696505944E-03	-0.570262259959629	0.76561856865709
2361125000	-0.547176753160765	0.74659902833006	3.5014035599757E-03	2.77122841185637E-03			3.49546149166559E-03	2.77514159095445E-03	-0.569338902205521	0.76617134078213
2361312500	-0.546268021395052	0.74712300781697	3.49333072692128E-03	2.78260594100033E-03			3.49498526256452E-03	2.78906545732498E-03	-0.56862644515374	0.766545267609508
2361500000	-0.54532839442879	0.747587497833742	3.49367297021424E-03	2.78291301451292E-03			3.49392885765924E-03	2.78009934195868E-03	-0.567595454234412	0.767144520872886
2361687500	-0.544422931401586	0.748013473848609	3.49110809483269E-03	2.77514825294111E-03			3.47678197494323E-03	2.79442930670535E-03	-0.566725882030773	0.767592507932786
2361875000	-0.543483672366906	0.748472034941394	3.48678841332631E-03	2.79344278452376E-03			3.48621044020643E-03	2.7959314708282E-03	-0.565957060167981	0.768017355968033
2362062500	-0.542524099974538	0.748942277588256	3.4772334562393E-03	2.79602899722855E-03			3.48686017038164E-03	2.79730235550897E-03	-0.565056730028013	0.768579382864672
2362250000	-0.541421604102646	0.749243032800949	3.48322498339461E-03	2.79883049067901E-03			3.48072801216524E-03	2.79622816012869E-03	-0.563873116080851	0.768985110588817
2362437500	-0.540437097776907	0.749688909607348	3.47866979158288E-03	2.79248867392785E-03			3.47564877013662E-03	2.79305992910249E-03	-0.563013286025274	0.769407388585541
2362625000	-0.539491260034529	0.749979449434842	0.003476211209752	2.8034630189272E-03			3.46120272939757E-03	2.80141463709452E-03	-0.562030569044515	0.76968171071052
2362812500	-0.538643881934222	0.750229515424017	3.46793960378235E-03	2.80630307046018E-03			3.46759277034479E-03	2.79594271368008E-03	-0.561190316324836	0.770093217175645
2363000000	-0.537743970478826	0.750446107031965	3.45630949209241E-03	2.81315523859823E-03			3.46246274281331E-03	2.80721143673668E-03	-0.56026890555619	0.770310689478609
2363187500	-0.536943387416726	0.750801125244738	3.45315921387201E-03	2.80017796412418E-03			3.45714481315649E-03	2.80086976579146E-03	-0.55942497381732	0.770594436453447
2363375000	-0.536126394730246	0.751014397762086	3.44627319953982E-03	2.81431407188689E-03			3.4448004462351E-03	2.81290749721202E-03	-0.558770135789319	0.770898505236782
2363562500	-0.535409509984377	0.751401028868699	3.43762356868827E-03	2.81369183385917E-03			3.43486119951175E-03	2.80971617313411E-03	-0.557953114343835	0.771081219407149
2363750000	-0.534795387053472	0.751803879562931	3.43156380277183E-03	2.81871142478048E-03			3.4296217205435E-03	2.81634696602455E-03	-0.55712471988351	0.771618898349597
