# Hz S RI R 50
353500000	0.455097742005737	-0.867218188928793	-1.09522828024416E-04	7.89653660433416E-04			-1.10780244920181E-04	8.52975092397641E-04	-0.963560831911797	0.185614065896546
353562500	0.455518181530825	-0.868290708101599	6.75048940883942E-05	6.61645388785365E-04			1.08463453702176E-04	6.92915058609891E-04	-0.957785680947504	0.192856883879652
353625000	0.455227500750592	-0.869021999816802	-2.5481099342829E-04	7.49646769756631E-04			-1.36207370173786E-04	6.94893028846743E-04	-0.955196042656794	0.188444896711261
353687500	0.45448736495158	-0.869145262343322	5.07444505045488E-06	7.71437583469918E-04			-7.86285246841678E-05	7.30760588517884E-04	-0.963224740124128	0.197581523636358
353750000	0.454116348280243	-0.870583013046003	-3.5554775784912E-04	6.06588426506402E-04			-3.08887417388354E-04	5.47018044088396E-04	-0.962561642681742	0.197088748691994
353812500	0.452070908945272	-0.870053941809963	-4.01150612614057E-04	7.85246683638444E-04			-3.04153260229156E-04	8.26851646498365E-04	-0.95445948782025	0.193993821429117
353875000	0.451871369841334	-0.869888374062304	-9.97345759858756E-05	7.41806347273155E-04			-2.96729628739398E-05	7.04431539994408E-04	-0.956540723754253	0.195285864912126
353937500	0.452373993514806	-0.869674398174567	-3.72599606663916E-04	7.12927351560322E-04			-4.45333455615653E-04	7.61345286230929E-04	-0.954476674786042	0.196724754156719
354000000	0.451448677367644	-0.871651048767307	-2.54302888543635E-04	1.03882940782727E-03			-2.66199507815209E-04	1.05438799391978E-03	-0.955053348186219	0.197561058455555
354062500	0.454292036539004	-0.869143479747079	5.882453895074E-05	9.23787713874162E-04			1.53927138485003E-05	9.80935115358566E-04	-0.956041756032449	0.193167331670669
354125000	0.452664985802771	-0.872584012017041	-6.88049748522269E-05	8.5984861399271E-04			-2.30269181721055E-04	7.25840685458488E-04	-0.960316469504504	0.200548674752507
354187500	0.451415757232945	-0.872362305461697	-5.62201902873889E-05	1.01185359580385E-03			-1.82475478379831E-04	1.00906339529412E-03	-0.958146142031496	0.19755536252321
354250000	0.450942026165443	-0.871456761607009	1.93718570619865E-04	8.91347046560547E-04			1.72344870165862E-04	8.46518254202227E-04	-0.957206252652508	0.212449992118346
354312500	0.448773537920296	-0.873150890855398	1.48042516009279E-04	8.37895265954163E-04			-1.73398478132046E-05	7.12626011434595E-04	-0.962061676629156	0.206649651651658
354375000	0.450127083468791	-0.873487535819568	1.39680796047865E-05	8.86720390226001E-04			-3.02659084750699E-05	8.45672145025773E-04	-0.960834263209825	0.20523271834602
354437500	0.452312480852384	-0.874318461586962	4.02033172585394E-05	6.49363523656114E-04			2.08536379353855E-04	6.64803550740936E-04	-0.959483600904766	0.205910962654538
354500000	0.450687938069145	-0.87329266003242	2.13890501705066E-05	6.51685388996067E-04			2.01986181058999E-05	5.88200228141766E-04	-0.960098805372763	0.210668669590134
354562500	0.45003462587011	-0.875570986489855	-6.66139642657506E-05	6.12554253695573E-04			-1.31508537500486E-04	7.38414693010192E-04	-0.960816523380367	0.205769263327776
354625000	0.44885289063679	-0.875404914961282	-1.75187806312027E-04	8.03975521507406E-04			-1.97248624286095E-04	7.32204095063808E-04	-0.953575457986157	0.209574155595633
354687500	0.449531181690999	-0.876475761378564	-1.44501447374044E-04	7.36372959148493E-04			-3.5391934921461E-05	8.7606950515664E-04	-0.9509714523595	0.211618808552056
354750000	0.4472490350572	-0.878684258607776	-7.27600628672847E-06	8.4863666479925E-04			4.75635860449261E-05	6.97280177998491E-04	-0.955808049654796	0.212136061095819
354812500	0.448139802992397	-0.877169457505478	-1.84646651723447E-04	7.21110111070235E-04			-1.02713704420943E-05	6.99952535862388E-04	-0.960332205428876	0.216962113311648
354875000	0.446910180641482	-0.875390433427096	-5.95082938092085E-05	7.8890758091085E-04			-1.13516368546288E-04	8.25467936229283E-04	-0.959812640147786	0.217757509441032
354937500	0.446123238567627	-0.876432258537819	1.03569167189955E-04	6.83948161049031E-04			6.67348192442896E-06	6.64608458305757E-04	-0.954905435137634	0.213747448698585
355000000	0.446372270609719	-0.877348485681782	-7.21874216344663E-05	5.56385256740639E-04			-2.37829769235746E-05	5.39625783761143E-04	-0.953504796391042	0.212313554301868
355062500	0.445048515269459	-0.877697992735831	-2.21518206146661E-04	3.06831289062839E-04			-3.20508619412278E-04	3.5990430653874E-04	-0.952695825749936	0.214493651855098
355125000	0.443057237728985	-0.876955023825263	-5.71180252962264E-04	8.56909920599177E-04			-5.07671261207321E-04	8.00127798778479E-04	-0.95398404921471	0.218923349802824
355187500	0.444280193828637	-0.876739275766685	-1.04634085527274E-04	1.04267633534799E-03			-1.79313320635337E-04	1.0712381753752E-03	-0.945966461681271	0.212760795918189
355250000	0.441081969259547	-0.878419420320275	4.93516598227912E-05	8.8382670930634E-04			9.0265263514108E-05	9.07656254203368E-04	-0.950418189857545	0.217258093870172
355312500	0.442798207042391	-0.877829334441741	-5.24456935975213E-06	5.62229840482584E-04			1.59994842097509E-06	5.85877456451399E-04	-0.952635004440866	0.217410497099798
355375000	0.441503965381844	-0.877771478531792	-2.10484202333299E-04	7.91786914172139E-04			-2.27451291948888E-04	8.33882207292281E-04	-0.952859753231783	0.219805831293562
355437500	0.440688966903504	-0.87753628519881	-6.44787401852374E-05	9.32775255780634E-04			-1.20834741705182E-04	9.11186155352511E-04	-0.942570869270159	0.216572770708165
355500000	0.441567459768079	-0.878306525036824	-1.12560507818516E-04	7.15646962160957E-04			9.65755849386187E-06	7.24304682236294E-04	-0.945040106582243	0.219024433703618
355562500	0.438459532646948	-0.879166382553783	-2.84309749759267E-04	8.02450407903483E-04			-1.56909000935155E-04	7.88975819653667E-04	-0.943126377236344	0.225321788330716
355625000	0.44103826001424	-0.877431698339499	-1.48313750930185E-04	9.33391722779745E-04			1.11942680912904E-05	9.0719673524105E-04	-0.947584334167738	0.226668098598348
355687500	0.441349661801542	-0.878453066995115	8.30394823044327E-05	7.22915613508047E-04			4.73469570357998E-05	7.73616439850164E-04	-0.945415812182539	0.224464828915913
355750000	0.439218848926664	-0.878132945491634	-8.01203356815843E-05	5.95022067101419E-04			-5.60747264114394E-05	6.15327808010225E-04	-0.94335936682346	0.217300625723031
355812500	0.439171870227256	-0.876760329537788	-1.95045593836496E-04	5.888085313336E-04			-1.40277253154089E-04	5.94795598174316E-04	-0.947097009495787	0.223424001365701
355875000	0.439494575136546	-0.873992507853283	-2.61436346451399E-04	7.34408224012103E-04			-2.31787186079341E-04	7.19403160618402E-04	-0.94361162636592	0.219793971866021
355937500	0.436094571880531	-0.876873426101005	-1.47551219982979E-04	6.82858476490853E-04			-1.37927733051743E-04	6.41458571767404E-04	-0.950595343079289	0.231308909794098
356000000	0.435537458626301	-0.876172452127407	-2.24978688995022E-04	8.19103675004547E-04			-3.04928416861237E-04	7.44686272238041E-04	-0.947964666228436	0.223958970832034
356062500	0.434650808499202	-0.876211998521445	-6.66076601110959E-05	8.70085948543984E-04			-6.70271475816091E-05	9.84730505270426E-04	-0.945448059443985	0.225967005675807
356125000	0.436862099785973	-0.87585696951521	4.18687648502821E-05	6.01182419304617E-04			8.42769224583876E-05	5.08724519016044E-04	-0.950231117432161	0.223355431378997
356187500	0.438454040662893	-0.87645060178677	-5.63330750603259E-04	4.39042616326335E-04			-4.53744379805573E-04	5.1627955927197E-04	-0.954860307537129	0.227369993646318
356250000	0.440066161637746	-0.87604988395771	-4.86526744392547E-04	8.38986853547314E-04			-5.33626504876747E-04	7.93143963403009E-04	-0.950317207382429	0.226487839192723
356312500	0.43860691397169	-0.876920986804446	-2.95852819976497E-04	1.02392912854919E-03			-3.54515040026206E-04	9.6896393279056E-04	-0.940317402672145	0.224866013133702
356375000	0.438510192478438	-0.875363524453987	-9.81214915024836E-05	1.05745997584867E-03			-1.2278041295185E-04	1.19031965656388E-03	-0.953377964329375	0.225353088749711
356437500	0.434758313591721	-0.878324783689714	-2.85315273441544E-04	8.84933755863225E-04			-1.75389289931357E-04	9.25571459165056E-04	-0.948246113788051	0.223363065722129
356500000	0.435938711738517	-0.877893301311118	-1.11661044004357E-04	8.01674760942187E-04			-1.52152485565516E-04	7.07658628613923E-04	-0.943982527652639	0.230989516774979
356562500	0.436723273411509	-0.877317138851059	-3.00912568655714E-04	1.00578837030682E-03			-3.99470881179599E-04	9.19902005617537E-04	-0.946975701978584	0.230194681288217
356625000	0.438996446899618	-0.876001567081008	-9.20389667846892E-05	1.16719579329134E-03			6.76289331309242E-06	1.11716314982472E-03	-0.950559947949538	0.227454635180825
356687500	0.438169619634112	-0.878602432956449	3.37262024195314E-05	1.01962376682932E-03			-1.06684825848573E-04	9.04466888008704E-04	-0.952329594327377	0.231359161511677
356750000	0.436052434135237	-0.87852882505244	3.47426621972004E-05	9.49101655487442E-04			7.191355135777E-05	1.07149173845745E-03	-0.942947656784966	0.22416125225212
356812500	0.434247753692689	-0.881017947364359	1.46742810591117E-04	9.23430831851027E-04			-1.67311763334458E-05	9.92109090460048E-04	-0.943366748321449	0.231412985608918
356875000	0.434105315431592	-0.879035195708559	1.12094103049406E-04	8.23290556952703E-04			1.35095276823375E-04	7.56578967081411E-04	-0.938793552006678	0.23181736815738
356937500	0.435600356919923	-0.877963650295635	-8.45214379161683E-05	5.64272748652698E-04			-1.53130645777765E-04	4.39442486740569E-04	-0.949354242306089	0.23241420849466
357000000	0.434918912746015	-0.880121576271099	-2.86594401692188E-04	7.41149422601571E-04			-2.2769413808206E-04	7.0946509252639E-04	-0.94331043512015	0.224856777441144
357062500	0.433142135318055	-0.879774495946128	-6.59045827772171E-05	8.69910189910464E-04			-2.78592289080862E-04	8.23676802326001E-04	-0.948372071481279	0.232183072193186
357125000	0.435484974648049	-0.878842871108882	-6.30062822365058E-05	9.07206206934764E-04			-3.2048564721955E-05	9.13734262534409E-04	-0.94594600226423	0.234240821371302
357187500	0.433000111256612	-0.882453168899508	-1.05343912178445E-05	6.10899767754923E-04			-1.57653797005818E-04	5.5641962259665E-04	-0.944594856931939	0.231212751413983
357250000	0.434180154232676	-0.878952360040819	-3.5968518164146E-04	8.72747666751872E-04			-2.86534720810195E-04	9.60427361335874E-04	-0.954724437270524	0.238480935611715
357312500	0.434131899515901	-0.881449330020573	-2.81720095414586E-04	7.77366606820096E-04			-1.88981453322134E-04	7.03192312919946E-04	-0.948208219665688	0.240171850742102
357375000	0.431214396896911	-0.878362969994572	-3.30332204499602E-04	9.48639060820661E-04			-1.94709837325589E-04	8.92302780831844E-04	-0.948902301301702	0.238446689209962
357437500	0.43170361774442	-0.879903796107401	-1.26863454835334E-04	1.0158467604365E-03			-6.03374324802724E-05	1.06179159714473E-03	-0.944370515214013	0.244845422226618
357500000	0.434520975910283	-0.877254227705664	-2.68360544378457E-04	7.20795007625203E-04			-1.71054012947241E-04	7.34075507666236E-04	-0.952638781779304	0.239555613682485
357562500	0.433161567735139	-0.87737880897796	-2.77185726698029E-04	1.18241846909782E-03			-1.95254913097958E-04	1.22156613456143E-03	-0.94344519369239	0.240997560535182
357625000	0.431988756013679	-0.881423813581169	1.5959013649782E-04	1.02153279204199E-03			1.81851161175085E-04	1.12777780053915E-03	-0.94900976793249	0.245479510002741
357687500	0.432730161490519	-0.879063753544028	-1.1654770605341E-04	7.60078504281603E-04			1.76913597288817E-05	6.91805740967798E-04	-0.949873613403379	0.237368012432365
357750000	0.432071414298721	-0.880350392942777	-1.61065516719359E-04	7.64000487165647E-04			-1.09842655883627E-04	7.17146461337534E-04	-0.948238050095067	0.23953432675812
357812500	0.432617575219523	-0.879276634947895	-8.63205410165729E-05	9.12372148030097E-04			-1.95672701067265E-04	9.326374522425E-04	-0.951997604169048	0.247464441084643
357875000	0.430666197448307	-0.879381307156526	-1.90536792487579E-04	1.08006667709312E-03			-2.50118368649745E-04	1.03391872832354E-03	-0.948617920715723	0.247946350450071
357937500	0.431129596497186	-0.880136556227057	-4.26240514868879E-06	1.13600142007108E-03			1.31991000199538E-05	1.1062058692179E-03	-0.948223884855357	0.248062082143812
358000000	0.430558532370086	-0.881396109310947	3.79596943419959E-05	9.72173859449442E-04			8.06079904209546E-06	9.43080940707899E-04	-0.947808781901869	0.245964930755529
358062500	0.430903540791109	-0.881394996010322	3.18941617308786E-05	9.70063746289057E-04			1.96977847307275E-05	7.88625037785382E-04	-0.956524743033215	0.253203008402267
358125000	0.428463446132045	-0.881632308548597	-1.81977592602398E-04	7.37101310157303E-04			-1.38731820436583E-04	8.14194446293473E-04	-0.950719798681878	0.257271760449034
358187500	0.427393099719736	-0.882870616419693	-3.38148265338087E-04	9.2156164382855E-04			-3.30010103485721E-04	8.80521862831916E-04	-0.940784807739591	0.247599375913439
358250000	0.427545524077024	-0.882497278308763	-4.19474587591084E-04	1.02444533560792E-03			-2.82221024506064E-04	1.10976674231962E-03	-0.943240127616396	0.254651666766971
358312500	0.427622567262552	-0.881051704570904	-2.61948336640992E-04	1.31293402406437E-03			-2.74749555283466E-04	1.31423062784274E-03	-0.940175862466678	0.259134021716351
358375000	0.428555434204731	-0.880451839482573	5.82210946766446E-04	1.11533119174046E-03			6.15754352825702E-04	1.27531894680337E-03	-0.942706496209102	0.26363861399906
358437500	0.429585189010261	-0.881110080890359	-2.10832650080368E-04	6.59725164677173E-04			-1.25663141564674E-04	6.11424672024734E-04	-0.932914204403419	0.250662496802715
358500000	0.428907546404473	-0.882040951029126	2.08451573053451E-04	1.00802594224308E-03			2.44828135272456E-04	9.81283874356576E-04	-0.945254115971767	0.256398958068813
358562500	0.430513490144399	-0.881515299582147	3.55640028144658E-05	5.43724168449444E-04			7.86100612755552E-05	4.50282582546695E-04	-0.942353096161523	0.254604861063875
358625000	0.429284938302567	-0.883250437702567	-1.97277191274799E-04	6.54024253386664E-04			-1.08818290913573E-04	7.26423706658514E-04	-0.942042431488339	0.250464179401694
358687500	0.429546436517624	-0.882265985512726	-3.83315577814073E-04	6.36689765294508E-04			-4.68324028271816E-04	7.26540348553246E-04	-0.940245005660192	0.256402411186925
358750000	0.428614434896378	-0.884197693002516	-3.97831468615984E-04	1.12310006859436E-03			-4.41596629848833E-04	1.08675632864241E-03	-0.941352703383091	0.255970901412126
358812500	0.429868458853852	-0.883790327131624	-1.11092748197992E-04	1.28753044000408E-03			-2.08599445790962E-04	1.25404750040877E-03	-0.945679354330603	0.258315258920739
358875000	0.428733268216024	-0.888487234603745	7.43062890750419E-05	1.32599929402724E-03			9.97062194696208E-05	1.35520911161145E-03	-0.93335010824991	0.253241123318888
358937500	0.42752469237809	-0.886569945621543	1.85326741281126E-04	1.0324827865005E-03			1.94121990882356E-04	8.95382332092079E-04	-0.939302457269746	0.258701266077709
359000000	0.426730289590634	-0.885999520506231	1.35217342360301E-04	9.21222104115337E-04			9.9159943631625E-05	1.01928024666358E-03	-0.946279512491807	0.256983305249065
359062500	0.426283599396546	-0.885788523403635	1.08776225661462E-04	9.17618090568405E-04			3.99090543748344E-05	7.29805635715823E-04	-0.939231834835174	0.260350996403
359125000	0.425620020620762	-0.883969290976002	3.55596821955835E-05	7.67158552646236E-04			3.37088608185593E-05	8.19629942287265E-04	-0.945628632604698	0.263989008785531
359187500	0.425882992478743	-0.888382405784195	5.55528738101946E-05	6.12288334891428E-04			-6.066831088692E-05	7.14279444976841E-04	-0.940990522443045	0.263059085729125
359250000	0.425433857158837	-0.885987597670899	-5.67766136943817E-05	8.39544645577058E-04			-8.54973867204724E-05	8.3993173487523E-04	-0.944357910745674	0.262671396636058
359312500	0.424600213785803	-0.887643844162536	-9.82344734048237E-05	7.58374961733382E-04			-2.07196817314049E-04	8.1468220007516E-04	-0.947726740044974	0.265538470447026
359375000	0.426185127642748	-0.887070573419953	-2.71557743059449E-04	8.36417675068166E-04			-3.51981147857975E-04	8.29382724622863E-04	-0.944011065379049	0.26677646275287
359437500	0.425008746934009	-0.887323223589277	-2.14790691157401E-04	9.98596909568768E-04			-2.86933949731009E-04	1.03869137080451E-03	-0.93941014670671	0.262652249843743
359500000	0.422193117061032	-0.887700221102944	-2.57444765143969E-04	1.15242040041128E-03			-2.83280732552161E-04	1.07184177010595E-03	-0.937671705562584	0.266014978875253
359562500	0.423202835185252	-0.886806688185749	1.27828940562715E-04	1.19974297870013E-03			7.65498603394179E-05	1.19041795798937E-03	-0.934045604010469	0.264487380839492
359625000	0.423394057996901	-0.888922295946978	3.40500454970986E-05	8.93619408648589E-04			9.21639344461981E-06	6.92841522501002E-04	-0.9333747871002	0.263168637765754
359687500	0.422051614665583	-0.887226640049055	9.55185261660414E-06	1.10288901244313E-03			4.48470845265258E-05	1.0179893417021E-03	-0.933501327422194	0.269694865671346
359750000	0.423214201631635	-0.886672381605256	2.73957488571407E-04	9.69569061432974E-04			2.41783726705851E-04	9.4198562954308E-04	-0.93945335204372	0.268120253995424
359812500	0.421274420564383	-0.889501211027744	2.87228563398612E-05	8.72379959614709E-04			-1.513149349424E-04	7.01420682229928E-04	-0.939060310978488	0.267238137481539
359875000	0.423852300323236	-0.890019894981408	-3.94437398482357E-05	9.82405026533268E-04			-2.0749398799208E-04	1.02748371847336E-03	-0.937006585097847	0.267488192785691
359937500	0.421868495524752	-0.891128071143133	5.68069702267624E-05	9.824202478731E-04			-4.25758438330829E-06	9.36534388866171E-04	-0.936112452095201	0.265553654910478
360000000	0.419301632297168	-0.890530255605766	1.72120494444556E-04	1.00976853922408E-03			9.43022049669802E-05	8.83781024743561E-04	-0.94177347781232	0.274171614367383
360062500	0.423687780039209	-0.889263657694545	1.34858370402085E-04	7.4627563216356E-04			9.72297985667237E-05	7.79096685582455E-04	-0.935314968108597	0.269155108152636
360125000	0.420070940008639	-0.890879088028142	-1.83634204608293E-05	7.09671091873215E-04			-1.2103960644526E-05	8.40011833332063E-04	-0.94462441718296	0.270697384867043
360187500	0.418817264036224	-0.891083638745476	-2.61253077193234E-04	7.90723397735209E-04			-2.38042492135991E-04	7.94714642467281E-04	-0.9351869307409	0.273785984976883
360250000	0.422061504160223	-0.89232446107589	-1.40040992120752E-04	9.94328473890492E-04			-1.01200221780271E-04	1.03690211238962E-03	-0.937549426138122	0.27156487725803
360312500	0.419560486809812	-0.892928665143958	-9.25804487698536E-05	1.1592739446388E-03			-1.2124634608716E-04	1.1712699444281E-03	-0.92918397471599	0.274133695645399
360375000	0.41813880210473	-0.891886193402703	2.5875647631701E-04	1.18244624538914E-03			1.49500469160998E-04	1.05027751288037E-03	-0.934242021307146	0.276256874160674
360437500	0.419494575917221	-0.892113526152418	2.18815613476548E-04	1.03908752879032E-03			1.62618062788935E-04	9.84810954448275E-04	-0.945598657867436	0.278150073507353
360500000	0.41772928132403	-0.891669747039312	3.4954856313524E-04	8.41956151091158E-04			3.76940760527058E-04	8.26250355947149E-04	-0.933071337005117	0.278912706583015
360562500	0.417383151304439	-0.892374417774304	8.23270372918799E-05	8.99402795459888E-04			-3.74594057314535E-05	6.74427221486704E-04	-0.934848097645309	0.281133451074777
360625000	0.416668321341009	-0.891404113267316	1.40362426990446E-04	9.03579206316974E-04			1.68932926369365E-04	9.26810563159748E-04	-0.928659060640932	0.2766196810579
360687500	0.41798948046984	-0.893488828148359	9.36632635234919E-05	8.21448670746186E-04			-5.22162018795635E-05	7.9040807694725E-04	-0.930195847312007	0.281558008628842
360750000	0.415562666719653	-0.892340405165726	-1.71715665618232E-05	7.03581420223312E-04			6.5869372243073E-05	8.49775886849094E-04	-0.927921618341658	0.279437314911077
