!Keysight Technologies,E5080A,MY55200989,A.11.70.00
!Date: Wednesday, September 19, 2018 14:16:57
!Correction: S11(Full 2 Port(1,2)) 
!S21(Full 2 Port(1,2)) 
!S12(Full 2 Port(1,2)) 
!S22(Full 2 Port(1,2)) 
!S2P File: Measurements: S11, S21, S12, S22:
# Hz S  dB   R 50
100000000 -0.016562795 -13.311271 -52.654541 74.459183 -52.641384 74.92067 -0.014400583 -13.347622
103687500 -0.015805 -13.826662 -52.20829 75.801445 -52.136303 76.058968 -0.017223002 -13.872128
107375000 -0.015591116 -14.305505 -52.031139 76.432304 -52.014854 75.956116 -0.018385956 -14.343949
111062500 -0.014230856 -14.800441 -51.433292 74.338333 -51.439579 74.425812 -0.015885482 -14.867812
114750000 -0.014985807 -15.317135 -51.220341 74.422188 -51.235714 74.011871 -0.019213306 -15.370515
118437500 -0.018231232 -15.793822 -50.911797 73.756821 -50.886608 74.801674 -0.017856373 -15.840368
122125000 -0.018183567 -16.277004 -50.635117 74.247147 -50.670006 74.287392 -0.01877382 -16.342617
125812500 -0.023953196 -16.753979 -50.373844 73.127243 -50.357918 72.686272 -0.02045491 -16.817213
129500000 -0.018057983 -17.25469 -50.291794 73.015427 -50.24073 72.758453 -0.019104641 -17.307915
133187500 -0.025007818 -17.789377 -49.954552 71.456894 -50.026234 71.663177 -0.025622699 -17.874224
136875000 -0.019186135 -18.237761 -49.80624 71.125381 -49.743523 70.915245 -0.022372479 -18.301735
140562500 -0.022289127 -18.743906 -49.422066 71.241882 -49.339046 71.480438 -0.020414254 -18.779514
144250000 -0.023355862 -19.210743 -49.325298 70.489265 -49.32687 70.445457 -0.023468757 -19.279173
147937500 -0.022913465 -19.706627 -49.028568 70.291618 -49.105377 70.031876 -0.021198416 -19.7785
151625000 -0.028477577 -20.171078 -48.795876 70.089348 -48.748161 70.386566 -0.029907431 -20.247929
155312500 -0.024634499 -20.704811 -48.663048 69.733688 -48.662251 70.016273 -0.023764376 -20.76301
159000000 -0.022100922 -21.221174 -48.422314 68.100525 -48.439617 68.783913 -0.026293872 -21.239443
162687500 -0.023096992 -21.651556 -48.241405 68.284103 -48.262779 68.253288 -0.025333652 -21.756342
166375000 -0.023457665 -22.174433 -48.165916 66.582581 -48.20475 66.900414 -0.027096078 -22.241667
170062500 -0.026065608 -22.671059 -47.942959 67.046753 -47.849243 67.030533 -0.033725791 -22.745588
173750000 -0.030854888 -23.170324 -47.737324 66.804695 -47.654964 66.412033 -0.024724828 -23.23892
177437500 -0.023240924 -23.643507 -47.507172 66.293434 -47.595592 66.046562 -0.022454195 -23.757874
181125000 -0.029083172 -24.204155 -47.367596 65.295013 -47.36956 65.81205 -0.023452086 -24.191435
184812500 -0.027014017 -24.608543 -47.126736 65.540115 -47.104706 66.025475 -0.036918357 -24.752043
188500000 -0.028443797 -25.107409 -47.067604 64.304779 -46.992691 65.103523 -0.026761273 -25.187283
192187500 -0.026534665 -25.606018 -46.774529 64.973846 -46.836735 64.595207 -0.03121605 -25.687332
195875000 -0.031351935 -26.080408 -46.667423 63.990173 -46.74197 63.815525 -0.033335395 -26.209547
199562500 -0.029683191 -26.617851 -46.557087 62.835213 -46.559601 62.507835 -0.036030941 -26.701855
203250000 -0.026568487 -27.136171 -46.41534 63.008091 -46.331474 62.454315 -0.029558331 -27.279217
206937500 -0.023694348 -27.546686 -46.160435 62.228722 -46.127369 62.432083 -0.022954086 -27.653595
210625000 -0.029731911 -28.122984 -46.141769 61.749619 -46.022602 62.096584 -0.034758303 -28.143747
214312500 -0.023234364 -28.563999 -45.745163 61.303402 -45.867004 61.879398 -0.034564663 -28.607738
218000000 -0.036766924 -29.102982 -45.864807 61.222183 -45.847118 60.567852 -0.032549631 -29.130409
221687500 -0.039865732 -29.583591 -45.639168 60.608067 -45.589188 60.966721 -0.036870882 -29.611559
225375000 -0.04020416 -30.043083 -45.551392 60.404144 -45.530216 60.4575 -0.034138642 -30.081789
229062500 -0.037556898 -30.537144 -45.384621 59.684338 -45.360939 59.141788 -0.02675873 -30.581202
232750000 -0.037330799 -31.001017 -45.308769 58.96244 -45.264381 59.384663 -0.041240182 -31.152603
236437500 -0.041892018 -31.488333 -45.192062 57.94833 -45.130192 58.661983 -0.039163504 -31.592413
240125000 -0.039943647 -32.034611 -44.994728 58.721882 -45.01894 58.515297 -0.027654063 -32.10017
243812500 -0.033284109 -32.458355 -44.915413 57.411526 -44.750153 58.19268 -0.051515583 -32.578186
247500000 -0.038666263 -33.007153 -44.818672 57.074696 -44.718567 57.295528 -0.051293392 -33.071911
251187500 -0.042759065 -33.473373 -44.668648 57.000042 -44.692974 56.520309 -0.039548025 -33.484001
254875000 -0.043981019 -34.037239 -44.664906 56.972679 -44.588894 56.427723 -0.037150074 -34.108978
258562500 -0.051319234 -34.431137 -44.357315 56.366562 -44.359791 55.74197 -0.044857215 -34.492844
262250000 -0.049203001 -34.985317 -44.287865 55.520035 -44.25724 54.797302 -0.041287497 -35.005886
265937500 -0.045751821 -35.48138 -44.195225 54.533146 -44.312775 54.238384 -0.050957832 -35.521935
269625000 -0.044307251 -35.897652 -44.165066 54.136612 -44.099979 54.250042 -0.051820241 -36.020573
273312500 -0.049982853 -36.39064 -43.975391 53.710056 -43.987118 53.728977 -0.049107544 -36.470539
277000000 -0.050070915 -36.873512 -43.87328 53.922791 -43.875263 53.700386 -0.046494074 -36.93911
280687500 -0.041785367 -37.452229 -43.776394 52.650097 -43.754185 52.930389 -0.053766161 -37.450481
284375000 -0.04748024 -37.957314 -43.661842 52.235397 -43.587303 52.398575 -0.048631556 -37.95866
288062500 -0.052651364 -38.459591 -43.596718 51.749409 -43.618118 52.0816 -0.051833954 -38.429459
291750000 -0.052181929 -38.9049 -43.446823 51.053349 -43.53223 51.731552 -0.048651479 -38.913437
295437500 -0.050799191 -39.370182 -43.320999 50.831169 -43.379448 50.650337 -0.053497277 -39.436497
299125000 -0.053853087 -39.834141 -43.236923 50.504333 -43.192368 50.323853 -0.041738994 -39.880356
302812500 -0.061306629 -40.346611 -43.193291 49.620155 -43.239723 49.917942 -0.060104243 -40.462395
306500000 -0.055911183 -40.819481 -42.995613 49.709766 -42.985878 49.539497 -0.051773604 -40.891258
310187500 -0.048140958 -41.335526 -42.983643 49.07988 -42.965099 49.201942 -0.054438028 -41.428955
313875000 -0.055082276 -41.827103 -42.908108 48.57077 -42.93037 48.382843 -0.051741369 -41.887264
317562500 -0.052573059 -42.350559 -42.769676 47.938915 -42.782574 47.684406 -0.054033071 -42.38855
321250000 -0.056334347 -42.831196 -42.735859 47.269409 -42.669922 47.58794 -0.055501036 -42.879444
324937500 -0.060452223 -43.325142 -42.625164 47.067963 -42.614529 46.688934 -0.057329345 -43.362976
328625000 -0.05735879 -43.798061 -42.47636 46.658459 -42.484474 46.675053 -0.063251793 -43.873802
332312500 -0.057038933 -44.29565 -42.376404 46.286045 -42.387791 46.138714 -0.064352915 -44.361767
336000000 -0.058737226 -44.783146 -42.384907 45.537678 -42.308262 45.667805 -0.056446172 -44.82518
339687500 -0.0624125 -45.260303 -42.294487 44.990021 -42.227257 44.89101 -0.062578805 -45.289684
343375000 -0.056570515 -45.751255 -42.217014 44.441032 -42.226719 44.786186 -0.061339822 -45.781845
347062500 -0.071727857 -46.358158 -42.086163 43.908352 -42.090858 43.955162 -0.075200737 -46.399456
350750000 -0.063865036 -46.730606 -41.939369 43.402214 -42.012924 43.326164 -0.064997643 -46.767776
354437500 -0.0630164 -47.228916 -41.96645 43.252453 -41.934814 43.176327 -0.068200991 -47.251633
358125000 -0.064084977 -47.72784 -41.87096 42.999275 -41.869698 42.998791 -0.070387699 -47.736546
361812500 -0.064315543 -48.206795 -41.748123 42.256901 -41.739998 42.474545 -0.06772688 -48.252655
365500000 -0.069712684 -48.679119 -41.689243 41.808701 -41.69141 41.933369 -0.075765148 -48.722054
369187500 -0.066012651 -49.198456 -41.642784 41.390587 -41.590824 41.2868 -0.072843656 -49.212219
372875000 -0.069514751 -49.708073 -41.556145 40.716476 -41.57478 40.686951 -0.072684005 -49.713688
376562500 -0.07040897 -50.163136 -41.483234 40.169765 -41.476456 40.131641 -0.074014947 -50.203064
380250000 -0.070053712 -50.675606 -41.393436 39.616825 -41.406021 39.673782 -0.074208274 -50.707439
383937500 -0.070454195 -51.148827 -41.358963 39.383244 -41.341866 39.343498 -0.077639595 -51.169758
387625000 -0.070102237 -51.643105 -41.234333 38.801655 -41.219353 39.215073 -0.075537227 -51.670601
391312500 -0.075103581 -52.178589 -41.183475 38.25745 -41.16571 38.440933 -0.080397628 -52.186424
395000000 -0.070776723 -52.65554 -41.114773 38.107162 -41.12336 37.689644 -0.078333937 -52.634483
398687500 -0.072608963 -53.170998 -41.047253 37.354576 -41.059246 37.243755 -0.078221798 -53.156029
402375000 -0.072508112 -53.638206 -41.001026 36.985142 -40.9771 37.101284 -0.08250957 -53.63229
406062500 -0.078206949 -54.125111 -40.891136 36.127281 -40.893635 36.262047 -0.080324002 -54.111195
409750000 -0.082934506 -54.586971 -40.876366 36.015732 -40.861515 35.947483 -0.087226629 -54.585155
413437500 -0.077271588 -55.126072 -40.779797 35.248661 -40.808289 35.418659 -0.084979922 -55.117153
417125000 -0.086255401 -55.643604 -40.75655 35.074635 -40.728226 34.926304 -0.088576682 -55.654903
420812500 -0.079581738 -56.095448 -40.700996 34.471531 -40.652657 34.661476 -0.086356759 -56.072735
424500000 -0.08190573 -56.598454 -40.596584 33.899044 -40.600029 34.212406 -0.085997112 -56.580982
428187500 -0.088633552 -57.057449 -40.521919 33.643986 -40.510448 33.567951 -0.087848067 -57.055294
431875000 -0.084720552 -57.581581 -40.482147 32.994427 -40.504974 33.267235 -0.090322934 -57.56155
435562500 -0.085059658 -58.104359 -40.438873 32.274628 -40.455555 32.519028 -0.092945464 -58.095295
439250000 -0.088222727 -58.574944 -40.346481 32.028522 -40.350056 32.035004 -0.089028306 -58.541374
442937500 -0.086597636 -59.097523 -40.287636 31.277458 -40.284641 31.299534 -0.097740427 -59.060146
446625000 -0.085032508 -59.592342 -40.254963 30.972107 -40.275295 31.022669 -0.09436065 -59.471832
450312500 -0.095424227 -60.064247 -40.234688 30.565859 -40.206562 30.536629 -0.092301585 -60.037472
454000000 -0.10128712 -60.536541 -40.125874 30.09643 -40.157108 29.958248 -0.11880576 -60.525509
457687500 -0.089684978 -61.012085 -40.133038 29.798449 -40.095062 29.652914 -0.10004415 -61.030632
461375000 -0.087118328 -61.537773 -40.057732 28.939646 -40.00922 28.984724 -0.1001321 -61.523952
465062500 -0.095222071 -62.007198 -39.955624 28.251884 -39.939911 28.586262 -0.098703928 -62.014736
468750000 -0.099199846 -62.512863 -39.880772 28.301775 -39.905602 28.487667 -0.096715607 -62.503326
472437500 -0.10195446 -62.98674 -39.865417 27.680847 -39.848526 27.74859 -0.1055662 -62.908024
476125000 -0.098892458 -63.498699 -39.805595 27.286024 -39.817039 27.122038 -0.10890601 -63.421955
479812500 -0.10032793 -63.990894 -39.75848 26.979361 -39.749008 27.130522 -0.10228823 -63.980999
483500000 -0.097437382 -64.527321 -39.748684 26.205933 -39.728363 26.285011 -0.11170908 -64.46244
487187500 -0.097418696 -65.067062 -39.688618 25.492052 -39.635567 25.703003 -0.1011907 -64.932281
490875000 -0.099397451 -65.490051 -39.563824 25.16431 -39.597389 25.043545 -0.10906181 -65.401367
494562500 -0.10439821 -65.965103 -39.574013 24.995083 -39.527428 24.904242 -0.11657525 -65.929665
498250000 -0.10620492 -66.556114 -39.516064 24.252464 -39.503159 24.154297 -0.11204092 -66.449211
501937500 -0.10471191 -67.007698 -39.485142 24.06649 -39.500515 23.935137 -0.10850954 -66.90963
505625000 -0.096308157 -67.494514 -39.427372 23.655476 -39.36631 23.622049 -0.11110063 -67.445084
509312500 -0.10682644 -67.947189 -39.365189 23.219992 -39.346867 22.854879 -0.10937531 -67.877327
513000000 -0.11343061 -68.43898 -39.330685 22.249477 -39.320526 22.019634 -0.1080423 -68.399864
516687500 -0.10752375 -68.956772 -39.318241 22.08182 -39.272064 22.055874 -0.12109103 -68.831978
520375000 -0.11471388 -69.389442 -39.207741 21.49761 -39.225258 21.731377 -0.11761705 -69.35704
524062500 -0.11258666 -69.994324 -39.2029 20.935009 -39.194939 21.503689 -0.12380031 -69.88755
527750000 -0.10728662 -70.454048 -39.170654 20.609455 -39.147865 20.621508 -0.11360388 -70.341743
531437500 -0.11445572 -70.956001 -39.074081 20.173584 -39.087566 20.287727 -0.11383815 -70.846954
535125000 -0.11495257 -71.477066 -39.073452 19.411882 -39.074688 19.259552 -0.12321452 -71.361176
538812500 -0.11428256 -71.940071 -39.011024 19.356586 -39.028599 19.330618 -0.12284255 -71.760452
542500000 -0.1211212 -72.504532 -38.99086 18.417128 -38.985863 18.515162 -0.12487198 -72.373016
546187500 -0.122897 -72.934189 -38.959774 18.196909 -38.954773 18.143534 -0.12655066 -72.789429
549875000 -0.11910074 -73.427322 -38.860531 17.760187 -38.887531 17.853832 -0.12197252 -73.304756
553562500 -0.11364148 -73.930206 -38.875206 17.026543 -38.886967 17.277678 -0.12724972 -73.820267
557250000 -0.12109603 -74.397026 -38.787514 16.881775 -38.851334 16.776777 -0.13312925 -74.282135
560937500 -0.12869084 -74.916733 -38.790688 16.456575 -38.808136 16.241631 -0.13980909 -74.746758
564625000 -0.12604296 -75.453499 -38.748367 16.017965 -38.730042 15.658733 -0.12884082 -75.270782
568312500 -0.12817974 -75.923172 -38.660755 15.433446 -38.726566 15.272529 -0.13016905 -75.767097
572000000 -0.12458719 -76.379929 -38.689846 15.157553 -38.702888 14.97185 -0.13319087 -76.239876
575687500 -0.12456855 -76.96122 -38.60833 14.475448 -38.604717 14.191843 -0.12628697 -76.72715
579375000 -0.13017781 -77.41153 -38.566803 13.674227 -38.601467 13.724206 -0.13348877 -77.203758
583062500 -0.1235844 -77.923798 -38.546322 13.373072 -38.531048 13.318976 -0.13501514 -77.691994
586750000 -0.13339336 -78.448265 -38.559505 12.918507 -38.543011 12.910442 -0.13717222 -78.211319
590437500 -0.12226297 -78.905411 -38.431904 12.310973 -38.433582 12.604681 -0.13723613 -78.65358
594125000 -0.1271677 -79.440948 -38.446068 11.88648 -38.469372 11.832329 -0.138422 -79.188118
597812500 -0.13324261 -79.92305 -38.423813 11.518936 -38.438908 11.539284 -0.14022116 -79.659859
601500000 -0.13019516 -80.401222 -38.388695 10.948877 -38.388302 10.803143 -0.13858153 -80.170357
605187500 -0.13657767 -80.951714 -38.34285 10.620867 -38.327206 10.482104 -0.14288405 -80.64682
608875000 -0.13418151 -81.430168 -38.303303 10.146575 -38.303356 10.087084 -0.14198275 -81.133514
612562500 -0.13448662 -81.911171 -38.31723 9.6027555 -38.274433 9.6387396 -0.14402512 -81.64756
616250000 -0.13364618 -82.380379 -38.215195 9.0560856 -38.230972 9.0729122 -0.14476703 -82.069565
619937500 -0.13565674 -82.893303 -38.210617 8.6512299 -38.195354 8.7264118 -0.14732546 -82.577118
623625000 -0.14019176 -83.371223 -38.167458 8.07621 -38.174934 7.9675021 -0.14881793 -83.085152
627312500 -0.13940243 -83.889412 -38.148708 7.8211865 -38.164757 7.6514997 -0.14862958 -83.558777
631000000 -0.14108707 -84.410507 -38.103264 7.5507545 -38.100002 7.1453414 -0.15387936 -84.108414
634687500 -0.14019111 -84.904602 -38.086494 6.9817791 -38.057152 6.9039884 -0.15091038 -84.553986
638375000 -0.14256316 -85.394234 -38.056629 6.0186787 -38.057259 6.3872309 -0.1460254 -85.052094
642062500 -0.14796205 -85.883598 -38.065708 5.9206185 -38.059788 5.7510748 -0.15420267 -85.512512
645750000 -0.14218603 -86.421074 -38.024796 5.3535271 -37.979004 5.5306163 -0.14723149 -86.007202
649437500 -0.1488684 -86.963333 -37.964989 4.8450961 -37.93589 4.830246 -0.16048047 -86.53907
653125000 -0.14795521 -87.395767 -37.967892 4.4659867 -37.956181 4.5578885 -0.1556028 -86.9674
656812500 -0.1442837 -87.904938 -37.893486 3.6818907 -37.892132 3.8534131 -0.15708758 -87.483635
660500000 -0.1466485 -88.412186 -37.915665 3.6209702 -37.913818 3.5460835 -0.15964548 -87.969292
664187500 -0.15461007 -88.906525 -37.844498 2.9624276 -37.830189 2.9851961 -0.16250508 -88.4552
667875000 -0.15980299 -89.347862 -37.840317 2.5962396 -37.843735 2.6248128 -0.16829838 -88.880203
671562500 -0.15084444 -89.922501 -37.805794 2.1246145 -37.803246 2.0742345 -0.15994187 -89.421516
675250000 -0.15159525 -90.414711 -37.78244 1.7490157 -37.802399 1.6671647 -0.16724652 -89.923973
678937500 -0.15740617 -90.910591 -37.755787 1.2208548 -37.765568 0.85942352 -0.16232735 -90.406555
682625000 -0.15555511 -91.419365 -37.705502 0.58244991 -37.682358 0.61041701 -0.16043554 -90.887177
686312500 -0.1594262 -91.89257 -37.73008 0.23122799 -37.707809 0.1972602 -0.17288135 -91.394585
690000000 -0.15201709 -92.4562 -37.639839 -0.33307308 -37.627129 -0.28053328 -0.17009667 -91.86718
693687500 -0.16037834 -92.976173 -37.625809 -0.97330475 -37.626202 -1.0862077 -0.17351927 -92.408089
697375000 -0.16296943 -93.454514 -37.60405 -1.1452954 -37.62645 -1.346999 -0.17253582 -92.820755
701062500 -0.1591174 -93.938362 -37.602467 -1.9172189 -37.588387 -1.8505689 -0.17820597 -93.421829
704750000 -0.15540652 -94.40609 -37.601143 -2.0349293 -37.580376 -2.304014 -0.1752094 -93.829773
708437500 -0.16094254 -94.947304 -37.565887 -2.9321427 -37.568386 -2.9437816 -0.17494605 -94.349701
712125000 -0.17397323 -95.429718 -37.583576 -3.4153707 -37.596195 -3.3341806 -0.17882764 -94.806801
715812500 -0.16806872 -95.976967 -37.494877 -4.0947318 -37.517864 -3.7853315 -0.1741385 -95.295944
719500000 -0.16183031 -96.438744 -37.495941 -4.2434068 -37.502876 -4.1689701 -0.17130581 -95.845596
723187500 -0.17135051 -96.996498 -37.403049 -4.6897497 -37.448883 -4.7596107 -0.17700949 -96.280769
726875000 -0.17208833 -97.481499 -37.449348 -4.9545364 -37.44553 -4.9687872 -0.18356074 -96.774689
730562500 -0.17029418 -98.006218 -37.410305 -5.8639307 -37.442669 -5.7818432 -0.18657225 -97.259819
734250000 -0.16701666 -98.515846 -37.404957 -6.204474 -37.402973 -6.1044774 -0.18100242 -97.821617
737937500 -0.1737787 -99.036339 -37.386345 -6.6374531 -37.425179 -6.8681054 -0.19613862 -98.310829
741625000 -0.17555268 -99.465744 -37.375927 -7.2407851 -37.351131 -7.1174827 -0.18209057 -98.725388
745312500 -0.16648388 -100.02613 -37.364994 -7.5415502 -37.35815 -7.8049202 -0.17687121 -99.211075
749000000 -0.16610296 -100.54941 -37.341049 -7.9980383 -37.331974 -7.988718 -0.19228198 -99.703697
752687500 -0.18180625 -101.02035 -37.314484 -8.4458504 -37.32143 -8.4463158 -0.19174457 -100.25709
756375000 -0.1832795 -101.55823 -37.285648 -8.8501806 -37.240707 -8.9471855 -0.20161366 -100.73045
760062500 -0.17773949 -102.05275 -37.243561 -9.2319899 -37.252682 -9.4858284 -0.18551496 -101.20726
763750000 -0.17987144 -102.5528 -37.289017 -10.138941 -37.286541 -10.090269 -0.19445376 -101.75102
767437500 -0.18263038 -103.07872 -37.246922 -10.536922 -37.248932 -10.367395 -0.20563243 -102.22358
771125000 -0.1805044 -103.62017 -37.209717 -10.901658 -37.206318 -10.928738 -0.19211832 -102.73339
774812500 -0.19381374 -104.1031 -37.175179 -11.499872 -37.219803 -11.508531 -0.19923936 -103.14488
778500000 -0.18343839 -104.6516 -37.219387 -11.704479 -37.194569 -11.859064 -0.20316945 -103.70902
782187500 -0.19139479 -105.14735 -37.21497 -12.481717 -37.231609 -12.375395 -0.2013635 -104.23328
785875000 -0.18817326 -105.6388 -37.171379 -12.69382 -37.201851 -12.724251 -0.20211594 -104.68755
789562500 -0.1873778 -106.15588 -37.146519 -13.326983 -37.168678 -13.330141 -0.20619221 -105.19957
793250000 -0.19332772 -106.62392 -37.17934 -13.703082 -37.138577 -13.721698 -0.2065198 -105.62389
796937500 -0.18813021 -107.1584 -37.149761 -14.396299 -37.126053 -14.438332 -0.21438648 -106.18063
800625000 -0.19551855 -107.69807 -37.09428 -14.792283 -37.068237 -14.78368 -0.20647551 -106.66814
804312500 -0.19924682 -108.18819 -37.10107 -15.120015 -37.086605 -15.188215 -0.21006031 -107.1674
808000000 -0.20209892 -108.74886 -37.065121 -15.639904 -37.068687 -15.930902 -0.21593398 -107.67582
811687500 -0.20374356 -109.18604 -37.07048 -16.199293 -37.044788 -16.235331 -0.20879358 -108.16364
815375000 -0.19535366 -109.72651 -37.039658 -16.659941 -37.034531 -16.603746 -0.21661212 -108.63153
819062500 -0.2107958 -110.24832 -37.03186 -16.890293 -37.06723 -17.165857 -0.21548672 -109.13706
822750000 -0.20031074 -110.74149 -37.03717 -17.445024 -37.036945 -17.665274 -0.21522614 -109.66145
826437500 -0.20830682 -111.27846 -37.043705 -17.971029 -37.029545 -18.186815 -0.21783741 -110.14549
830125000 -0.20382266 -111.75008 -37.023678 -18.781778 -37.03809 -18.716162 -0.21383095 -110.61932
833812500 -0.20058405 -112.29245 -37.016273 -19.078665 -36.979832 -19.181936 -0.21961191 -111.13542
