!Agilent Technologies,E5071C,MY46104547,A.08.12
!Date: Tue Nov 21 09:33:06 2017
!Data & Calibration Information:
!Freq	S11:SOLT2(ON)	S21:SOLT2(ON)	S12:SOLT2(ON)	S22:SOLT2(ON)
# Hz S dB R 50
80000000	-1.173428e-002	-1.029277e+001	-8.346292e+001	6.822976e+001	-8.328840e+001	7.285760e+001	-1.011500e-002	-1.042892e+001
81200000	-1.907003e-002	-1.041275e+001	-7.365707e+001	6.055615e+001	-7.419210e+001	6.130500e+001	-1.703158e-002	-1.054626e+001
82400000	-1.204274e-002	-1.056200e+001	-7.779624e+001	5.700713e+001	-7.802958e+001	4.438524e+001	-1.154583e-002	-1.069565e+001
83600000	-1.160946e-002	-1.073163e+001	-8.060871e+001	9.916256e+001	-8.026660e+001	1.008502e+002	-1.040834e-002	-1.086390e+001
84800000	-1.204112e-002	-1.089406e+001	-7.862438e+001	5.990125e+001	-7.959607e+001	4.700008e+001	-1.106789e-002	-1.102562e+001
86000000	-1.218193e-002	-1.104080e+001	-9.099094e+001	1.169159e+002	-9.165444e+001	1.304213e+002	-1.144631e-002	-1.118376e+001
87200000	-1.259154e-002	-1.119822e+001	-7.987795e+001	7.627310e+001	-8.040260e+001	6.639555e+001	-9.672084e-003	-1.133542e+001
88400000	-1.260549e-002	-1.135996e+001	-8.021407e+001	1.007309e+002	-8.140445e+001	9.636909e+001	-1.151223e-002	-1.149968e+001
89600000	-1.664752e-002	-1.153676e+001	-7.982986e+001	3.114081e+001	-7.925404e+001	3.996730e+001	-1.172153e-002	-1.168535e+001
90800000	-1.603719e-002	-1.164708e+001	-8.563530e+001	-1.131271e+002	-8.805320e+001	-9.319945e+001	-1.236792e-002	-1.178053e+001
92000000	-1.273784e-002	-1.179871e+001	-8.120773e+001	3.866437e+001	-8.281648e+001	4.660985e+001	-1.271879e-002	-1.194120e+001
93200000	-1.424929e-002	-1.196352e+001	-7.680415e+001	8.741814e+001	-7.796880e+001	8.595342e+001	-8.751052e-003	-1.209667e+001
94400000	-1.361412e-002	-1.212024e+001	-7.947607e+001	6.961599e+001	-7.939042e+001	6.692030e+001	-8.767869e-003	-1.225361e+001
95600000	-1.245972e-002	-1.226757e+001	-7.890881e+001	5.858580e+001	-7.877660e+001	6.375773e+001	-1.223933e-002	-1.242026e+001
96800000	-1.406182e-002	-1.243705e+001	-7.892527e+001	7.418236e+001	-8.047616e+001	6.087602e+001	-1.089451e-002	-1.258984e+001
98000000	-1.294085e-002	-1.259780e+001	-8.043424e+001	7.120580e+001	-8.064087e+001	7.910745e+001	-1.170913e-002	-1.275188e+001
99200000	-1.906178e-002	-1.271118e+001	-8.571454e+001	-2.050007e+001	-8.540707e+001	-2.391636e+001	-1.984439e-002	-1.287254e+001
100400000	-1.474245e-002	-1.288291e+001	-7.938477e+001	5.537962e+001	-7.896971e+001	4.729952e+001	-1.432612e-002	-1.302926e+001
101600000	-1.421527e-002	-1.304051e+001	-7.943079e+001	5.858613e+001	-7.949272e+001	5.608818e+001	-1.510147e-002	-1.320250e+001
102800000	-1.622499e-002	-1.320063e+001	-7.907304e+001	6.775786e+001	-7.825123e+001	6.531884e+001	-1.358491e-002	-1.335187e+001
104000000	-1.581087e-002	-1.335513e+001	-7.561672e+001	6.719238e+001	-7.641647e+001	6.683701e+001	-1.332824e-002	-1.351121e+001
105200000	-1.574304e-002	-1.350623e+001	-8.009741e+001	4.902801e+001	-8.115258e+001	5.720401e+001	-1.217729e-002	-1.365825e+001
106400000	-1.919601e-002	-1.366953e+001	-7.756336e+001	9.179605e+001	-7.880627e+001	1.031352e+002	-1.256011e-002	-1.380887e+001
107600000	-1.753176e-002	-1.384093e+001	-7.782385e+001	5.547813e+001	-7.739287e+001	6.016770e+001	-1.747027e-002	-1.402703e+001
108800000	-1.625445e-002	-1.395464e+001	-8.344979e+001	4.373624e+001	-8.105500e+001	4.180160e+001	-1.664840e-002	-1.412948e+001
110000000	-1.508123e-002	-1.410495e+001	-7.652022e+001	6.523246e+001	-7.669524e+001	6.834236e+001	-1.646419e-002	-1.429533e+001
111200000	-1.472910e-002	-1.425205e+001	-7.645415e+001	8.611370e+001	-7.568522e+001	8.384865e+001	-1.518185e-002	-1.443719e+001
112400000	-1.729918e-002	-1.443267e+001	-8.454566e+001	1.301033e+002	-8.514987e+001	1.360074e+002	-1.373385e-002	-1.458951e+001
113600000	-1.380522e-002	-1.456666e+001	-7.757646e+001	6.794817e+001	-7.776525e+001	7.256305e+001	-1.254907e-002	-1.474265e+001
114800000	-1.594424e-002	-1.474185e+001	-7.756291e+001	6.371869e+001	-7.618804e+001	6.468495e+001	-1.634986e-002	-1.491909e+001
116000000	-1.309330e-002	-1.489475e+001	-7.886257e+001	9.107480e+001	-7.692134e+001	9.336961e+001	-1.553348e-002	-1.508986e+001
117200000	-1.971206e-002	-1.499910e+001	-9.600437e+001	1.236733e+002	-8.706999e+001	9.760177e+001	-2.526628e-002	-1.520890e+001
118400000	-1.524017e-002	-1.518641e+001	-7.929648e+001	8.774214e+001	-7.994359e+001	9.166303e+001	-1.820195e-002	-1.538231e+001
119600000	-1.525067e-002	-1.532850e+001	-7.768308e+001	5.863318e+001	-7.716697e+001	5.172643e+001	-1.545570e-002	-1.551156e+001
120800000	-1.708244e-002	-1.550464e+001	-7.522334e+001	7.086263e+001	-7.472765e+001	6.696485e+001	-1.658262e-002	-1.567049e+001
122000000	-1.445872e-002	-1.565190e+001	-7.806205e+001	5.841409e+001	-7.790093e+001	5.742140e+001	-1.651732e-002	-1.584091e+001
123200000	-1.597899e-002	-1.578963e+001	-8.166223e+001	5.342333e+001	-8.154429e+001	4.938064e+001	-1.988728e-002	-1.600637e+001
124400000	-1.238068e-002	-1.595269e+001	-7.761504e+001	7.504106e+001	-7.740320e+001	7.740500e+001	-1.646361e-002	-1.616375e+001
125600000	-2.044031e-002	-1.614196e+001	-8.147175e+001	1.153558e+002	-8.164072e+001	1.092005e+002	-2.118076e-002	-1.635232e+001
126800000	-1.716573e-002	-1.623887e+001	-7.758311e+001	4.330790e+001	-7.677334e+001	4.914521e+001	-2.191709e-002	-1.647703e+001
128000000	-1.449336e-002	-1.637676e+001	-7.237906e+001	6.552887e+001	-7.271347e+001	6.304993e+001	-2.353584e-002	-1.666081e+001
129200000	-1.457154e-002	-1.653491e+001	-7.497086e+001	8.422834e+001	-7.526063e+001	7.913547e+001	-2.220950e-002	-1.679581e+001
130400000	-1.539552e-002	-1.670125e+001	-8.090755e+001	8.273996e+001	-8.053202e+001	7.487211e+001	-1.780065e-002	-1.689810e+001
131600000	-1.610545e-002	-1.685223e+001	-7.845344e+001	8.397497e+001	-8.043924e+001	7.814495e+001	-1.815519e-002	-1.704044e+001
132800000	-1.526099e-002	-1.701424e+001	-7.635146e+001	7.253466e+001	-7.647907e+001	7.644330e+001	-1.885200e-002	-1.723727e+001
134000000	-1.639518e-002	-1.719265e+001	-7.632064e+001	7.478993e+001	-7.657533e+001	7.686799e+001	-2.021986e-002	-1.740010e+001
135200000	-2.144804e-002	-1.729628e+001	-8.488583e+001	6.644663e+001	-8.459439e+001	8.480359e+001	-2.615919e-002	-1.746858e+001
136400000	-1.600370e-002	-1.744190e+001	-7.323920e+001	6.549409e+001	-7.342326e+001	6.426308e+001	-2.154673e-002	-1.765791e+001
137600000	-1.669241e-002	-1.762747e+001	-7.531999e+001	5.249145e+001	-7.612373e+001	5.589446e+001	-2.150077e-002	-1.784181e+001
138800000	-1.412579e-002	-1.776148e+001	-7.682559e+001	6.429761e+001	-7.737533e+001	6.313671e+001	-2.061751e-002	-1.798566e+001
140000000	-1.594417e-002	-1.791560e+001	-7.278627e+001	7.765177e+001	-7.207063e+001	7.748738e+001	-2.238571e-002	-1.813102e+001
141200000	-1.373483e-002	-1.807368e+001	-7.322212e+001	7.947745e+001	-7.343767e+001	7.266817e+001	-2.203734e-002	-1.831215e+001
142400000	-1.875640e-002	-1.823426e+001	-8.196703e+001	8.859670e+001	-8.176522e+001	8.390302e+001	-2.399912e-002	-1.848235e+001
143600000	-2.334999e-002	-1.842109e+001	-8.465747e+001	8.857591e+001	-8.303847e+001	8.640488e+001	-3.167058e-002	-1.867761e+001
144800000	-1.810934e-002	-1.850297e+001	-7.627435e+001	6.579656e+001	-7.600644e+001	6.331891e+001	-2.287374e-002	-1.875485e+001
146000000	-1.677746e-002	-1.866720e+001	-7.742196e+001	5.442224e+001	-7.660147e+001	5.626062e+001	-2.492870e-002	-1.896583e+001
147200000	-1.865417e-002	-1.882176e+001	-7.511463e+001	8.402253e+001	-7.484914e+001	8.629649e+001	-2.564691e-002	-1.909392e+001
148400000	-1.669628e-002	-1.897905e+001	-7.403749e+001	8.147573e+001	-7.435333e+001	7.876320e+001	-2.418723e-002	-1.923632e+001
149600000	-1.538518e-002	-1.909964e+001	-7.630526e+001	5.607532e+001	-7.645582e+001	5.935052e+001	-2.179710e-002	-1.936259e+001
150800000	-1.653154e-002	-1.926527e+001	-7.789322e+001	7.887003e+001	-7.741519e+001	7.461581e+001	-2.261339e-002	-1.953859e+001
152000000	-1.863763e-002	-1.944407e+001	-7.673346e+001	6.999083e+001	-7.599421e+001	6.391907e+001	-2.474826e-002	-1.972751e+001
153200000	-2.422195e-002	-1.953589e+001	-7.073538e+001	9.270482e+001	-7.044526e+001	9.304660e+001	-2.897973e-002	-1.980684e+001
154400000	-1.815765e-002	-1.967276e+001	-7.464015e+001	5.836829e+001	-7.489757e+001	5.979623e+001	-2.508203e-002	-1.996627e+001
155600000	-1.817101e-002	-1.984970e+001	-7.519992e+001	9.454607e+001	-7.516274e+001	9.246780e+001	-2.584271e-002	-2.014890e+001
156800000	-1.894019e-002	-2.005575e+001	-7.516724e+001	5.833765e+001	-7.483556e+001	5.907629e+001	-2.726864e-002	-2.028077e+001
158000000	-1.804280e-002	-2.019019e+001	-7.507965e+001	7.083558e+001	-7.488722e+001	6.907752e+001	-2.495248e-002	-2.043847e+001
159200000	-1.833146e-002	-2.032343e+001	-7.674129e+001	6.498994e+001	-7.645902e+001	5.836327e+001	-2.504155e-002	-2.061260e+001
160400000	-1.886683e-002	-2.052599e+001	-7.475794e+001	6.474375e+001	-7.606756e+001	6.477519e+001	-2.464678e-002	-2.079717e+001
161600000	-2.652230e-002	-2.072421e+001	-7.468507e+001	7.691388e+001	-7.519371e+001	7.624402e+001	-3.451116e-002	-2.098587e+001
162800000	-2.116525e-002	-2.077195e+001	-7.682335e+001	8.361010e+001	-7.710088e+001	8.158047e+001	-2.735429e-002	-2.108239e+001
164000000	-2.042252e-002	-2.095548e+001	-7.869438e+001	6.530519e+001	-7.790087e+001	5.850509e+001	-2.887660e-002	-2.125234e+001
165200000	-1.974046e-002	-2.114412e+001	-7.701286e+001	3.898043e+001	-7.650428e+001	3.902482e+001	-2.752166e-002	-2.141944e+001
166400000	-1.850473e-002	-2.126371e+001	-7.579389e+001	6.217277e+001	-7.474636e+001	6.775165e+001	-2.516084e-002	-2.155841e+001
167600000	-1.924875e-002	-2.140295e+001	-7.535035e+001	7.671390e+001	-7.580378e+001	8.546830e+001	-2.583856e-002	-2.170182e+001
168800000	-1.982222e-002	-2.160946e+001	-7.519422e+001	7.302023e+001	-7.598422e+001	7.499453e+001	-2.789208e-002	-2.184463e+001
170000000	-1.970152e-002	-2.177484e+001	-7.461961e+001	6.236869e+001	-7.527157e+001	6.495461e+001	-2.768782e-002	-2.202405e+001
171200000	-2.544508e-002	-2.183297e+001	-7.241208e+001	9.407130e+001	-7.227801e+001	9.284571e+001	-3.133598e-002	-2.214468e+001
172400000	-2.017359e-002	-2.204091e+001	-7.392331e+001	5.818573e+001	-7.451394e+001	5.913377e+001	-2.773922e-002	-2.234220e+001
173600000	-1.954146e-002	-2.221076e+001	-7.208033e+001	6.883642e+001	-7.222970e+001	6.589885e+001	-2.657590e-002	-2.248192e+001
174800000	-1.972242e-002	-2.231053e+001	-7.333437e+001	6.750962e+001	-7.339443e+001	7.266260e+001	-2.514337e-002	-2.262719e+001
176000000	-1.886855e-002	-2.248769e+001	-7.632032e+001	6.761423e+001	-7.666326e+001	6.924626e+001	-2.684083e-002	-2.274793e+001
177200000	-1.765693e-002	-2.266745e+001	-7.593102e+001	7.050614e+001	-7.549866e+001	6.638731e+001	-2.843820e-002	-2.289912e+001
178400000	-1.886943e-002	-2.278640e+001	-7.526303e+001	7.225190e+001	-7.489193e+001	7.281821e+001	-2.701587e-002	-2.310277e+001
179600000	-3.287290e-002	-2.296408e+001	-7.279891e+001	6.174086e+001	-7.349910e+001	6.212331e+001	-3.906755e-002	-2.332329e+001
180800000	-2.250550e-002	-2.307323e+001	-7.569332e+001	7.545966e+001	-7.547307e+001	7.282598e+001	-2.787198e-002	-2.343046e+001
182000000	-2.246330e-002	-2.321902e+001	-7.877791e+001	6.697091e+001	-7.781635e+001	7.056465e+001	-2.843379e-002	-2.355712e+001
183200000	-2.136508e-002	-2.340890e+001	-7.635381e+001	6.570708e+001	-7.700254e+001	6.620251e+001	-2.984797e-002	-2.367690e+001
184400000	-2.152502e-002	-2.356671e+001	-7.383885e+001	6.066002e+001	-7.338464e+001	6.093405e+001	-3.190110e-002	-2.382936e+001
185600000	-2.139589e-002	-2.369655e+001	-7.491962e+001	7.036590e+001	-7.517722e+001	6.585428e+001	-2.811192e-002	-2.402483e+001
186800000	-2.313434e-002	-2.383721e+001	-7.572133e+001	5.276019e+001	-7.615015e+001	5.663015e+001	-2.768294e-002	-2.420529e+001
188000000	-2.487947e-002	-2.397696e+001	-7.373482e+001	7.190783e+001	-7.425660e+001	7.278806e+001	-2.782760e-002	-2.440037e+001
189200000	-2.838124e-002	-2.410615e+001	-7.696734e+001	6.785949e+001	-7.714544e+001	6.349136e+001	-3.132029e-002	-2.449567e+001
190400000	-2.250275e-002	-2.429262e+001	-7.506514e+001	7.641285e+001	-7.497421e+001	7.353552e+001	-3.051849e-002	-2.463583e+001
191600000	-2.368212e-002	-2.443591e+001	-7.166892e+001	7.353838e+001	-7.139870e+001	6.976162e+001	-2.729715e-002	-2.479751e+001
192800000	-2.205710e-002	-2.459503e+001	-7.343919e+001	6.163212e+001	-7.270992e+001	6.180828e+001	-2.742254e-002	-2.495707e+001
194000000	-2.143129e-002	-2.476225e+001	-7.562167e+001	6.385212e+001	-7.591114e+001	6.510181e+001	-2.973307e-002	-2.510497e+001
195200000	-2.040792e-002	-2.493137e+001	-7.289815e+001	6.555647e+001	-7.269116e+001	6.241225e+001	-3.100250e-002	-2.525639e+001
196400000	-2.167756e-002	-2.507884e+001	-7.406070e+001	7.172146e+001	-7.411247e+001	7.242270e+001	-3.079739e-002	-2.542944e+001
197600000	-3.468459e-002	-2.523103e+001	-7.348429e+001	5.622512e+001	-7.383858e+001	6.408541e+001	-4.205983e-002	-2.559117e+001
198800000	-2.321678e-002	-2.535786e+001	-7.216067e+001	5.576179e+001	-7.229839e+001	5.828542e+001	-3.052666e-002	-2.573150e+001
200000000	-2.327711e-002	-2.550828e+001	-7.231027e+001	6.118140e+001	-7.259599e+001	6.164794e+001	-2.916561e-002	-2.587962e+001
201200000	-2.165085e-002	-2.566309e+001	-7.461071e+001	5.370668e+001	-7.434059e+001	5.369768e+001	-2.933590e-002	-2.603638e+001
202400000	-2.294477e-002	-2.580904e+001	-7.484737e+001	5.794206e+001	-7.500342e+001	6.082648e+001	-2.981239e-002	-2.618959e+001
203600000	-2.229311e-002	-2.598484e+001	-7.352050e+001	6.592497e+001	-7.258211e+001	6.284991e+001	-2.934101e-002	-2.636186e+001
204800000	-2.286798e-002	-2.613664e+001	-7.499424e+001	4.887842e+001	-7.541913e+001	4.794937e+001	-3.019101e-002	-2.651340e+001
206000000	-2.502562e-002	-2.629917e+001	-7.467136e+001	5.596871e+001	-7.474736e+001	5.692640e+001	-2.989719e-002	-2.669224e+001
207200000	-2.638046e-002	-2.639029e+001	-7.384759e+001	7.169992e+001	-7.350736e+001	7.570299e+001	-3.145167e-002	-2.678203e+001
208400000	-2.602005e-002	-2.657117e+001	-7.514279e+001	7.818422e+001	-7.483730e+001	8.075985e+001	-3.206965e-002	-2.695803e+001
209600000	-2.255456e-002	-2.672495e+001	-7.461575e+001	7.547262e+001	-7.381373e+001	7.299262e+001	-3.029445e-002	-2.710708e+001
210800000	-2.379690e-002	-2.687487e+001	-7.454793e+001	7.615523e+001	-7.447720e+001	7.429672e+001	-3.056700e-002	-2.725779e+001
212000000	-2.391812e-002	-2.703741e+001	-7.351151e+001	5.607373e+001	-7.344916e+001	5.348134e+001	-2.968911e-002	-2.742456e+001
213200000	-2.406099e-002	-2.720508e+001	-7.451593e+001	5.758455e+001	-7.396402e+001	6.125170e+001	-3.275684e-002	-2.759046e+001
214400000	-2.436398e-002	-2.735366e+001	-7.441693e+001	7.713340e+001	-7.431435e+001	7.480541e+001	-3.103797e-002	-2.774224e+001
215600000	-3.838291e-002	-2.748041e+001	-7.338988e+001	4.629968e+001	-7.417807e+001	4.568231e+001	-4.573249e-002	-2.787821e+001
216800000	-2.762657e-002	-2.763210e+001	-7.364812e+001	4.370810e+001	-7.484778e+001	4.544622e+001	-3.399535e-002	-2.803580e+001
218000000	-2.657490e-002	-2.779390e+001	-7.294064e+001	3.554322e+001	-7.327126e+001	3.774587e+001	-3.460044e-002	-2.819752e+001
219200000	-2.640608e-002	-2.792830e+001	-7.338985e+001	7.497508e+001	-7.399531e+001	7.247352e+001	-3.317377e-002	-2.833873e+001
220400000	-2.646349e-002	-2.809303e+001	-7.284063e+001	5.838085e+001	-7.226490e+001	6.064267e+001	-3.231674e-002	-2.850260e+001
221600000	-2.909474e-002	-2.824490e+001	-7.489549e+001	7.204843e+001	-7.391393e+001	7.121039e+001	-3.321904e-002	-2.865684e+001
222800000	-2.878220e-002	-2.840402e+001	-7.623463e+001	4.574913e+001	-7.647906e+001	4.550745e+001	-3.437185e-002	-2.881660e+001
224000000	-2.652791e-002	-2.858878e+001	-7.328073e+001	6.261472e+001	-7.379043e+001	6.819014e+001	-3.490644e-002	-2.900943e+001
225200000	-2.977954e-002	-2.868094e+001	-7.178550e+001	6.393141e+001	-7.149993e+001	6.453499e+001	-3.660972e-002	-2.909851e+001
226400000	-2.893498e-002	-2.884302e+001	-7.366964e+001	9.236022e+001	-7.298455e+001	9.219145e+001	-3.710637e-002	-2.925001e+001
227600000	-2.937875e-002	-2.897832e+001	-7.394538e+001	6.940034e+001	-7.315509e+001	7.647715e+001	-3.680075e-002	-2.940432e+001
228800000	-2.593695e-002	-2.915589e+001	-7.274143e+001	6.583150e+001	-7.295758e+001	6.592228e+001	-3.363239e-002	-2.956833e+001
230000000	-2.701104e-002	-2.930967e+001	-7.357080e+001	5.789166e+001	-7.437693e+001	5.704270e+001	-3.507758e-002	-2.971853e+001
231200000	-2.606762e-002	-2.946802e+001	-7.174897e+001	6.263616e+001	-7.153187e+001	6.087890e+001	-3.373452e-002	-2.988336e+001
232400000	-2.616721e-002	-2.962033e+001	-7.333643e+001	6.727688e+001	-7.319280e+001	6.530234e+001	-3.507108e-002	-3.004094e+001
233600000	-3.872316e-002	-2.973332e+001	-7.595076e+001	6.619949e+001	-7.518509e+001	7.236456e+001	-4.610278e-002	-3.014394e+001
234800000	-2.863112e-002	-2.991231e+001	-7.644836e+001	3.859112e+001	-7.560110e+001	3.938129e+001	-3.738764e-002	-3.031790e+001
236000000	-2.904035e-002	-3.004755e+001	-8.086918e+001	7.170016e+001	-8.061361e+001	5.255629e+001	-3.525164e-002	-3.047669e+001
237200000	-2.623141e-002	-3.021298e+001	-7.127936e+001	5.962841e+001	-7.162128e+001	6.147887e+001	-3.458271e-002	-3.063375e+001
238400000	-2.690786e-002	-3.037138e+001	-7.062836e+001	5.082555e+001	-7.065403e+001	5.235799e+001	-3.536968e-002	-3.080551e+001
239600000	-2.757913e-002	-3.052531e+001	-7.351401e+001	5.062993e+001	-7.349180e+001	5.231649e+001	-3.446155e-002	-3.094377e+001
240800000	-2.580760e-002	-3.067467e+001	-7.278857e+001	6.492301e+001	-7.288348e+001	6.093651e+001	-3.237284e-002	-3.110408e+001
242000000	-2.702819e-002	-3.087126e+001	-7.239406e+001	5.454773e+001	-7.297934e+001	5.414328e+001	-3.479814e-002	-3.131233e+001
243200000	-2.893780e-002	-3.096762e+001	-7.358840e+001	4.629250e+001	-7.402062e+001	4.657452e+001	-3.600882e-002	-3.138690e+001
244400000	-2.987427e-002	-3.111897e+001	-6.947219e+001	5.210413e+001	-6.911671e+001	5.187129e+001	-3.629219e-002	-3.154282e+001
245600000	-2.683689e-002	-3.127015e+001	-7.226407e+001	6.479385e+001	-7.305110e+001	6.452338e+001	-3.376911e-002	-3.169651e+001
246800000	-2.723376e-002	-3.142743e+001	-7.276493e+001	5.420466e+001	-7.316780e+001	5.479501e+001	-3.368749e-002	-3.185503e+001
248000000	-2.740920e-002	-3.158910e+001	-7.385741e+001	4.794574e+001	-7.363455e+001	5.415363e+001	-3.430486e-002	-3.200922e+001
249200000	-2.780102e-002	-3.174439e+001	-7.526467e+001	5.154227e+001	-7.387447e+001	5.342374e+001	-3.413768e-002	-3.217071e+001
250400000	-2.610021e-002	-3.190942e+001	-7.206797e+001	6.549286e+001	-7.251185e+001	6.432068e+001	-3.306651e-002	-3.235021e+001
251600000	-3.684225e-002	-3.201185e+001	-7.430682e+001	8.883229e+001	-7.377031e+001	9.422618e+001	-4.494886e-002	-3.243689e+001
252800000	-3.010850e-002	-3.217999e+001	-7.427036e+001	3.943743e+001	-7.485543e+001	4.028614e+001	-3.714467e-002	-3.261500e+001
254000000	-2.813013e-002	-3.233061e+001	-7.334331e+001	7.043748e+001	-7.348888e+001	7.193038e+001	-3.500546e-002	-3.276626e+001
255200000	-2.794823e-002	-3.249649e+001	-7.203226e+001	5.381514e+001	-7.255429e+001	5.388263e+001	-3.503915e-002	-3.293443e+001
256400000	-2.882467e-002	-3.264689e+001	-7.255959e+001	5.396940e+001	-7.248507e+001	5.847691e+001	-3.489052e-002	-3.307958e+001
257600000	-2.858063e-002	-3.280513e+001	-7.304053e+001	5.149113e+001	-7.230533e+001	5.403290e+001	-3.528263e-002	-3.324422e+001
258800000	-2.838490e-002	-3.297207e+001	-7.268674e+001	6.056990e+001	-7.284020e+001	5.472597e+001	-3.621916e-002	-3.340337e+001
260000000	-3.006653e-002	-3.317683e+001	-7.150101e+001	5.632429e+001	-7.143201e+001	5.665418e+001	-3.876241e-002	-3.362611e+001
261200000	-3.144963e-002	-3.324705e+001	-7.250826e+001	6.509550e+001	-7.278295e+001	5.759601e+001	-3.848353e-002	-3.368524e+001
262400000	-3.082802e-002	-3.340507e+001	-7.087593e+001	4.987158e+001	-7.115222e+001	5.057581e+001	-3.859710e-002	-3.383833e+001
263600000	-2.828243e-002	-3.356021e+001	-7.188094e+001	5.214832e+001	-7.259293e+001	5.677825e+001	-3.728627e-002	-3.400059e+001
