# Hz S RI R 50
791500000	-0.90348309632669	-0.192592885068469	2.73140949836267E-04	-5.14629528513249E-03			2.86909016137958E-04	-5.1873208556968E-03	-0.902450334736014	-0.190581084388054
791550000	-0.904118913234725	-0.190485405687141	2.73617583294184E-04	-0.005168023054073			3.07873601009759E-04	-5.19857507395928E-03	-0.902389323394555	-0.188409981035881
791600000	-0.903284210537296	-0.189270139807971	2.40040344446288E-04	-5.15425947605156E-03			2.41161101156696E-04	-5.18226097487964E-03	-0.902987557003554	-0.187387614297174
791650000	-0.903927178348952	-0.187546311587732	2.34160679212131E-04	-5.1789415604176E-03			1.98163879308171E-04	-5.17018925951297E-03	-0.903273730445209	-0.184315659764731
791700000	-0.904718152177799	-0.186394786380843	2.12020484653957E-04	-5.20620107339208E-03			2.17330628368404E-04	-5.20042809844779E-03	-0.904097701911423	-0.182797052080373
791750000	-0.9048784056141	-0.184343937752823	2.05988145179794E-04	-5.21116915774733E-03			1.94271583298755E-04	-5.21514345434243E-03	-0.904450203951607	-0.180696111167735
791800000	-0.905321302491362	-0.182244368725295	1.46189786130194E-04	-5.2168364182096E-03			1.82974710253334E-04	-5.21656616840732E-03	-0.903166555918572	-0.179009498846903
791850000	-0.904539227885625	-0.180939858825292	1.33999493958933E-04	-5.21842870926945E-03			1.4600685462167E-04	-5.24816392168442E-03	-0.902811285691449	-0.177648296351658
791900000	-0.906407389746535	-0.179347930194769	1.15858909869667E-04	-5.21647331525471E-03			1.29067380144919E-04	-5.28198302222192E-03	-0.903664145523577	-0.175339503598149
791950000	-0.905760303901291	-0.177674216512587	8.44396106612867E-05	-5.23473707995936E-03			6.333411680547E-05	-5.27137343760967E-03	-0.903965913639498	-0.172947536388969
792000000	-0.906713805771923	-0.175407579118634	4.33748993839026E-05	-5.24510646506125E-03			6.51442887508068E-05	-5.29918763096525E-03	-0.903593895195614	-0.171406122132571
792050000	-0.906511365343319	-0.173402876250577	-1.0959428558265E-05	-5.30196519312032E-03			-1.25944188346766E-05	-5.30390076968563E-03	-0.904298507286004	-0.168905334781954
792100000	-0.905671558789912	-0.171888154728653	1.62535786563663E-05	-5.28825956778424E-03			7.17119781064018E-06	-5.30699085809982E-03	-0.902959578493231	-0.167608843552452
792150000	-0.906593917191347	-0.170299621054156	-7.20177551781912E-05	-5.30872224295585E-03			-6.38729782967818E-05	-5.32592467046274E-03	-0.903652923209301	-0.165150485121981
792200000	-0.906811766004666	-0.168864828787075	-9.07775462369826E-05	-5.33281799519678E-03			-9.95657402561082E-05	-5.3392139638067E-03	-0.90241753994291	-0.1640271374054
792250000	-0.9072754128263	-0.166225569622725	-1.55838614775806E-04	-5.31134178864864E-03			-1.85344846141066E-04	-5.35208519521172E-03	-0.902406968048221	-0.162473254986531
792300000	-0.907273367166991	-0.165022787538848	-1.72851290559007E-04	-5.29070453209586E-03			-2.01307394747288E-04	-5.38391828507653E-03	-0.903037431085929	-0.16028474801585
792350000	-0.907372594106456	-0.162737856327998	-2.18731786382145E-04	-5.33746504790446E-03			-2.32362505564649E-04	-5.36185596900335E-03	-0.903631975597207	-0.158322226270349
792400000	-0.907364505865777	-0.160845055685593	-2.58516730962097E-04	-5.36618420631695E-03			-2.89428790811529E-04	-5.38001114103737E-03	-0.901694830245862	-0.156849966720075
792450000	-0.908882423147245	-0.159368640881953	-3.33830225433778E-04	-5.37879211935791E-03			-3.54620941007352E-04	-5.40253067530314E-03	-0.902135611129789	-0.154377217494328
792500000	-0.90776254275921	-0.157174830664232	-4.07145740291324E-04	-5.4049967792862E-03			-4.34053441880311E-04	-5.43429426264836E-03	-0.903274897115923	-0.151913649746001
792550000	-0.907691025950351	-0.155525941253738	-4.8525574401286E-04	-5.41480054675638E-03			-4.99687986581588E-04	-5.41848068055694E-03	-0.902827955009645	-0.150079512592002
792600000	-0.90848596372431	-0.153479031647849	-5.58566651135257E-04	-5.41975175982458E-03			-5.52521651374087E-04	-5.45021931900959E-03	-0.902439439427023	-0.147892533838837
792650000	-0.907189852233789	-0.151575283576381	-6.90243415627719E-04	-5.44824069964538E-03			-6.67682104196339E-04	-5.43609794046995E-03	-0.90095533114185	-0.145871350975037
792700000	-0.907963111036464	-0.149187492392332	-7.41585631462175E-04	-5.42147584521977E-03			-7.70508963178643E-04	-5.42883464668371E-03	-0.900693347907055	-0.143748406914839
792750000	-0.908495777968151	-0.14757644091854	-8.85560961664805E-04	-5.40609905796128E-03			-9.12966902788598E-04	-5.41888808971824E-03	-0.899538106365454	-0.142254323168907
792800000	-0.907562524948023	-0.145495239084154	-1.01268627891124E-03	-5.36743275642289E-03			-1.02642179029898E-03	-5.37886303662212E-03	-0.89876077650628	-0.139767306453105
792850000	-0.908761804783977	-0.14356178530154	-1.09961939786804E-03	-0.005308090445494			-1.13025435294501E-03	-5.3117099991453E-03	-0.897772785642216	-0.137530026289513
792900000	-0.908415938936835	-0.142082297103232	-1.19892900141903E-03	-5.23591794786755E-03			-1.17428487803072E-03	-5.24025282999701E-03	-0.897009855015992	-0.136711831985531
792950000	-0.90827529684669	-0.139700384269966	-1.27909861949988E-03	-5.16461069736553E-03			-1.2948093135831E-03	-5.17990927469804E-03	-0.895986422141057	-0.135044687229801
793000000	-0.908352232148942	-0.137908647504164	-1.35537244622304E-03	-5.10948287654454E-03			-1.32776472070326E-03	-5.11025455343931E-03	-0.895932297624409	-0.133503766195857
793050000	-0.90859357386012	-0.135695989541382	-1.42455836876465E-03	-5.03506381007963E-03			-1.40240357643004E-03	-5.04635984232896E-03	-0.895174636357311	-0.132483132133221
793100000	-0.908307480379606	-0.133794026586326	-1.50629860012306E-03	-4.9998129393079E-03			-1.49272518643436E-03	-5.02700218711762E-03	-0.894196316641372	-0.130689857032637
793150000	-0.908395581304949	-0.131704878783014	-1.60371182938524E-03	-4.98006659090281E-03			-1.62926461638142E-03	-4.97229781601407E-03	-0.894435577228019	-0.128711112316288
793200000	-0.908215542360457	-0.129414356917006	-1.71283156550354E-03	-4.89317527422596E-03			-1.7301784048254E-03	-4.90504884763038E-03	-0.893534516533319	-0.12799625539061
793250000	-0.908552938898917	-0.127570388885004	-1.78228004294013E-03	-4.76682661358861E-03			-1.80627907344806E-03	-4.79204234283076E-03	-0.892418942081682	-0.126221920340162
793300000	-0.908246335352974	-0.125557532165552	-1.9305685016988E-03	-4.66936900907391E-03			-1.93085481291149E-03	-4.69485584135449E-03	-0.891181491934394	-0.12519584966791
793350000	-0.908491364921551	-0.123119495154004	-2.03325482438027E-03	-4.55617904202937E-03			-2.02769160486173E-03	-4.52957219591226E-03	-0.892050687264799	-0.123977739446428
793400000	-0.907900230171313	-0.12110513172639	-2.09515549851713E-03	-4.38457992585822E-03			-2.13449160399314E-03	-4.44747547186479E-03	-0.88989939513332	-0.122934774031676
793450000	-0.907623519740943	-0.118758540173885	-2.17761761470754E-03	-4.24431250217193E-03			-2.16872981264368E-03	-4.24563575152956E-03	-0.890864935529869	-0.122048836641437
793500000	-0.907256613761785	-0.116597746967582	-2.22319084588616E-03	-4.0897682342924E-03			-2.23248044421514E-03	-4.11143865073668E-03	-0.890442717750391	-0.120959092925313
793550000	-0.906301830849218	-0.115098451129508	-2.28674568088866E-03	-3.99056043851609E-03			-2.29122355871588E-03	-3.97203502050953E-03	-0.889979510466513	-0.11971217931118
793600000	-0.905973486413524	-0.112256922867378	-2.36806858871176E-03	-3.85590441631788E-03			-2.39330030493394E-03	-3.82311755731484E-03	-0.889536203161978	-0.118223607933378
793650000	-0.905739193533613	-0.110380000298764	-2.46478479501871E-03	-3.64092315276798E-03			-2.45258923830094E-03	-3.64535947253176E-03	-0.89092043077673	-0.116580121429498
793700000	-0.90523082961007	-0.108141312153597	-2.51516498411872E-03	-3.40834297632499E-03			-2.54418985745375E-03	-3.42764537166876E-03	-0.889426650537766	-0.115443319513189
793750000	-0.905224157993334	-0.106118373496492	-2.54736063860573E-03	-3.18347722905991E-03			-2.60443915669248E-03	-3.19507886713304E-03	-0.889083891010447	-0.114014531390349
793800000	-0.904877438207508	-0.104222081493741	-2.5685912006245E-03	-2.92547737566807E-03			-2.56027719751807E-03	-2.95127230159621E-03	-0.889876444571172	-0.113438901962601
793850000	-0.904920592604653	-0.102179701263728	-2.56379147037938E-03	-2.65457677213953E-03			-2.57456508637026E-03	-2.6757438968996E-03	-0.887341709451497	-0.111947038748167
793900000	-0.903760273539188	-9.98985651177296E-02	-2.49862108011125E-03	-2.35786992146496E-03			-2.55289137921665E-03	-2.3951359758444E-03	-0.88741170278455	-0.111944041956233
793950000	-0.903220620317198	-9.80323741957219E-02	-2.41303612165739E-03	-2.09228797958308E-03			-2.4292545758094E-03	-0.002092730092061	-0.886936713486461	-0.111014843552778
794000000	-0.902133328975315	-9.60726127951479E-02	-2.31026811865434E-03	-1.81259169605771E-03			-2.28732540884649E-03	-1.79406933673984E-03	-0.887384470437111	-0.109981596272085
794050000	-0.901367864912551	-9.37218376513247E-02	-2.11902697811459E-03	-1.49407981349421E-03			-0.002121720214988	-1.46718246858053E-03	-0.886637025755494	-0.109857443892053
794100000	-0.900110163992669	-9.17789564358525E-02	-1.84048887394598E-03	-1.23669213916378E-03			-1.83421462981779E-03	-1.25065701402503E-03	-0.887443556698603	-0.109365327805911
794150000	-0.899356212572477	-8.97602557209636E-02	-1.49434049745322E-03	-1.0168929554788E-03			-1.51189603556581E-03	-1.04604344280287E-03	-0.889301085989886	-0.108219645662923
794200000	-0.898588960145359	-8.79161852392064E-02	-1.1617063987909E-03	-9.36798242439925E-04			-1.19574300164648E-03	-9.03752328116634E-04	-0.889443004013401	-0.10769554483104
794250000	-0.898372219121721	-8.64317337354431E-02	-8.44475167505653E-04	-8.86605358817105E-04			-8.19205036366017E-04	-8.77341981120253E-04	-0.889840825396262	-0.106506241759335
794300000	-0.896732226213794	-8.46597776127022E-02	-5.78153362572212E-04	-9.02224671251982E-04			-5.5377215499697E-04	-8.88762866514675E-04	-0.891937134933261	-0.104612014364995
794350000	-0.896238949003994	-8.31892613349001E-02	-3.76136798895091E-04	-9.56763325859708E-04			-2.99934600241116E-04	-9.13336344504981E-04	-0.891985225266924	-0.103593573579756
794400000	-0.894579027473196	-0.082047238674025	-1.73709260108213E-04	-9.6857115531838E-04			-1.48059245542146E-04	-9.95358809157403E-04	-0.893361430837341	-0.101443784763505
794450000	-0.894670443147014	-0.08077718571268	1.16682865093937E-05	-1.0070562373406E-03			2.03390712236376E-05	-1.01855177392761E-03	-0.894933457653924	-9.93526284939609E-02
794500000	-0.891376821766706	-7.92887084930052E-02	2.0868793787464E-04	-9.75426591046765E-04			2.06827512129728E-04	-9.81508709093455E-04	-0.894677341181177	-9.72383032363043E-02
794550000	-0.891710387388645	-7.85998644165198E-02	3.85934680510829E-04	-1.01831757303851E-03			3.91597563188616E-04	-1.00377553837655E-03	-0.895327299052335	-9.55604581340894E-02
794600000	-0.89073496378872	-7.78094548002122E-02	6.18542193201779E-04	-1.02420591921493E-03			6.56844520382021E-04	-1.03422124347006E-03	-0.89535129808795	-9.33217362865254E-02
794650000	-0.890189068583215	-0.076751082468421	8.05915677865782E-04	-1.0857102276777E-03			8.12060860978209E-04	-1.07058031446964E-03	-0.896583331828368	-9.14857055388611E-02
794700000	-0.889136921978434	-7.59597089570092E-02	1.03906606746596E-03	-1.14061499771018E-03			1.00459407683291E-03	-1.17585956031395E-03	-0.89575559909752	-8.92610695307883E-02
794750000	-0.888798131674302	-7.55614711845261E-02	1.20117372293231E-03	-1.18948324163753E-03			1.20461815620308E-03	-1.22768607915876E-03	-0.895912228796398	-8.75056896060466E-02
794800000	-0.887881416886688	-7.45505757129499E-02	1.48001458344299E-03	-1.25710088719883E-03			1.46197870298063E-03	-1.25667460450848E-03	-0.896117674393273	-8.67477324105247E-02
794850000	-0.888178683253945	-7.40464205346513E-02	1.69716216957141E-03	-1.38918031162467E-03			1.71892380546753E-03	-1.38689576069668E-03	-0.896630956469021	-8.39608826951884E-02
794900000	-0.889415188865602	-7.31775282110993E-02	1.92905384374489E-03	-1.57204764917154E-03			1.94300858517179E-03	-1.56197173869951E-03	-0.896251900498302	-8.27668773055588E-02
794950000	-0.8896109447757	-7.24034446321502E-02	2.15742106605679E-03	-1.79673759243758E-03			2.16847902201662E-03	-1.78940837880884E-03	-0.89762106277175	-8.16902984822814E-02
795000000	-0.88996460938172	-7.18789469594699E-02	2.35954221870524E-03	-2.06426231304593E-03			2.34622213808487E-03	-2.06749438944171E-03	-0.898591167052715	-7.98554528910992E-02
795050000	-0.889948005758336	-7.14289591026987E-02	2.43379783103973E-03	-2.41675292380915E-03			2.41111676360894E-03	-2.39432788100975E-03	-0.899311613310896	-7.75193033901677E-02
795100000	-0.892046194439091	-7.05003237061787E-02	2.45178215526645E-03	-2.68147983297076E-03			2.47008889720631E-03	-2.76120213222597E-03	-0.900352655443984	-7.56287860078604E-02
795150000	-0.890115934285493	-6.95037698583082E-02	2.41605164474901E-03	-2.97714269532612E-03			2.39632103479488E-03	-2.96228672819515E-03	-0.8991426532267	-7.31501563393442E-02
795200000	-0.891685028224091	-6.82712950450414E-02	2.32975045723014E-03	-3.22784561880831E-03			2.33512066257142E-03	-3.2013799515818E-03	-0.901071439151229	-7.10746281429963E-02
795250000	-0.892829970592554	-6.73863603219095E-02	2.27424089209383E-03	-3.43880468640805E-03			2.28814171036749E-03	-3.44106150940526E-03	-0.900653937673886	-6.79519992102987E-02
795300000	-0.894033242999607	-6.61474995414242E-02	2.15287823105195E-03	-3.63014815541744E-03			2.13808197508823E-03	-3.68353939086029E-03	-0.902948719626661	-6.61513773557798E-02
795350000	-0.895137401505261	-6.40877530093172E-02	2.00827928582699E-03	-3.80648823606677E-03			2.01983288128946E-03	-3.8331677808077E-03	-0.902333915431259	-6.31902570610207E-02
795400000	-0.896853380862877	-6.26087958692307E-02	1.89789800457961E-03	-3.94747979016073E-03			1.91318545509393E-03	-3.95027866994932E-03	-0.903054604561859	-6.03237863380304E-02
795450000	-0.895347416538548	-6.08391165326255E-02	1.74126719120176E-03	-4.05089782333324E-03			1.77054707799937E-03	-4.07349055852962E-03	-0.90257563147718	-5.81966195114777E-02
795500000	-0.896750049208123	-5.88779412005411E-02	1.60421215664242E-03	-4.11906241301672E-03			1.63438183812972E-03	-4.14313568786056E-03	-0.903596113527835	-5.53268810714788E-02
795550000	-0.899195322627583	-0.056847800439946	1.5216728563358E-03	-4.14027218925054E-03			1.51593807010657E-03	-4.19739719148255E-03	-0.903759688254963	-5.30453397705372E-02
795600000	-0.899207261145438	-5.49235724735651E-02	1.42968863913862E-03	-4.24341794065963E-03			1.40122849707959E-03	-4.25281944295309E-03	-0.903834419434366	-0.051016790117213
795650000	-0.899177231903048	-5.21922662130181E-02	1.30641653056111E-03	-4.3354154576911E-03			1.31226256160275E-03	-4.33939392495875E-03	-0.903772086109412	-4.88585943110476E-02
795700000	-0.899271857172091	-5.01392483988508E-02	1.23195993461774E-03	-4.37069394259052E-03			1.19366450336783E-03	-4.3977635825808E-03	-0.903290835493938	-4.57362178669244E-02
795750000	-0.901358026386058	-4.80678912368027E-02	1.09397011481574E-03	-4.4721658701528E-03			1.13708163763982E-03	-4.42598105008331E-03	-0.902565141271507	-4.33071592106171E-02
795800000	-0.901054119476947	-4.52603748818659E-02	9.8895452561466E-04	-4.4728644937018E-03			9.79654469457389E-04	-4.4713227492555E-03	-0.903204704322412	-4.07196639571069E-02
795850000	-0.901171739516007	-0.042580266396897	8.6332872985103E-04	-4.49886632694618E-03			8.40497451868331E-04	-4.4821207254504E-03	-0.903801610181819	-3.79340528663624E-02
795900000	-0.901669059361178	-0.04052605777788	7.59150644702514E-04	-4.50780206709287E-03			8.13300222223387E-04	-4.53651050378692E-03	-0.904665652304861	-3.57311253545265E-02
795950000	-0.904209806796259	-3.82784122547604E-02	6.64194581872873E-04	-4.52730554518518E-03			7.0094252198816E-04	-4.56595679776637E-03	-0.903635617423165	-0.032888353688586
796000000	-0.90343545879841	-3.52833058512139E-02	5.73663386623579E-04	-4.54205409456465E-03			5.21856761966423E-04	-4.56676679826814E-03	-0.903293434389997	-2.99305096381699E-02
796050000	-0.904833578283089	-3.26907330914578E-02	4.84206003699464E-04	-4.5515086767457E-03			5.0277314657207E-04	-4.56043291768523E-03	-0.903240817101461	-2.77793396710816E-02
796100000	-0.903554767612016	-3.00039625984397E-02	4.07744812895136E-04	-4.55165628766949E-03			3.88106411046851E-04	-4.54024518637978E-03	-0.902231721805671	-2.54367909471516E-02
796150000	-0.903328696817656	-2.70025749720047E-02	2.9158644412348E-04	-4.57949472733966E-03			3.11403613738272E-04	-4.57778556941678E-03	-0.901972413857536	-2.28072520735476E-02
796200000	-0.90291133732759	-0.024372481588282	2.03078056295585E-04	-4.59367451487535E-03			1.56674225428921E-04	-4.61787021880155E-03	-0.903149144898836	-0.020376608115098
796250000	-0.905674928349097	-2.16945466443195E-02	7.03244578921127E-05	-4.59463947063104E-03			7.82089264690292E-05	-4.62720526691788E-03	-0.902251538754555	-1.73945607523719E-02
796300000	-0.904152005545768	-1.90073651603291E-02	-1.71704660764719E-05	-4.61634002776915E-03			-2.5711735821503E-05	-4.63919847969929E-03	-0.902897971375393	-1.49215773267614E-02
796350000	-0.902848948861543	-1.56993802557741E-02	-1.55119062228767E-04	-4.62242321006525E-03			-1.86996372055204E-04	-4.65190276457845E-03	-0.901169708868637	-0.011843344259844
796400000	-0.904293844814548	-1.29889617592321E-02	-2.57518383763532E-04	-4.65083492542383E-03			-2.78184327769691E-04	-4.60894096415321E-03	-0.902125393028293	-9.14525428904476E-03
796450000	-0.904241741791282	-1.02885219044359E-02	-3.60133555686591E-04	-4.56195371975535E-03			-3.59341365347138E-04	-4.59632606040294E-03	-0.90159950294138	-6.2957385951737E-03
796500000	-0.905732093199532	-7.42858521191754E-03	-4.90614024525953E-04	-4.57378145464616E-03			-4.95392796424008E-04	-4.57911782018532E-03	-0.900578362464521	-3.08028104242509E-03
796550000	-0.903484394122082	-4.60383187268301E-03	-5.97115902368156E-04	-4.54347115404933E-03			-5.95207483641414E-04	-4.59348593428409E-03	-0.900279680453782	-4.48403381073133E-04
796600000	-0.903733807433098	-1.67817853512745E-03	-6.84165157448246E-04	-4.52669719532557E-03			-7.43765633533884E-04	-4.55516150398117E-03	-0.899655936027715	2.89019599804838E-03
796650000	-0.90458259132594	1.33017648666992E-03	-8.36957959683725E-04	-4.48621516989448E-03			-8.39631632398415E-04	-4.53750274330173E-03	-0.900024185006845	5.27819791230644E-03
796700000	-0.903871491287961	4.0104784998472E-03	-9.20970076409827E-04	-4.48377974814714E-03			-9.29230166109082E-04	-4.46464318378909E-03	-0.898894150370757	7.73042930719445E-03
796750000	-0.902620946938702	7.08894118556291E-03	-1.03495781549109E-03	-4.44579512678444E-03			-1.06413926598736E-03	-4.43947950842453E-03	-0.897898651508244	1.09147869062971E-02
796800000	-0.902466053025547	9.97972452434682E-03	-1.13911394896598E-03	-4.45202133952931E-03			-1.17874207691046E-03	-4.48239034621701E-03	-0.898147475157201	1.28491323912785E-02
796850000	-0.902624866322155	1.31009381816513E-02	-1.30971201934511E-03	-4.45750253455568E-03			-1.30730478512977E-03	-4.4694699112012E-03	-0.89810463966005	1.60357652041884E-02
796900000	-0.901746888733582	1.60950195391185E-02	-1.44850366727882E-03	-4.44941575056485E-03			-1.46977537947254E-03	-4.47316701942639E-03	-0.897487194028291	1.95801053025451E-02
796950000	-0.901072671092349	1.90286077850455E-02	-1.65230923869383E-03	-4.43373891952702E-03			-1.65042948897812E-03	-4.41275319191502E-03	-0.896997504235807	2.28401049256567E-02
797000000	-0.900331441123316	2.19003923667604E-02	-1.85319827136867E-03	-4.36796822187738E-03			-1.85961376144919E-03	-4.40042367846968E-03	-0.896366712286818	2.62225479257272E-02
797050000	-0.8991690887246	2.52314209048876E-02	-2.0437579961185E-03	-4.3070140780249E-03			-2.05231553466029E-03	-4.32481408406134E-03	-0.8955881678013	2.92032134951284E-02
