# Hz S RI R 50
590000000	0.102809553348983	-0.986689932007326	2.87306860226567E-02	3.32115567456388E-03			2.88335873538593E-02	3.39395331739696E-03	0.128070743984575	-0.980175373511623
591250000	9.97308839085478E-02	-0.989343853153513	2.91325588349338E-02	3.40874098559769E-03			2.90996356043546E-02	3.50851852174592E-03	0.124467719269435	-0.978338421581086
592500000	9.71390662763391E-02	-0.989737927792779	2.93620272982543E-02	3.43761199171537E-03			2.93167775680654E-02	3.56530110606385E-03	0.121277685994212	-0.980878293825088
593750000	9.53553619786104E-02	-0.991035114296584	2.93781492828605E-02	3.3369552167759E-03			2.93411933316313E-02	3.22921061277085E-03	0.116025687573156	-0.980561154051414
595000000	9.40248343247924E-02	-0.994086633592241	2.91379926049526E-02	3.2102787804098E-03			2.91593670620664E-02	3.26204121008637E-03	0.113947990866743	-0.980085240471446
596250000	9.11909167038799E-02	-0.992717990427858	2.95035927791399E-02	3.22600960422928E-03			2.94465504332778E-02	3.17537720168693E-03	0.112346580224061	-0.979785325951855
597500000	8.55217078463039E-02	-0.992856211429686	2.94323767622804E-02	3.17269340405236E-03			2.94515505861866E-02	3.06923587096209E-03	0.108255475825167	-0.982030292241696
598750000	8.20499169347485E-02	-0.990554731485151	2.93668659912958E-02	3.08307382766416E-03			0.029433575120546	3.13876399916632E-03	0.104783232570977	-0.981206136965814
600000000	7.82445383670455E-02	-0.988729076973167	2.94692040416313E-02	3.10715710471995E-03			2.94751572104129E-02	3.04324373943878E-03	0.101062110570113	-0.979746593769887
601250000	7.64132632134708E-02	-0.991157157437294	2.96428001935899E-02	2.8137653346414E-03			2.95888725785706E-02	2.79084641548556E-03	9.95543184930883E-02	-0.981731495494468
602500000	7.31865061951097E-02	-0.990108934104247	2.96581311221324E-02	2.69589799980694E-03			2.95108595506863E-02	2.66234289384943E-03	0.097372133590601	-0.980115059591595
603750000	0.071545368650813	-0.994171554744709	2.94896433184272E-02	2.6753207068929E-03			2.95343537918689E-02	2.68726279726499E-03	9.21007283167781E-02	-0.980951817430066
605000000	6.67713229009899E-02	-0.990338191457196	2.98032014168564E-02	2.64613582003876E-03			2.99202702375283E-02	2.76995218480691E-03	9.05165152489225E-02	-0.984476319051171
606250000	6.42257060688454E-02	-0.995222511260756	2.98785985678156E-02	2.35141648705504E-03			2.97881566128559E-02	2.43011893549656E-03	8.68061442574988E-02	-0.98164222792941
607500000	6.17302601866277E-02	-0.991090344599944	2.96840817373421E-02	2.43582222104944E-03			2.96501420066663E-02	2.4736674426342E-03	8.36175152343481E-02	-0.982766213261087
608750000	5.70534823919611E-02	-0.992947826531584	2.99610614968184E-02	2.28408535759817E-03			2.99867215001715E-02	2.49277959623054E-03	8.17450344380352E-02	-0.9845992099175
610000000	5.55696325145238E-02	-0.995596576104477	3.00926012412684E-02	2.07594063166556E-03			3.00481749883171E-02	2.07722357423686E-03	7.75380615409141E-02	-0.984746372746341
611250000	0.054282717949012	-0.992797271341817	2.99652028787487E-02	2.2428836943657E-03			2.99745028771996E-02	2.34491437139113E-03	7.57776539338558E-02	-0.981586586431051
612500000	5.10215836453688E-02	-0.994926328911665	3.02285752121206E-02	2.09011463346144E-03			3.02084705019048E-02	2.15707042360445E-03	7.23321701118113E-02	-0.984133355429704
613750000	4.60360315410148E-02	-0.991941159511992	0.030016032838717	2.01330395271897E-03			2.99394328289056E-02	2.02930343028488E-03	7.13880060744536E-02	-0.983175473820487
615000000	4.56181881791438E-02	-0.994881080186859	3.01691839245512E-02	1.87000095042894E-03			3.01910647510723E-02	1.64753142629012E-03	6.55414744000424E-02	-0.982716500822422
616250000	4.03805716458525E-02	-0.994925378693583	3.02093812104084E-02	2.03675082862978E-03			3.00904309231629E-02	1.93626798608781E-03	6.27954129507807E-02	-0.983165273537613
617500000	3.69250537388043E-02	-0.992581330710412	3.05674737173781E-02	1.76871390239738E-03			3.05075937156155E-02	1.80293039755294E-03	5.96284181456719E-02	-0.983731070842778
618750000	3.33335441625625E-02	-0.995721030729214	3.02914689290266E-02	1.49219661846658E-03			3.01994851965651E-02	1.58321653632432E-03	5.72592819095257E-02	-0.981806403981577
620000000	3.07256521161961E-02	-0.992828550291283	3.01740691009378E-02	1.53861825841755E-03			3.02697513525313E-02	1.41530423095571E-03	5.42022291916199E-02	-0.984967692332416
621250000	2.96061445535993E-02	-0.993781944474955	3.04323022471835E-02	1.5286585236283E-03			3.04494948333601E-02	1.65864693121431E-03	5.12330464063318E-02	-0.980847742536926
622500000	2.54332361822991E-02	-0.993658176168745	3.05982737261704E-02	1.32988326740598E-03			3.04957061788257E-02	1.30551112017308E-03	4.98091752242677E-02	-0.984262398157658
623750000	2.41469052308878E-02	-0.998900183323463	3.06662197262742E-02	1.31843900809336E-03			3.05540683542121E-02	1.25094780638668E-03	4.49749147078513E-02	-0.983323579111282
625000000	0.019388125452379	-0.993455799723964	3.06568116868069E-02	1.36593004244402E-03			3.05758234634505E-02	1.44635975962946E-03	4.35450299700182E-02	-0.983752690604262
626250000	1.71758092512588E-02	-0.995436081594192	3.07722658839553E-02	1.03561740191845E-03			3.08204439488168E-02	0.001027085792477	4.03944256317081E-02	-0.983436327760249
627500000	1.19104406138953E-02	-0.997413651913701	3.07684451048307E-02	8.10460388461286E-04			3.06669522639351E-02	8.8456718828321E-04	3.72172015195258E-02	-0.984192144081573
628750000	9.05912365000432E-03	-0.996281596599827	0.030685727458343	9.98319715596589E-04			0.030698614752963	9.23872703235439E-04	3.29309290621186E-02	-0.984086017765151
630000000	6.30770520525408E-03	-0.997027726259764	3.10502344607851E-02	6.83883595421467E-04			3.09980847683069E-02	8.14570691346589E-04	3.22240387645921E-02	-0.98354655755957
631250000	4.31200466893845E-03	-0.994732442280998	3.08936809734813E-02	5.60263031055503E-04			3.08363244000137E-02	4.89947932033587E-04	2.64898108498554E-02	-0.981610183796804
632500000	1.78499507005165E-03	-0.994004227571837	3.07296424954539E-02	6.52672730090045E-04			3.08159542699646E-02	6.06069291384318E-04	2.37702567456304E-02	-0.982653164759272
633750000	-1.83894659248833E-03	-0.994908757409453	3.10058855230424E-02	5.68608334291854E-04			3.09806157159442E-02	5.69647999177603E-04	2.17547745405601E-02	-0.985326718742901
635000000	-5.18106913602706E-03	-0.996344074355539	3.12272543441685E-02	3.15091793149039E-04			3.10168012873742E-02	2.93371373318951E-04	2.08032550328248E-02	-0.985645035356566
636250000	-7.91034672970577E-03	-0.997721635042147	3.11375506907194E-02	1.56593723952184E-04			3.08545286463244E-02	3.38188102473197E-05	1.49568642576323E-02	-0.982365856388725
637500000	-1.07846372613634E-02	-0.99374044433678	3.10843474366409E-02	3.1266670256564E-04			3.10966129206453E-02	2.1507553334177E-04	1.22892990990864E-02	-0.984497249620304
638750000	-1.52040960052026E-02	-0.996028749026637	3.12143852253721E-02	-8.71707816727056E-05			0.03107750440032	9.40921510452509E-05	1.13244198467074E-02	-0.987522297550366
640000000	-1.84279427690875E-02	-0.995025972177946	3.11369499728363E-02	-2.04119913729158E-04			3.11115400673332E-02	-1.40620937560979E-04	6.43540970438597E-03	-0.984710251411254
641250000	-2.21609414326633E-02	-0.996435082761221	3.11544425030952E-02	-1.83321923571145E-04			0.031068975319737	-9.57624646985278E-05	3.9884893330096E-03	-0.98584643945497
642500000	-2.24596068568291E-02	-0.995666372474725	3.14637363208915E-02	-4.0787170142817E-05			3.14232569664708E-02	-1.79035125076576E-04	7.54517741397599E-04	-0.986169363731796
643750000	-2.60758015323233E-02	-0.99373584356291	3.11834094529027E-02	-5.04931909286789E-04			3.11396701936586E-02	-4.65549844102414E-04	8.36061805349925E-04	-0.985328055788874
645000000	-2.88270017647645E-02	-0.996651300254419	3.11882280720147E-02	-3.48957228880061E-04			3.11846972159581E-02	-3.57703452499386E-04	-4.57706403661016E-03	-0.980713098442978
646250000	-3.04926791184381E-02	-0.996326474777503	3.15015428744022E-02	-3.84955953183992E-04			3.14786476276196E-02	-4.37161971638696E-04	-7.59150863375434E-03	-0.984462650842173
647500000	-3.45400134954197E-02	-0.994923765017948	3.13709983015965E-02	-6.87971007390866E-04			0.03139080900529	-7.32935654934568E-04	-1.19562799427959E-02	-0.985896052973795
648750000	-3.92330244070991E-02	-0.997840734123314	3.14675140851624E-02	-6.4676934564997E-04			3.13118646341015E-02	-6.7235390465879E-04	-1.48738213649239E-02	-0.985797225098332
650000000	-3.98785620480238E-02	-0.994771250414216	3.14456308974435E-02	-8.15476833932424E-04			3.14484822194647E-02	-7.6441910043133E-04	-1.57938775633768E-02	-0.984617548839211
651250000	-4.51620726317242E-02	-0.994885010200038	3.14747673424308E-02	-1.03303693438444E-03			3.16032801983971E-02	-1.05819445791299E-03	-1.94664367623178E-02	-0.985795808890842
652500000	-4.86304925203089E-02	-0.995005023882379	3.14988168718856E-02	-1.04881194930553E-03			3.13443970947873E-02	-9.83377586344928E-04	-0.02177640860175	-0.985971063311124
653750000	-0.05304091579465	-0.994929168272366	3.15783147427348E-02	-1.05398300984849E-03			3.13847675572005E-02	-1.06577697583463E-03	-0.027464673673512	-0.985058948397224
655000000	-5.23816980029297E-02	-0.994402377231177	3.17035001374461E-02	-1.06804218191678E-03			3.16817307287328E-02	-1.11991596590193E-03	-2.93818924245655E-02	-0.987783672643358
656250000	-5.56068441881407E-02	-0.997772464670111	0.031811912889175	-1.34895057884091E-03			3.17450339727005E-02	-1.47932008618837E-03	-3.44358888540214E-02	-0.98554588111524
657500000	-5.83353407306457E-02	-0.99369276924667	3.15085033490232E-02	-1.36518679678715E-03			3.14348270360368E-02	-1.3986270029969E-03	-3.63606867893434E-02	-0.984282386910858
658750000	-6.31413417283617E-02	-0.996070108668939	3.18793071906732E-02	-1.34624982711315E-03			3.18218365869961E-02	-1.39713162412682E-03	-3.98837608794111E-02	-0.986177805341141
660000000	-6.57462425177008E-02	-0.994508117598564	0.031911828591516	-1.71888811310542E-03			3.18740429768441E-02	-1.55571226562287E-03	-4.09474952195227E-02	-0.984189225395691
661250000	-0.073155452445733	-0.995085995639977	3.18064551715027E-02	-1.82878675059329E-03			3.16499571532885E-02	-1.72139545704791E-03	-0.04637529710406	-0.986454012459206
662500000	-7.09675360447782E-02	-0.996120473097901	3.17862922211917E-02	-1.65574903503915E-03			3.17016227034898E-02	-1.67571860002849E-03	-4.95423878022317E-02	-0.982916048535261
663750000	-7.51949493872024E-02	-0.991475717596398	3.19899337872273E-02	-1.75255813519076E-03			3.18946206115451E-02	-1.7315150701126E-03	-5.07527294319394E-02	-0.98266707963392
665000000	-7.67064657902999E-02	-0.99389033333965	0.031851616049653	-2.17915008677499E-03			3.18847038802861E-02	-2.05080356113702E-03	-5.08611594809708E-02	-0.98266568975425
666250000	-0.077084911993539	-0.99287057268388	3.17625498459037E-02	-1.87224382452968E-03			3.16747312860532E-02	-1.97541913934307E-03	-5.45271837302369E-02	-0.984726345508614
667500000	-8.48197588059374E-02	-0.993397828612872	3.21959967563204E-02	-2.03002389995677E-03			3.20419326366965E-02	-2.0465529185906E-03	-6.16447499226721E-02	-0.982543381680097
668750000	-8.40184413700484E-02	-0.993644134607273	3.19479908365441E-02	-2.37207872881167E-03			3.19221499466496E-02	-2.41927396926372E-03	-6.33033805203408E-02	-0.98451103506358
670000000	-9.25380471334325E-02	-0.993304020904176	3.17884287619038E-02	-2.3936296113211E-03			3.17783227108342E-02	-2.39250981363857E-03	-6.69819674616663E-02	-0.981965287736553
671250000	-9.26447725669476E-02	-0.994569631784143	3.21262929525511E-02	-2.2066036407911E-03			3.20404432003863E-02	-2.1844464722052E-03	-7.12079190473396E-02	-0.981450483202909
672500000	-9.42827175355423E-02	-0.992755310926227	3.21398731220741E-02	-2.79691628517585E-03			3.22163644206995E-02	-2.81889942141138E-03	-7.28030407854162E-02	-0.982315349995536
673750000	-9.93017996268076E-02	-0.991058899277133	3.19444928697438E-02	-2.73960671897187E-03			3.18530511500598E-02	-2.74504702932376E-03	-7.65565835192542E-02	-0.981605522318403
675000000	-9.99086215431104E-02	-0.993308495760617	3.21175005306834E-02	-2.62234696698698E-03			3.19677450110796E-02	-2.65957482387628E-03	-7.49990589209413E-02	-0.980933766114715
676250000	-0.105676514394761	-0.99038398990631	0.032231127639512	-2.80624906543619E-03			3.24276153503973E-02	-2.83012045240397E-03	-8.15785239400321E-02	-0.982084695972284
677500000	-0.108890688347815	-0.992342359797807	3.21155549224203E-02	-3.17185868729589E-03			3.22524149254796E-02	-2.98440847161032E-03	-8.17313756179792E-02	-0.982876450280078
678750000	-0.111631788190086	-0.988506022508831	3.20953516549566E-02	-2.94969490447354E-03			3.20359756078693E-02	-2.97243730668573E-03	-8.54365148802403E-02	-0.981733273987961
680000000	-0.113695024373971	-0.991363003891609	3.24269457378159E-02	-3.04170172365867E-03			3.24378363973317E-02	-2.94917546571406E-03	-9.09826283429315E-02	-0.981168525166114
681250000	-0.117609331747048	-0.989558286011242	3.22952958298619E-02	-3.34600756397093E-03			3.24689772282715E-02	-3.41912156976039E-03	-9.28945877046789E-02	-0.980429629373284
682500000	-0.120814076006243	-0.99380538398467	3.21660088313821E-02	-3.35364512630836E-03			3.20117353162313E-02	-3.32347161599319E-03	-9.66848599905777E-02	-0.980674524487997
683750000	-0.123866309287704	-0.987024534714557	3.24851592440354E-02	-3.36414768468925E-03			3.23496453086318E-02	-3.27790168700128E-03	-0.101103998490089	-0.978880130558435
685000000	-0.127409951426315	-0.986903912627229	3.24757399491405E-02	-3.76134745777498E-03			3.23530854860839E-02	-3.70162052680438E-03	-0.100258318605275	-0.979121218000145
686250000	-0.12974488105313	-0.986296211371294	3.22537519616508E-02	-3.76189127610513E-03			3.23006559991864E-02	-3.63886546993488E-03	-0.10599419727937	-0.978192339194536
687500000	-0.132660008722228	-0.988657006081635	3.23821117628244E-02	-3.66134189217559E-03			3.22458577895533E-02	-3.58944727089616E-03	-0.107258206624409	-0.977819212173319
688750000	-0.13384893179208	-0.989062168812315	3.26286793625839E-02	-3.69947552187487E-03			3.25433875059642E-02	-3.92704735552901E-03	-0.109004208995241	-0.979235022808094
690000000	-0.13750710155234	-0.986864027279094	3.23977751063624E-02	-4.20068252288482E-03			3.23681978414206E-02	-4.22364326197197E-03	-0.115500232852098	-0.977449720886418
691250000	-0.141851791030869	-0.985169047825307	3.22721794653653E-02	-4.11277603226979E-03			3.21956262784738E-02	-4.11845884562299E-03	-0.117915331969941	-0.978113167811268
692500000	-0.14528463613909	-0.983714163305293	0.032532901456755	-3.90903471954328E-03			3.25007918070676E-02	-4.0403449976549E-03	-0.12113251561489	-0.974801641581561
693750000	-0.149185201916357	-0.98214034748491	3.26058141468986E-02	-4.6265826609932E-03			0.032635065843023	-4.57323581314455E-03	-0.124067133395302	-0.976293062595283
695000000	-0.15119189612594	-0.984743408169853	3.24073354071539E-02	-4.5318174209661E-03			3.23479080701682E-02	-4.40159297201237E-03	-0.126132950224333	-0.975436008418261
696250000	-0.153957697662385	-0.985339387215883	3.25772151406483E-02	-4.39852009588356E-03			3.26279044489199E-02	-4.26871408604035E-03	-0.127469522996445	-0.97621823293781
697500000	-0.155609507458659	-0.982318275011018	3.25604218128619E-02	-4.61241751749981E-03			3.26689044718018E-02	-4.62864455225838E-03	-0.131859759336836	-0.975043567567787
698750000	-0.158411421078785	-0.98541827299787	3.25276502534426E-02	-4.84221009789016E-03			3.26132177597767E-02	-4.85669121948643E-03	-0.135210518780774	-0.976152848550383
700000000	-0.161612550750573	-0.983341357440107	3.26364180913175E-02	-4.62210251247962E-03			3.25629989172615E-02	-4.7050871961957E-03	-0.137818229200888	-0.97455162425148
701250000	-0.166482230083921	-0.982080032859199	3.27642440101529E-02	-4.85862293986327E-03			3.27255799419165E-02	-4.75248267247066E-03	-0.141066405418062	-0.973996548167637
702500000	-0.168987976144153	-0.981109158657432	3.26501800949321E-02	-5.27039454080335E-03			3.28033510428653E-02	-5.13172655664397E-03	-0.14411287960553	-0.973322126611672
703750000	-0.169193867952613	-0.982338687535603	3.26005685919085E-02	-5.14940941820201E-03			3.25677088682327E-02	-5.05720278191851E-03	-0.14692745533243	-0.973142988796681
705000000	-0.175868291790255	-0.979478588655763	3.27215022732694E-02	-5.07172482581856E-03			3.27096320732806E-02	-0.005181437278501	-0.152277491447393	-0.970914629353329
706250000	-0.178033987309048	-0.981297925304274	3.30139752439833E-02	-5.31296577493081E-03			3.28556146305607E-02	-5.27273738356636E-03	-0.151647845142429	-0.971340575345953
707500000	-0.183756276094441	-0.980311630178163	0.032517865896886	-5.61043715089647E-03			3.26286267207958E-02	-5.65767857479913E-03	-0.156405721279346	-0.972352697412267
708750000	-0.181263476755699	-0.979820583834268	3.25813438847714E-02	-5.39581124270181E-03			3.26463532708922E-02	-5.37407826440148E-03	-0.158883063484507	-0.969860196575197
710000000	-0.188194860595033	-0.977534153229925	3.27445276155974E-02	-5.55922639519493E-03			3.30614665900711E-02	-5.55499437744916E-03	-0.162317978180417	-0.969700182155061
711250000	-0.187828544784832	-0.979461406459841	3.28157954687787E-02	-5.87497368399621E-03			3.28714023302458E-02	-5.81888840656477E-03	-0.164745762870426	-0.968816383956374
712500000	-0.194015646705323	-0.978313900633024	3.26592140511505E-02	-5.82121789811115E-03			3.24944077528163E-02	-5.91518528441011E-03	-0.168339503052689	-0.968311606535875
713750000	-0.198082852441301	-0.976794940870751	3.29559930379807E-02	-5.83229309468466E-03			3.28465038573001E-02	-5.83183147558022E-03	-0.171687771115184	-0.968575211962944
715000000	-0.201339355199908	-0.978091251911135	3.31286575837924E-02	-6.38168329541797E-03			3.30309584934616E-02	-6.37720223763185E-03	-0.175693231771246	-0.967809800722979
716250000	-0.202277913670379	-0.97637229242926	3.25902358385026E-02	-6.13038207082198E-03			3.27903614087005E-02	-6.22333811347879E-03	-0.177595211031158	-0.966398495371412
717500000	-0.203730242668199	-0.975254572517909	3.28184498746488E-02	-6.03433578148361E-03			3.26872676798104E-02	-6.15051372961353E-03	-0.181145986354279	-0.966354410601141
718750000	-0.209097558920619	-0.975241696692342	3.30694581202332E-02	-6.40672519991254E-03			3.32599601184689E-02	-6.37591208186114E-03	-0.183100591777577	-0.967114628050815
720000000	-0.208936682968832	-0.974036208987225	3.30687044562645E-02	-6.80745818361025E-03			3.29634129194074E-02	-6.88543518008308E-03	-0.185701045731882	-0.964085225133965
721250000	-0.213585423110764	-0.972411864550293	3.26148485966666E-02	-6.55649505669138E-03			3.26880367546641E-02	-6.43242226646809E-03	-0.190590070457815	-0.965101031651157
722500000	-0.218412616420863	-0.975328730964063	3.31188865499749E-02	-6.70226547478218E-03			3.29642056076227E-02	-6.62797435131469E-03	-0.191503480948067	-0.966125253394373
723750000	-0.221857025039021	-0.97302073400384	3.30290558665617E-02	-7.11677337134609E-03			0.033026634008869	-7.10347159468647E-03	-0.195469759425353	-0.963815880796536
725000000	-0.223556356935113	-0.971726282806078	3.28609933675506E-02	-7.03210618177021E-03			3.28571140951265E-02	-7.11791396598167E-03	-0.199681870308277	-0.962949842613429
726250000	-0.226274173816014	-0.971214015106881	3.27510532305867E-02	-6.75560368091282E-03			3.28614473366439E-02	-6.77119710741864E-03	-0.202863718748406	-0.961475922411184
727500000	-0.228808882144557	-0.969127993831324	3.32743839406156E-02	-7.19425924013011E-03			3.32467922607024E-02	-7.11497083466379E-03	-0.202083287877768	-0.962384495412032
728750000	-0.232038863493348	-0.968388961074374	3.29713294845752E-02	-7.52618831909841E-03			3.29294829462462E-02	-7.56664756087887E-03	-0.205682266124977	-0.961789187909636
730000000	-0.234239257428608	-0.969499239325021	3.30186951186156E-02	-7.32489599928363E-03			3.28896810138791E-02	-7.20458168753626E-03	-0.209270069220818	-0.961719736821255
731250000	-0.237647635193272	-0.968678811881083	3.31248432420428E-02	-7.39728754292041E-03			3.32171784927102E-02	-7.34647720733489E-03	-0.214541080154412	-0.960053403301345
