# Hz S RI R 50
10000000	1.03045411371502	-2.78404557819205E-02	1.8880664223026E-03	5.45939235961675E-03			4.4546565118919E-03	3.63596108213698E-03	0.997624929134628	-1.88073642005509E-02
11868750	0.985892938891379	8.50598100543953E-03	9.46481814702253E-05	-3.93688115824805E-03			2.63847434443317E-05	3.88230130990995E-04	0.958544886489856	-0.08355096505931
13737500	1.03628022933438	-2.99859935546507E-03	3.04787182720502E-03	-9.73966642537818E-04			2.01587533894773E-04	1.1284126071341E-04	0.991500159775807	-3.37169210228058E-02
15606250	1.00838919647033	6.83042872704471E-02	5.69176591033817E-03	-8.05629758206426E-03			2.74886767527304E-04	-1.95295598345717E-05	0.996029412046846	7.20244721131646E-03
17475000	0.98043286102259	0.684135107651395	2.00113471001336E-03	-1.61586596355901E-03			-8.81184005816498E-06	3.87907472955924E-04	0.914430924783329	5.03481101531768E-02
19343750	0.434266355374359	1.3766372138913	-5.68586587898005E-04	5.7369682511739E-05			-7.99762430487279E-05	1.89354179246684E-04	0.818669006118696	-0.062934088634093
21212500	0.994751628390089	0.445996725531346	-1.35125694550832E-04	3.0858986483527E-04			-2.5868853348438E-05	3.26224904178029E-04	0.925692409586289	-5.23960305314245E-02
23081250	1.00109928083427	-2.68387823786015E-02	4.43632236092302E-05	4.54115271558356E-04			1.99117589109852E-05	3.97876929275015E-04	1.00011873764982	-2.79406970233372E-02
24950000	1.00112579048919	-0.027904192758257	-6.54364385331937E-07	5.01950012693495E-04			2.82783144458284E-06	5.17527736142318E-04	0.999333318134393	-3.15648458479015E-02
26818750	1.00021004266198	-2.95575805355071E-02	1.55516763585052E-05	4.90252828324944E-04			4.75547757738039E-05	5.20932509652971E-04	0.99990315013844	-3.24755731739799E-02
28687500	1.00099694114076	-3.16241989392097E-02	9.90649896378144E-06	5.56612089962753E-04			-2.2634411808952E-05	5.66847380076535E-04	0.999706185757373	-3.47270785174011E-02
30556250	1.00028226428159	-3.66748858452547E-02	-5.4527460555389E-06	5.65101684314158E-04			4.4635381722466E-05	5.79291683793836E-04	0.997679668051	-3.48794490762704E-02
32425000	0.999496307102858	-3.80244383426285E-02	1.88284521519891E-05	6.42740523704431E-04			6.13852900752335E-05	6.9586718877586E-04	1.00029370135763	-3.81460934476298E-02
34293750	0.996493572246238	-4.07041947165592E-02	6.58699628306561E-05	6.22792752137541E-04			8.83528091986526E-05	6.43586608107015E-04	1.00003670771645	-0.039358567315506
36162500	0.998277305376072	-4.21776793083448E-02	2.89848726582131E-05	6.94673025306082E-04			6.17915201440734E-05	7.02953335213044E-04	0.998632538444154	-0.042805551382414
38031250	0.99956926210736	-4.44537584128664E-02	-4.12114314448373E-06	7.16177191915799E-04			1.57430600116455E-05	6.90564809280131E-04	0.998989447980719	-4.39716782490324E-02
39900000	0.998147739767752	-4.61317673475799E-02	3.9827513387048E-05	7.5972796681149E-04			7.09540559754047E-05	7.54687419743486E-04	0.998151623255168	-4.57889740796004E-02
41768750	0.998389471879804	-4.93017090092758E-02	4.55954413804169E-05	8.28864306807607E-04			5.54899270985953E-05	8.22980254157093E-04	0.997506975916476	-0.048091932558235
43637500	0.998313919185912	-5.11806692241225E-02	5.97628341752797E-05	8.73061445466931E-04			7.14244781410509E-05	8.42054580034764E-04	0.996936676609477	-4.96827747023643E-02
45506250	0.996586495966249	-5.33136536648506E-02	2.64693104646163E-05	8.74860971984083E-04			1.0947816782253E-05	8.57706093721639E-04	0.998119721863497	-5.29208759651724E-02
47375000	0.996366472544346	-5.49475525308677E-02	1.35115059778062E-05	8.65711095497677E-04			8.88705541692618E-06	8.73645478517962E-04	0.997104662834336	-5.50866473845942E-02
49243750	0.99621131088747	-5.76626709297201E-02	2.85447757844551E-05	9.19110222852023E-04			4.99422926703001E-05	9.39982137765544E-04	0.997482425828968	-5.60445026622348E-02
51112500	0.99701888792914	-5.91033097537481E-02	6.77485909132518E-05	9.83690618178851E-04			4.2675112638572E-05	1.02980910753709E-03	0.99779518096197	-0.059435819903374
52981250	0.995834688712866	-6.11710350797985E-02	4.96749362504048E-05	1.00972388592405E-03			7.20260167077324E-05	1.02093898596391E-03	0.997909915007829	-6.11580056550921E-02
54850000	0.996369595171351	-6.33787895992486E-02	9.61793105217788E-05	1.06153544311032E-03			9.38201657993254E-05	1.05723420942693E-03	0.997547972150763	-6.30223274052181E-02
56718750	0.995925139703938	-0.067616776759785	2.48374646408552E-05	1.07446324759234E-03			6.26231296766047E-05	1.06069678620984E-03	0.996995908416814	-6.50899753801526E-02
58587500	0.996968515016792	-7.02966996954519E-02	3.74169267393138E-05	1.12976335232254E-03			8.56448704094472E-05	1.08519592646572E-03	0.996758072077922	-6.67356257860346E-02
60456250	0.99557683052666	-7.11350993698388E-02	8.90713478185946E-05	1.16387154356115E-03			1.00230960035423E-04	1.14049776607564E-03	0.996484018964592	-6.92603538765248E-02
62325000	0.995501792326488	-7.39785101042572E-02	8.95897147366255E-05	1.18279869939715E-03			5.82000590552255E-05	1.16602855254758E-03	0.996824345275997	-7.16508680322503E-02
64193750	0.994713539276037	-0.076678247086231	9.68011379099873E-05	1.24085852113635E-03			1.05093708182348E-04	1.2234339895538E-03	0.995862256471776	-7.41505047891508E-02
66062500	0.994622639961168	-7.82919073292643E-02	1.48971932175501E-05	0.001264547514801			3.48252098887137E-05	1.25853451009005E-03	0.996507530760833	-7.53903878782016E-02
67931250	0.994510457437686	-8.03793812405331E-02	2.92267928754453E-05	1.29912366889734E-03			2.31311781102124E-05	1.3025924879036E-03	0.996151796766492	-7.76789819666604E-02
69800000	0.99381185611962	-8.29605157899379E-02	7.96651835858284E-05	1.35563685634528E-03			8.34611998595081E-05	1.33315865922716E-03	0.995638351185213	-0.080015401191332
71668750	0.995013581889235	-8.54487592973598E-02	9.40637544730255E-05	1.35273762030444E-03			8.11292291636479E-05	1.37802067173326E-03	0.996229762719533	-8.22790879505961E-02
73537500	0.99391933856266	-8.70419838784923E-02	1.33738564658795E-04	1.3752604663385E-03			1.05167348524209E-04	1.39367421034076E-03	0.997202925626304	-8.46130588654201E-02
75406250	0.993719237451346	-8.95077055863448E-02	1.01824711427586E-04	1.4692009977753E-03			1.18958647544084E-04	1.4360394550704E-03	0.997111837766817	-8.57548045955952E-02
77275000	0.993048280435926	-9.19673591457763E-02	1.33019449071874E-04	1.47525780959489E-03			1.27972302280205E-04	1.45880321272322E-03	0.996216489762561	-8.82269571787694E-02
79143750	0.993090914423077	-0.094241817279532	1.13940144322822E-04	1.4743703709464E-03			1.22235456348576E-04	1.48904829738026E-03	0.993954119537941	-9.30311196927577E-02
81012500	0.993245423678315	-9.63491060188071E-02	1.13203845092595E-04	1.54383741065037E-03			7.73858368530567E-05	1.54137150263377E-03	0.994281820728763	-9.18667527636136E-02
82881250	0.993691396312646	-9.89706289078963E-02	7.66913133611959E-05	1.54548834404781E-03			6.08499348486997E-05	1.53451268002046E-03	0.994271683322412	-9.45314077552598E-02
84750000	0.993263578429536	-0.100600765983285	1.3384862394838E-04	1.61927567056599E-03			1.10099885541971E-04	1.58886469234435E-03	0.994248820691882	-0.097333172263504
86618750	0.992448581362498	-0.102293603209638	1.48248676220763E-04	1.68570963804651E-03			1.33814170143042E-04	1.65420443132746E-03	0.994265557503819	-9.91687868475676E-02
88487500	0.992183449018558	-0.105420358456107	1.32213529435734E-04	1.67669154625687E-03			1.35950978953987E-04	1.67143773802957E-03	0.994154540914814	-0.10241629335046
90356250	0.991390711363719	-0.108354264736605	1.44862972123941E-04	1.73391611919754E-03			1.70397744910308E-04	1.72976579905388E-03	0.992387476955069	-0.105450375170349
92225000	0.991600508216317	-0.109894429429113	1.80661171404166E-04	1.76663313271194E-03			1.70990129140937E-04	1.72864845292579E-03	0.992741088443004	-0.10466329178548
94093750	0.990206507780114	-0.112366844857395	2.05173085080026E-04	1.76474339365131E-03			1.57732431933142E-04	1.75411648361378E-03	0.993706151128116	-0.105827794699013
95962500	0.992281996986176	-0.114352093311585	1.86186208333291E-04	1.82121590427221E-03			1.28049831739798E-04	1.79997856747072E-03	0.991957292450345	-0.109904818455758
97831250	0.991170619612744	-0.115023662173673	9.94471139350017E-05	1.88932948379824E-03			1.00203103098588E-04	1.84354161994334E-03	0.991580254574014	-0.112408450891715
99700000	0.991886499458704	-0.115494555397935	1.3938218373174E-04	1.8973180722756E-03			1.22196688054737E-04	1.85330601816826E-03	0.992481313085419	-0.11362831531712
101568750	0.989951942040652	-0.117573055366219	1.57624553431441E-04	1.93078804080246E-03			1.93813852910228E-04	1.91966647949176E-03	0.993351992679423	-0.115824933396845
103437500	0.989538475539159	-0.11974750853202	2.14465488333627E-04	1.94259644902941E-03			2.01730715295907E-04	1.94537148795881E-03	0.992203319570008	-0.118048221606406
105306250	0.990884967035553	-0.122918211231857	1.96972894479523E-04	1.95571243091908E-03			1.99379407312285E-04	1.97544405641732E-03	0.992199702854843	-0.12075598159195
107175000	0.989348625804179	-0.12541848868781	2.00661473016906E-04	2.04865229088369E-03			2.20730922916417E-04	1.99904260061007E-03	0.991284863055235	-0.122399669708684
109043750	0.989777024395499	-0.129000065755689	1.96903672602042E-04	2.11549074348596E-03			1.84871244039138E-04	2.06365877723613E-03	0.991009533651742	-0.123003819283149
110912500	0.988567741908625	-0.133037093976568	3.80133151540952E-04	2.06428182262259E-03			3.49783282388518E-04	2.02473674549877E-03	0.990240360820167	-0.126414308211031
112781250	0.990118734381849	-0.136091921365662	5.61774860981306E-05	2.18293191943871E-03			7.89979382649767E-05	2.13511981128775E-03	0.989868703185334	-0.128019879680007
114650000	0.988021995517923	-0.134994863942235	1.69733114152907E-04	2.16683643309031E-03			1.95355392131528E-04	2.1462553152775E-03	0.990042985176155	-0.129979315171121
116518750	0.987664263155367	-0.137534737695168	2.31066599125113E-04	2.18478796332338E-03			2.52072990343683E-04	2.19834917521195E-03	0.990194200432298	-0.132176721426163
118387500	0.988026046019896	-0.137960751480408	2.52428256813447E-04	2.2356836281484E-03			2.40990612479241E-04	2.18446355070595E-03	0.990079753882977	-0.134858005413368
120256250	0.988218501858461	-0.140348781612103	2.58716879691755E-04	2.30391904258016E-03			2.65763764657569E-04	2.28290179082816E-03	0.989224324440196	-0.136565164205967
122125000	0.986938849677683	-0.142833468798256	3.05453621337482E-04	2.33321462598592E-03			2.82780607660432E-04	2.28529440211944E-03	0.989389102628381	-0.138893405200491
123993750	0.987509567779636	-0.145965298470452	2.68598098625276E-04	2.35350414799703E-03			2.57271817742624E-04	2.34738735503876E-03	0.989235914215048	-0.141299787804265
125862500	0.986748726396884	-0.147986011994574	2.922147570379E-04	2.38499960343327E-03			2.87261688163343E-04	2.35475115641997E-03	0.989458698848478	-0.142594537900669
127731250	0.988526805712155	-0.150607051672212	3.2040712520964E-04	2.44462495505454E-03			2.81347848270566E-04	2.37686840293668E-03	0.989169913095694	-0.145212844696729
129600000	0.985984722961855	-0.151922080606081	1.84597278108387E-04	2.51302234887399E-03			1.74429212352499E-04	2.46649876360889E-03	0.988599945934841	-0.147053494540496
131468750	0.986213941530581	-0.153828331722902	2.54992360282741E-04	2.56687440799499E-03			2.62117046740853E-04	2.52992712584473E-03	0.987726288846697	-0.149324019692424
133337500	0.986163968900614	-0.155671959858242	2.65601596325264E-04	2.48460033922667E-03			2.82873097591469E-04	2.47210079455731E-03	0.987709837962844	-0.151767941396738
135206250	0.985357195692098	-0.158455354804856	2.91375885729986E-04	2.54159580706768E-03			3.15114119807144E-04	2.53727756317974E-03	0.988150876894008	-0.15404187645194
137075000	0.985558645737311	-0.159824591468813	3.61938940478803E-04	2.64413108140431E-03			3.43068678773063E-04	2.60659805352054E-03	0.986510516301548	-0.155924506624207
138943750	0.984992699367442	-0.162478750662874	3.14043023632273E-04	2.62011538527164E-03			3.15237316796349E-04	2.59708419860641E-03	0.985993418253921	-0.158883828876356
140812500	0.985188773341405	-0.164097532215131	3.43597927211762E-04	2.70324335901848E-03			3.47809469244435E-04	2.61384119417645E-03	0.985014624099032	-0.160696781181819
142681250	0.985816270279031	-0.166419376402929	2.77605748090121E-04	2.68148523133777E-03			3.14330089741277E-04	2.66176338341662E-03	0.985060991353547	-0.161289277840665
144550000	0.984688833928216	-0.167481836561276	2.02200890562251E-04	2.63558953582745E-03			1.9082139403218E-04	2.63072329450407E-03	0.983459489118017	-0.162871299559446
146418750	0.983061142194217	-0.170323064290361	3.79050592310623E-04	2.6856944254763E-03			3.37035646683005E-04	2.69714314309306E-03	0.984095445490703	-0.165016878689471
148287500	0.983414527103433	-0.171924626497041	3.74817006341317E-04	2.78201169787309E-03			3.65064642669407E-04	2.76840346266752E-03	0.983974941923103	-0.167652413294901
150156250	0.984048998632304	-0.173340456292894	3.89097152730009E-04	2.77914824839293E-03			3.62581421532884E-04	2.76466100006099E-03	0.986094498694504	-0.169176847287839
152025000	0.983441985328202	-0.175797374191687	4.05746445987378E-04	2.86494064910935E-03			4.23377812223011E-04	2.83050970747187E-03	0.984268001733487	-0.172317945355164
153893750	0.983476904754894	-0.178884200620344	3.59114263520501E-04	2.84641208238831E-03			3.57441675265805E-04	2.79980001121866E-03	0.982536081941537	-0.175910336289223
155762500	0.981689812528646	-0.179776891651773	3.8192575669455E-04	2.9774729808853E-03			3.8800572186152E-04	2.93013364031118E-03	0.982588199457054	-0.177695845794826
157631250	0.983948319792731	-0.181734146573423	3.85190249728898E-04	2.96567758065328E-03			3.45572254935175E-04	2.92388081639585E-03	0.983056415598182	-0.178273624269097
159500000	0.981727256430226	-0.184309408948573	3.87484929185582E-04	3.0145729506226E-03			3.94858656790573E-04	2.96237367667085E-03	0.981525803558713	-0.181912043635725
161368750	0.980660581903819	-0.188280402808941	4.33731253655918E-04	3.01286221279836E-03			4.233438321825E-04	2.98747324528265E-03	0.981742615694592	-0.182804964852258
163237500	0.981519012471547	-0.188756753029695	4.43418718155804E-04	3.01846359188902E-03			4.48741967349628E-04	2.96981206635564E-03	0.981376853740799	-0.18545247814609
165106250	0.982818777368575	-0.190818328784834	4.06590262125449E-04	3.08701836791311E-03			4.38121168857118E-04	3.05183840019631E-03	0.981026830071927	-0.186967362185727
166975000	0.980672615236948	-0.192320449730591	4.30329504590079E-04	3.1335789408578E-03			4.67712340517808E-04	3.09801462999262E-03	0.980411028955489	-0.18772064413687
168843750	0.978658454704988	-0.193620594112035	4.62032848577205E-04	3.14961843447392E-03			4.82884579386799E-04	3.08913033524177E-03	0.979734773900249	-0.191116113534459
170712500	0.976606888776676	-0.197425725881267	4.52066893829258E-04	3.20605246321893E-03			4.68449358435193E-04	3.1651379558078E-03	0.980584645701993	-0.195735064676343
172581250	0.979835158386098	-0.199366778121817	4.66856099016307E-04	3.24943786781559E-03			4.7079282520939E-04	3.2230552678603E-03	0.979937940940829	-0.197365698654461
174450000	0.975955373285646	-0.202737416135519	5.09368871004287E-04	3.29651291410075E-03			4.86448705724506E-04	3.23804501816305E-03	0.979256934977434	-0.19934126401738
176318750	0.976040102276316	-0.203338899595993	5.36915031779209E-04	3.14967148438885E-03			5.17263825817812E-04	3.12577631847121E-03	0.977059631329222	-0.198868354321389
178187500	0.979043056323814	-0.206574009291067	5.42520012924752E-04	3.34106882800957E-03			5.09873807833129E-04	3.30072326675772E-03	0.977741183461554	-0.20216025772415
180056250	0.977867896607236	-0.209608103341358	5.44021144332012E-04	3.34035660658361E-03			5.28958354605188E-04	3.32903616139424E-03	0.976497899188286	-0.203128879652753
181925000	0.97605884357982	-0.21200449020464	5.28006521929769E-04	3.35847532759174E-03			5.46657854922551E-04	3.38047827336879E-03	0.976718259948152	-0.205487363141474
183793750	0.977933769528402	-0.211115713863005	5.36608747577705E-04	3.38540892350648E-03			5.03579547594437E-04	3.37262227358425E-03	0.9762885127363	-0.207108828794616
185662500	0.976824500736187	-0.213903002158021	5.42908966403681E-04	3.45760497406036E-03			5.45274701875902E-04	3.44018859357837E-03	0.97608677083305	-0.209032805682249
187531250	0.975174901539674	-0.216561212898714	5.59505435243354E-04	3.50142938113682E-03			5.70405371614265E-04	3.45827386486749E-03	0.975300485134741	-0.212096099841717
189400000	0.97400037759634	-0.219861134853257	5.3288207005165E-04	3.48933621077269E-03			5.35562653781275E-04	3.49013906078354E-03	0.97519054343021	-0.214084411046052
191268750	0.972050368867353	-0.222749262099442	5.90137340505171E-04	3.53996225430873E-03			5.95776395761896E-04	3.54325213256197E-03	0.975604101294039	-0.215907156709533
193137500	0.972797295932786	-0.223190422594938	5.40237033552226E-04	3.52737312335254E-03			5.85666488150072E-04	3.52218143636606E-03	0.97407976752433	-0.217602275218845
195006250	0.973119812107804	-0.226939737417249	5.79477595080157E-04	3.57868729072153E-03			5.5784497723756E-04	3.53554085486844E-03	0.974167836832685	-0.220154933648636
196875000	0.972114917153978	-0.229357134653294	6.15108674728675E-04	3.63390236232438E-03			5.98368877633211E-04	3.58646898338409E-03	0.973627584974537	-0.221932367237029
198743750	0.97176502830058	-0.229355656234669	6.29082640848597E-04	3.65670219742698E-03			6.52853229546303E-04	3.59657258157913E-03	0.973033771984712	-0.223864267975509
200612500	0.970530357893681	-0.232168664904363	6.21672195140231E-04	3.68098409292129E-03			6.34611189244243E-04	3.62941641570097E-03	0.972272832537325	-0.226341891940597
202481250	0.968927817206231	-0.234549840186248	6.79287502720059E-04	3.74434643142597E-03			6.79188341371569E-04	3.68632997150221E-03	0.971131509233818	-0.229085212147435
204350000	0.968397380613293	-0.236575149102345	6.56993330437575E-04	3.74781007529949E-03			6.70639162499094E-04	3.69400344073155E-03	0.970395943121676	-0.231643350550573
206218750	0.968100317934115	-0.23882618530262	7.29425332998033E-04	3.83382648508657E-03			7.19769287133401E-04	3.74455896767879E-03	0.97092555008922	-0.232730977240968
208087500	0.967557540414517	-0.240588113442831	6.89918155504096E-04	3.7906089678892E-03			6.91695332010016E-04	3.73435436918646E-03	0.968264358701219	-0.235302525179856
209956250	0.966178584249437	-0.243063313492664	6.72604249429357E-04	3.90650681063199E-03			7.0653957069637E-04	3.8176180819825E-03	0.969213542688932	-0.237269943423764
211825000	0.96429506040334	-0.245093792011974	7.38824615834312E-04	3.87499376004079E-03			7.59238573559091E-04	3.80894970206846E-03	0.969724045387344	-0.239355275315898
213693750	0.964501680095088	-0.246959604348985	7.1863116031071E-04	3.87937953208011E-03			7.14360871475054E-04	3.80131519561382E-03	0.968133577862087	-0.241615639607443
215562500	0.964485000180996	-0.249995621121768	7.41422019543627E-04	3.99583331192974E-03			7.46586074184214E-04	3.94592153774153E-03	0.968028750297207	-0.242425398016696
217431250	0.964810166955905	-0.251777204521893	7.51910229902911E-04	3.95561914693894E-03			7.26097920886916E-04	3.8833342360666E-03	0.965977111534238	-0.241343974367882
219300000	0.964343299224095	-0.254214184888307	7.55979593994099E-04	4.0208657284992E-03			7.52395652719434E-04	3.96440390686333E-03	0.966556618029476	-0.246830869587724
221168750	0.960667539098032	-0.257170104424528	8.10930925324611E-04	4.08550674724371E-03			7.84082486601588E-04	4.00255513492853E-03	0.966239475308557	-0.249329923345574
223037500	0.961483609583705	-0.258515979651113	8.2681448263182E-04	4.04395735578576E-03			8.35894689265635E-04	3.95663690594341E-03	0.965500315612768	-0.252258777209304
224906250	0.961968249240229	-0.259945089082028	7.97118991503882E-04	4.07347873950213E-03			8.06775123330121E-04	3.9899695711439E-03	0.966000951670403	-0.254310150243914
226775000	0.962995909599478	-0.26073488158767	8.22562437021776E-04	4.17340126092357E-03			8.3428045762157E-04	4.09167877234344E-03	0.964312523796121	-0.25437919884764
