# Hz  S  RI  R  50
! ADVANTEST Corporation R3860A
! Date: Thu Oct 13 15:17:49 2016
2.0930000000e+009 -2.411631e-001  8.134077e-001 -3.598051e-002 -2.020357e-002 -3.590767e-002 -2.013907e-002 -2.219564e-001  8.160731e-001
2.0936250000e+009 -2.383863e-001  8.119827e-001 -3.590856e-002 -2.003256e-002 -3.595272e-002 -2.004928e-002 -2.191591e-001  8.167805e-001
2.0942500000e+009 -2.377087e-001  8.125279e-001 -3.588966e-002 -1.992812e-002 -3.594418e-002 -1.993879e-002 -2.184964e-001  8.177419e-001
2.0948750000e+009 -2.359282e-001  8.129474e-001 -3.582918e-002 -1.985082e-002 -3.593827e-002 -1.984072e-002 -2.171365e-001  8.173813e-001
2.0955000000e+009 -2.342291e-001  8.128476e-001 -3.578362e-002 -1.972777e-002 -3.584702e-002 -1.975639e-002 -2.145771e-001  8.169317e-001
2.0961250000e+009 -2.333499e-001  8.135673e-001 -3.577790e-002 -1.965608e-002 -3.586869e-002 -1.967648e-002 -2.132803e-001  8.180422e-001
2.0967500000e+009 -2.318741e-001  8.130866e-001 -3.572010e-002 -1.956597e-002 -3.581024e-002 -1.948650e-002 -2.110284e-001  8.180606e-001
2.0973750000e+009 -2.307101e-001  8.125702e-001 -3.564627e-002 -1.947632e-002 -3.572141e-002 -1.949993e-002 -2.109313e-001  8.175877e-001
2.0980000000e+009 -2.287421e-001  8.129560e-001 -3.565785e-002 -1.934543e-002 -3.568737e-002 -1.936788e-002 -2.095978e-001  8.178406e-001
2.0986250000e+009 -2.284794e-001  8.132100e-001 -3.555859e-002 -1.935357e-002 -3.568088e-002 -1.924508e-002 -2.067944e-001  8.183277e-001
2.0992500000e+009 -2.267610e-001  8.140069e-001 -3.558938e-002 -1.918827e-002 -3.561341e-002 -1.916160e-002 -2.060409e-001  8.184600e-001
2.0998750000e+009 -2.251858e-001  8.141618e-001 -3.549540e-002 -1.905480e-002 -3.559131e-002 -1.907184e-002 -2.046513e-001  8.187247e-001
2.1005000000e+009 -2.244710e-001  8.151016e-001 -3.546013e-002 -1.901692e-002 -3.554683e-002 -1.898988e-002 -2.031253e-001  8.204647e-001
2.1011250000e+009 -2.226649e-001  8.153105e-001 -3.539849e-002 -1.895043e-002 -3.546884e-002 -1.884924e-002 -2.013370e-001  8.201029e-001
2.1017500000e+009 -2.223771e-001  8.153356e-001 -3.528587e-002 -1.890197e-002 -3.544405e-002 -1.875628e-002 -1.991289e-001  8.201494e-001
2.1023750000e+009 -2.195154e-001  8.150662e-001 -3.527763e-002 -1.875803e-002 -3.537146e-002 -1.875694e-002 -1.994120e-001  8.214267e-001
2.1030000000e+009 -2.187199e-001  8.168071e-001 -3.522602e-002 -1.873021e-002 -3.528245e-002 -1.867223e-002 -1.975074e-001  8.207115e-001
2.1036250000e+009 -2.168319e-001  8.171690e-001 -3.517037e-002 -1.860956e-002 -3.527482e-002 -1.861784e-002 -1.957372e-001  8.213092e-001
2.1042500000e+009 -2.159456e-001  8.173665e-001 -3.513311e-002 -1.856453e-002 -3.517902e-002 -1.856524e-002 -1.956637e-001  8.213141e-001
2.1048750000e+009 -2.136134e-001  8.180406e-001 -3.508706e-002 -1.850577e-002 -3.511902e-002 -1.848229e-002 -1.940068e-001  8.212261e-001
2.1055000000e+009 -2.125334e-001  8.194351e-001 -3.504666e-002 -1.843846e-002 -3.511431e-002 -1.842391e-002 -1.913209e-001  8.221212e-001
2.1061250000e+009 -2.105512e-001  8.195208e-001 -3.500331e-002 -1.837836e-002 -3.501053e-002 -1.838672e-002 -1.898777e-001  8.224305e-001
2.1067500000e+009 -2.095761e-001  8.193625e-001 -3.490020e-002 -1.829993e-002 -3.498231e-002 -1.833677e-002 -1.894404e-001  8.235325e-001
2.1073750000e+009 -2.066943e-001  8.188461e-001 -3.485772e-002 -1.824174e-002 -3.495231e-002 -1.824358e-002 -1.866765e-001  8.237497e-001
2.1080000000e+009 -2.066196e-001  8.200548e-001 -3.475235e-002 -1.821766e-002 -3.485055e-002 -1.820873e-002 -1.849179e-001  8.226849e-001
2.1086250000e+009 -2.032767e-001  8.185616e-001 -3.468215e-002 -1.811931e-002 -3.483468e-002 -1.811280e-002 -1.829924e-001  8.238862e-001
2.1092500000e+009 -2.019703e-001  8.199347e-001 -3.463013e-002 -1.809397e-002 -3.482141e-002 -1.806654e-002 -1.809054e-001  8.242110e-001
2.1098750000e+009 -2.010135e-001  8.199897e-001 -3.460269e-002 -1.803966e-002 -3.476271e-002 -1.803255e-002 -1.797604e-001  8.252153e-001
2.1105000000e+009 -1.998425e-001  8.201522e-001 -3.456866e-002 -1.804088e-002 -3.468404e-002 -1.798608e-002 -1.776387e-001  8.242602e-001
2.1111250000e+009 -1.970944e-001  8.200986e-001 -3.452759e-002 -1.795766e-002 -3.469775e-002 -1.794027e-002 -1.765269e-001  8.249553e-001
2.1117500000e+009 -1.958465e-001  8.207754e-001 -3.452411e-002 -1.790292e-002 -3.468759e-002 -1.789578e-002 -1.739870e-001  8.249272e-001
2.1123750000e+009 -1.944476e-001  8.203302e-001 -3.445141e-002 -1.790209e-002 -3.457889e-002 -1.786129e-002 -1.740538e-001  8.243324e-001
2.1130000000e+009 -1.916069e-001  8.198722e-001 -3.441105e-002 -1.772952e-002 -3.447053e-002 -1.789399e-002 -1.729045e-001  8.240985e-001
2.1136250000e+009 -1.908062e-001  8.199621e-001 -3.436448e-002 -1.776971e-002 -3.447699e-002 -1.775743e-002 -1.712188e-001  8.247144e-001
2.1142500000e+009 -1.895088e-001  8.212580e-001 -3.436561e-002 -1.773437e-002 -3.444251e-002 -1.770662e-002 -1.693206e-001  8.243405e-001
2.1148750000e+009 -1.875471e-001  8.215044e-001 -3.433260e-002 -1.767867e-002 -3.444024e-002 -1.775770e-002 -1.689227e-001  8.244913e-001
2.1155000000e+009 -1.871079e-001  8.210560e-001 -3.435233e-002 -1.766860e-002 -3.442788e-002 -1.770143e-002 -1.669667e-001  8.245914e-001
2.1161250000e+009 -1.856542e-001  8.222301e-001 -3.435018e-002 -1.761333e-002 -3.439126e-002 -1.760482e-002 -1.650498e-001  8.244862e-001
2.1167500000e+009 -1.831188e-001  8.213849e-001 -3.427036e-002 -1.754543e-002 -3.437030e-002 -1.756767e-002 -1.642563e-001  8.242681e-001
2.1173750000e+009 -1.828490e-001  8.214701e-001 -3.430641e-002 -1.747782e-002 -3.432650e-002 -1.751195e-002 -1.627161e-001  8.242928e-001
2.1180000000e+009 -1.804075e-001  8.221962e-001 -3.427614e-002 -1.738668e-002 -3.440371e-002 -1.744183e-002 -1.606458e-001  8.259612e-001
2.1186250000e+009 -1.808106e-001  8.223153e-001 -3.425263e-002 -1.738732e-002 -3.440623e-002 -1.736791e-002 -1.595170e-001  8.256360e-001
2.1192500000e+009 -1.788082e-001  8.216617e-001 -3.423924e-002 -1.727049e-002 -3.431667e-002 -1.726599e-002 -1.578070e-001  8.248429e-001
2.1198750000e+009 -1.761771e-001  8.218696e-001 -3.426150e-002 -1.721521e-002 -3.436385e-002 -1.729261e-002 -1.566297e-001  8.263472e-001
2.1205000000e+009 -1.758921e-001  8.221319e-001 -3.422474e-002 -1.715840e-002 -3.435786e-002 -1.715663e-002 -1.545767e-001  8.256768e-001
2.1211250000e+009 -1.742392e-001  8.221526e-001 -3.416669e-002 -1.704916e-002 -3.427955e-002 -1.708103e-002 -1.539453e-001  8.256357e-001
2.1217500000e+009 -1.728331e-001  8.227012e-001 -3.418684e-002 -1.698864e-002 -3.429325e-002 -1.702063e-002 -1.525991e-001  8.261687e-001
2.1223750000e+009 -1.706877e-001  8.230729e-001 -3.419425e-002 -1.689047e-002 -3.423570e-002 -1.690259e-002 -1.516740e-001  8.269916e-001
2.1230000000e+009 -1.704241e-001  8.228490e-001 -3.411220e-002 -1.683674e-002 -3.420142e-002 -1.678904e-002 -1.496070e-001  8.253347e-001
2.1236250000e+009 -1.676378e-001  8.218032e-001 -3.407698e-002 -1.668799e-002 -3.418749e-002 -1.666815e-002 -1.482321e-001  8.262138e-001
2.1242500000e+009 -1.665319e-001  8.239633e-001 -3.409786e-002 -1.656864e-002 -3.412472e-002 -1.663537e-002 -1.468123e-001  8.265995e-001
2.1248750000e+009 -1.657599e-001  8.235226e-001 -3.400610e-002 -1.654790e-002 -3.409999e-002 -1.653964e-002 -1.453578e-001  8.266972e-001
2.1255000000e+009 -1.634977e-001  8.232053e-001 -3.395787e-002 -1.637533e-002 -3.406469e-002 -1.640274e-002 -1.440568e-001  8.271405e-001
2.1261250000e+009 -1.625780e-001  8.232538e-001 -3.386143e-002 -1.627471e-002 -3.399770e-002 -1.623474e-002 -1.414283e-001  8.261968e-001
2.1267500000e+009 -1.616585e-001  8.241871e-001 -3.387201e-002 -1.619348e-002 -3.387350e-002 -1.618996e-002 -1.407479e-001  8.259162e-001
2.1273750000e+009 -1.605135e-001  8.250352e-001 -3.379540e-002 -1.614041e-002 -3.384975e-002 -1.615310e-002 -1.400415e-001  8.274151e-001
2.1280000000e+009 -1.600499e-001  8.257878e-001 -3.377448e-002 -1.606397e-002 -3.370116e-002 -1.601890e-002 -1.378751e-001  8.268241e-001
2.1286250000e+009 -1.578109e-001  8.255763e-001 -3.370104e-002 -1.592732e-002 -3.371826e-002 -1.592942e-002 -1.371187e-001  8.279806e-001
2.1292500000e+009 -1.551479e-001  8.264341e-001 -3.360547e-002 -1.588414e-002 -3.359757e-002 -1.587082e-002 -1.349856e-001  8.273185e-001
2.1298750000e+009 -1.540042e-001  8.262566e-001 -3.355885e-002 -1.581477e-002 -3.348741e-002 -1.585357e-002 -1.335075e-001  8.280337e-001
2.1305000000e+009 -1.526895e-001  8.268555e-001 -3.346044e-002 -1.577488e-002 -3.346746e-002 -1.572913e-002 -1.314100e-001  8.288180e-001
2.1311250000e+009 -1.506711e-001  8.269592e-001 -3.340510e-002 -1.568762e-002 -3.336096e-002 -1.564333e-002 -1.293783e-001  8.283980e-001
2.1317500000e+009 -1.488813e-001  8.268901e-001 -3.334560e-002 -1.556832e-002 -3.330134e-002 -1.561634e-002 -1.276305e-001  8.290870e-001
2.1323750000e+009 -1.483832e-001  8.262058e-001 -3.316905e-002 -1.558482e-002 -3.321806e-002 -1.555404e-002 -1.271171e-001  8.284838e-001
2.1330000000e+009 -1.469560e-001  8.275763e-001 -3.315744e-002 -1.556521e-002 -3.315905e-002 -1.548693e-002 -1.258778e-001  8.292096e-001
2.1336250000e+009 -1.439761e-001  8.260385e-001 -3.303176e-002 -1.545254e-002 -3.308851e-002 -1.542114e-002 -1.227536e-001  8.292518e-001
2.1342500000e+009 -1.423914e-001  8.270291e-001 -3.298897e-002 -1.544139e-002 -3.303083e-002 -1.537322e-002 -1.213067e-001  8.286982e-001
2.1348750000e+009 -1.408099e-001  8.275144e-001 -3.292556e-002 -1.538336e-002 -3.291402e-002 -1.537146e-002 -1.199957e-001  8.284710e-001
2.1355000000e+009 -1.398078e-001  8.277591e-001 -3.290641e-002 -1.538341e-002 -3.285510e-002 -1.529518e-002 -1.185716e-001  8.282741e-001
2.1361250000e+009 -1.370163e-001  8.275598e-001 -3.280399e-002 -1.525222e-002 -3.287232e-002 -1.530776e-002 -1.170289e-001  8.299156e-001
2.1367500000e+009 -1.364035e-001  8.282799e-001 -3.272535e-002 -1.525059e-002 -3.271247e-002 -1.529679e-002 -1.164642e-001  8.296993e-001
2.1373750000e+009 -1.347581e-001  8.282847e-001 -3.268106e-002 -1.523694e-002 -3.275076e-002 -1.523971e-002 -1.136509e-001  8.303750e-001
2.1380000000e+009 -1.329509e-001  8.279533e-001 -3.262306e-002 -1.517968e-002 -3.258752e-002 -1.516218e-002 -1.131991e-001  8.286193e-001
2.1386250000e+009 -1.306452e-001  8.287039e-001 -3.260556e-002 -1.515402e-002 -3.261563e-002 -1.512898e-002 -1.107011e-001  8.286302e-001
2.1392500000e+009 -1.295896e-001  8.277428e-001 -3.251131e-002 -1.508529e-002 -3.257381e-002 -1.513673e-002 -1.093887e-001  8.307539e-001
2.1398750000e+009 -1.288919e-001  8.285441e-001 -3.253992e-002 -1.505204e-002 -3.250714e-002 -1.506679e-002 -1.072491e-001  8.294306e-001
2.1405000000e+009 -1.266726e-001  8.288924e-001 -3.246704e-002 -1.501047e-002 -3.252665e-002 -1.506765e-002 -1.056200e-001  8.304820e-001
2.1411250000e+009 -1.247060e-001  8.285237e-001 -3.238635e-002 -1.489699e-002 -3.243888e-002 -1.495090e-002 -1.038686e-001  8.304850e-001
2.1417500000e+009 -1.229754e-001  8.283311e-001 -3.232599e-002 -1.490726e-002 -3.236999e-002 -1.494919e-002 -1.028503e-001  8.299693e-001
2.1423750000e+009 -1.208539e-001  8.288355e-001 -3.229807e-002 -1.487867e-002 -3.236097e-002 -1.483076e-002 -1.008229e-001  8.293759e-001
2.1430000000e+009 -1.200668e-001  8.278351e-001 -3.229857e-002 -1.479301e-002 -3.231413e-002 -1.473199e-002 -9.871842e-002  8.284777e-001
2.1436250000e+009 -1.176789e-001  8.286263e-001 -3.234046e-002 -1.472974e-002 -3.228483e-002 -1.473275e-002 -9.791389e-002  8.296466e-001
2.1442500000e+009 -1.174007e-001  8.275630e-001 -3.226331e-002 -1.466060e-002 -3.222281e-002 -1.464146e-002 -9.628505e-002  8.291103e-001
2.1448750000e+009 -1.152735e-001  8.287140e-001 -3.220921e-002 -1.461216e-002 -3.219810e-002 -1.454612e-002 -9.356720e-002  8.288478e-001
2.1455000000e+009 -1.138414e-001  8.287349e-001 -3.213817e-002 -1.453441e-002 -3.215955e-002 -1.454735e-002 -9.281969e-002  8.293344e-001
2.1461250000e+009 -1.128796e-001  8.283321e-001 -3.208736e-002 -1.448130e-002 -3.209778e-002 -1.438467e-002 -9.065715e-002  8.287250e-001
2.1467500000e+009 -1.107235e-001  8.272652e-001 -3.198736e-002 -1.438910e-002 -3.206149e-002 -1.435864e-002 -9.081846e-002  8.299505e-001
2.1473750000e+009 -1.090034e-001  8.279788e-001 -3.196101e-002 -1.426830e-002 -3.201867e-002 -1.425175e-002 -8.860534e-002  8.296983e-001
2.1480000000e+009 -1.081308e-001  8.274364e-001 -3.193371e-002 -1.421581e-002 -3.193768e-002 -1.420100e-002 -8.734408e-002  8.289749e-001
2.1486250000e+009 -1.064432e-001  8.283354e-001 -3.184897e-002 -1.408256e-002 -3.184392e-002 -1.409471e-002 -8.677839e-002  8.299782e-001
2.1492500000e+009 -1.053725e-001  8.285401e-001 -3.178870e-002 -1.405235e-002 -3.182456e-002 -1.403745e-002 -8.438275e-002  8.291437e-001
2.1498750000e+009 -1.042879e-001  8.293490e-001 -3.175182e-002 -1.401313e-002 -3.172928e-002 -1.397828e-002 -8.274157e-002  8.297417e-001
2.1505000000e+009 -1.016770e-001  8.280131e-001 -3.161737e-002 -1.388712e-002 -3.169796e-002 -1.390400e-002 -8.173686e-002  8.294666e-001
2.1511250000e+009 -1.007561e-001  8.288028e-001 -3.151699e-002 -1.382714e-002 -3.154222e-002 -1.381722e-002 -8.048775e-002  8.295041e-001
2.1517500000e+009 -9.844916e-002  8.288054e-001 -3.142654e-002 -1.374578e-002 -3.149860e-002 -1.379926e-002 -7.892145e-002  8.295653e-001
2.1523750000e+009 -9.640677e-002  8.284134e-001 -3.134240e-002 -1.365909e-002 -3.139107e-002 -1.371128e-002 -7.694168e-002  8.298837e-001
2.1530000000e+009 -9.537171e-002  8.288701e-001 -3.127428e-002 -1.360978e-002 -3.129981e-002 -1.364622e-002 -7.560398e-002  8.288925e-001
2.1536250000e+009 -9.477225e-002  8.285900e-001 -3.118256e-002 -1.361101e-002 -3.121394e-002 -1.354075e-002 -7.298357e-002  8.296821e-001
2.1542500000e+009 -9.274518e-002  8.292958e-001 -3.112374e-002 -1.352537e-002 -3.116216e-002 -1.354366e-002 -7.187337e-002  8.293709e-001
2.1548750000e+009 -9.064907e-002  8.281227e-001 -3.093463e-002 -1.344410e-002 -3.099813e-002 -1.342138e-002 -6.893916e-002  8.283173e-001
2.1555000000e+009 -8.929127e-002  8.279424e-001 -3.088310e-002 -1.343474e-002 -3.090272e-002 -1.344575e-002 -6.788880e-002  8.285915e-001
2.1561250000e+009 -8.745895e-002  8.281336e-001 -3.083994e-002 -1.341026e-002 -3.085865e-002 -1.343431e-002 -6.617122e-002  8.288346e-001
2.1567500000e+009 -8.676615e-002  8.292108e-001 -3.073909e-002 -1.337543e-002 -3.079584e-002 -1.339478e-002 -6.566448e-002  8.288666e-001
2.1573750000e+009 -8.517851e-002  8.284097e-001 -3.065004e-002 -1.339267e-002 -3.073524e-002 -1.336866e-002 -6.356024e-002  8.287336e-001
2.1580000000e+009 -8.264721e-002  8.297207e-001 -3.066747e-002 -1.325845e-002 -3.066435e-002 -1.326979e-002 -6.176192e-002  8.293600e-001
2.1586250000e+009 -8.239572e-002  8.291655e-001 -3.054802e-002 -1.330740e-002 -3.055093e-002 -1.324119e-002 -6.006146e-002  8.289845e-001
2.1592500000e+009 -8.024856e-002  8.279197e-001 -3.041096e-002 -1.328097e-002 -3.045989e-002 -1.322631e-002 -5.815072e-002  8.289123e-001
2.1598750000e+009 -7.828350e-002  8.288187e-001 -3.038819e-002 -1.326444e-002 -3.038253e-002 -1.324289e-002 -5.739876e-002  8.283413e-001
2.1605000000e+009 -7.527834e-002  8.283634e-001 -3.033752e-002 -1.316968e-002 -3.036387e-002 -1.321906e-002 -5.554461e-002  8.292225e-001
2.1611250000e+009 -7.531915e-002  8.286447e-001 -3.028238e-002 -1.320931e-002 -3.034924e-002 -1.321109e-002 -5.474300e-002  8.296496e-001
2.1617500000e+009 -7.367381e-002  8.294466e-001 -3.028065e-002 -1.319723e-002 -3.027299e-002 -1.317053e-002 -5.227620e-002  8.290020e-001
2.1623750000e+009 -7.186031e-002  8.288794e-001 -3.018780e-002 -1.316405e-002 -3.016992e-002 -1.311097e-002 -5.105051e-002  8.291411e-001
2.1630000000e+009 -7.003387e-002  8.279248e-001 -3.015900e-002 -1.305181e-002 -3.021137e-002 -1.311592e-002 -4.894858e-002  8.287115e-001
2.1636250000e+009 -6.811348e-002  8.279279e-001 -3.007776e-002 -1.311443e-002 -3.014622e-002 -1.307424e-002 -4.698225e-002  8.298237e-001
2.1642500000e+009 -6.633823e-002  8.289855e-001 -3.002454e-002 -1.303329e-002 -3.006199e-002 -1.299107e-002 -4.538154e-002  8.291215e-001
2.1648750000e+009 -6.478702e-002  8.283827e-001 -2.999093e-002 -1.298039e-002 -3.004187e-002 -1.296328e-002 -4.322487e-002  8.276975e-001
2.1655000000e+009 -6.322130e-002  8.282216e-001 -2.994619e-002 -1.296256e-002 -3.003090e-002 -1.297306e-002 -4.164949e-002  8.288759e-001
2.1661250000e+009 -6.134933e-002  8.280685e-001 -2.992529e-002 -1.292327e-002 -2.997123e-002 -1.292827e-002 -4.009419e-002  8.288361e-001
2.1667500000e+009 -6.058573e-002  8.274157e-001 -2.988797e-002 -1.285926e-002 -2.996529e-002 -1.287845e-002 -3.909080e-002  8.281853e-001
2.1673750000e+009 -5.851473e-002  8.275026e-001 -2.991726e-002 -1.279297e-002 -2.995041e-002 -1.280742e-002 -3.863557e-002  8.283983e-001
2.1680000000e+009 -5.669462e-002  8.289938e-001 -2.990731e-002 -1.268462e-002 -2.993421e-002 -1.266798e-002 -3.528959e-002  8.283176e-001
2.1686250000e+009 -5.639713e-002  8.285975e-001 -2.984403e-002 -1.268834e-002 -2.991065e-002 -1.263263e-002 -3.419190e-002  8.289306e-001
2.1692500000e+009 -5.305619e-002  8.276019e-001 -2.976223e-002 -1.254673e-002 -2.985574e-002 -1.255194e-002 -3.211152e-002  8.291155e-001
2.1698750000e+009 -5.261884e-002  8.279639e-001 -2.976724e-002 -1.247024e-002 -2.978450e-002 -1.248106e-002 -3.151420e-002  8.290958e-001
2.1705000000e+009 -5.046446e-002  8.276772e-001 -2.967619e-002 -1.238481e-002 -2.972682e-002 -1.234688e-002 -2.886117e-002  8.285472e-001
2.1711250000e+009 -4.902911e-002  8.279686e-001 -2.962575e-002 -1.229732e-002 -2.968533e-002 -1.229239e-002 -2.775930e-002  8.293908e-001
2.1717500000e+009 -4.669037e-002  8.281933e-001 -2.958122e-002 -1.213446e-002 -2.959534e-002 -1.215661e-002 -2.585323e-002  8.279133e-001
2.1723750000e+009 -4.546741e-002  8.282207e-001 -2.948442e-002 -1.208448e-002 -2.954835e-002 -1.206693e-002 -2.458077e-002  8.287172e-001
2.1730000000e+009 -4.374122e-002  8.281172e-001 -2.935421e-002 -1.199374e-002 -2.946326e-002 -1.198128e-002 -2.223461e-002  8.300520e-001
2.1736250000e+009 -4.208540e-002  8.288454e-001 -2.928714e-002 -1.195851e-002 -2.932499e-002 -1.190696e-002 -2.108231e-002  8.282669e-001
2.1742500000e+009 -4.003142e-002  8.283538e-001 -2.920699e-002 -1.179796e-002 -2.927812e-002 -1.180070e-002 -1.853162e-002  8.284089e-001
2.1748750000e+009 -3.770509e-002  8.281877e-001 -2.911271e-002 -1.174328e-002 -2.911184e-002 -1.166430e-002 -1.595118e-002  8.274204e-001
2.1755000000e+009 -3.629703e-002  8.273528e-001 -2.899881e-002 -1.164266e-002 -2.907812e-002 -1.162513e-002 -1.415720e-002  8.277360e-001
2.1761250000e+009 -3.511418e-002  8.272525e-001 -2.888394e-002 -1.158153e-002 -2.892443e-002 -1.155595e-002 -1.305995e-002  8.266940e-001
2.1767500000e+009 -3.267882e-002  8.274244e-001 -2.875124e-002 -1.154045e-002 -2.872773e-002 -1.151415e-002 -1.134704e-002  8.254222e-001
2.1773750000e+009 -3.183291e-002  8.264037e-001 -2.861202e-002 -1.147257e-002 -2.867290e-002 -1.145494e-002 -1.027467e-002  8.258634e-001
2.1780000000e+009 -3.026798e-002  8.272632e-001 -2.853691e-002 -1.142975e-002 -2.855381e-002 -1.144788e-002 -8.815255e-003  8.261621e-001
2.1786250000e+009 -2.872410e-002  8.258535e-001 -2.840411e-002 -1.137007e-002 -2.842980e-002 -1.136567e-002 -6.832065e-003  8.253987e-001
2.1792500000e+009 -2.621556e-002  8.263140e-001 -2.824928e-002 -1.133115e-002 -2.831172e-002 -1.132855e-002 -4.938093e-003  8.246710e-001
2.1798750000e+009 -2.533146e-002  8.260577e-001 -2.815177e-002 -1.134011e-002 -2.821594e-002 -1.128482e-002 -3.458029e-003  8.249089e-001
2.1805000000e+009 -2.368598e-002  8.260033e-001 -2.808518e-002 -1.127402e-002 -2.814309e-002 -1.128697e-002 -1.620819e-003  8.254584e-001
2.1811250000e+009 -2.137209e-002  8.258837e-001 -2.793822e-002 -1.126444e-002 -2.800493e-002 -1.120295e-002 -3.043125e-004  8.243771e-001
2.1817500000e+009 -2.044736e-002  8.262827e-001 -2.785531e-002 -1.124790e-002 -2.789211e-002 -1.117476e-002  1.666073e-003  8.241975e-001
2.1823750000e+009 -1.858512e-002  8.254979e-001 -2.774234e-002 -1.123248e-002 -2.782548e-002 -1.115924e-002  3.403209e-003  8.242075e-001
