# Hz S RI R 50
1338000000	-8.95703275365128E-02	-0.961298029676518	3.61500665964561E-03	3.83815822956936E-03			3.86034246062699E-03	4.11208944712578E-03	-4.92700959618618E-02	-0.955886574221251
1338312500	-0.090706540595639	-0.961034743778161	3.65981907050036E-03	3.82096983068053E-03			3.85596881375363E-03	4.11695441604816E-03	-0.050042371896073	-0.955765660744249
1338625000	-9.10635989342966E-02	-0.960259787340561	3.6140721002955E-03	3.80644991048238E-03			3.85507650357337E-03	4.05845926875836E-03	-4.99036397725304E-02	-0.956315640595739
1338937500	-9.01500026049509E-02	-0.962024815553636	3.64328213063221E-03	3.76924257699151E-03			3.85754176008822E-03	4.0096556378167E-03	-5.02476635229633E-02	-0.956365632023293
1339250000	-9.21416333524348E-02	-0.961010339441623	3.58235501954032E-03	3.76598478406515E-03			3.82243938512874E-03	3.99273988659666E-03	-5.05681873282245E-02	-0.956691901492772
1339562500	-9.18937390496847E-02	-0.961024723093702	3.58364326248163E-03	3.79202237569339E-03			3.81647867213438E-03	3.95846879440698E-03	-5.09395859766388E-02	-0.956412933617703
1339875000	-9.29560119958057E-02	-0.961434633776409	3.52901353707992E-03	3.76140711797746E-03			3.77200105042323E-03	4.02389277358855E-03	-5.22569161320802E-02	-0.95652598338581
1340187500	-0.092899495815376	-0.961321835854903	3.54962938076343E-03	0.003792085284177			3.76170051548856E-03	4.05764454590877E-03	-5.23906671120362E-02	-0.957156791805174
1340500000	-9.41903980165665E-02	-0.961678939223228	3.55519685788686E-03	3.79041889704346E-03			3.80258849611937E-03	3.99454067887857E-03	-5.23740116736302E-02	-0.955944699253836
1340812500	-0.095808397330647	-0.96088158491097	3.56154216171229E-03	3.75515809402026E-03			0.003822074838311	4.0225224986712E-03	-5.39627523934743E-02	-0.95639678159163
1341125000	-0.095172553198916	-0.963442637958879	3.54288640530435E-03	3.78277815393566E-03			3.78513059747493E-03	3.98984642492895E-03	-5.45169632691917E-02	-0.956618291869603
1341437500	-0.095529100421787	-0.961905417742154	3.52831380546904E-03	3.72422257846634E-03			3.82213579046149E-03	4.01143630774502E-03	-5.45981957333781E-02	-0.956651462159395
1341750000	-9.67895005832447E-02	-0.962394377828641	3.51507331872195E-03	3.73778984865953E-03			3.76622564366419E-03	3.96412552880078E-03	-5.54498925271018E-02	-0.956767770734342
1342062500	-9.74359336145216E-02	-0.961767649834481	3.55133473032726E-03	3.73153396586695E-03			3.70866396504511E-03	3.98050013558032E-03	-5.60017100497113E-02	-0.956234081336774
1342375000	-9.80560095335567E-02	-0.960311553852612	3.5167317655408E-03	3.75319996554332E-03			3.74058512428486E-03	3.95168477457163E-03	-5.65563240291604E-02	-0.956499329102616
1342687500	-9.86037235668351E-02	-0.960927803647646	3.51622347668386E-03	3.76043140882684E-03			3.79137947474687E-03	3.96438055438015E-03	-5.71664364360565E-02	-0.956750518984769
1343000000	-9.96832233564109E-02	-0.96115913366007	3.51078105923662E-03	3.74416688958629E-03			3.7202953365895E-03	3.94278282641162E-03	-5.77468536392076E-02	-0.956329542543551
1343312500	-9.99952123441659E-02	-0.961390911556668	3.46117148595626E-03	3.72262963903842E-03			3.77671483803384E-03	3.88788815530071E-03	-5.82444286070076E-02	-0.955890940325797
1343625000	-0.100612336435336	-0.960963563047284	3.50476634228613E-03	3.66957685618015E-03			3.70188785336621E-03	3.85854329100203E-03	-5.95565137022357E-02	-0.957397087884856
1343937500	-0.102475444166359	-0.960715532424766	3.48293054889161E-03	3.69868235844514E-03			0.003709568921624	3.8760170050911E-03	-0.060007641110357	-0.95664685601145
1344250000	-0.102477866612405	-0.960416680191612	3.39807597277776E-03	3.67161777571886E-03			3.68594139440936E-03	3.85289893935738E-03	-6.00671949397923E-02	-0.956015855053399
1344562500	-0.102877124835781	-0.960267336892476	3.40839322161743E-03	3.67317139889946E-03			3.69602067044267E-03	3.81497628354991E-03	-6.06733783794713E-02	-0.956014561793137
1344875000	-0.103860723731373	-0.959418721160242	3.41092354722525E-03	3.65824583411218E-03			3.66945729914305E-03	3.78679691764567E-03	-0.062113737072342	-0.955656342238877
1345187500	-0.103901975589505	-0.959274748722883	3.37899422098213E-03	3.69549254580673E-03			3.6992850896197E-03	3.81683621756907E-03	-0.063350996330587	-0.956565380190997
1345500000	-0.105043115287607	-0.959959894740053	3.3803028735714E-03	3.6867324410638E-03			3.6500636040001E-03	3.83320943411561E-03	-6.32089884079941E-02	-0.955772879784524
1345812500	-0.105752561749382	-0.959860961599956	3.38412044623884E-03	3.62531417144138E-03			3.61951064667384E-03	3.76357054259543E-03	-6.32212488657484E-02	-0.955922443942781
1346125000	-0.106393195024655	-0.959727964183494	3.35102136931354E-03	3.69339131281056E-03			3.61787485207152E-03	3.7758664254477E-03	-6.50531573047313E-02	-0.955799990723913
1346437500	-0.107803623200203	-0.959856105046302	3.32629164245706E-03	3.67134991173647E-03			3.57700508359901E-03	3.78084322085837E-03	-6.54772270359483E-02	-0.9545828774345
1346750000	-0.107533623840258	-0.959347918138151	3.29144186190988E-03	3.69109189616274E-03			3.5554299888631E-03	3.79937553563157E-03	-6.60202535653583E-02	-0.955475565981063
1347062500	-0.10757276794436	-0.958900753926109	3.27532077468958E-03	3.68014397361361E-03			3.57953392106256E-03	3.79984139993585E-03	-6.71715694879348E-02	-0.954541787194216
1347375000	-0.109313148318412	-0.958071894462573	3.23747683711709E-03	3.67880845258324E-03			3.5443789071885E-03	3.77350749637321E-03	-6.73661485154868E-02	-0.954511937328166
1347687500	-0.109176441037961	-0.95820437195832	3.29805655970793E-03	3.72653089225863E-03			3.53084355583514E-03	3.78885752351732E-03	-6.79622966936697E-02	-0.954090947953991
1348000000	-0.109766514352576	-0.956954990215222	3.22648089315191E-03	3.66710161695013E-03			3.5384795589401E-03	3.79391618242968E-03	-6.86004259514619E-02	-0.954126068160123
1348312500	-0.109556484224062	-0.958490515920944	3.24428547531689E-03	3.70913411979116E-03			3.49861808836163E-03	3.79291500363486E-03	-6.90032377651228E-02	-0.953992091363769
1348625000	-0.111271487971998	-0.957984910913923	3.20632109809253E-03	3.71898516568638E-03			3.48013912469379E-03	3.82449428870919E-03	-6.92882390084809E-02	-0.954027422583409
1348937500	-0.110931292482912	-0.956136221932164	3.17069676375928E-03	3.71786498086435E-03			0.003530806478717	3.79014546018465E-03	-7.00633099841186E-02	-0.953166918860745
1349250000	-0.112387951592098	-0.956875532168356	3.21149685148274E-03	3.72677917466524E-03			3.43498087814198E-03	3.73794177495539E-03	-7.02714592145661E-02	-0.953341016807953
1349562500	-0.112359855818143	-0.956158176499107	3.18465414176227E-03	3.70276818168108E-03			3.50005603353632E-03	3.80536993568516E-03	-7.13140651450684E-02	-0.953471151371279
1349875000	-0.112196678139994	-0.956296538569267	3.20992500186956E-03	3.70136763410026E-03			3.50807854254924E-03	3.80663964557046E-03	-7.13478919892801E-02	-0.952641504327694
1350187500	-0.11254929689908	-0.95682465605923	3.21151264947307E-03	3.73974542856657E-03			3.46599886556958E-03	3.81116653538429E-03	-7.19087031864061E-02	-0.952123857206849
1350500000	-0.113514812714056	-0.957496664225626	3.21270549188487E-03	3.70163297166613E-03			3.50978954722482E-03	3.74775399872513E-03	-7.19280774025021E-02	-0.952922153244264
1350812500	-0.113984848804872	-0.956726181206188	3.1572240930368E-03	3.67451230766466E-03			3.46606479710603E-03	3.7706530726818E-03	-0.073144475536919	-0.952905500282197
1351125000	-0.115266810824455	-0.956577510892261	3.17457904916819E-03	3.70576488962012E-03			3.45376081615187E-03	3.76393028834542E-03	-7.32352634847328E-02	-0.952647127343031
1351437500	-0.115566638033292	-0.956229182049008	3.11346345731844E-03	3.72933124812843E-03			3.43051133601632E-03	3.77486350331715E-03	-7.34642978667527E-02	-0.952046899831235
1351750000	-0.115998297932028	-0.956553258245658	3.08470416400315E-03	3.72490646169947E-03			3.43826440800548E-03	3.75425114353353E-03	-7.37581362507116E-02	-0.952101960802549
1352062500	-0.115709556590731	-0.955453848632757	3.14183884812052E-03	3.73670302636313E-03			3.43609979099708E-03	3.79672057701293E-03	-0.0746893634829	-0.952302735852458
1352375000	-0.116729208198921	-0.955457476211208	3.1915299709716E-03	3.71316432605827E-03			3.44926204828017E-03	3.77755805704383E-03	-7.44172736637995E-02	-0.952665821384082
1352687500	-0.117265955480706	-0.956456953338576	3.17106208306759E-03	3.7141699503035E-03			3.42933175454757E-03	3.74902699817914E-03	-7.51085345186235E-02	-0.952745199205188
1353000000	-0.119353609283159	-0.955536704366538	3.1238703763251E-03	3.73672047231656E-03			3.46121781181521E-03	3.72004988522932E-03	-7.54457825877237E-02	-0.952584282505627
1353312500	-0.118810241218529	-0.95669857419792	3.13592725808873E-03	3.68015814201667E-03			3.38148222072278E-03	3.71919656865851E-03	-0.076870455670829	-0.952117012065014
1353625000	-0.11936473340466	-0.955981980205733	3.13027692187357E-03	3.69433763319641E-03			3.43720969790308E-03	3.74265409023313E-03	-0.077129791939907	-0.952609176391313
1353937500	-0.120271971839763	-0.956181064103979	3.09893384518831E-03	3.71622409085004E-03			3.36731395224426E-03	3.71640262920259E-03	-0.07818666276375	-0.952394154634635
1354250000	-0.120336354845144	-0.956471891991175	3.16264759258647E-03	3.70260307869583E-03			3.36312193373033E-03	3.73824208444548E-03	-7.86744046826792E-02	-0.95254265193926
1354562500	-0.12202582868236	-0.955657394131473	3.14831595401632E-03	3.73381535315079E-03			3.41113321758179E-03	3.73065215066854E-03	-7.87153311853801E-02	-0.953082371304282
1354875000	-0.12214323747994	-0.956030625306689	3.20577130051981E-03	3.71407153103451E-03			3.46235294822933E-03	3.70266414330636E-03	-7.96812397448705E-02	-0.952670273973282
1355187500	-0.12352387851201	-0.956075111454731	3.16160589076809E-03	3.62226964835419E-03			3.47219248421293E-03	3.66343016538748E-03	-8.04097789215663E-02	-0.952291566334778
1355500000	-0.123264395822581	-0.955786493262347	3.19020992952211E-03	3.61634894991771E-03			3.43618661349269E-03	3.59154713862548E-03	-8.09583594708983E-02	-0.953287832760002
1355812500	-0.124634382014962	-0.957514903125594	3.0886870569492E-03	3.60075944701237E-03			3.3647732282731E-03	3.56701311333277E-03	-8.17472773690571E-02	-0.952835706481748
1356125000	-0.12473250378714	-0.956327041469886	3.07507755937649E-03	3.5844917193138E-03			3.31151697443686E-03	3.59458885219432E-03	-8.23159064211826E-02	-0.952685754919786
1356437500	-0.125139393825611	-0.956360601797356	3.03531085677381E-03	3.64135948004543E-03			3.30274165704018E-03	3.58394033513967E-03	-0.083264801388324	-0.95264687908732
1356750000	-0.125081819898235	-0.954797491862915	3.05901326029401E-03	3.65750134228888E-03			3.30524196874232E-03	3.6524727432841E-03	-8.38351066569028E-02	-0.953038154346569
1357062500	-0.126714680260997	-0.955208953637748	3.05245455191138E-03	3.65828751046956E-03			3.30119897093091E-03	3.60896880348386E-03	-8.50057117567679E-02	-0.951692205708031
1357375000	-0.128371424550614	-0.955618229672799	3.04671712802056E-03	3.66033202041643E-03			3.32196759502449E-03	3.64226821521499E-03	-8.53940392667479E-02	-0.952263999251955
1357687500	-0.129042769540979	-0.955922373510735	3.05623816191648E-03	3.66044328409342E-03			3.29183309866577E-03	3.55879180696268E-03	-8.53698601940843E-02	-0.951873036016543
1358000000	-0.129716334396524	-0.955351060267724	3.0781980906269E-03	3.58278321535449E-03			3.29759304484984E-03	3.53641642380324E-03	-8.64677962438427E-02	-0.952219406300121
1358312500	-0.130400245306181	-0.953974829916697	3.03442384026214E-03	3.57542219240089E-03			3.27893511470202E-03	3.47929918510005E-03	-8.66327116742597E-02	-0.952223754884582
1358625000	-0.130758574727832	-0.953680214914766	3.00060301353332E-03	3.56467627429062E-03			3.26433428692583E-03	3.44104914541511E-03	-8.82426510880718E-02	-0.95120070431377
1358937500	-0.131486275253038	-0.952832116909258	2.95914743409181E-03	3.5049980442323E-03			3.20568079833402E-03	3.41580972587594E-03	-8.85940845559561E-02	-0.951786506513263
1359250000	-0.132052587734238	-0.954212433546838	2.89267274566184E-03	3.58108445178343E-03			3.16815023031456E-03	3.56053925983133E-03	-8.90208794120407E-02	-0.951801114264223
1359562500	-0.132812952467494	-0.954024878681261	2.92774067514209E-03	3.62893355587886E-03			3.13548488538095E-03	3.55842742566644E-03	-9.02527321125839E-02	-0.950767825261326
1359875000	-0.133247291817271	-0.953113881146676	2.94641145214947E-03	3.68197378820989E-03			3.1770829836931E-03	3.56822782282607E-03	-9.06189953016998E-02	-0.950433016865954
1360187500	-0.134381847186049	-0.952747736041647	2.94055203221858E-03	3.59185575234576E-03			3.19592676219596E-03	3.53983009552704E-03	-9.12705102390525E-02	-0.950692208599223
1360500000	-0.134207112742021	-0.953778648626934	2.98197713577704E-03	3.60837483352939E-03			0.003202019961105	3.53597977652401E-03	-9.19629158374532E-02	-0.950131576783696
1360812500	-0.135345451679173	-0.95292970901676	2.97258227306713E-03	3.54037570248186E-03			3.21266288771706E-03	3.48922029538507E-03	-9.23776615137701E-02	-0.94986379820175
1361125000	-0.135079555709782	-0.95235803514631	2.89427313303989E-03	3.55739860243413E-03			0.003127574781137	3.46018960250735E-03	-9.25313294812563E-02	-0.950196313360205
1361437500	-0.135234852016647	-0.952012895041976	2.83587927983667E-03	3.58565438355397E-03			3.09679500022029E-03	3.45502433061138E-03	-9.28856048236188E-02	-0.949157860120567
1361750000	-0.136409594081935	-0.951580594444421	2.91595727680508E-03	3.58499934982059E-03			3.08427580251117E-03	3.47432190747716E-03	-9.37418219018841E-02	-0.950326697766691
1362062500	-0.137180411945035	-0.951738022796384	2.88603874236684E-03	3.60390772594034E-03			3.10627237922189E-03	3.50369471906073E-03	-0.094832420694177	-0.948705380866326
1362375000	-0.136843695468125	-0.952129038114348	2.86043476080911E-03	3.59985278465262E-03			3.12145526603658E-03	3.4862061295883E-03	-9.41692014266494E-02	-0.949698340797914
1362687500	-0.13859192296313	-0.951820399038453	2.90104542650177E-03	3.56279792514976E-03			3.13845666652037E-03	3.48214654311223E-03	-9.47983731031325E-02	-0.94982840687957
1363000000	-0.138218286910893	-0.952068554574116	2.88630170073203E-03	3.5578209999766E-03			3.14257580214436E-03	3.39990244001115E-03	-9.60822593803187E-02	-0.948597483901526
1363312500	-0.138278074987805	-0.952055304153813	2.87393778720406E-03	3.54213423773416E-03			3.07265866424496E-03	3.46571164921778E-03	-9.65310526379719E-02	-0.948797405605008
1363625000	-0.139744865590141	-0.951820132083287	2.85174017867788E-03	3.49844871384051E-03			3.09117900683225E-03	3.37233553711223E-03	-9.63659761441206E-02	-0.949970109536736
1363937500	-0.14035593730741	-0.951666723689087	2.88058436619351E-03	3.46184298266626E-03			3.08406130215566E-03	3.41983594674268E-03	-9.74756074762688E-02	-0.94847274969733
1364250000	-0.141589711753277	-0.951155620159107	2.8190956272046E-03	3.49949248233776E-03			3.02951993130244E-03	3.37440773503538E-03	-9.82777330885109E-02	-0.948864322496843
1364562500	-0.141952399303108	-0.952058232177462	2.85259814673358E-03	3.50590496431223E-03			2.98326394897946E-03	3.36302386382999E-03	-9.80811131541106E-02	-0.94931733515425
1364875000	-0.141755380090129	-0.951705428102841	2.78493986786464E-03	3.49607195961846E-03			2.99823766507664E-03	3.34931136049123E-03	-9.91405915089914E-02	-0.949271017395504
1365187500	-0.142198144622036	-0.950806623201711	2.77093178891872E-03	3.43998253438806E-03			2.9572199724163E-03	3.38948842854963E-03	-9.96815179264423E-02	-0.949334389994674
1365500000	-0.143457871013254	-0.952054183607997	2.74013701727699E-03	3.49745364042441E-03			2.9050976105383E-03	3.33791564789751E-03	-0.100305797753527	-0.949045948649824
1365812500	-0.143520480690221	-0.952082372566915	2.72886750465077E-03	3.53917280420856E-03			2.9984014116529E-03	3.36966910297881E-03	-0.100716416693384	-0.949280387342184
1366125000	-0.144173239190701	-0.951941571121012	2.73872437496793E-03	3.47160091251114E-03			2.92256112515391E-03	3.37747245915764E-03	-0.101267189753539	-0.948964754606814
1366437500	-0.145897156687971	-0.95121132818531	2.71016502427738E-03	3.51744760100771E-03			2.90562226717429E-03	3.34023980343916E-03	-0.101757757570492	-0.949680998392886
1366750000	-0.146744237685544	-0.951419415395426	2.70244331589394E-03	3.5055226024372E-03			2.88462242123315E-03	3.34830330200123E-03	-0.102516257190807	-0.948757244892019
1367062500	-0.147169190053418	-0.951450176286119	2.72467189008873E-03	3.44160007617736E-03			2.89411135132083E-03	3.29211010162297E-03	-0.103249910831988	-0.949327132134009
1367375000	-0.147674129483319	-0.952035760491028	0.002677149303925	3.46638732321217E-03			2.85115209699348E-03	3.30994411016897E-03	-0.103783944231108	-0.948463021081063
1367687500	-0.148629102861764	-0.951498663278371	2.7140558819804E-03	3.47317894365658E-03			2.83843896545688E-03	3.31667063170378E-03	-0.10471154856022	-0.949635053298486
1368000000	-0.149116738181824	-0.951182145588326	2.69484654556809E-03	3.43012584230761E-03			2.81487907359358E-03	3.28391490568857E-03	-0.10491079874677	-0.949650276493897
1368312500	-0.149398392997062	-0.95222452101714	2.63772638498751E-03	3.42458752455194E-03			2.81997521508235E-03	3.29870790525343E-03	-0.105901093949744	-0.949434975502697
1368625000	-0.15133964219525	-0.952082996868005	2.62957149567189E-03	3.46118964371357E-03			2.83881379638034E-03	3.30461256449914E-03	-0.106943250875223	-0.949237148895516
1368937500	-0.151408421567832	-0.95175993775708	2.65579387165305E-03	3.45140659873852E-03			2.82409755783262E-03	3.27382297105232E-03	-0.108577924932628	-0.94914723840146
1369250000	-0.152541952975674	-0.951883199908844	2.62767415179432E-03	3.46458309677042E-03			2.81693043091977E-03	3.29822408701269E-03	-0.108376199406842	-0.949169472222864
1369562500	-0.153226169033028	-0.951485479193682	2.66896990919782E-03	3.42831705767237E-03			2.74994079788315E-03	3.25381707325078E-03	-0.109431785803925	-0.94837075593887
1369875000	-0.154388763556292	-0.951491926697032	2.61151999962875E-03	3.4377072279444E-03			2.75536814392755E-03	3.25673431302221E-03	-0.11005675518023	-0.948475470547824
1370187500	-0.155286639315911	-0.951550309795933	2.62085935715934E-03	3.42987610390217E-03			2.6974998660815E-03	3.25104162348713E-03	-0.110449792929246	-0.94906423791944
1370500000	-0.155824835567873	-0.950558861991217	2.56236044350144E-03	3.44968460205543E-03			2.70356956147499E-03	3.27606136857406E-03	-0.111546461728631	-0.948652326878713
1370812500	-0.156084038778887	-0.950665281836077	2.55247400538838E-03	3.40533305634479E-03			2.68307182011022E-03	3.24908575848717E-03	-0.112727916119516	-0.947627799557895
1371125000	-0.156717592081118	-0.950090174972491	2.52906855483828E-03	3.43798076448098E-03			2.67590472935707E-03	3.2547628729085E-03	-0.113318796133404	-0.948201308487666
1371437500	-0.157774986162997	-0.949964387925855	2.53661445305569E-03	3.41678837801499E-03			2.69694648306817E-03	3.26746084540261E-03	-0.112891039446608	-0.947868552374467
1371750000	-0.158581404945639	-0.950020478764694	2.52431973574446E-03	3.43658426863326E-03			2.67682916845538E-03	3.27055015986988E-03	-0.114358962809156	-0.947448301852361
1372062500	-0.158621182303198	-0.949664916743696	2.51873956472083E-03	3.40701030978727E-03			2.68073099770396E-03	3.22701427923741E-03	-0.115842910214343	-0.947856854162617
1372375000	-0.160623817511831	-0.949213871419788	2.51423714425782E-03	3.43810935327792E-03			2.60958959827791E-03	3.2310478885608E-03	-0.116475698353898	-0.947392348312705
1372687500	-0.16074545804671	-0.949957517980527	2.49761993654291E-03	3.44064708104855E-03			2.6351569321478E-03	3.29753041750057E-03	-0.11643306897673	-0.947081786503113
1373000000	-0.162164597162939	-0.948889206914069	2.49818568094477E-03	3.38477692831972E-03			2.61729279777368E-03	3.22473267027385E-03	-0.117367889743078	-0.946046041285574
1373312500	-0.162840345749141	-0.948399805225079	2.5184545322886E-03	3.43740774697892E-03			2.63096540915976E-03	3.21475706713328E-03	-0.118313155098242	-0.94648410088698
