!Agilent Technologies,E5071C,MY46104097,A.08.12
!Date: Sat Dec 01 15:34:54 2018
!Data & Calibration Information:
!Freq	S11:SOLT2(ON)	S21:SOLT2(ON)	S12:SOLT2(ON)	S22:SOLT2(ON)
# Hz S RI R 50
1340000000	9.499846e-001	-1.748914e-001	-3.952094e-003	-8.270724e-003	-4.418412e-003	-9.610472e-003	9.409923e-001	-2.291286e-001
1340312500	9.551377e-001	-1.678508e-001	-5.366260e-003	-7.166121e-003	-3.078528e-003	-9.263084e-003	9.387484e-001	-2.266456e-001
1340625000	9.455822e-001	-1.756974e-001	-3.508631e-003	-7.778386e-003	-4.630169e-003	-8.406712e-003	9.312030e-001	-2.278023e-001
1340937500	9.491838e-001	-1.649123e-001	-4.892948e-003	-8.831184e-003	-3.474224e-003	-7.985072e-003	9.397823e-001	-2.350851e-001
1341250000	9.484153e-001	-1.677715e-001	-4.552968e-003	-8.620973e-003	-4.437389e-003	-8.097223e-003	9.266256e-001	-2.174414e-001
1341562500	9.451635e-001	-1.727485e-001	-4.017245e-003	-8.156742e-003	-3.938418e-003	-8.476461e-003	9.267799e-001	-2.157359e-001
1341875000	9.584222e-001	-1.832688e-001	-5.887773e-003	-8.630695e-003	-4.655691e-003	-8.524753e-003	9.276578e-001	-2.289516e-001
1342187500	9.473200e-001	-1.681070e-001	-3.980649e-003	-9.355960e-003	-4.865582e-003	-8.101467e-003	9.280667e-001	-2.241397e-001
1342500000	9.534405e-001	-1.706234e-001	-4.966832e-003	-8.264294e-003	-3.535519e-003	-8.714387e-003	9.355364e-001	-2.250745e-001
1342812500	9.336991e-001	-1.731914e-001	-4.434679e-003	-7.802046e-003	-4.082266e-003	-9.672259e-003	9.272724e-001	-2.223963e-001
1343125000	9.582109e-001	-1.878207e-001	-5.665262e-003	-8.753925e-003	-4.822148e-003	-9.597009e-003	9.272115e-001	-2.301682e-001
1343437500	9.373308e-001	-1.688331e-001	-5.052599e-003	-7.710614e-003	-3.583821e-003	-8.844175e-003	9.354787e-001	-2.231294e-001
1343750000	9.441162e-001	-1.788088e-001	-4.877331e-003	-8.036227e-003	-3.935090e-003	-9.829528e-003	9.308335e-001	-2.268662e-001
1344062500	9.534122e-001	-1.713810e-001	-5.029027e-003	-7.790921e-003	-5.994632e-003	-8.627785e-003	9.294825e-001	-2.340667e-001
1344375000	9.470692e-001	-1.561159e-001	-5.906551e-003	-8.113618e-003	-4.698002e-003	-8.777936e-003	9.327462e-001	-2.311845e-001
1344687500	9.533114e-001	-1.679165e-001	-5.182140e-003	-9.249981e-003	-4.230380e-003	-8.516572e-003	9.365182e-001	-2.305496e-001
1345000000	9.476850e-001	-1.751294e-001	-4.755841e-003	-8.677492e-003	-5.428093e-003	-8.698296e-003	9.420721e-001	-2.277454e-001
1345312500	9.599569e-001	-1.734392e-001	-3.937152e-003	-8.074374e-003	-4.767451e-003	-8.495861e-003	9.268244e-001	-2.256866e-001
1345625000	9.536483e-001	-1.741280e-001	-2.765495e-003	-8.033317e-003	-4.440115e-003	-7.557126e-003	9.354658e-001	-2.221060e-001
1345937500	9.461667e-001	-1.759023e-001	-6.393669e-003	-9.088413e-003	-4.261438e-003	-9.304234e-003	9.268464e-001	-2.270483e-001
1346250000	9.581442e-001	-1.682374e-001	-4.805401e-003	-9.225938e-003	-4.878441e-003	-7.532686e-003	9.314100e-001	-2.276429e-001
1346562500	9.471634e-001	-1.746746e-001	-4.823022e-003	-8.787813e-003	-4.760106e-003	-8.600827e-003	9.312319e-001	-2.279478e-001
1346875000	9.583030e-001	-1.810416e-001	-4.734318e-003	-7.983967e-003	-4.975257e-003	-9.601104e-003	9.349641e-001	-2.294760e-001
1347187500	9.493852e-001	-1.678343e-001	-4.873866e-003	-9.056884e-003	-5.852359e-003	-7.947099e-003	9.323574e-001	-2.247157e-001
1347500000	9.577103e-001	-1.701765e-001	-6.573407e-003	-8.439803e-003	-5.748124e-003	-9.309099e-003	9.300501e-001	-2.263716e-001
1347812500	9.539859e-001	-1.773494e-001	-5.018215e-003	-8.531793e-003	-4.339737e-003	-8.882442e-003	9.229585e-001	-2.265085e-001
1348125000	9.448059e-001	-1.673275e-001	-5.164812e-003	-9.893174e-003	-5.077091e-003	-8.151553e-003	9.326583e-001	-2.206245e-001
1348437500	9.446419e-001	-1.760375e-001	-5.982234e-003	-8.074121e-003	-6.187868e-003	-8.899078e-003	9.312284e-001	-2.326176e-001
1348750000	9.534850e-001	-1.763196e-001	-5.512031e-003	-8.044026e-003	-5.424848e-003	-8.288129e-003	9.246803e-001	-2.182144e-001
1349062500	9.436414e-001	-1.731317e-001	-4.550452e-003	-8.661622e-003	-4.901945e-003	-7.841147e-003	9.255495e-001	-2.453306e-001
1349375000	9.516155e-001	-1.663799e-001	-5.672019e-003	-7.258417e-003	-6.110257e-003	-8.949497e-003	9.254679e-001	-2.337173e-001
1349687500	9.372173e-001	-1.703254e-001	-6.449847e-003	-8.795461e-003	-4.899972e-003	-8.602573e-003	9.308932e-001	-2.315068e-001
1350000000	9.478073e-001	-1.750166e-001	-5.871385e-003	-8.113477e-003	-4.542309e-003	-8.751860e-003	9.153781e-001	-2.322132e-001
1350312500	9.579810e-001	-1.757269e-001	-4.930782e-003	-8.852575e-003	-5.412206e-003	-9.052910e-003	9.258086e-001	-2.187141e-001
1350625000	9.552292e-001	-1.847698e-001	-7.387415e-003	-8.634766e-003	-6.885578e-003	-8.438519e-003	9.248120e-001	-2.328953e-001
1350937500	9.471886e-001	-1.791378e-001	-5.013306e-003	-6.499818e-003	-5.725220e-003	-7.827968e-003	9.194879e-001	-2.344242e-001
1351250000	9.427344e-001	-1.825964e-001	-4.722480e-003	-8.772827e-003	-4.886595e-003	-8.395689e-003	9.291761e-001	-2.272241e-001
1351562500	9.436348e-001	-1.835787e-001	-5.281833e-003	-7.709374e-003	-4.586689e-003	-8.268162e-003	9.321220e-001	-2.345910e-001
1351875000	9.545790e-001	-1.755325e-001	-4.870790e-003	-7.765630e-003	-5.767575e-003	-8.947773e-003	9.248522e-001	-2.273979e-001
1352187500	9.575678e-001	-1.891262e-001	-4.230662e-003	-7.473747e-003	-5.322631e-003	-6.842725e-003	9.273641e-001	-2.337105e-001
1352500000	9.397880e-001	-1.701939e-001	-4.936010e-003	-7.128628e-003	-3.858527e-003	-7.583302e-003	9.210018e-001	-2.358371e-001
1352812500	9.485070e-001	-1.957226e-001	-4.543301e-003	-7.735077e-003	-5.034064e-003	-8.631258e-003	9.312388e-001	-2.245647e-001
1353125000	9.547008e-001	-1.747670e-001	-5.061628e-003	-9.215543e-003	-6.379751e-003	-7.773314e-003	9.271005e-001	-2.319994e-001
1353437500	9.458842e-001	-1.769372e-001	-5.072837e-003	-7.143265e-003	-4.022151e-003	-7.732500e-003	9.224713e-001	-2.302554e-001
1353750000	9.511605e-001	-1.841860e-001	-4.834995e-003	-8.458358e-003	-3.770676e-003	-7.459049e-003	9.315923e-001	-2.438079e-001
1354062500	9.548713e-001	-1.816647e-001	-4.805484e-003	-8.853658e-003	-5.150413e-003	-8.503889e-003	9.241422e-001	-2.314739e-001
1354375000	9.499439e-001	-1.829686e-001	-3.675718e-003	-9.652230e-003	-5.243390e-003	-8.738870e-003	9.191690e-001	-2.332781e-001
1354687500	9.568771e-001	-1.653020e-001	-6.311383e-003	-9.127112e-003	-5.641872e-003	-7.611601e-003	9.270373e-001	-2.317738e-001
1355000000	9.394726e-001	-1.809746e-001	-3.918219e-003	-9.381481e-003	-4.394193e-003	-8.388267e-003	9.222506e-001	-2.423681e-001
1355312500	9.404744e-001	-1.833760e-001	-5.129295e-003	-7.306491e-003	-5.008323e-003	-8.021071e-003	9.197249e-001	-2.290508e-001
1355625000	9.379415e-001	-1.798303e-001	-5.149270e-003	-7.669311e-003	-4.205402e-003	-8.746812e-003	9.183910e-001	-2.339169e-001
1355937500	9.406600e-001	-1.820873e-001	-4.454817e-003	-7.635937e-003	-5.332174e-003	-8.280598e-003	9.277683e-001	-2.305063e-001
1356250000	9.375846e-001	-1.923653e-001	-4.684452e-003	-7.603094e-003	-4.458955e-003	-7.558211e-003	9.301447e-001	-2.411084e-001
1356562500	9.491107e-001	-1.754781e-001	-4.848061e-003	-8.399040e-003	-6.164547e-003	-8.177216e-003	9.346508e-001	-2.324665e-001
1356875000	9.537830e-001	-1.805863e-001	-6.235290e-003	-8.757716e-003	-4.600786e-003	-8.966411e-003	9.297840e-001	-2.305680e-001
1357187500	9.457215e-001	-1.728451e-001	-4.241206e-003	-8.971521e-003	-6.158732e-003	-9.268511e-003	9.332051e-001	-2.473538e-001
1357500000	9.450009e-001	-1.901593e-001	-4.869706e-003	-7.942220e-003	-5.412004e-003	-8.643676e-003	9.328387e-001	-2.315283e-001
1357812500	9.561992e-001	-1.732075e-001	-3.963231e-003	-8.185441e-003	-4.384165e-003	-8.873034e-003	9.267198e-001	-2.372926e-001
1358125000	9.454777e-001	-1.837984e-001	-4.698321e-003	-8.594742e-003	-2.719266e-003	-8.876418e-003	9.252369e-001	-2.418854e-001
1358437500	9.452569e-001	-1.709143e-001	-5.031616e-003	-8.655433e-003	-4.302380e-003	-9.159681e-003	9.256913e-001	-2.317492e-001
1358750000	9.465970e-001	-1.833978e-001	-4.264843e-003	-8.594451e-003	-4.391326e-003	-9.165622e-003	9.251663e-001	-2.416944e-001
1359062500	9.468952e-001	-1.802262e-001	-5.527478e-003	-8.887684e-003	-4.570535e-003	-8.280460e-003	9.291048e-001	-2.412290e-001
1359375000	9.409856e-001	-1.920609e-001	-5.070731e-003	-8.995828e-003	-3.925951e-003	-8.413858e-003	9.268427e-001	-2.358730e-001
1359687500	9.471917e-001	-1.850047e-001	-4.361573e-003	-8.262695e-003	-4.626077e-003	-7.730906e-003	9.213039e-001	-2.307530e-001
1360000000	9.390638e-001	-1.884595e-001	-4.710315e-003	-9.503178e-003	-5.925003e-003	-9.512199e-003	9.234441e-001	-2.289345e-001
1360312500	9.443439e-001	-1.941814e-001	-4.877490e-003	-9.542029e-003	-6.174544e-003	-7.952541e-003	9.295185e-001	-2.288140e-001
1360625000	9.443881e-001	-1.789135e-001	-5.277925e-003	-7.830005e-003	-3.481413e-003	-8.981866e-003	9.215548e-001	-2.349840e-001
1360937500	9.469140e-001	-1.836718e-001	-5.004589e-003	-8.497948e-003	-5.620787e-003	-9.479541e-003	9.122669e-001	-2.406377e-001
1361250000	9.452476e-001	-1.889076e-001	-4.711516e-003	-9.685555e-003	-4.765590e-003	-8.946304e-003	9.264294e-001	-2.496185e-001
1361562500	9.469279e-001	-1.890622e-001	-4.183572e-003	-7.806801e-003	-4.873805e-003	-9.367967e-003	9.380794e-001	-2.399550e-001
1361875000	9.357342e-001	-1.788751e-001	-4.030270e-003	-8.132205e-003	-4.552545e-003	-6.978416e-003	9.290225e-001	-2.431258e-001
1362187500	9.467273e-001	-1.778047e-001	-5.146520e-003	-9.000893e-003	-6.224415e-003	-9.443590e-003	9.198362e-001	-2.350142e-001
1362500000	9.478611e-001	-1.880305e-001	-4.730355e-003	-9.071806e-003	-4.713199e-003	-7.664775e-003	9.275531e-001	-2.346400e-001
1362812500	9.464928e-001	-1.887868e-001	-4.542855e-003	-1.061405e-002	-3.506976e-003	-9.071796e-003	9.189566e-001	-2.376148e-001
1363125000	9.594967e-001	-1.867972e-001	-3.316504e-003	-9.142669e-003	-4.740499e-003	-8.948714e-003	9.157969e-001	-2.493299e-001
1363437500	9.430902e-001	-1.900563e-001	-4.359708e-003	-8.892524e-003	-4.394896e-003	-8.983171e-003	9.239365e-001	-2.336754e-001
1363750000	9.464303e-001	-1.930150e-001	-4.151138e-003	-9.034117e-003	-5.372543e-003	-8.727051e-003	9.269683e-001	-2.488468e-001
1364062500	9.500458e-001	-1.780341e-001	-4.476878e-003	-8.789210e-003	-4.612870e-003	-8.423075e-003	9.329266e-001	-2.492071e-001
1364375000	9.566526e-001	-1.890952e-001	-5.278851e-003	-9.437678e-003	-3.525437e-003	-7.514458e-003	9.232635e-001	-2.378441e-001
1364687500	9.452286e-001	-1.924896e-001	-5.342688e-003	-8.718561e-003	-3.875667e-003	-9.097415e-003	9.268282e-001	-2.475767e-001
1365000000	9.508432e-001	-1.977462e-001	-4.741951e-003	-8.496611e-003	-6.534112e-003	-8.943710e-003	9.241017e-001	-2.349387e-001
1365312500	9.419047e-001	-1.829655e-001	-4.446278e-003	-9.912643e-003	-5.038634e-003	-9.534486e-003	9.281732e-001	-2.463583e-001
1365625000	9.557784e-001	-1.930270e-001	-5.520456e-003	-9.799665e-003	-4.693172e-003	-9.151935e-003	9.267252e-001	-2.454681e-001
1365937500	9.509343e-001	-1.905058e-001	-5.301313e-003	-7.972787e-003	-4.301165e-003	-8.740139e-003	9.209383e-001	-2.414415e-001
1366250000	9.507714e-001	-1.958946e-001	-4.922497e-003	-9.281555e-003	-5.000224e-003	-9.582374e-003	9.237502e-001	-2.470623e-001
1366562500	9.408380e-001	-1.922660e-001	-4.878357e-003	-1.001543e-002	-4.224081e-003	-8.664290e-003	9.232563e-001	-2.512431e-001
1366875000	9.544412e-001	-1.898536e-001	-6.605216e-003	-1.000627e-002	-5.102231e-003	-8.183578e-003	9.217515e-001	-2.477284e-001
1367187500	9.429962e-001	-1.907877e-001	-5.049046e-003	-8.118007e-003	-3.388402e-003	-8.070436e-003	9.051115e-001	-2.455331e-001
1367500000	9.404497e-001	-1.929009e-001	-5.070985e-003	-8.333951e-003	-5.756140e-003	-8.989952e-003	9.279366e-001	-2.575067e-001
1367812500	9.482380e-001	-1.928499e-001	-3.868164e-003	-9.347805e-003	-5.011897e-003	-9.966298e-003	9.312787e-001	-2.440786e-001
1368125000	9.524869e-001	-2.000442e-001	-4.856163e-003	-7.827695e-003	-4.005334e-003	-7.952789e-003	9.257880e-001	-2.345288e-001
1368437500	9.438153e-001	-1.881852e-001	-5.453021e-003	-8.356722e-003	-5.563947e-003	-9.731627e-003	9.265561e-001	-2.490235e-001
1368750000	9.407572e-001	-1.890559e-001	-5.486163e-003	-1.020839e-002	-6.626746e-003	-8.874369e-003	9.174184e-001	-2.542559e-001
1369062500	9.423788e-001	-1.948179e-001	-4.502274e-003	-8.785076e-003	-5.519474e-003	-1.112497e-002	9.191017e-001	-2.397228e-001
1369375000	9.464502e-001	-2.019802e-001	-4.777224e-003	-8.987369e-003	-4.536546e-003	-7.942522e-003	9.125384e-001	-2.550469e-001
1369687500	9.484428e-001	-1.918762e-001	-5.449643e-003	-8.806490e-003	-5.106097e-003	-8.844380e-003	9.274902e-001	-2.546041e-001
1370000000	9.524969e-001	-1.947100e-001	-5.311645e-003	-8.669090e-003	-5.109405e-003	-9.144089e-003	9.276704e-001	-2.521511e-001
1370312500	9.477325e-001	-1.954358e-001	-4.491037e-003	-9.197338e-003	-4.558392e-003	-9.427449e-003	9.280281e-001	-2.496670e-001
1370625000	9.480636e-001	-1.963643e-001	-6.744896e-003	-1.019139e-002	-5.238438e-003	-9.097067e-003	9.223891e-001	-2.406782e-001
1370937500	9.423527e-001	-1.943385e-001	-4.099859e-003	-9.494792e-003	-5.623772e-003	-8.981726e-003	9.184280e-001	-2.535262e-001
1371250000	9.366719e-001	-1.951651e-001	-4.692291e-003	-9.515338e-003	-3.903062e-003	-9.334137e-003	9.163431e-001	-2.437983e-001
1371562500	9.460039e-001	-2.046336e-001	-4.970814e-003	-7.786875e-003	-4.672474e-003	-8.933065e-003	9.266644e-001	-2.529889e-001
1371875000	9.519972e-001	-1.968194e-001	-5.190971e-003	-1.013693e-002	-5.018136e-003	-9.297445e-003	9.231126e-001	-2.425290e-001
1372187500	9.500395e-001	-1.963221e-001	-5.306952e-003	-7.772995e-003	-5.210857e-003	-8.701342e-003	9.142682e-001	-2.571554e-001
1372500000	9.416611e-001	-1.969516e-001	-5.419596e-003	-9.410345e-003	-6.244828e-003	-9.997262e-003	9.215366e-001	-2.535024e-001
1372812500	9.390121e-001	-1.963264e-001	-4.951252e-003	-9.516303e-003	-5.051042e-003	-8.695183e-003	9.209255e-001	-2.549477e-001
1373125000	9.425060e-001	-1.947598e-001	-4.817500e-003	-9.007176e-003	-5.289034e-003	-1.015497e-002	9.162820e-001	-2.509675e-001
1373437500	9.351826e-001	-1.977994e-001	-4.901837e-003	-1.016603e-002	-4.833721e-003	-9.099662e-003	9.278777e-001	-2.500404e-001
1373750000	9.294391e-001	-1.967409e-001	-5.946149e-003	-9.429298e-003	-4.868702e-003	-8.843392e-003	9.298068e-001	-2.471580e-001
1374062500	9.428723e-001	-1.934330e-001	-5.112574e-003	-1.019383e-002	-6.296167e-003	-9.462231e-003	9.154802e-001	-2.676573e-001
1374375000	9.500171e-001	-1.965395e-001	-4.926677e-003	-9.559689e-003	-5.356416e-003	-9.356018e-003	9.150091e-001	-2.464741e-001
1374687500	9.396971e-001	-1.981765e-001	-4.379602e-003	-8.328368e-003	-5.639753e-003	-9.272705e-003	9.225269e-001	-2.519581e-001
1375000000	9.308073e-001	-2.016599e-001	-5.402633e-003	-8.835175e-003	-4.550842e-003	-9.305451e-003	9.246537e-001	-2.548744e-001
1375312500	9.410012e-001	-1.866936e-001	-4.240782e-003	-9.605142e-003	-4.131715e-003	-8.865713e-003	9.273211e-001	-2.609947e-001
1375625000	9.463853e-001	-1.996703e-001	-5.895485e-003	-8.505318e-003	-4.629038e-003	-9.348299e-003	9.249295e-001	-2.587536e-001
1375937500	9.375324e-001	-2.005407e-001	-5.580933e-003	-9.426708e-003	-4.536188e-003	-9.696500e-003	9.204757e-001	-2.641381e-001
1376250000	9.490169e-001	-2.120183e-001	-4.571200e-003	-9.149912e-003	-5.329838e-003	-1.056680e-002	9.174562e-001	-2.579383e-001
1376562500	9.464868e-001	-2.046765e-001	-5.454625e-003	-9.288186e-003	-5.023891e-003	-9.416003e-003	9.196024e-001	-2.566767e-001
1376875000	9.492907e-001	-1.906797e-001	-5.460925e-003	-9.832928e-003	-6.023642e-003	-9.616989e-003	9.166498e-001	-2.638770e-001
1377187500	9.464937e-001	-1.990196e-001	-5.216865e-003	-9.670431e-003	-4.421350e-003	-1.030961e-002	9.243716e-001	-2.549931e-001
1377500000	9.394851e-001	-2.092207e-001	-5.029865e-003	-8.294178e-003	-4.702933e-003	-8.287615e-003	9.312408e-001	-2.518702e-001
1377812500	9.513094e-001	-2.030381e-001	-5.787189e-003	-8.903759e-003	-5.361239e-003	-9.014783e-003	9.222660e-001	-2.504317e-001
1378125000	9.439216e-001	-1.931420e-001	-6.067581e-003	-1.086959e-002	-4.527172e-003	-7.959561e-003	9.249801e-001	-2.659162e-001
1378437500	9.438583e-001	-1.963522e-001	-5.586817e-003	-8.862800e-003	-5.246612e-003	-8.384362e-003	9.110777e-001	-2.582202e-001
1378750000	9.414946e-001	-2.037057e-001	-4.971660e-003	-9.891754e-003	-4.933253e-003	-9.809094e-003	9.130331e-001	-2.602880e-001
1379062500	9.394267e-001	-1.988386e-001	-5.257936e-003	-1.006669e-002	-4.807068e-003	-7.918236e-003	9.196550e-001	-2.572755e-001
1379375000	9.366969e-001	-1.959130e-001	-5.665240e-003	-9.529003e-003	-5.973386e-003	-9.344903e-003	9.137724e-001	-2.572804e-001
1379687500	9.393119e-001	-2.121446e-001	-4.270899e-003	-9.651878e-003	-5.628975e-003	-9.984824e-003	9.275689e-001	-2.546855e-001
1380000000	9.418102e-001	-2.080553e-001	-4.948118e-003	-8.535584e-003	-5.586717e-003	-1.017821e-002	9.172032e-001	-2.616408e-001
1380312500	9.454226e-001	-1.969419e-001	-4.952000e-003	-8.768962e-003	-5.041661e-003	-9.905030e-003	9.232010e-001	-2.557348e-001
1380625000	9.381222e-001	-2.079773e-001	-4.750316e-003	-8.037841e-003	-5.671492e-003	-1.039896e-002	9.222698e-001	-2.608985e-001
1380937500	9.452874e-001	-1.988481e-001	-5.067915e-003	-1.079046e-002	-5.212170e-003	-7.591842e-003	9.206320e-001	-2.674861e-001
1381250000	9.468456e-001	-2.077125e-001	-5.137381e-003	-9.092066e-003	-4.545185e-003	-9.619596e-003	9.211731e-001	-2.541670e-001
1381562500	9.468001e-001	-2.076498e-001	-4.589899e-003	-1.061999e-002	-6.094614e-003	-1.031792e-002	9.129010e-001	-2.665985e-001
1381875000	9.423780e-001	-2.075085e-001	-5.077529e-003	-1.029520e-002	-4.586040e-003	-1.076209e-002	9.097354e-001	-2.677639e-001
1382187500	9.482017e-001	-2.060305e-001	-5.530531e-003	-9.305809e-003	-4.196664e-003	-9.666582e-003	9.224796e-001	-2.626257e-001
1382500000	9.395559e-001	-2.094288e-001	-5.500496e-003	-9.037729e-003	-5.867211e-003	-1.082469e-002	9.111976e-001	-2.585615e-001
1382812500	9.350065e-001	-1.938939e-001	-5.588379e-003	-9.955409e-003	-5.213464e-003	-8.787652e-003	9.099367e-001	-2.641575e-001
1383125000	9.350737e-001	-2.095850e-001	-7.827567e-003	-8.584643e-003	-5.388796e-003	-9.251753e-003	9.199929e-001	-2.733524e-001
1383437500	9.386510e-001	-1.911633e-001	-4.931056e-003	-9.560053e-003	-5.049377e-003	-9.957909e-003	9.171787e-001	-2.600692e-001
1383750000	9.320938e-001	-2.079075e-001	-5.678194e-003	-7.944687e-003	-5.787878e-003	-9.656525e-003	9.145176e-001	-2.646827e-001
1384062500	9.431551e-001	-2.140869e-001	-5.425447e-003	-1.095465e-002	-4.549928e-003	-9.096854e-003	9.189156e-001	-2.565665e-001
1384375000	9.446933e-001	-2.122428e-001	-4.376272e-003	-9.709836e-003	-4.852667e-003	-1.018359e-002	9.215128e-001	-2.638114e-001
1384687500	9.435136e-001	-2.104573e-001	-5.283165e-003	-1.025034e-002	-5.045435e-003	-9.648584e-003	9.055350e-001	-2.679658e-001
1385000000	9.434406e-001	-2.003819e-001	-5.236394e-003	-9.589012e-003	-6.969633e-003	-1.028261e-002	9.155991e-001	-2.694411e-001
1385312500	9.407121e-001	-1.982538e-001	-5.050849e-003	-8.913686e-003	-5.039697e-003	-9.457337e-003	9.163752e-001	-2.662737e-001
1385625000	9.366086e-001	-2.164553e-001	-5.593926e-003	-1.028661e-002	-5.624330e-003	-8.911290e-003	9.141194e-001	-2.679312e-001
1385937500	9.459594e-001	-2.014053e-001	-6.098799e-003	-9.581524e-003	-5.092991e-003	-9.082512e-003	9.151574e-001	-2.597783e-001
1386250000	9.415184e-001	-1.973269e-001	-5.281474e-003	-9.330167e-003	-4.666942e-003	-8.994222e-003	9.171268e-001	-2.593290e-001
1386562500	9.378180e-001	-2.073496e-001	-3.161594e-003	-9.958104e-003	-5.279795e-003	-8.752972e-003	9.099497e-001	-2.660616e-001
1386875000	9.482936e-001	-2.074908e-001	-5.356474e-003	-9.602273e-003	-4.987942e-003	-1.010302e-002	8.973540e-001	-2.711818e-001
1387187500	9.292722e-001	-2.201041e-001	-5.489001e-003	-9.592557e-003	-4.655919e-003	-8.709074e-003	9.214227e-001	-2.672688e-001
1387500000	9.422945e-001	-2.047616e-001	-4.561826e-003	-1.066880e-002	-6.064085e-003	-9.908313e-003	9.068146e-001	-2.651165e-001
