# Hz S RI R 50
113000000	0.76970843578959	-0.609857305768383	2.10488545869234E-04	-3.42095477255741E-04			1.9341512075238E-04	-3.35265938636707E-04	0.790841257070787	-0.574125487539735
113125000	0.769031936594258	-0.60808906821675	-7.26076117358775E-04	1.48679044257029E-03			-7.17008062166641E-04	1.49761483500693E-03	0.789461269934503	-0.571981016574604
113250000	0.768905757739029	-0.608306968126991	9.23153901224762E-06	2.85511213021263E-03			-2.71690123580937E-05	2.89064248407599E-03	0.79031498400568	-0.571798585173702
113375000	0.770632648714534	-0.611101580284932	1.59623812995121E-03	2.09407176421484E-03			1.60309596760831E-03	2.1157276166799E-03	0.790119562538673	-0.576342301116547
113500000	0.768958108093867	-0.61130978584662	1.20381237659998E-03	1.03704274483451E-03			1.17307836305693E-03	1.02735068741706E-03	0.787864386417387	-0.573685125152681
113625000	0.768385463907758	-0.611152409711412	1.05290279620337E-03	1.06295951502752E-03			1.00488060682446E-03	1.1118808254109E-03	0.788209581436381	-0.574055924779741
113750000	0.769218273656012	-0.613938691067025	8.26246836355671E-04	1.42684463451383E-03			8.32504482377139E-04	1.4182881455593E-03	0.791036408687931	-0.575250995084022
113875000	0.767482226515801	-0.613343294020026	1.29840795447743E-03	1.55965179232436E-03			1.31206727591938E-03	1.55627608039553E-03	0.789839979274401	-0.575830073791119
114000000	0.767382322734223	-0.617550013226884	1.61331305458314E-03	1.22466521026016E-03			1.6240290594016E-03	1.2062797647684E-03	0.789530848282888	-0.575499381867654
114125000	0.767451413313989	-0.6154136589165	1.58142635739111E-03	5.62867776751663E-04			1.57035819761103E-03	5.98261327645942E-04	0.78861824897208	-0.575317583102461
114250000	0.764906170310441	-0.616711340578125	1.25124238344664E-03	2.30558407616628E-04			1.29072155490711E-03	2.91243067519725E-04	0.789795398124672	-0.575033190971304
114375000	0.765257711320192	-0.616857045543438	8.94874361171965E-04	4.15187497714619E-04			8.80629278572954E-04	4.23208634955648E-04	0.789783203246745	-0.577953282287623
114500000	0.764652376077789	-0.616922675038231	4.92768933837673E-04	3.58191694621055E-04			5.15006271892177E-04	3.63392093639372E-04	0.787121717116106	-0.576830094159285
114625000	0.763755610905639	-0.618064240406769	4.60753952954887E-04	8.92572066240425E-04			4.75098931141073E-04	8.82190646175006E-04	0.788065288665226	-0.575966810504569
114750000	0.763951538740949	-0.618061721507309	7.22372203538034E-04	8.07297003834704E-04			7.43346900674423E-04	8.04522551606085E-04	0.789343430555924	-0.57895909244734
114875000	0.763518149631894	-0.619443630671414	5.58935016651065E-04	7.18448368155107E-04			5.70101198079626E-04	6.98175970864088E-04	0.78833046502913	-0.581946158417732
115000000	0.762760354296285	-0.619578146984279	4.49788020501846E-04	9.92687131646503E-04			4.55488857513469E-04	9.94804736983232E-04	0.786661144091831	-0.581940325984469
115125000	0.762738729295508	-0.620199027434849	8.51975159834932E-04	1.0570818314845E-03			7.93195367528368E-04	1.08220438802695E-03	0.787118098123262	-0.582904731085861
115250000	0.760698081482862	-0.622202300349989	9.18460137510247E-04	5.63234084601769E-04			9.36625878012728E-04	5.7712610959577E-04	0.786037719363021	-0.584565616128414
115375000	0.758998359747675	-0.622440612105214	5.21252652985661E-04	3.57352972838822E-04			5.34039692474397E-04	3.21982490270509E-04	0.784194567559412	-0.582630155267434
115500000	0.758557568743583	-0.622411213276803	2.9052388350774E-04	6.15007861171928E-04			2.91541119533245E-04	6.38162489190881E-04	0.786500661682813	-0.584246996319621
115625000	0.757529569227762	-0.622553511180446	2.34836958586173E-04	6.52463880971086E-04			2.17501355165927E-04	6.44024241882787E-04	0.784480498754691	-0.585926275396713
115750000	0.757172843921518	-0.623156708244946	1.52754499290215E-04	7.8450683146416E-04			1.83770612595006E-04	7.4356799538611E-04	0.784709845438559	-0.586163988190905
115875000	0.757887050899684	-0.622852115316778	-9.3316325281627E-05	8.33426492426891E-04			-1.38661014949428E-04	8.28769108394132E-04	0.781044016513824	-0.587961567329969
116000000	0.756722515578887	-0.624513170679136	-2.39247828680354E-04	1.2680102555792E-03			-2.26268816150647E-04	1.25734436218561E-03	0.776033581427704	-0.586235989970801
116125000	0.754502894251104	-0.62563623711194	2.61292249714417E-04	1.73067450675739E-03			2.30411748668707E-04	1.76175774688902E-03	0.778343804384315	-0.586382039604225
116250000	0.755941339290077	-0.626604425444836	5.27337838599078E-04	1.44757686297256E-03			4.96350842415505E-04	1.43963834021295E-03	0.775469798939802	-0.587505592742503
116375000	0.75186627525343	-0.62780436084746	8.69439138713134E-04	1.46491053561005E-03			8.90761089056962E-04	1.43637256813784E-03	0.775728911004724	-0.586486522716279
116500000	0.750019483449844	-0.626494605874252	3.06451982679722E-04	-1.91399526936852E-04			3.1995531561455E-04	-1.95064945825948E-04	0.775751704904915	-0.584968458363353
116625000	0.751818461837394	-0.6236108814121	-1.75166409322257E-03	1.22400528818392E-03			-1.75204710847583E-03	1.20546317719682E-03	0.771291599974374	-0.584555331414738
116750000	0.752202716883238	-0.623382819794623	-1.0857413664264E-03	2.58439502237554E-03			-1.06332059902164E-03	2.57755563199728E-03	0.774691540225017	-0.581692847158338
116875000	0.75406009099654	-0.625517401477815	6.87712389958756E-04	3.31795833836774E-03			7.02797000979278E-04	3.2831993579615E-03	0.779218306706918	-0.58382550737051
117000000	0.752213602139625	-0.627818934268934	1.32981017870907E-03	2.2128308477208E-03			1.33040014383399E-03	2.2143146006355E-03	0.776736163650884	-0.586047822983723
117125000	0.752573307377344	-0.626812442911146	7.60165707798378E-04	2.0937598392023E-03			7.85994898923875E-04	2.12027065338158E-03	0.776871798762453	-0.585292597695385
117250000	0.752376156852209	-0.627543265735332	9.49547651586786E-04	2.17737570424115E-03			9.76186385228571E-04	2.14889139907794E-03	0.778062248802723	-0.584671325998058
117375000	0.753801780288486	-0.629510205022038	1.0692773056687E-03	2.33939098058815E-03			1.10556460826826E-03	2.34645714686414E-03	0.778289957892026	-0.585856865196877
117500000	0.750091057301244	-0.628520010956229	1.60354298026461E-03	2.32854864670701E-03			1.61272366575864E-03	2.2751260600348E-03	0.778555010596788	-0.588825201973627
117625000	0.75017591291017	-0.629734232545441	1.93593195678141E-03	1.91477005358879E-03			1.94128291478313E-03	1.88924445783583E-03	0.777032221227642	-0.589404022667398
117750000	0.747989677806582	-0.630148057872262	1.92571119614362E-03	1.41543564302053E-03			1.93689113913716E-03	1.46133469972256E-03	0.778851941816985	-0.592042829788669
117875000	0.74856958893602	-0.631839149736782	1.74241653153793E-03	1.29357430481525E-03			1.74488093603011E-03	1.31121515525882E-03	0.776089928978897	-0.591897477312078
118000000	0.748028269209731	-0.631708817725469	1.71091848967388E-03	1.03015835545656E-03			1.69385114458738E-03	9.74847572763417E-04	0.774247952583302	-0.59151251425645
118125000	0.747695529108892	-0.633446403873377	1.50011216514212E-03	9.76805301946411E-04			1.48467587032278E-03	9.55978298848054E-04	0.776670083692143	-0.594454411301264
118250000	0.747079785262709	-0.6328359198673	1.33558438345276E-03	9.18590536522393E-04			1.36101748843642E-03	9.46487532137784E-04	0.772268888164297	-0.594455829385162
118375000	0.747532507209691	-0.634435636944564	1.33582462198607E-03	1.16852847481845E-03			1.31596111720925E-03	1.22575915527307E-03	0.773311906087087	-0.594917269967913
118500000	0.746089778260749	-0.634330925275192	1.32945989352529E-03	1.20055849808028E-03			1.32877872340284E-03	1.12696024777797E-03	0.770909374644775	-0.594841539385266
118625000	0.746023925880092	-0.633733735893196	1.53051439482069E-03	1.10301077889672E-03			1.54180612952541E-03	1.12358820810434E-03	0.771387376935097	-0.59364817802178
118750000	0.744327138163382	-0.635074502030441	1.4732322277682E-03	9.54120477963721E-04			1.47428609185764E-03	9.53368128334766E-04	0.773918337015023	-0.594922893678973
118875000	0.743754942568816	-0.635263820922859	1.55307285476341E-03	1.02013853339934E-03			1.56275890374657E-03	1.01505311734257E-03	0.769830430654302	-0.598472368190576
119000000	0.74427816280186	-0.635295095106262	1.66752036529898E-03	8.65761913889524E-04			1.65702123418831E-03	8.29846221549516E-04	0.769925754302074	-0.594900669098261
119125000	0.741948735272992	-0.636184344625816	1.71695190637855E-03	5.23745811833981E-04			1.71394380174298E-03	5.45022046433576E-04	0.77095882902756	-0.595519096067188
119250000	0.742636123245653	-0.636275052507805	1.5367414807709E-03	2.98278843670609E-04			1.55863475691105E-03	3.24556103050616E-04	0.770802213396389	-0.595468053306634
119375000	0.742517770112622	-0.638170960394542	1.34590987623327E-03	1.89909365267686E-04			1.34613077934327E-03	2.14869751256052E-04	0.769312502970414	-0.595683679924161
119500000	0.741445722971875	-0.638462893533695	1.26112261226787E-03	1.09756405225851E-04			1.2509659256653E-03	9.48869777610182E-05	0.770426604834985	-0.597733418110887
119625000	0.741143274430967	-0.639406136800121	1.00407351241786E-03	2.57592542037443E-05			1.01679158161578E-03	4.72577294347315E-05	0.770949891891583	-0.598613663583676
119750000	0.738969626162511	-0.639689678793783	8.3292421227598E-04	6.89815406061494E-05			8.45749046451463E-04	8.01898623627856E-07	0.770342467957894	-0.599832708202995
119875000	0.739905477120611	-0.641430491548546	8.02882992320731E-04	1.25296621804063E-04			8.26857435844533E-04	1.44728179748458E-04	0.769112479200542	-0.601123110298289
120000000	0.735939753237834	-0.641606962795272	4.04277132836539E-04	-1.10977237651634E-03			4.3221104684002E-04	-1.10839167422489E-03	0.766944342342724	-0.601331912714564
120125000	0.738773475024581	-0.639445027219641	-1.3056047646214E-03	2.01447159283009E-04			-1.36389952481055E-03	1.87390460758053E-04	0.764668602936393	-0.601103687140586
120250000	0.737157113154724	-0.63755837637498	-6.25026304302635E-04	1.8147057508488E-03			-6.43711324419294E-04	1.78509644420511E-03	0.765669957749508	-0.600871555018787
120375000	0.735698605581799	-0.639195172765993	6.52173883778379E-04	1.47334650598203E-03			6.28288344040654E-04	1.5159965553597E-03	0.766158105630388	-0.604902188695485
120500000	0.738844994491808	-0.640755357099713	3.14259865607713E-04	0.001009558182073			2.76840057410713E-04	1.05638965973683E-03	0.768943356863267	-0.602540645537781
120625000	0.73565614343726	-0.642372543220354	4.13402968430487E-04	9.73688583339474E-04			4.13397544986551E-04	1.01256113087498E-03	0.766419383569278	-0.602657171085084
120750000	0.735432119566173	-0.642903455764918	3.05038462066924E-04	1.25125579306044E-03			3.20663618348401E-04	1.29281500970429E-03	0.763072952493775	-0.603644286292884
120875000	0.735976493907398	-0.641716795246058	5.75144165017749E-04	1.2149281890081E-03			6.07959174850869E-04	1.1954173103339E-03	0.766815158829629	-0.604708794313985
121000000	0.734673032558891	-0.644170563101647	6.58178079818959E-04	1.01341464174458E-03			6.08555911301054E-04	9.71203322469325E-04	0.763284385745379	-0.604996304575475
121125000	0.733504439023623	-0.645803418108479	5.01582699911512E-04	9.43923016800098E-04			4.75105514118616E-04	9.29614878435409E-04	0.764837922402394	-0.605728468750157
121250000	0.737482791129971	-0.642675719084488	1.57193568224023E-04	1.00087555013918E-03			1.64464520730809E-04	1.04027052955818E-03	0.764713148139604	-0.604947265649952
121375000	0.734657053873979	-0.644684096193226	1.14116223004777E-04	1.24510881643375E-03			1.34297600738943E-04	1.20667090054597E-03	0.762554363977575	-0.607469065287773
121500000	0.733885824326879	-0.643906738386476	2.98460791735071E-04	1.57929787069507E-03			2.98104003274472E-04	1.59784117632191E-03	0.762060664351502	-0.607409720338004
121625000	0.731774705260276	-0.646753387564253	4.84923076849935E-04	1.5030796487704E-03			5.19451502701796E-04	1.50956748063059E-03	0.761628882540151	-0.607125372368093
121750000	0.732198246607231	-0.647938220648928	3.4417967951459E-04	1.54473114640183E-03			3.44216678694665E-04	1.52735664835506E-03	0.762421596513764	-0.607498318778133
121875000	0.731574163943643	-0.649351832337862	6.74867068136789E-04	1.75885695998542E-03			7.01487095586758E-04	1.76857010469259E-03	0.762892208575799	-0.609865224483902
122000000	0.731066675120647	-0.648699176485365	6.99421435403539E-04	1.51569585873513E-03			7.21952293335385E-04	1.51714664779758E-03	0.762768280006783	-0.609060246605666
122125000	0.732028416562047	-0.65162693649607	7.34921534573543E-04	1.48961789789713E-03			7.46628018010246E-04	1.45054407369341E-03	0.759669057819754	-0.609695117792117
122250000	0.730497137832669	-0.651013649355892	7.47600142680104E-04	1.52410370545461E-03			7.54955304543998E-04	1.53926733839596E-03	0.763957047284815	-0.610497910537242
122375000	0.72918235307124	-0.651882429892191	8.64140750258428E-04	1.65481662671952E-03			8.88834615864355E-04	1.66336299392692E-03	0.760263966294407	-0.613081249864875
122500000	0.729469654152901	-0.652219698702529	1.07826281006699E-03	1.42774479565832E-03			1.11388116281141E-03	1.45277003262679E-03	0.757846959724776	-0.613802504476591
122625000	0.724463646771494	-0.653710525303036	9.48869219293826E-04	1.4040608980324E-03			9.77471753613443E-04	1.42934481937655E-03	0.755686935333539	-0.613548442657995
122750000	0.726140625665793	-0.649888057194111	1.20523232684418E-03	1.21135507643189E-03			1.22145077020937E-03	1.2308156986187E-03	0.752566453112824	-0.613025057837839
122875000	0.725931115924513	-0.651992783898766	5.87509557573896E-04	1.04377916450165E-03			6.34582237564034E-04	1.05544394235295E-03	0.756067272419129	-0.612101740797678
123000000	0.727917033364137	-0.651685080960821	6.71809770641772E-04	1.68959393899781E-03			6.85610267397606E-04	1.68057058132476E-03	0.757917744280165	-0.614702171259963
123125000	0.724565097764928	-0.652079107281268	1.10995866948183E-03	1.74420444084087E-03			1.08994304670671E-03	1.72724880272188E-03	0.756869629781743	-0.615584364670265
123250000	0.726923125924166	-0.653565218228202	1.37982757161838E-03	1.64942258243791E-03			1.33731186237558E-03	1.67598543463731E-03	0.751788601942592	-0.617116772639531
123375000	0.721824737461036	-0.654904988410981	1.85290119007195E-03	1.35383255694301E-03			1.89596232988719E-03	1.35363291451601E-03	0.753798924510647	-0.618837342362754
123500000	0.72171751529614	-0.653574655714012	1.71405013896203E-03	-4.64165475155487E-04			1.69771183568501E-03	-4.77135775501128E-04	0.753079773300304	-0.61775334978391
123625000	0.72230316257818	-0.65128740957746	-5.21402846504631E-04	3.81146373753278E-04			-5.51465779211978E-04	3.45848848394825E-04	0.7513497764786	-0.61468907693285
123750000	0.723559515792389	-0.654396154210892	-1.83508313362956E-04	2.02569937453407E-03			-1.99958311335436E-04	2.03092958576254E-03	0.752471843114748	-0.614713884284491
123875000	0.724819926085552	-0.653481333408388	1.48858588865251E-03	2.03283454049818E-03			1.46062046965054E-03	2.0530771507275E-03	0.751917054362508	-0.617889991909746
124000000	0.724649270967908	-0.65561166380517	1.22001408551851E-03	1.13692657072304E-03			1.25102714275704E-03	1.14300636424994E-03	0.749436291155934	-0.617415115663698
124125000	0.724100530404814	-0.656689985407433	1.09134193367585E-03	1.29332593420231E-03			1.13527085204513E-03	1.29005623820215E-03	0.749845594918913	-0.619211097976335
124250000	0.722782134932105	-0.659305203297623	1.1963643044137E-03	1.36846478381219E-03			1.17420157173521E-03	1.41781591441652E-03	0.752306012367201	-0.617999392703134
124375000	0.724576700522418	-0.658291064564024	1.52970525301355E-03	1.16815633531866E-03			1.52053512641492E-03	1.17354189926936E-03	0.752639017814823	-0.618498708030446
124500000	0.722598951130927	-0.659724138660973	1.34164582279274E-03	7.85642277209538E-04			1.3778452666128E-03	7.96043406462989E-04	0.754317067163594	-0.618327020485296
124625000	0.722888277446176	-0.660612441815682	1.15958024381983E-03	5.86697255226166E-04			1.15862464576841E-03	5.79624775992353E-04	0.748114679363515	-0.618998189195992
124750000	0.721942613257563	-0.662085560210472	8.09449943258569E-04	4.96251997814997E-04			8.04132453400295E-04	5.01516937979276E-04	0.751938910499791	-0.621962575249061
124875000	0.717770917998995	-0.664522935897813	4.4279895264538E-04	6.33824772517208E-04			4.79594424766524E-04	6.6070557993123E-04	0.750650390776132	-0.621955853402309
125000000	0.718728530471938	-0.66485313420757	2.79509042504378E-04	1.05388286983543E-03			3.02548145558134E-04	1.00048266867134E-03	0.752441557234675	-0.621591444855808
125125000	0.721022997759386	-0.66282670792708	4.05145011031367E-04	1.15344754103209E-03			3.67138287752702E-04	1.14962640371116E-03	0.74898186272078	-0.622740248797735
125250000	0.721143829689436	-0.663501794732889	4.77306823186225E-04	1.44763529582692E-03			4.61550777810709E-04	1.46960341455864E-03	0.746394002448576	-0.626845376584674
125375000	0.718671209671663	-0.663481800864626	7.76866928760944E-04	1.66249333133387E-03			7.17199816968623E-04	1.67751282897873E-03	0.747822684163331	-0.623854245682727
125500000	0.717225193971232	-0.665449096176883	9.81137278209924E-04	1.38093901209643E-03			1.03129706257178E-03	1.36177448770055E-03	0.749205168320781	-0.625590861514757
125625000	0.715433637692215	-0.667823387609686	8.46397663613947E-04	1.29880776762763E-03			8.48697311230778E-04	1.34546505908901E-03	0.744928712912633	-0.626493149111241
125750000	0.715478740961551	-0.666494253669149	1.00504429577976E-03	1.37650175244149E-03			9.74849484467573E-04	1.3869782174112E-03	0.748495285791161	-0.62854278838938
125875000	0.717250236834496	-0.66623814154016	9.80227522822572E-04	1.27400828041009E-03			9.60950247773651E-04	1.2576570415994E-03	0.745718767509318	-0.627571791319027
126000000	0.716757284372554	-0.670604801700021	9.12076305774304E-04	1.22311586360261E-03			8.87958240086715E-04	1.24744523144739E-03	0.745275275016689	-0.631057518629996
126125000	0.718662057672182	-0.668031682490882	9.71369831509474E-04	1.32528853063816E-03			9.97942729679271E-04	1.2909822676011E-03	0.745751412230205	-0.631883242304342
126250000	0.714881522922676	-0.672098637673203	9.2932723567612E-04	1.32618705163261E-03			9.12490365347031E-04	1.32290327746165E-03	0.742627486939958	-0.630816146783007
126375000	0.713887995361888	-0.672201790337939	1.14361565178056E-03	1.42503495949352E-03			1.10192263850062E-03	1.40726344878774E-03	0.741625668562695	-0.631859859157398
126500000	0.71251226341149	-0.672625822860024	1.23196508123086E-03	1.2028343679504E-03			1.26542657518761E-03	1.2020300390677E-03	0.740461704434549	-0.630449979857726
126625000	0.710730942169964	-0.675541008129042	9.79066569362285E-04	1.07156364690328E-03			9.82013653922803E-04	1.06160510407264E-03	0.741625458767056	-0.633305045748569
126750000	0.708763405745181	-0.673461177695109	9.64956122907669E-04	1.2922846219886E-03			9.30870791836946E-04	1.30157332956824E-03	0.740266837805204	-0.63492795661916
126875000	0.704951385955407	-0.677453828566607	1.30562857606307E-03	1.38326283424344E-03			1.29584888665082E-03	1.35593117280448E-03	0.740248342871281	-0.633954009835039
127000000	0.707436043224478	-0.676608475224607	1.77924249864834E-03	5.35939950753202E-04			1.79978148727163E-03	5.21906181224678E-04	0.737211055474164	-0.636573099588068
127125000	0.707565903937186	-0.673199726575384	1.60992821806899E-05	2.78185509432209E-04			8.89065403306235E-06	2.61750075051751E-04	0.737240157924508	-0.635776708366603
127250000	0.705808850846756	-0.674410712641261	-7.21948460871052E-05	1.73204601469968E-03			-1.09075762361103E-04	1.74748050617779E-03	0.735533535191203	-0.632889736508783
127375000	0.708274276738436	-0.673431025215867	1.39493587646379E-03	2.10198060901754E-03			1.37713586830101E-03	2.14985244258309E-03	0.737877356228875	-0.636835629673022
127500000	0.705787830325233	-0.675006210396988	1.41731466963915E-03	1.02797780139029E-03			1.44527691187579E-03	1.00540344842287E-03	0.736684315473182	-0.634993154722033
