# Hz S RI R 50
10000000	0.99728837994853	-0.033442435341434	-4.02166608912442E-05	-9.65015638921774E-05			-2.9392801393681E-06	-1.04551723435472E-04	0.999336702577375	-3.19927167932749E-02
10806250	0.998379681075322	-0.035936273668591	9.65692563122254E-05	-2.89789069386548E-05			1.42702537926689E-04	6.20098411029213E-05	0.999494685745781	-3.44511307948499E-02
11612500	0.997132657440391	-4.08090452874961E-02	-1.25732367705791E-04	-1.33476851746135E-04			-6.24052797974719E-05	1.93685779887071E-05	0.997692634212098	-3.70142717918712E-02
12418750	1.00120397640973	-4.23323472454132E-02	-9.9425702779828E-05	5.9311419549513E-05			-7.99133448912438E-05	-2.22628246399791E-05	0.998932099756394	-4.07750411088981E-02
13225000	1.00056117414844	-4.44650022528267E-02	2.04066311888167E-04	1.85954377086265E-04			1.62030705455814E-04	2.34214245854951E-04	0.997506686823568	-4.38797460358894E-02
14031250	0.997685105634136	-4.73394095429182E-02	3.84324674429935E-05	5.31506834765743E-05			-1.46092477648131E-05	1.33481328181886E-04	0.998858839753698	-4.78367611772254E-02
14837500	0.996656454888883	-5.03599196524261E-02	-4.86783824138524E-04	9.123345733534E-05			-4.04161065576596E-04	1.07964416137394E-04	0.997929001363103	-0.048909906001111
15643750	0.99762513429241	-5.22992102230807E-02	4.30013489178168E-05	4.3830587957824E-05			2.23375214845337E-05	2.53731893526147E-05	0.998298948498159	-5.20359206719671E-02
16450000	0.996375956881191	-5.53254969565672E-02	1.1188457297952E-04	-3.12446693416937E-05			1.52958640335104E-04	8.12677970534141E-06	0.997371720022293	-5.52692082064355E-02
17256250	0.997620375027654	-5.70041908098323E-02	4.58166196477512E-05	4.61421949220302E-05			-3.86808953341493E-05	4.09182658622067E-05	0.997160465007405	-5.59661507437213E-02
18062500	0.997561108544004	-6.17200981506507E-02	1.70394570100868E-04	-1.40126792594468E-05			1.27651866217149E-04	-2.42065063450557E-05	0.997696908657867	-5.96435653777065E-02
18868750	0.997415313352036	-6.46120267536214E-02	1.04111004051234E-04	-6.1089118924658E-05			8.551003169622E-05	-3.98519166769929E-05	0.996460110366986	-6.22806597084868E-02
19675000	0.996000503048481	-6.62831361115333E-02	-1.59931354494036E-05	6.82695715702568E-05			3.7487033364116E-05	4.57727221971341E-05	0.996302538150748	-6.29176872527666E-02
20481250	0.997536971000861	-6.73391034126022E-02	2.17105567242498E-04	-3.24184752364122E-05			1.76461913150604E-04	-4.08681926464042E-05	0.996589764570838	-6.90818769387177E-02
21287500	0.99884224794164	-0.071670425224351	-7.07330298654107E-06	3.91638102223471E-05			5.90451580529981E-05	3.61740434992204E-05	0.997306352669506	-0.068789932664768
22093750	0.995863792394635	-7.39055871800728E-02	6.33239026994793E-05	1.72057795441405E-05			5.76017718451592E-05	-9.02612598835942E-06	0.995769520006865	-0.072609295181614
22900000	0.993853853703921	-7.55007775865247E-02	-1.26458226131177E-05	6.34883545602333E-05			-6.28116942814835E-05	5.15509358052479E-05	0.994731116305082	-7.54244913980836E-02
23706250	0.99586876241463	-8.11288327973353E-02	-4.01635884314963E-05	6.43087276552314E-05			7.18490456257013E-06	2.01159819243588E-05	0.993963365656841	-7.74979017216096E-02
24512500	0.99423080201312	-0.081193816968301	3.01475620971354E-06	9.55058720867581E-05			7.32950248830683E-05	3.00502004998434E-05	0.995949232183035	-0.080900912043486
25318750	0.996407021837074	-0.085191077272913	-1.01118142192642E-04	3.54895345787954E-05			7.14185958704983E-05	7.0837396048369E-05	0.995978814246328	-8.37929405447702E-02
26125000	0.995073395219399	-0.08849883349827	-1.945093311975E-04	-1.03162438946612E-05			-1.56012946230412E-04	-1.16978712530878E-05	0.993560453785317	-8.50769576521214E-02
26931250	0.99885958886135	-8.93521808319529E-02	2.9720261384747E-05	1.35684002397357E-04			-1.65721894683887E-05	8.53421760280067E-05	0.996002300405364	-0.089580386156094
27737500	0.994489663764176	-0.092727998446993	5.58749581029314E-05	1.58021676685944E-04			4.81977547061005E-05	1.53385708403889E-04	0.99422684548791	-9.08933594160054E-02
28543750	0.992025606105749	-9.51877861000923E-02	-3.09215837016097E-05	1.00916698278029E-04			-6.29901739403245E-05	9.84696663082762E-05	0.993882019037353	-9.37829000035701E-02
29350000	0.993585415498601	-9.69314501502815E-02	-9.55934435796972E-05	-6.56776256162577E-05			-5.91329975440893E-05	5.89923429353192E-05	0.992848502059373	-9.44789085089136E-02
30156250	0.993198716214582	-0.100883431694901	-2.25776239905691E-05	4.26118248369235E-05			-2.80786038326977E-05	2.5789843506151E-05	0.993696367155805	-9.79134716778576E-02
30962500	0.992967277513245	-0.104260888031618	-2.24441233970501E-05	1.86020170300963E-05			-9.48138576394723E-05	4.50539010962232E-05	0.994227363821782	-0.101197883429299
31768750	0.992168658595791	-0.106598187927215	-1.06327161649538E-05	5.33205881673216E-05			-1.88634101393035E-05	5.14591330443734E-05	0.991262163839717	-0.103103103061911
32575000	0.992584144386572	-0.110037804965053	-2.97004389036388E-05	-1.56156464991711E-05			-5.73599219022179E-06	-4.40621907674911E-05	0.995581183900772	-0.107922318358834
33381250	0.990996841388186	-0.111915505789611	7.98550545858877E-05	8.00691381105839E-05			1.73862191643474E-04	1.27932343065017E-04	0.993394345564939	-0.11022722094881
34187500	0.991138277285237	-0.113353977917239	8.06426877383285E-05	-4.16624598601916E-05			1.36139863266446E-04	-2.31552243019013E-05	0.992535429505183	-0.111038615113948
34993750	0.992070364150169	-0.117035715513932	1.64033634099446E-05	8.73408874802177E-05			7.5101632753256E-06	1.92329799482324E-04	0.993858103341744	-0.114989606480768
35800000	0.990824345051552	-0.120360691149475	-5.5617202001674E-05	1.11711589288111E-04			-3.45422710141242E-05	8.62888337575619E-05	0.994624600030486	-0.117628377042333
36606250	0.99099633856776	-0.120269623219625	-5.33292585014168E-05	3.82981415085011E-05			5.96475317535831E-05	1.12862664568628E-04	0.991422424591795	-0.121035735483989
37412500	0.991071839085556	-0.124347989044277	-1.15445606294313E-04	2.24519283746501E-04			-9.32880481482097E-05	2.96655406837202E-04	0.991575111365522	-0.123061129548285
38218750	0.989369543212692	-0.128246994701982	1.37037304267412E-05	5.71908499333868E-05			8.00878058368423E-05	4.60966269562835E-05	0.99017147090392	-0.125539202203028
39025000	0.990377697506391	-0.131083986244149	-3.25424054964431E-05	1.64980127998167E-04			-6.48199523116534E-05	1.16911146054895E-04	0.990247825333453	-0.128017629846511
39831250	0.990189208845551	-0.133777314803196	8.2738884635668E-05	7.20558792251076E-05			1.38444870011179E-05	9.40721312738337E-05	0.986280988689995	-0.129917696794923
40637500	0.987709992185106	-0.135634788972386	1.40677097725018E-04	1.617315435775E-04			7.8719132613378E-05	1.10267005483555E-04	0.988844739176697	-0.133857390242864
41443750	0.988868668903503	-0.137374231093563	-3.51716824829658E-05	1.23271625760844E-05			-2.46898458912574E-05	1.82731017474968E-05	0.987310741934585	-0.136604466230813
42250000	0.988286222664776	-0.141510381634359	1.25499552192284E-05	1.02804840576203E-04			3.62627110578762E-05	8.912058038248E-05	0.989132461612678	-0.138268235352644
43056250	0.987465917378879	-0.144164567541831	1.28352048915045E-04	1.63768673239168E-04			9.85648631611761E-05	1.39416464740585E-04	0.987372132220898	-0.140164280596164
43862500	0.9862795885911	-0.14566226392496	2.43911175818134E-05	9.11084723573608E-05			2.05589348648316E-05	1.47490224791908E-04	0.987896911611725	-0.142787330201022
44668750	0.986222792499753	-0.147935422096568	1.5382659113306E-05	6.95686371176485E-05			4.92767995090949E-05	9.33307409475349E-05	0.987620287377238	-0.146601026656631
45475000	0.985888900233843	-0.150306346551156	-1.42487791452502E-05	2.17107548280468E-05			7.50074857397877E-06	2.0716178439854E-06	0.988688558800574	-0.146758214438642
46281250	0.987727132466356	-0.154226523362619	1.36733680303065E-04	2.2122038618089E-04			3.92732431726878E-05	9.82504207082839E-05	0.987723601455512	-0.147910466050376
47087500	0.985845241429296	-0.155795299017024	-3.30970714748461E-05	1.09541090094453E-04			-9.27600436025332E-05	8.43896504116936E-05	0.98710556016284	-0.153723498028563
47893750	0.984893457011518	-0.158850033252218	1.34776525482994E-05	2.08577133134355E-04			3.35686848177509E-05	9.78332536623226E-05	0.984494044422183	-0.157293617998391
48700000	0.986239844187192	-0.161924969120068	-2.62998262619856E-05	1.95477911037545E-04			-6.81954783626044E-05	1.01445386666053E-04	0.986483482904598	-0.157232195487487
49506250	0.98475500102552	-0.165020357419358	-6.5539927649143E-07	-5.26346564885046E-05			5.22812488927147E-05	-4.13795818784761E-05	0.984842170355138	-0.161537691212003
50312500	0.982084945264792	-0.165826814263907	5.41354738239565E-05	1.44185172717544E-04			1.11948102813764E-04	2.09427306904815E-04	0.983850252141612	-0.163102344565731
51118750	0.98360660252738	-0.168864998379723	9.3416256075618E-05	1.63787065195774E-05			3.74328235920133E-05	1.06343942705941E-04	0.983694229667182	-0.16438244786432
51925000	0.984606421432829	-0.173236536553001	6.5539747374538E-05	1.23156425722591E-04			1.08006280789855E-04	1.21265858403074E-04	0.982610081640524	-0.168918971971898
52731250	0.983234140783077	-0.174840546018771	-6.38745129797404E-05	6.73587082688987E-05			6.70605831509368E-05	1.39785089340201E-04	0.984643388867867	-0.172446381432368
53537500	0.982233997988349	-0.177368539985218	6.3493145351949E-05	1.83830533232535E-04			-5.1657015410196E-05	5.99099771997361E-05	0.984438162798854	-0.175551165133607
54343750	0.983275275413383	-0.182105702721668	3.82592925617824E-05	1.29197688994757E-04			-1.11979818241173E-04	1.06019679923405E-04	0.982718315045193	-0.177400377276786
55150000	0.982543184463866	-0.183125219548911	-1.31529438933547E-05	2.9834379056901E-06			7.08338740155187E-05	1.57819161193549E-05	0.981915445990839	-0.178762422776968
55956250	0.98281753768471	-0.185632597377916	7.84803425359479E-05	-1.65239568734247E-05			5.30803777099139E-05	-1.34970579423264E-04	0.980621034444765	-0.180261001128728
56762500	0.979615059673151	-0.189069955094386	1.34352892927187E-04	1.49071019657308E-04			1.16903459101258E-04	1.38367842773453E-04	0.980845741053267	-0.185829919284749
57568750	0.977480949644033	-0.191918836691292	1.47960814947415E-05	8.48979885263495E-05			-2.98321008319649E-05	8.53652289551327E-05	0.982078915012556	-0.189560591873631
58375000	0.979194646264251	-0.196092254468914	9.50887348207123E-05	2.18929275220811E-04			1.14123688904247E-04	1.716614732386E-04	0.981154967433245	-0.190544644315585
59181250	0.976250721244351	-0.195887510587949	7.88282612161665E-05	1.84061004436988E-04			2.77830444508856E-05	5.23245799234836E-05	0.982399136720801	-0.192695616637671
59987500	0.978027088641503	-0.198829410153901	-2.74724830166925E-05	1.80165063411856E-04			-1.32093277296978E-05	1.49003834375506E-04	0.979727429869616	-0.195982717867233
60793750	0.976094322275854	-0.201436085444642	8.61677775970293E-06	2.33616222144513E-04			4.02118423794142E-06	1.59643869212805E-04	0.977752708776654	-0.19607225907064
61600000	0.976601089512001	-0.206721833068011	4.24069475131523E-07	1.45265922104986E-04			5.14732524979279E-05	1.59274872855017E-04	0.978376211387791	-0.197989753259702
62406250	0.976992611804606	-0.207434328182118	8.42862934294174E-05	1.72589088697916E-04			3.38745659364592E-05	1.13583486403555E-04	0.975871564307763	-0.20343210206253
63212500	0.975187939310014	-0.210995317731972	7.1657594300247E-05	1.52410249873252E-04			1.53847675104827E-05	1.03635691490814E-04	0.977328606114325	-0.205791801700159
64018750	0.974269221403274	-0.215667252032324	-6.82036532043966E-05	2.7579549042112E-04			-6.49036691614376E-05	1.89112492436802E-04	0.976582442611397	-0.208244321988981
64825000	0.974117885836961	-0.216711321798494	3.87401641596442E-06	1.47850325562658E-04			5.22147405469979E-05	2.13432080989493E-04	0.975710887636672	-0.210529010097204
65631250	0.973804875371069	-0.218558839572278	4.00005511623645E-05	1.36759973737626E-04			1.00411739285039E-04	3.94681231492194E-05	0.974910300865089	-0.212799322188983
66437500	0.974413797249801	-0.218987152763915	4.04130546753312E-05	2.09930439561503E-04			5.88872497621665E-05	1.54908504328899E-04	0.975246274755537	-0.21520142427239
67243750	0.971462443668335	-0.225434981549634	1.0600557406354E-04	1.06455339685613E-04			2.6518063267231E-05	6.18061789562096E-05	0.97330030212641	-0.218245838429824
68050000	0.972465502296136	-0.226387973161487	-2.17388252028323E-05	2.08778668112941E-04			2.03533777395046E-05	1.35329293444757E-04	0.973746680766757	-0.22021316580801
68856250	0.972349142685895	-0.226037985334765	3.21424189692266E-05	2.37135867013421E-04			-1.8336980690123E-05	2.88444213274103E-04	0.973385319369794	-0.222689826012017
69662500	0.97013012334754	-0.229198554930729	6.12289359807609E-05	8.41811446708642E-05			5.19146443780391E-05	1.68312775165737E-04	0.970905191193746	-0.225065315193206
70468750	0.970518394219705	-0.235249332326707	1.77133129990008E-05	1.5871902720896E-04			-7.343459196334E-06	2.43167644210725E-04	0.972868433183453	-0.228994555635729
71275000	0.968774413779509	-0.236032807763715	2.810526467946E-05	2.29857949147092E-04			1.04895821684174E-04	1.98663142898428E-04	0.972135238295713	-0.231193688636515
72081250	0.968399347095687	-0.238045527736839	7.91505197504252E-05	1.2822111902633E-04			8.4612808386359E-05	8.8961096942264E-05	0.969327963278308	-0.23396092605243
72887500	0.965477630096043	-0.240384467609878	5.23543749723963E-05	2.49872444186315E-04			7.44897967681066E-05	2.26076603513307E-04	0.967391985187056	-0.236304277387462
73693750	0.966544969681638	-0.244299084469408	6.17780800408942E-05	1.41059125798818E-04			3.44207896810372E-05	2.5158059591864E-04	0.968727936258735	-0.239155205655808
74500000	0.967410305321893	-0.245700335144331	9.96933913098014E-05	1.65158728806063E-04			5.92390955914271E-05	9.88913118829822E-05	0.967914510166839	-0.23974777265414
75306250	0.96402816517092	-0.248333006515861	3.89968573244657E-05	1.08233045049103E-04			8.66954752730611E-05	8.6595201178528E-05	0.966795863517994	-0.243258352029039
76112500	0.964312948107967	-0.252343774433662	-3.35108003687343E-05	1.22570567930966E-04			7.85196576155349E-06	1.78240732041027E-04	0.966058433483497	-0.247420430773736
76918750	0.962503410848224	-0.253886984495194	6.48838865774985E-05	2.3363460425276E-04			9.98812529367412E-05	1.18479510042544E-04	0.965191203430106	-0.247844455952306
77725000	0.963169221393515	-0.257025671612613	1.71766516859347E-04	1.75367601600624E-04			1.10690459465276E-04	1.0331117829126E-04	0.965151837036517	-0.250425600822507
78531250	0.963032034908828	-0.258882308150632	4.00993508098423E-05	2.17280350204404E-04			2.3483053961259E-05	1.78825423669255E-04	0.964065203198473	-0.253555264979913
79337500	0.960687090031097	-0.26343644202774	7.16250501238516E-05	1.65323356728041E-04			1.10644166621638E-04	1.8570717452523E-04	0.963813246789416	-0.256056631045341
80143750	0.959237647012788	-0.265300669392505	-5.76085311830352E-05	8.39391701392985E-05			-9.94803729842004E-05	1.34894561716614E-04	0.963196723314683	-0.257838302953797
80950000	0.961500061864754	-0.26754001521795	4.86833796837295E-05	1.75054445797793E-04			1.14982331893052E-04	1.70662237187879E-04	0.960470346031562	-0.259583199913885
81756250	0.958948223475183	-0.269653545900318	3.44441513704919E-05	1.57435403646289E-04			5.72989863832059E-05	2.86513748646326E-04	0.962041954956787	-0.263397481154679
82562500	0.95862318334941	-0.271899343176231	1.65589207207143E-05	2.58802312915517E-04			-8.67329883989265E-06	1.97526740489544E-04	0.960149942833521	-0.266986068661632
83368750	0.95740955152447	-0.275012434335655	1.06996144262403E-04	1.68375400301242E-04			7.02223455910258E-05	1.48681320322209E-04	0.959958969113773	-0.267353097930173
84175000	0.957667473664022	-0.276091765159287	1.22554271644083E-04	1.69541974479758E-04			1.80309747673034E-05	1.73313548139466E-04	0.958912561488501	-0.271489380390636
84981250	0.955892014434491	-0.28059365836555	5.55447302789542E-05	1.81959288422709E-04			5.62823681575866E-06	1.80837315998573E-04	0.958084273634445	-0.27493566502761
85787500	0.954575384388313	-0.282513665018504	2.8314621265726E-06	2.60537678860406E-04			3.63579901293139E-05	2.80376346709271E-04	0.958751879809242	-0.276175509247322
86593750	0.954816042373519	-0.285526455738545	1.45944432994838E-05	2.46075671189371E-04			-1.35889387495418E-05	1.73509285685537E-04	0.957656176399496	-0.277784260637912
87400000	0.955196040631731	-0.287674680097515	1.24812250823744E-04	1.66168422136588E-04			1.90612827503212E-05	1.78874585226675E-04	0.95690996429535	-0.279901708600718
88206250	0.953565802467096	-0.290339603066615	1.12821878757052E-04	2.13252047072007E-04			1.75125016747608E-04	2.37264657172244E-04	0.956091524126447	-0.283261412338604
89012500	0.952090192047119	-0.292767016602579	8.7485629888439E-05	1.42115282469686E-04			2.00188108111798E-05	2.5300114516186E-04	0.953325713643528	-0.284593278811807
89818750	0.952421784302889	-0.295503065127879	6.47400303962064E-05	1.76690758366586E-04			2.07156713457146E-05	1.74361754897486E-04	0.953333384901803	-0.288977506094412
90625000	0.949918050215323	-0.298018870824958	4.82126898674058E-05	2.25892933665256E-04			8.18997198478749E-05	1.84757255387759E-04	0.953643467140653	-0.290921878491744
91431250	0.949156929814558	-0.300235761853313	1.2544827306516E-04	4.12629312600047E-04			1.48494126526784E-04	3.25376326916724E-04	0.951632934085178	-0.294629421577663
92237500	0.948805758529026	-0.303102232841361	-4.80271438428003E-05	2.30670726946817E-04			2.05313961062579E-05	2.6048823166372E-04	0.950378346608537	-0.296098740730167
93043750	0.948566148228588	-0.305852298845986	1.02701272381891E-04	1.56886555064353E-04			1.19632164932627E-04	2.25463420948053E-04	0.951308270518639	-0.298287268680434
93850000	0.946210411419766	-0.308156315917758	1.49868853451951E-04	1.2109909046994E-04			1.81539001719512E-04	1.31591214054593E-04	0.949703902025257	-0.300800598844212
94656250	0.946788351023516	-0.310627180851069	3.0748747983911E-05	1.58737593067131E-04			-1.62224621055319E-05	4.1294910953339E-05	0.948143536186155	-0.304379304406231
95462500	0.946472938239189	-0.31204030966925	9.36622421430532E-05	3.81625159603304E-05			1.20360388708709E-04	2.49688579435455E-05	0.946985812888916	-0.304801932817075
96268750	0.946917721253275	-0.315695963611253	4.16793620868044E-05	2.46087168423059E-04			7.24258556804357E-05	2.32736480246374E-04	0.946925487440212	-0.308735179746109
97075000	0.943569227035259	-0.318072498370204	3.95840063733676E-05	1.88182724518859E-04			8.99862595872897E-05	1.77543748226403E-04	0.947647283086854	-0.310793001386739
97881250	0.941659570922787	-0.321771353776396	1.22728484908241E-04	2.23016909320358E-04			1.3450457981598E-04	2.242075692002E-04	0.945961060906977	-0.31339827434043
98687500	0.940433329406267	-0.323237617668275	2.17555845443814E-04	2.84213881393047E-04			1.70071465705853E-04	2.40259282770918E-04	0.944886775376796	-0.31624170658762
99493750	0.940303048864965	-0.325112577413242	1.28908720699798E-04	1.73478211860906E-04			1.91562334929567E-05	2.49683703312683E-04	0.943902136167289	-0.318113553746603
100300000	0.938675971179112	-0.327445998629453	7.41294731334011E-05	1.52594020149053E-04			8.71621159439703E-05	1.41816340858448E-04	0.943205131176035	-0.32143396092601
101106250	0.939065313313392	-0.330858314544464	4.88136178058874E-05	1.64303495258564E-04			4.89634064642174E-05	2.19076860730592E-04	0.941901243175751	-0.32311813166899
101912500	0.936894931774643	-0.334023153118487	1.76372101238586E-04	3.57792839037266E-04			1.57385300098885E-04	2.39950346455062E-04	0.9424777800387	-0.325948339248668
102718750	0.937047604122772	-0.336087311529631	2.20869363925269E-04	1.81156526123671E-04			2.25434673471488E-04	1.84578913775588E-04	0.939046770266567	-0.328129181967288
103525000	0.93584533985157	-0.338194347653093	6.3842342291474E-05	1.78564619845451E-04			5.86013911536035E-05	1.77057364730992E-04	0.940255995245787	-0.331476262857504
