!Agilent Technologies,E5071C,MY46104547,A.08.12
!Date: Tue Nov 21 09:32:10 2017
!Data & Calibration Information:
!Freq	S11:SOLT2(ON)	S21:SOLT2(ON)	S12:SOLT2(ON)	S22:SOLT2(ON)
# Hz S dB R 50
1478000000	-1.014454e+000	1.346029e+002	-4.783962e+001	7.163226e+001	-4.784512e+001	7.157940e+001	-1.199916e+000	1.312896e+002
1478075000	-1.026067e+000	1.344931e+002	-4.811561e+001	6.482282e+001	-4.815926e+001	6.458447e+001	-1.198992e+000	1.312177e+002
1478150000	-1.037922e+000	1.343960e+002	-4.854224e+001	5.825183e+001	-4.855513e+001	5.740903e+001	-1.195509e+000	1.311438e+002
1478225000	-1.048949e+000	1.342977e+002	-4.892866e+001	5.071221e+001	-4.892686e+001	5.063995e+001	-1.194009e+000	1.310628e+002
1478300000	-1.059302e+000	1.342041e+002	-4.938510e+001	4.367674e+001	-4.935254e+001	4.351855e+001	-1.190933e+000	1.309727e+002
1478375000	-1.069835e+000	1.341104e+002	-4.975963e+001	3.680867e+001	-4.978021e+001	3.629745e+001	-1.186325e+000	1.308826e+002
1478450000	-1.080261e+000	1.340199e+002	-5.018635e+001	2.868475e+001	-5.013199e+001	2.867853e+001	-1.184235e+000	1.307892e+002
1478525000	-1.091665e+000	1.339329e+002	-5.051260e+001	2.034240e+001	-5.057134e+001	2.025386e+001	-1.179937e+000	1.306869e+002
1478600000	-1.103733e+000	1.338581e+002	-5.093694e+001	1.160189e+001	-5.089409e+001	1.127229e+001	-1.174755e+000	1.305878e+002
1478675000	-1.116000e+000	1.337938e+002	-5.126572e+001	2.608379e+000	-5.129737e+001	2.069931e+000	-1.169296e+000	1.304718e+002
1478750000	-1.126728e+000	1.337430e+002	-5.164935e+001	-7.580083e+000	-5.165815e+001	-7.688749e+000	-1.164664e+000	1.303523e+002
1478825000	-1.137328e+000	1.337020e+002	-5.197459e+001	-1.756865e+001	-5.199015e+001	-1.799845e+001	-1.158795e+000	1.302281e+002
1478900000	-1.145825e+000	1.336730e+002	-5.220981e+001	-2.802093e+001	-5.223396e+001	-2.881014e+001	-1.154356e+000	1.300928e+002
1478975000	-1.152306e+000	1.336490e+002	-5.254604e+001	-3.907298e+001	-5.245533e+001	-3.954761e+001	-1.150379e+000	1.299556e+002
1479050000	-1.155682e+000	1.336386e+002	-5.264524e+001	-4.984028e+001	-5.266252e+001	-4.998004e+001	-1.146400e+000	1.298092e+002
1479125000	-1.156822e+000	1.336159e+002	-5.271282e+001	-5.997900e+001	-5.272106e+001	-6.038195e+001	-1.143650e+000	1.296655e+002
1479200000	-1.155299e+000	1.335966e+002	-5.279675e+001	-6.982637e+001	-5.277975e+001	-7.027624e+001	-1.141389e+000	1.295137e+002
1479275000	-1.151520e+000	1.335686e+002	-5.268611e+001	-7.904467e+001	-5.270948e+001	-7.967880e+001	-1.138946e+000	1.293705e+002
1479350000	-1.144871e+000	1.335261e+002	-5.248612e+001	-8.843723e+001	-5.254766e+001	-8.902618e+001	-1.137778e+000	1.292230e+002
1479425000	-1.138639e+000	1.334746e+002	-5.240322e+001	-9.711017e+001	-5.244435e+001	-9.725653e+001	-1.135683e+000	1.290747e+002
1479500000	-1.131120e+000	1.334123e+002	-5.233096e+001	-1.049221e+002	-5.229678e+001	-1.055171e+002	-1.133630e+000	1.289202e+002
1479575000	-1.122864e+000	1.333447e+002	-5.224072e+001	-1.124019e+002	-5.219986e+001	-1.127622e+002	-1.132869e+000	1.287595e+002
1479650000	-1.114010e+000	1.332587e+002	-5.208092e+001	-1.190179e+002	-5.208181e+001	-1.195322e+002	-1.130470e+000	1.286048e+002
1479725000	-1.104783e+000	1.331619e+002	-5.192635e+001	-1.252768e+002	-5.185574e+001	-1.255674e+002	-1.129934e+000	1.284459e+002
1479800000	-1.095760e+000	1.330620e+002	-5.172427e+001	-1.314861e+002	-5.182041e+001	-1.320654e+002	-1.129402e+000	1.282865e+002
1479875000	-1.085136e+000	1.329443e+002	-5.174615e+001	-1.370551e+002	-5.168169e+001	-1.376669e+002	-1.128320e+000	1.281168e+002
1479950000	-1.077323e+000	1.328254e+002	-5.166552e+001	-1.421373e+002	-5.168527e+001	-1.423639e+002	-1.128327e+000	1.279551e+002
1480025000	-1.068405e+000	1.326848e+002	-5.159501e+001	-1.470647e+002	-5.162624e+001	-1.472516e+002	-1.128108e+000	1.277867e+002
1480100000	-1.061912e+000	1.325436e+002	-5.161622e+001	-1.512657e+002	-5.161690e+001	-1.514280e+002	-1.127908e+000	1.276211e+002
1480175000	-1.056439e+000	1.324013e+002	-5.156849e+001	-1.554959e+002	-5.162970e+001	-1.554306e+002	-1.128377e+000	1.274497e+002
1480250000	-1.050413e+000	1.322610e+002	-5.166539e+001	-1.581659e+002	-5.165847e+001	-1.589674e+002	-1.129539e+000	1.272748e+002
1480325000	-1.044741e+000	1.321219e+002	-5.162552e+001	-1.618480e+002	-5.158320e+001	-1.619595e+002	-1.131451e+000	1.271058e+002
1480400000	-1.038387e+000	1.319817e+002	-5.159861e+001	-1.641432e+002	-5.156063e+001	-1.647673e+002	-1.132968e+000	1.269323e+002
1480475000	-1.032113e+000	1.318242e+002	-5.151136e+001	-1.673016e+002	-5.157471e+001	-1.675726e+002	-1.134538e+000	1.267618e+002
1480550000	-1.025655e+000	1.316590e+002	-5.152954e+001	-1.702280e+002	-5.149134e+001	-1.703446e+002	-1.136967e+000	1.265917e+002
1480625000	-1.022070e+000	1.314873e+002	-5.157985e+001	-1.732423e+002	-5.153968e+001	-1.736652e+002	-1.139042e+000	1.264123e+002
1480700000	-1.018126e+000	1.313158e+002	-5.155041e+001	-1.761338e+002	-5.159362e+001	-1.759419e+002	-1.141455e+000	1.262467e+002
1480775000	-1.015760e+000	1.311507e+002	-5.161843e+001	-1.778203e+002	-5.164305e+001	-1.781933e+002	-1.144270e+000	1.260720e+002
1480850000	-1.014872e+000	1.309787e+002	-5.163667e+001	-1.797132e+002	-5.168356e+001	1.799604e+002	-1.145739e+000	1.258930e+002
1480925000	-1.013050e+000	1.308095e+002	-5.163828e+001	1.783928e+002	-5.171101e+001	1.782467e+002	-1.149249e+000	1.257210e+002
1481000000	-1.011845e+000	1.306460e+002	-5.173613e+001	1.765682e+002	-5.171841e+001	1.761473e+002	-1.152597e+000	1.255410e+002
1481075000	-1.009880e+000	1.304837e+002	-5.171241e+001	1.751275e+002	-5.170674e+001	1.746928e+002	-1.155331e+000	1.253645e+002
1481150000	-1.008790e+000	1.303145e+002	-5.172987e+001	1.731523e+002	-5.169302e+001	1.727267e+002	-1.158339e+000	1.251884e+002
1481225000	-1.006685e+000	1.301458e+002	-5.182421e+001	1.715836e+002	-5.170394e+001	1.712255e+002	-1.161870e+000	1.249948e+002
1481300000	-1.005017e+000	1.299709e+002	-5.175717e+001	1.697456e+002	-5.172198e+001	1.695097e+002	-1.165300e+000	1.248192e+002
1481375000	-1.004812e+000	1.297922e+002	-5.174599e+001	1.681729e+002	-5.172597e+001	1.680558e+002	-1.169018e+000	1.246289e+002
1481450000	-1.004136e+000	1.296110e+002	-5.181474e+001	1.667358e+002	-5.174536e+001	1.665260e+002	-1.173858e+000	1.244312e+002
1481525000	-1.003959e+000	1.294350e+002	-5.185199e+001	1.654439e+002	-5.176316e+001	1.649963e+002	-1.178121e+000	1.242494e+002
1481600000	-1.004622e+000	1.292579e+002	-5.185365e+001	1.641090e+002	-5.183740e+001	1.638674e+002	-1.183568e+000	1.240532e+002
1481675000	-1.005002e+000	1.290737e+002	-5.181422e+001	1.629853e+002	-5.183591e+001	1.625625e+002	-1.189346e+000	1.238598e+002
1481750000	-1.005977e+000	1.288946e+002	-5.180444e+001	1.614278e+002	-5.180700e+001	1.613689e+002	-1.194456e+000	1.236703e+002
1481825000	-1.007351e+000	1.287189e+002	-5.180986e+001	1.606555e+002	-5.180419e+001	1.600296e+002	-1.201811e+000	1.234782e+002
1481900000	-1.007684e+000	1.285383e+002	-5.187027e+001	1.594310e+002	-5.182134e+001	1.592744e+002	-1.208444e+000	1.232810e+002
1481975000	-1.009181e+000	1.283609e+002	-5.180411e+001	1.582774e+002	-5.174868e+001	1.581064e+002	-1.215026e+000	1.230908e+002
1482050000	-1.010371e+000	1.281801e+002	-5.171091e+001	1.571748e+002	-5.176159e+001	1.568685e+002	-1.223143e+000	1.228891e+002
1482125000	-1.010532e+000	1.280034e+002	-5.171802e+001	1.558257e+002	-5.164657e+001	1.556942e+002	-1.230587e+000	1.226827e+002
1482200000	-1.012397e+000	1.278087e+002	-5.155647e+001	1.547921e+002	-5.156071e+001	1.547775e+002	-1.239959e+000	1.224787e+002
1482275000	-1.012326e+000	1.276217e+002	-5.141767e+001	1.539091e+002	-5.143882e+001	1.533264e+002	-1.249794e+000	1.222682e+002
1482350000	-1.014693e+000	1.274314e+002	-5.129123e+001	1.520478e+002	-5.132974e+001	1.513599e+002	-1.261187e+000	1.220692e+002
1482425000	-1.017269e+000	1.272408e+002	-5.123147e+001	1.503440e+002	-5.120314e+001	1.495751e+002	-1.274315e+000	1.218631e+002
1482500000	-1.019805e+000	1.270484e+002	-5.115842e+001	1.480035e+002	-5.111217e+001	1.478005e+002	-1.286399e+000	1.216670e+002
1482575000	-1.022691e+000	1.268578e+002	-5.101816e+001	1.458711e+002	-5.098330e+001	1.456326e+002	-1.301250e+000	1.214670e+002
1482650000	-1.026582e+000	1.266642e+002	-5.091427e+001	1.434812e+002	-5.089576e+001	1.435769e+002	-1.316293e+000	1.212808e+002
1482725000	-1.029290e+000	1.264751e+002	-5.081917e+001	1.412072e+002	-5.079963e+001	1.409866e+002	-1.333356e+000	1.210956e+002
1482800000	-1.032724e+000	1.262905e+002	-5.073076e+001	1.387609e+002	-5.073885e+001	1.386869e+002	-1.350765e+000	1.209062e+002
1482875000	-1.035762e+000	1.261020e+002	-5.075470e+001	1.361069e+002	-5.065445e+001	1.361059e+002	-1.369109e+000	1.207318e+002
1482950000	-1.038602e+000	1.259075e+002	-5.066816e+001	1.337039e+002	-5.062808e+001	1.330424e+002	-1.389165e+000	1.205613e+002
1483025000	-1.041581e+000	1.257186e+002	-5.062284e+001	1.302241e+002	-5.058966e+001	1.299949e+002	-1.411463e+000	1.204047e+002
1483100000	-1.044075e+000	1.255220e+002	-5.052838e+001	1.272139e+002	-5.052207e+001	1.270911e+002	-1.436281e+000	1.202633e+002
1483175000	-1.048266e+000	1.253221e+002	-5.047753e+001	1.237704e+002	-5.045417e+001	1.231439e+002	-1.459804e+000	1.201452e+002
1483250000	-1.051670e+000	1.251205e+002	-5.042960e+001	1.199575e+002	-5.041558e+001	1.193065e+002	-1.486003e+000	1.200510e+002
1483325000	-1.055202e+000	1.249191e+002	-5.040148e+001	1.149990e+002	-5.041245e+001	1.149866e+002	-1.511373e+000	1.199905e+002
1483400000	-1.059288e+000	1.247122e+002	-5.048164e+001	1.104815e+002	-5.049199e+001	1.100738e+002	-1.534054e+000	1.199584e+002
1483475000	-1.063732e+000	1.245041e+002	-5.063619e+001	1.054806e+002	-5.064470e+001	1.049123e+002	-1.552981e+000	1.199552e+002
1483550000	-1.068535e+000	1.242944e+002	-5.086407e+001	1.000645e+002	-5.083534e+001	9.994128e+001	-1.566900e+000	1.199782e+002
1483625000	-1.073863e+000	1.240888e+002	-5.121635e+001	9.517047e+001	-5.113928e+001	9.467227e+001	-1.576255e+000	1.200091e+002
1483700000	-1.078811e+000	1.238792e+002	-5.151612e+001	8.944586e+001	-5.144365e+001	8.929337e+001	-1.579418e+000	1.200418e+002
1483775000	-1.084528e+000	1.236674e+002	-5.185024e+001	8.406364e+001	-5.190198e+001	8.373878e+001	-1.576335e+000	1.200737e+002
1483850000	-1.090358e+000	1.234534e+002	-5.239099e+001	7.856744e+001	-5.239185e+001	7.771315e+001	-1.567862e+000	1.200883e+002
1483925000	-1.097085e+000	1.232424e+002	-5.300560e+001	7.238562e+001	-5.309880e+001	7.212418e+001	-1.553855e+000	1.200778e+002
1484000000	-1.103936e+000	1.230247e+002	-5.368897e+001	6.732532e+001	-5.367309e+001	6.708959e+001	-1.535914e+000	1.200390e+002
1484075000	-1.110489e+000	1.228054e+002	-5.442492e+001	6.221029e+001	-5.443809e+001	6.156552e+001	-1.517595e+000	1.199623e+002
1484150000	-1.118164e+000	1.225857e+002	-5.522078e+001	5.635975e+001	-5.526085e+001	5.614717e+001	-1.497625e+000	1.198495e+002
1484225000	-1.125953e+000	1.223680e+002	-5.603477e+001	5.206499e+001	-5.616420e+001	5.115730e+001	-1.480561e+000	1.197236e+002
1484300000	-1.134895e+000	1.221435e+002	-5.688890e+001	4.574474e+001	-5.688022e+001	4.568712e+001	-1.463698e+000	1.195634e+002
1484375000	-1.143540e+000	1.219216e+002	-5.778491e+001	3.927682e+001	-5.773657e+001	3.940760e+001	-1.447161e+000	1.193994e+002
1484450000	-1.153633e+000	1.216902e+002	-5.860631e+001	3.412220e+001	-5.866487e+001	3.385410e+001	-1.431731e+000	1.192165e+002
1484525000	-1.164041e+000	1.214676e+002	-5.968221e+001	2.784828e+001	-5.965527e+001	2.648399e+001	-1.418551e+000	1.190196e+002
1484600000	-1.174615e+000	1.212439e+002	-6.088891e+001	2.053924e+001	-6.081655e+001	1.902554e+001	-1.405908e+000	1.188160e+002
1484675000	-1.186208e+000	1.210174e+002	-6.168081e+001	1.389691e+001	-6.196698e+001	1.373703e+001	-1.394223e+000	1.186019e+002
1484750000	-1.197581e+000	1.207790e+002	-6.262102e+001	5.787580e+000	-6.261821e+001	5.809538e+000	-1.384174e+000	1.183757e+002
1484825000	-1.211139e+000	1.205466e+002	-6.322274e+001	-2.235435e-001	-6.324265e+001	-2.397917e+000	-1.375190e+000	1.181462e+002
1484900000	-1.226479e+000	1.203079e+002	-6.342237e+001	-1.260823e+001	-6.360464e+001	-1.276234e+001	-1.368160e+000	1.179131e+002
1484975000	-1.243784e+000	1.200757e+002	-6.354991e+001	-2.488190e+001	-6.372450e+001	-2.600664e+001	-1.361527e+000	1.176727e+002
1485050000	-1.262503e+000	1.198461e+002	-6.339355e+001	-3.663143e+001	-6.330144e+001	-3.722157e+001	-1.355980e+000	1.174323e+002
1485125000	-1.283312e+000	1.196262e+002	-6.273800e+001	-4.806308e+001	-6.276297e+001	-5.014064e+001	-1.351520e+000	1.171964e+002
1485200000	-1.305182e+000	1.194192e+002	-6.207337e+001	-5.994824e+001	-6.206670e+001	-6.264620e+001	-1.347309e+000	1.169496e+002
1485275000	-1.327013e+000	1.192191e+002	-6.136788e+001	-7.310596e+001	-6.136933e+001	-7.287703e+001	-1.344252e+000	1.167019e+002
1485350000	-1.349709e+000	1.190311e+002	-6.058641e+001	-8.224932e+001	-6.067905e+001	-8.223545e+001	-1.340558e+000	1.164549e+002
1485425000	-1.373397e+000	1.188456e+002	-6.009151e+001	-9.067118e+001	-6.006899e+001	-9.121224e+001	-1.339286e+000	1.161999e+002
1485500000	-1.398526e+000	1.186722e+002	-5.925714e+001	-9.745971e+001	-5.925231e+001	-9.805574e+001	-1.338818e+000	1.159496e+002
1485575000	-1.425081e+000	1.185064e+002	-5.858499e+001	-1.022793e+002	-5.844019e+001	-1.040208e+002	-1.338362e+000	1.156920e+002
1485650000	-1.454142e+000	1.183619e+002	-5.783326e+001	-1.078220e+002	-5.782535e+001	-1.091410e+002	-1.338609e+000	1.154359e+002
1485725000	-1.484825e+000	1.182369e+002	-5.712337e+001	-1.132438e+002	-5.699768e+001	-1.144920e+002	-1.338886e+000	1.151820e+002
1485800000	-1.516544e+000	1.181428e+002	-5.623884e+001	-1.181110e+002	-5.625291e+001	-1.195559e+002	-1.340322e+000	1.149295e+002
1485875000	-1.548241e+000	1.180884e+002	-5.540339e+001	-1.237230e+002	-5.548055e+001	-1.242990e+002	-1.341130e+000	1.146668e+002
1485950000	-1.577275e+000	1.180851e+002	-5.458522e+001	-1.293005e+002	-5.462516e+001	-1.299700e+002	-1.342155e+000	1.144064e+002
1486025000	-1.601972e+000	1.181263e+002	-5.387989e+001	-1.351664e+002	-5.390713e+001	-1.357490e+002	-1.345043e+000	1.141470e+002
1486100000	-1.619354e+000	1.181967e+002	-5.326403e+001	-1.418544e+002	-5.330958e+001	-1.424410e+002	-1.347059e+000	1.138755e+002
1486175000	-1.628695e+000	1.182848e+002	-5.283002e+001	-1.482031e+002	-5.286500e+001	-1.484880e+002	-1.349616e+000	1.136095e+002
1486250000	-1.629658e+000	1.183684e+002	-5.253948e+001	-1.541307e+002	-5.255304e+001	-1.544180e+002	-1.354422e+000	1.133407e+002
1486325000	-1.622909e+000	1.184507e+002	-5.232431e+001	-1.599843e+002	-5.236881e+001	-1.604380e+002	-1.357865e+000	1.130642e+002
1486400000	-1.607944e+000	1.185081e+002	-5.218928e+001	-1.658374e+002	-5.222750e+001	-1.660747e+002	-1.362988e+000	1.127868e+002
1486475000	-1.587339e+000	1.185349e+002	-5.221727e+001	-1.706520e+002	-5.217497e+001	-1.712589e+002	-1.368269e+000	1.125070e+002
1486550000	-1.561126e+000	1.185175e+002	-5.213223e+001	-1.755076e+002	-5.215647e+001	-1.759841e+002	-1.374495e+000	1.122245e+002
1486625000	-1.532238e+000	1.184622e+002	-5.226110e+001	-1.798363e+002	-5.224371e+001	1.796333e+002	-1.382102e+000	1.119392e+002
1486700000	-1.500476e+000	1.183631e+002	-5.234501e+001	1.753633e+002	-5.237619e+001	1.752685e+002	-1.390356e+000	1.116521e+002
1486775000	-1.468146e+000	1.182196e+002	-5.251877e+001	1.717718e+002	-5.248537e+001	1.709658e+002	-1.399940e+000	1.113622e+002
1486850000	-1.437799e+000	1.180328e+002	-5.265334e+001	1.684520e+002	-5.277006e+001	1.676348e+002	-1.409709e+000	1.110711e+002
1486925000	-1.407812e+000	1.178038e+002	-5.299544e+001	1.655448e+002	-5.299035e+001	1.650320e+002	-1.421929e+000	1.107865e+002
1487000000	-1.382389e+000	1.175517e+002	-5.337688e+001	1.625616e+002	-5.336408e+001	1.618541e+002	-1.436204e+000	1.104880e+002
1487075000	-1.360338e+000	1.172713e+002	-5.369654e+001	1.600644e+002	-5.361870e+001	1.597852e+002	-1.451480e+000	1.101931e+002
1487150000	-1.342551e+000	1.169834e+002	-5.400021e+001	1.580286e+002	-5.400425e+001	1.582081e+002	-1.469277e+000	1.099062e+002
1487225000	-1.325860e+000	1.166847e+002	-5.437564e+001	1.572831e+002	-5.442960e+001	1.573909e+002	-1.488783e+000	1.096192e+002
1487300000	-1.312950e+000	1.163846e+002	-5.487231e+001	1.567141e+002	-5.487100e+001	1.564064e+002	-1.511953e+000	1.093468e+002
1487375000	-1.302132e+000	1.160794e+002	-5.539272e+001	1.570043e+002	-5.537609e+001	1.565153e+002	-1.537021e+000	1.090852e+002
1487450000	-1.292937e+000	1.157759e+002	-5.582731e+001	1.583971e+002	-5.595226e+001	1.581058e+002	-1.565645e+000	1.088461e+002
1487525000	-1.285273e+000	1.154653e+002	-5.648447e+001	1.609060e+002	-5.650236e+001	1.610092e+002	-1.597273e+000	1.086313e+002
1487600000	-1.278626e+000	1.151504e+002	-5.685475e+001	1.654885e+002	-5.695617e+001	1.656224e+002	-1.630412e+000	1.084566e+002
1487675000	-1.273364e+000	1.148404e+002	-5.688557e+001	1.724731e+002	-5.711169e+001	1.721124e+002	-1.664629e+000	1.083319e+002
1487750000	-1.269805e+000	1.145289e+002	-5.669802e+001	-1.790144e+002	-5.686254e+001	-1.797834e+002	-1.696375e+000	1.082647e+002
1487825000	-1.266368e+000	1.142124e+002	-5.599405e+001	-1.723866e+002	-5.592448e+001	-1.724725e+002	-1.722299e+000	1.082661e+002
1487900000	-1.264699e+000	1.138989e+002	-5.463251e+001	-1.681355e+002	-5.474584e+001	-1.681542e+002	-1.736292e+000	1.083131e+002
1487975000	-1.263423e+000	1.135886e+002	-5.346518e+001	-1.665212e+002	-5.349465e+001	-1.668289e+002	-1.737824e+000	1.083720e+002
1488050000	-1.262927e+000	1.132669e+002	-5.233269e+001	-1.681109e+002	-5.232911e+001	-1.678515e+002	-1.725461e+000	1.083997e+002
1488125000	-1.263220e+000	1.129504e+002	-5.125318e+001	-1.701057e+002	-5.134689e+001	-1.702620e+002	-1.703030e+000	1.083781e+002
1488200000	-1.264478e+000	1.126335e+002	-5.056616e+001	-1.725703e+002	-5.054827e+001	-1.729656e+002	-1.675842e+000	1.082900e+002
1488275000	-1.265602e+000	1.123203e+002	-4.982578e+001	-1.760015e+002	-4.989973e+001	-1.760907e+002	-1.646031e+000	1.081380e+002
1488350000	-1.267782e+000	1.120027e+002	-4.935815e+001	-1.792652e+002	-4.937487e+001	-1.795238e+002	-1.617589e+000	1.079269e+002
1488425000	-1.270182e+000	1.116844e+002	-4.883935e+001	1.774994e+002	-4.889459e+001	1.774576e+002	-1.591431e+000	1.076773e+002
1488500000	-1.273619e+000	1.113623e+002	-4.852319e+001	1.744522e+002	-4.857339e+001	1.744964e+002	-1.569041e+000	1.073871e+002
1488575000	-1.277230e+000	1.110461e+002	-4.827135e+001	1.717567e+002	-4.826844e+001	1.717314e+002	-1.548945e+000	1.070724e+002
1488650000	-1.281275e+000	1.107269e+002	-4.804422e+001	1.698933e+002	-4.804859e+001	1.693411e+002	-1.533723e+000	1.067454e+002
1488725000	-1.285361e+000	1.104049e+002	-4.779901e+001	1.676304e+002	-4.784585e+001	1.675106e+002	-1.521265e+000	1.064114e+002
1488800000	-1.289925e+000	1.100856e+002	-4.755838e+001	1.657634e+002	-4.760004e+001	1.656390e+002	-1.511398e+000	1.060623e+002
1488875000	-1.294688e+000	1.097655e+002	-4.735362e+001	1.642889e+002	-4.735948e+001	1.639746e+002	-1.503443e+000	1.057199e+002
1488950000	-1.300319e+000	1.094387e+002	-4.711789e+001	1.628435e+002	-4.713432e+001	1.623399e+002	-1.498648e+000	1.053713e+002
1489025000	-1.306008e+000	1.091169e+002	-4.686056e+001	1.614050e+002	-4.689661e+001	1.610465e+002	-1.494385e+000	1.050170e+002
1489100000	-1.311473e+000	1.087928e+002	-4.667258e+001	1.601774e+002	-4.666659e+001	1.597943e+002	-1.491262e+000	1.046675e+002
1489175000	-1.317723e+000	1.084594e+002	-4.640617e+001	1.589383e+002	-4.642430e+001	1.586829e+002	-1.489925e+000	1.043122e+002
1489250000	-1.324020e+000	1.081348e+002	-4.619978e+001	1.576934e+002	-4.620193e+001	1.576387e+002	-1.489531e+000	1.039649e+002
1489325000	-1.329952e+000	1.078007e+002	-4.594249e+001	1.566396e+002	-4.595575e+001	1.566223e+002	-1.490010e+000	1.036089e+002
1489400000	-1.337190e+000	1.074702e+002	-4.568053e+001	1.556338e+002	-4.568833e+001	1.557866e+002	-1.491525e+000	1.032538e+002
1489475000	-1.344028e+000	1.071359e+002	-4.541075e+001	1.549369e+002	-4.541595e+001	1.547660e+002	-1.492644e+000	1.028967e+002
1489550000	-1.351485e+000	1.068006e+002	-4.512521e+001	1.539309e+002	-4.516229e+001	1.537986e+002	-1.496062e+000	1.025459e+002
