# Hz S RI R 50
819500000	-0.906446123285188	-0.104078808943664	-7.16826229316693E-04	3.27649269648819E-04			-6.00752180369201E-04	3.56770255568478E-04	-0.90109429689949	-6.47262127346671E-02
819562500	-0.906071493527947	-0.103124999464501	-7.04134488091387E-04	3.91829682055767E-04			-6.30382883644165E-04	2.57526534971676E-04	-0.897936022050393	-6.60428186538332E-02
819625000	-0.905545756459388	-0.102560042700735	-6.61562014330281E-04	3.39518732936446E-04			-6.28617610465041E-04	3.65191522364916E-04	-0.90162993560835	-6.57697086571184E-02
819687500	-0.905934367797002	-0.100842028060126	-5.92117861621802E-04	3.42480035832784E-04			-6.85771081735428E-04	4.74356287018758E-04	-0.900977919010978	-6.70301435576589E-02
819750000	-0.904979307486284	-9.94445727342757E-02	-6.03150450698101E-04	4.30207809279743E-04			-5.6104598389076E-04	4.54501310725077E-04	-0.897887450808252	-6.88535209384337E-02
819812500	-0.903416333817963	-0.098406803608866	-6.11928137156572E-04	4.12978053359385E-04			-5.52485848334959E-04	4.35720292852253E-04	-0.902938802783559	-6.76974902283784E-02
819875000	-0.904444796643197	-9.75352543434103E-02	-6.3433165026964E-04	5.05111390942644E-04			-6.54115340018149E-04	5.02500448440959E-04	-0.904677315350264	-6.86202076014985E-02
819937500	-0.905014676582132	-0.097419916611675	-5.62339518069491E-04	3.86245658184621E-04			-6.11509048441593E-04	4.20439912481528E-04	-0.903891206661652	-6.83460276905972E-02
820000000	-0.903567663854568	-0.096476908457196	-6.27394188737451E-04	4.30738492726128E-04			-7.26458304129206E-04	2.43277214868548E-04	-0.902757118960023	-6.90594469581409E-02
820062500	-0.902739779640461	-9.64984334742774E-02	-5.81139266206421E-04	3.82589014852524E-04			-5.0256566596609E-04	2.84905300413762E-04	-0.905976654403868	-0.069924495423386
820125000	-0.90309235093424	-9.49771356003423E-02	-6.5306647001257E-04	3.88240175336341E-04			-6.28341382756966E-04	5.6443547542574E-04	-0.910079492904817	-7.00661675740165E-02
820187500	-0.902364128004358	-9.47545400358489E-02	-5.97109550935651E-04	4.75381594968441E-04			-7.12769878379366E-04	4.24308371545341E-04	-0.908151742458522	-6.99415151299324E-02
820250000	-0.902442178459131	-9.46790907099254E-02	-6.59044189324509E-04	4.44823219157065E-04			-5.12867923817259E-04	4.78677642245856E-04	-0.909355739266216	-7.06434013779775E-02
820312500	-0.902058678387522	-0.094231035752062	-5.98754952775692E-04	4.17031701920255E-04			-5.00074819437869E-04	4.27636683797999E-04	-0.913658804090555	-6.84671741546387E-02
820375000	-0.902073641067987	-9.43309449373692E-02	-4.71572990710872E-04	4.52775400774433E-04			-5.16784160742423E-04	3.90397812927486E-04	-0.912312814492694	-6.94312574861051E-02
820437500	-0.90191692811998	-9.40553434919489E-02	-5.29190761862306E-04	3.82117484988013E-04			-6.58220834119857E-04	4.83083919815418E-04	-0.914629502748126	-6.80529369075661E-02
820500000	-0.900489024269492	-9.48039475180698E-02	-5.35411898057019E-04	4.7229958849894E-04			-5.06890881688063E-04	3.68967099968663E-04	-0.915156442749758	-6.74162217596839E-02
820562500	-0.900367715660555	-9.40051106069309E-02	-5.23010946878546E-04	3.93210828912416E-04			-4.77086470156862E-04	4.8005139809308E-04	-0.918936806382499	-6.62146445039704E-02
820625000	-0.900484917604056	-9.30800489955393E-02	-5.3829132713699E-04	4.17305039494002E-04			-4.74261053250058E-04	5.34638513477347E-04	-0.921061535858344	-6.47983644971654E-02
820687500	-0.901893260665082	-9.36256411718969E-02	-5.03353924340057E-04	4.06034252035183E-04			-5.14201040712595E-04	3.32989637380485E-04	-0.917684644167751	-6.43675199427319E-02
820750000	-0.902318597898612	-9.45372653080101E-02	-5.94699058024032E-04	4.7745501096872E-04			-5.33721846644376E-04	4.53081094163708E-04	-0.919922166957673	-6.30102373150827E-02
820812500	-0.90348730322027	-9.37452311423001E-02	-5.60103487033444E-04	4.40054783444795E-04			-5.44620427338843E-04	4.05359046833618E-04	-0.923463629043598	-6.05364367670202E-02
820875000	-0.903281871282759	-9.48679725158378E-02	-6.05280334976848E-04	3.63254161103988E-04			-5.53670979425635E-04	4.62873662740171E-04	-0.923819934350136	-6.01303048880336E-02
820937500	-0.904179086042024	-9.29971108932374E-02	-5.49597919500977E-04	4.26506574132733E-04			-5.22863515846866E-04	4.43447314010474E-04	-0.925371106806143	-5.97421026843882E-02
821000000	-0.903663156517869	-0.092480546644454	-5.14361340528982E-04	4.31645587463243E-04			-5.21738476441004E-04	5.70907892071744E-04	-0.926465785725261	-5.69596803273565E-02
821062500	-0.905566990692157	-9.48664669940935E-02	-4.92415590022643E-04	3.74851591149711E-04			-5.96167212473388E-04	4.65356609181226E-04	-0.928446027819149	-5.52401293246671E-02
821125000	-0.906195506694988	-9.33117556484353E-02	-4.65464881014096E-04	5.04934356300042E-04			-5.37467085570982E-04	5.59334571982031E-04	-0.927775761395775	-5.50755052736949E-02
821187500	-0.907528192908675	-9.30963924848248E-02	-4.67599064866324E-04	4.43670841307582E-04			-5.51548204659152E-04	3.81447121845933E-04	-0.928726976969389	-5.26462499667646E-02
821250000	-0.907734377588271	-9.23548475456449E-02	-5.10694842405381E-04	4.79137805467196E-04			-6.53542639357412E-04	3.96022647232806E-04	-0.931188606803602	-5.07542377805772E-02
821312500	-0.908865999918227	-9.27131177435126E-02	-5.59558382852569E-04	4.97664089064152E-04			-6.48239704740917E-04	3.61618890025975E-04	-0.932429441071877	-4.95961430243553E-02
821375000	-0.909542115720015	-9.11855814815603E-02	-5.20084798689692E-04	4.86072134024913E-04			-5.40378968790886E-04	4.91428688362281E-04	-0.930955603290097	-4.74206459512008E-02
821437500	-0.90963564184687	-8.93707998568756E-02	-5.37798954333413E-04	5.70804958500963E-04			-5.70068277692803E-04	4.97851589784934E-04	-0.932442704849222	-4.50828267483072E-02
821500000	-0.910309950439242	-8.93334895465675E-02	-4.57248880216601E-04	4.7389651451745E-04			-5.48185501465197E-04	5.9027669532012E-04	-0.93270973198504	-4.39825873418651E-02
821562500	-0.912720246592306	-0.089841524402601	-5.07501132136434E-04	4.61865019306827E-04			-5.11602530735793E-04	5.83300515849016E-04	-0.930497537330955	-4.30289537176092E-02
821625000	-0.913222784845525	-8.82541334117086E-02	-5.74845109925253E-04	5.55930844239658E-04			-5.37686908446201E-04	5.18548141417669E-04	-0.931733876313721	-4.00853684998537E-02
821687500	-0.913574717404301	-8.66877606816642E-02	-5.63811439245805E-04	4.43468208767856E-04			-4.13808708395539E-04	4.02298742106598E-04	-0.934068425942202	-3.91868331468824E-02
821750000	-0.915096088856414	-8.63462649072441E-02	-5.05560265187139E-04	4.87191106634489E-04			-5.64585268250204E-04	4.47521696544516E-04	-0.934210329007377	-3.66206898569451E-02
821812500	-0.916173003492336	-8.49281592446981E-02	-5.30336917040483E-04	4.6219170596778E-04			-4.49537278780243E-04	5.22789863042589E-04	-0.933476118399235	-3.60130346026869E-02
821875000	-0.91673781434742	-0.0830894611735	-4.63793706097734E-04	3.80135833788668E-04			-4.29888262369405E-04	5.67534230167719E-04	-0.932471098067405	-3.49281478576391E-02
821937500	-0.917070385726294	-8.10088415523773E-02	-4.21666518688086E-04	4.14382619686248E-04			-4.93056021307036E-04	4.38002201507992E-04	-0.9380999854445	-3.18475814796881E-02
822000000	-0.919752383244787	-8.12725621131548E-02	-4.72100346717689E-04	5.38248964583916E-04			-5.28407091193043E-04	5.02541904547806E-04	-0.935183249386341	-3.08659076309958E-02
822062500	-0.918811398006856	-7.94098672192707E-02	-4.76627387037062E-04	3.98131084474241E-04			-4.77044250857657E-04	4.64924326800435E-04	-0.935800188426538	-0.029486891948443
822125000	-0.919587003098316	-0.07712659333287	-5.04940865064629E-04	4.33179473134759E-04			-4.65483353990956E-04	4.10859769714916E-04	-0.934856475574536	-2.74437120568301E-02
822187500	-0.919956459039182	-7.80773253832025E-02	-5.37551160641619E-04	4.77231901891437E-04			-4.72491972089673E-04	5.12914668539149E-04	-0.937765476024424	-2.69396310160535E-02
822250000	-0.920122266473893	-7.37474844606754E-02	-4.21265873433774E-04	4.27866544847985E-04			-4.31859458536126E-04	5.54878969761159E-04	-0.936953723526598	-2.47345656890332E-02
822312500	-0.92176937380221	-7.37603800408174E-02	-4.58865528811353E-04	4.54315481353337E-04			-5.12726115133681E-04	4.51175855690619E-04	-0.937935667441887	-2.25932468746591E-02
822375000	-0.921559193205082	-7.29936481582221E-02	-5.25828227872775E-04	5.8780539954553E-04			-3.18090647186891E-04	4.65246883261587E-04	-0.938216524577038	-2.09333935949766E-02
822437500	-0.921778793333264	-7.05336369362583E-02	-4.65106822419774E-04	4.94662204118821E-04			-4.50503926215977E-04	4.17695777897128E-04	-0.934237334656621	-2.08568855210748E-02
822500000	-0.922586040050376	-6.98965990254539E-02	-4.66378256116373E-04	6.16074938794752E-04			-3.7702614407212E-04	3.67077771532906E-04	-0.937871081174226	-1.79160882411142E-02
822562500	-0.92346817155801	-0.067626470302568	-3.70484194843001E-04	4.89931669080226E-04			-4.17890162607161E-04	4.95550073569184E-04	-0.93728597904539	-1.67188794850508E-02
822625000	-0.924486972797621	-6.74231749213813E-02	-4.83612158532547E-04	5.51603889117326E-04			-3.7510477361688E-04	4.16333201877885E-04	-0.938829182528787	-1.44262763308458E-02
822687500	-0.923626301650107	-6.47056631070008E-02	-3.95720178672469E-04	4.21499581678986E-04			-4.37080027591529E-04	4.08211613892707E-04	-0.939215383525308	-1.32944569385861E-02
822750000	-0.925530450723125	-6.29185871877867E-02	-5.01658392583031E-04	5.77712850801682E-04			-4.54360159103456E-04	4.24849806013034E-04	-0.937737826704986	-1.21839824554424E-02
822812500	-0.924419860879952	-6.12518843060832E-02	-4.63744751250064E-04	4.82749512989052E-04			-4.4943997151728E-04	4.50713114470843E-04	-0.93879622611833	-1.00589179705389E-02
822875000	-0.924753470483589	-0.060887015149147	-4.25666611841899E-04	4.60141073334753E-04			-3.99954759124166E-04	5.40020108802879E-04	-0.93409914660854	-8.88950227311866E-03
822937500	-0.924771252066878	-6.00288900437036E-02	-4.45963956553531E-04	4.44342698023444E-04			-4.62537376959001E-04	4.40677189554642E-04	-0.94025129950003	-6.90540746902003E-03
823000000	-0.925806681855034	-5.66844298625339E-02	-4.1978325228977E-04	4.59498816691301E-04			-4.03809894842533E-04	4.94203277638168E-04	-0.937682789964362	-7.27004103529128E-03
823062500	-0.926685264287763	-5.64697431066401E-02	-4.0443000324675E-04	4.98145259977616E-04			-4.46379986557261E-04	4.48933068520622E-04	-0.938218307444369	-5.07180454703641E-03
823125000	-0.926006266322386	-5.45415622880577E-02	-3.84828147709837E-04	4.45006913319868E-04			-4.34887869363293E-04	4.05718072242568E-04	-0.940401860282091	-3.5751150619848E-03
823187500	-0.927286695597491	-0.052875502129479	-3.60593766386795E-04	5.1925958791971E-04			-4.02822117285758E-04	3.53898061395283E-04	-0.935610303388169	-2.44079093477893E-03
823250000	-0.927576346874478	-5.20501903960299E-02	-3.73561735319115E-04	4.80224020114098E-04			-3.93678514040648E-04	3.71461761491088E-04	-0.933921772286981	-1.28102144593772E-03
823312500	-0.928055616740791	-5.03483912581222E-02	-4.23601388376609E-04	4.56029918924756E-04			-3.02215065520901E-04	4.23878493190133E-04	-0.936056455246501	3.05273500322001E-05
823375000	-0.927451149786303	-4.94704032509259E-02	-3.46704578195782E-04	4.36621445128846E-04			-3.53823702538731E-04	3.81303639017803E-04	-0.940269758731972	2.04386590440504E-03
823437500	-0.928723827920538	-4.82431717446923E-02	-3.71660752426928E-04	3.91290360690166E-04			-3.18014550699603E-04	4.46205094824163E-04	-0.939440257398576	3.33920865105383E-03
823500000	-0.928677863316851	-0.046760637881381	-4.28426979136152E-04	3.57929878308145E-04			-2.88546245211038E-04	3.74914552265212E-04	-0.938075349990457	5.69203563618586E-03
823562500	-0.927487351058344	-4.40891622885212E-02	-3.21257611149456E-04	3.70528746918109E-04			-2.96096075470276E-04	3.46351287465535E-04	-0.938274196491793	6.33763916136696E-03
823625000	-0.929125413575686	-4.45005864828793E-02	-3.86597614839612E-04	3.81197232249115E-04			-4.01894796256272E-04	3.51749188334673E-04	-0.939116181025352	8.42311892502646E-03
823687500	-0.928798661892413	-4.14448000443108E-02	-4.89245619652318E-04	3.44972907276138E-04			-2.13864413057207E-04	5.21258143392985E-04	-0.937364540269622	9.53491999471056E-03
823750000	-0.927821979952005	-0.040038580962809	-3.79939925611204E-04	2.67985459300436E-04			-3.98979672999281E-04	3.37810849776925E-04	-0.936059721416028	1.06259765594273E-02
823812500	-0.928333471323033	-0.038669304562956	-4.0684597922713E-04	3.70800960752373E-04			-3.63240856034975E-04	4.18616139207948E-04	-0.937601259066829	1.15770356359783E-02
823875000	-0.927687201436853	-3.76716481783603E-02	-3.81910192658015E-04	3.40365345944093E-04			-3.51523830844814E-04	3.59493206723464E-04	-0.939199840818398	1.46279496903108E-02
823937500	-0.927966203000196	-3.63302878723686E-02	-2.63703840098639E-04	3.26841965983531E-04			-4.74527404060802E-04	3.94483838160774E-04	-0.935493227365931	1.44811620530242E-02
824000000	-0.928443674427929	-3.37165803629828E-02	-3.65661484483989E-04	3.37470970852326E-04			-3.52415317489305E-04	3.39613031226823E-04	-0.938635963098647	1.60685583913834E-02
824062500	-0.928155724654691	-3.41075675530111E-02	-4.68169824471603E-04	3.7592429587711E-04			-3.75158800217878E-04	3.81145238193438E-04	-0.935765665620841	1.69165979966269E-02
824125000	-0.928764502492078	-3.22991833693063E-02	-2.62958875991257E-04	3.45282144672337E-04			-3.92940066806436E-04	3.96107197807292E-04	-0.935391231648772	1.84200994183439E-02
824187500	-0.927122605633028	-3.12739906389401E-02	-3.73974058317782E-04	4.06721402163938E-04			-4.39021382428339E-04	3.60595660590512E-04	-0.935426320922005	2.10148123290251E-02
824250000	-0.928244421253693	-2.84417700788967E-02	-4.39360111959714E-04	2.58890806808863E-04			-3.49071338486304E-04	2.95902470183299E-04	-0.934301535420798	2.24634301857315E-02
824312500	-0.928623967760618	-0.028089226515587	-4.2141926350878E-04	3.4599434747907E-04			-4.77151345138735E-04	2.79197874516207E-04	-0.936151988219076	2.34634286750263E-02
824375000	-0.92838473939289	-2.61914531382337E-02	-4.37634186769897E-04	3.18558236812493E-04			-4.68661326056716E-04	3.25482495841262E-04	-0.935059690194017	2.42818059756473E-02
824437500	-0.92811655048025	-2.45812397120015E-02	-4.85889578286243E-04	3.3894837445561E-04			-3.945393185789E-04	2.58084320427134E-04	-0.934608902428726	2.51479179972046E-02
824500000	-0.928535747908209	-2.35179886071028E-02	-4.33702527174314E-04	2.30210794361051E-04			-3.97971069349358E-04	2.97004635765676E-04	-0.936330779018114	2.66151435831085E-02
824562500	-0.927928029736932	-2.29136544939648E-02	-4.37097312569111E-04	3.47619455945115E-04			-4.12607988140882E-04	3.40764197334131E-04	-0.93242089823399	2.78856392982791E-02
824625000	-0.92805504623707	-2.01993582298868E-02	-4.24737489498871E-04	2.84487925103258E-04			-5.16405211095981E-04	2.70113140973429E-04	-0.93633805882491	2.81054809369507E-02
824687500	-0.928158616131894	-2.07836079306812E-02	-4.09785953641079E-04	3.39908874467898E-04			-5.58728164554803E-04	3.65147569268344E-04	-0.93484023011832	2.99464209314355E-02
824750000	-0.927456464833049	-1.99651415687294E-02	-4.20583977329421E-04	2.91414017529054E-04			-4.05098098451828E-04	2.77842680711433E-04	-0.936238103004319	3.12801616448984E-02
824812500	-0.927726009949695	-0.017624052251018	-4.23382328478059E-04	3.06735904573819E-04			-4.0782436491625E-04	3.5471747244434E-04	-0.934643153892078	3.20866847469643E-02
824875000	-0.926974931609474	-1.57317765272433E-02	-4.7749071491369E-04	3.362920108617E-04			-4.1315965905886E-04	3.15414508116842E-04	-0.932672756611076	3.22902425801513E-02
824937500	-0.926979275198466	-1.58712365093269E-02	-4.77420431962273E-04	3.33907055530175E-04			-4.73112506434742E-04	2.88103115125905E-04	-0.934285263535452	3.37263509020884E-02
825000000	-0.927397915807254	-1.39656910025009E-02	-4.6361187273838E-04	3.32262289241821E-04			-4.5394884166021E-04	4.24511782419747E-04	-0.934986268241046	3.52298175346569E-02
825062500	-0.926676770862735	-1.26142891738045E-02	-4.47475384266905E-04	2.24483266720056E-04			-5.40390726786192E-04	2.89022325239653E-04	-0.933966639016384	3.73215422098702E-02
825125000	-0.92614466535721	-1.22196146472167E-02	-5.19786383656441E-04	3.51341300893049E-04			-4.83634953883994E-04	2.98172347266034E-04	-0.934158332947672	0.037781441396626
825187500	-0.926840755234396	-1.07025405882891E-02	-4.61257250053928E-04	2.84339962807341E-04			-5.07829009667398E-04	3.46325100755227E-04	-0.934466982578188	3.91105391420489E-02
825250000	-0.925408300660452	-9.07359618533838E-03	-5.07199880408905E-04	3.33653536993965E-04			-4.04027731131838E-04	3.48311853419554E-04	-0.934574584920365	3.96511092134211E-02
825312500	-0.926571655207273	-8.00756723700941E-03	-5.33630270413211E-04	4.00582706986508E-04			-4.45972529089546E-04	3.16454771687003E-04	-0.933893137506087	4.00314237817983E-02
825375000	-0.927046103627606	-6.36875929105988E-03	-5.92729836055871E-04	4.11387972849779E-04			-5.28608178015229E-04	3.90242638463506E-04	-0.933382956024809	4.17734353096839E-02
825437500	-0.926369409123928	-5.77574184919088E-03	-4.9807349630694E-04	4.18195516788793E-04			-5.30100579793165E-04	3.68431564414916E-04	-0.932152532758278	4.33964638179828E-02
825500000	-0.925895385376267	-3.10147700872828E-03	-4.56951645511463E-04	3.87575301791314E-04			-5.38950166503949E-04	4.02229217899651E-04	-0.934301679627962	4.30522023901777E-02
825562500	-0.925961389591035	-2.71416582606544E-03	-4.31739832840704E-04	3.9254675696358E-04			-5.12462380348577E-04	2.63780483266483E-04	-0.934384437381241	4.47276602835858E-02
825625000	-0.925908524297847	-7.24858846411399E-04	-5.1532863364195E-04	2.94165430291174E-04			-3.4770890358901E-04	2.16026528887001E-04	-0.935277645779141	0.046501777279602
825687500	-0.925909044951665	-7.16773106066421E-04	-4.56761634752749E-04	3.21598874577604E-04			-4.79226722574552E-04	3.76778927387217E-04	-0.932703344019236	4.71850280793563E-02
825750000	-0.926135784012976	7.19112627244367E-04	-5.26203982174918E-04	3.75186793504458E-04			-5.06512726550435E-04	4.00669738592459E-04	-0.933188151309622	4.85310972516053E-02
825812500	-0.926255810843161	8.48662526944785E-04	-5.25099682598514E-04	3.11973008070191E-04			-4.60932263144009E-04	3.97257782768712E-04	-0.934407694768185	4.92013942753299E-02
825875000	-0.926035714196356	3.94344477430366E-03	-4.3318297805603E-04	3.33637268023272E-04			-5.10824064595779E-04	3.80414920471528E-04	-0.935355284663914	5.05603380231615E-02
825937500	-0.927662381142851	3.88479187521444E-03	-4.89630735183448E-04	3.20980308533383E-04			-4.78731925360774E-04	3.3168674481513E-04	-0.937412850755509	5.18867210936213E-02
826000000	-0.927259224593807	6.12161298942372E-03	-4.59605413855312E-04	3.08165602339338E-04			-4.90102937300816E-04	4.63369217981637E-04	-0.934141150170147	5.42786905830033E-02
826062500	-0.927842984656153	6.08438655111685E-03	-5.06197172351087E-04	4.31785450564523E-04			-4.03577413363991E-04	4.20168534087429E-04	-0.933017521700103	5.58816881597915E-02
826125000	-0.928913768385342	7.41677448515469E-03	-4.13368558236936E-04	4.07817157291435E-04			-3.41530299948187E-04	3.47749552285628E-04	-0.934949822605338	0.056897430524391
826187500	-0.92845529609667	9.54749224824582E-03	-4.12780693207417E-04	3.86723781378409E-04			-4.67376061477211E-04	4.08367475642694E-04	-0.937262577768448	5.73693375401996E-02
826250000	-0.929043602806257	9.70818329111352E-03	-4.96341879431057E-04	3.9038548197495E-04			-4.48892351375109E-04	3.55482075782281E-04	-0.932776476979159	5.91494165919462E-02
826312500	-0.928017656551736	1.18469897112794E-02	-3.9057868272914E-04	4.80549985727771E-04			-5.11563014571259E-04	3.69197933493071E-04	-0.937750190862153	6.06905321997601E-02
826375000	-0.929099223171552	1.28072220522053E-02	-3.99201238669446E-04	2.26771582533793E-04			-4.82502814653647E-04	3.47086351393392E-04	-0.937906066274848	6.17757779084857E-02
826437500	-0.928492695934896	1.49463883394499E-02	-4.29482668315825E-04	3.93559423248955E-04			-3.35119433269069E-04	3.71964839185215E-04	-0.937462734106776	6.43130071467567E-02
