!Agilent Technologies,E5071C,MY46104097,A.08.12
!Date: Sat Dec 01 15:35:24 2018
!Data & Calibration Information:
!Freq	S11:SOLT2(ON)	S21:SOLT2(ON)	S12:SOLT2(ON)	S22:SOLT2(ON)
# Hz S RI R 50
100000	9.809982e-001	9.278856e-003	4.484592e-003	7.141504e-003	-5.436797e-003	1.191763e-002	1.015670e+000	9.000938e-003
2912438	1.012937e+000	4.944498e-003	2.037771e-003	-3.587719e-003	4.144563e-003	-7.484036e-003	9.952338e-001	-1.148092e-002
5724875	9.975905e-001	1.019097e-002	-4.740709e-003	-3.277940e-003	6.519306e-003	2.616363e-003	9.775891e-001	-9.085425e-003
8537313	1.003443e+000	-3.245365e-003	-1.130263e-003	-3.351880e-003	-3.811701e-003	4.212119e-003	1.001406e+000	1.741351e-003
11349750	1.003705e+000	-6.986040e-004	9.953044e-005	-7.921154e-005	4.557153e-004	-6.061030e-004	1.006107e+000	-2.386663e-003
14162188	1.001984e+000	-4.922976e-003	3.030246e-004	1.816900e-004	-2.427359e-004	-2.332515e-004	1.002748e+000	-1.198495e-003
16974625	9.923820e-001	2.609765e-003	5.272207e-004	-4.331587e-004	2.690216e-004	8.108548e-004	1.001827e+000	5.647448e-004
19787063	9.969306e-001	-1.223309e-003	1.824341e-004	6.837256e-004	-1.359235e-004	9.244061e-004	1.008791e+000	-7.012185e-003
22599500	9.980181e-001	-5.447161e-003	-1.841541e-004	3.196480e-004	-1.189446e-003	-1.062018e-003	1.001015e+000	-8.198393e-003
25411938	1.006300e+000	4.931405e-003	8.522899e-004	7.378447e-004	2.112506e-004	-3.505636e-004	1.003911e+000	-1.385464e-004
28224375	9.999872e-001	8.531345e-004	-3.299204e-004	-2.824650e-004	-4.983511e-004	-3.283445e-004	1.008140e+000	1.278989e-003
31036813	1.000839e+000	1.179633e-003	2.355826e-004	-2.376115e-004	5.292927e-004	5.681300e-004	9.963710e-001	4.413253e-003
33849250	9.975288e-001	5.361005e-003	-1.370378e-004	1.063886e-003	8.400596e-004	-3.524863e-004	1.004199e+000	-4.272272e-003
36661688	1.000369e+000	-4.998912e-003	1.154714e-003	2.542033e-004	7.665753e-006	1.059504e-004	9.992136e-001	-2.942123e-003
39474125	9.915372e-001	-6.859015e-004	1.892335e-004	-2.686791e-004	3.451757e-004	7.364454e-004	9.966604e-001	4.833926e-003
42286563	1.002785e+000	-1.188528e-003	1.033433e-005	7.987506e-004	-4.929942e-004	6.331874e-004	9.986774e-001	-5.972600e-003
45099000	1.000591e+000	-1.301044e-003	1.715447e-005	3.992507e-004	3.430255e-004	-3.340531e-004	9.998549e-001	-3.150950e-003
47911438	1.007052e+000	-2.980340e-003	-4.827878e-004	1.743297e-003	-7.596012e-004	6.692442e-004	1.001545e+000	-6.132364e-004
50723875	9.990721e-001	-5.503283e-003	-6.669370e-004	5.574406e-004	1.553547e-004	1.284483e-003	1.000514e+000	-1.777719e-003
53536313	1.000005e+000	-2.220957e-003	9.178304e-004	4.624639e-004	3.270742e-004	6.083141e-004	9.972382e-001	-3.139840e-003
56348750	1.000682e+000	-1.283319e-003	3.606676e-004	-2.642778e-004	4.381421e-004	6.488477e-004	9.998400e-001	-8.581160e-004
59161188	9.996063e-001	-3.383238e-003	-4.750208e-005	1.010296e-003	-2.639803e-004	9.334754e-004	9.975777e-001	-6.496090e-003
61973625	1.002778e+000	-4.575477e-003	-3.442809e-004	-3.338801e-004	-2.580762e-004	2.428525e-004	9.978222e-001	-4.534032e-003
64786063	1.004922e+000	2.265622e-003	-6.233010e-004	4.626276e-004	-4.900728e-004	1.581217e-003	9.985519e-001	-4.371867e-003
67598500	1.000673e+000	-2.827578e-003	-1.255656e-003	6.475540e-004	2.610083e-004	1.131780e-005	9.976988e-001	-6.707017e-003
70410938	9.960220e-001	-3.195754e-003	-6.789791e-004	6.169455e-004	-5.018002e-004	-2.074742e-004	9.984077e-001	-5.829745e-003
73223375	9.957330e-001	-4.803298e-004	-4.677071e-004	-1.295543e-004	1.811028e-004	1.005868e-003	1.001970e+000	-6.207078e-003
76035813	9.987116e-001	-3.235974e-003	1.075038e-003	5.377566e-004	2.138137e-004	6.477745e-004	9.997440e-001	-3.091439e-003
78848250	1.000847e+000	-3.199321e-003	8.449760e-004	2.336626e-004	-2.838155e-004	1.164071e-004	1.000468e+000	-8.173456e-003
81660688	1.001483e+000	-1.156608e-003	-9.052212e-004	6.574128e-004	9.812820e-004	7.360424e-004	1.000877e+000	-2.090985e-003
84473125	9.996079e-001	-2.722784e-003	-8.563652e-004	5.994645e-004	-5.683886e-005	3.819397e-005	1.003009e+000	-6.405817e-003
87285563	1.002898e+000	-5.257895e-003	2.079698e-005	6.298512e-004	-1.706670e-005	1.976679e-004	9.991915e-001	-8.679991e-003
90098000	1.001084e+000	-1.107334e-003	1.104034e-004	1.377861e-003	9.086140e-004	1.004281e-003	1.002732e+000	-6.962850e-003
92910438	1.001720e+000	-2.204860e-003	-2.960051e-004	5.914971e-004	-2.304660e-004	2.502135e-004	9.964084e-001	-1.246965e-002
95722875	9.972232e-001	-4.376226e-003	1.037292e-003	9.804802e-004	7.454247e-004	3.156221e-004	1.001572e+000	-5.263011e-003
98535313	9.968829e-001	-3.153233e-003	-4.381528e-004	-2.839795e-004	6.930711e-004	4.629159e-006	9.994392e-001	-6.461928e-003
101347750	1.003872e+000	-3.781471e-003	-7.633512e-004	5.885301e-004	-1.224964e-004	6.426617e-004	1.002792e+000	-8.343868e-003
104160188	9.999454e-001	-8.458627e-003	-2.908381e-004	1.075362e-003	2.406857e-004	1.433811e-003	9.971503e-001	-1.044431e-002
106972625	1.000661e+000	-5.106319e-003	1.700311e-004	2.326512e-004	-4.033929e-004	1.321593e-003	9.997908e-001	-7.117412e-003
109785063	9.991996e-001	2.728798e-003	-6.571689e-004	1.195157e-003	1.619023e-003	-1.785017e-005	9.999425e-001	-5.040699e-003
112597500	9.965617e-001	-6.199215e-003	6.437027e-004	-1.498603e-004	-3.364837e-004	6.207943e-004	9.948532e-001	-6.780198e-003
115409938	1.000622e+000	4.551326e-003	2.497686e-004	9.782186e-004	-1.814534e-004	9.341181e-004	9.971751e-001	-1.194422e-002
118222375	9.961044e-001	-2.080723e-003	-9.076908e-004	5.106851e-004	7.448008e-004	5.443896e-004	9.965958e-001	-4.931373e-003
121034813	9.986103e-001	-6.939064e-003	-4.135714e-004	1.442420e-003	2.971925e-004	6.949726e-004	9.990546e-001	-1.281146e-002
123847250	9.993893e-001	-1.089953e-002	-1.146090e-003	8.431510e-004	-4.500050e-004	1.045302e-003	9.890096e-001	-2.148773e-002
126659688	1.004183e+000	2.796611e-003	-1.854395e-003	6.594521e-004	-5.866726e-004	3.366276e-004	1.004119e+000	-2.228551e-003
129472125	9.987687e-001	3.648561e-004	6.355815e-004	7.325564e-004	1.588101e-004	6.487616e-005	1.003101e+000	-7.700514e-003
132284563	1.001711e+000	-5.116523e-003	-5.004593e-004	2.272817e-004	2.958228e-004	2.760533e-004	1.006605e+000	-6.383119e-003
135097000	9.990126e-001	-1.262195e-002	6.526996e-005	1.164429e-005	-9.240706e-004	1.386158e-003	1.003030e+000	-1.552774e-002
137909438	9.953022e-001	-1.149734e-002	-7.955981e-004	8.253045e-004	2.369085e-005	-2.959418e-004	9.896302e-001	-7.054973e-003
140721875	1.001724e+000	-1.495992e-002	-2.595681e-005	9.046562e-004	5.398766e-004	1.028496e-004	9.981198e-001	-1.264229e-002
143534313	1.002323e+000	3.050260e-003	-4.235921e-004	1.228226e-003	2.818199e-004	1.184956e-003	9.985082e-001	-2.056203e-002
146346750	9.937539e-001	-4.831014e-003	6.550561e-004	6.082617e-004	5.878482e-004	1.434120e-003	1.004582e+000	-1.691325e-002
149159188	9.995766e-001	-1.368406e-002	-1.125011e-003	5.353611e-004	7.724685e-004	-8.455329e-005	9.996584e-001	-9.518310e-003
151971625	1.005932e+000	-8.428115e-003	1.638844e-004	1.289729e-004	-1.050595e-004	7.028103e-004	1.002380e+000	-3.875530e-003
154784063	9.830977e-001	-6.264120e-003	-4.479219e-005	1.342621e-003	1.189545e-003	1.532571e-003	1.001460e+000	-1.702180e-002
157596500	9.990300e-001	-3.494264e-003	-7.922504e-004	1.206420e-003	-6.388716e-004	2.024603e-003	1.001676e+000	-9.797826e-003
160408938	1.004601e+000	-1.132879e-002	-5.672567e-004	1.488894e-003	5.440226e-004	1.563028e-003	9.916812e-001	-1.741496e-002
163221375	1.004886e+000	-1.012775e-002	-7.981352e-005	4.354284e-004	4.995394e-004	4.473131e-004	9.988844e-001	-7.695578e-003
166033813	1.001547e+000	-4.813598e-003	7.148538e-004	1.103756e-003	6.997361e-004	6.074868e-004	9.913962e-001	-1.070267e-002
168846250	9.991491e-001	-5.700326e-003	-9.868251e-005	3.828894e-004	-8.013404e-004	5.729290e-004	1.001516e+000	-2.019819e-002
171658688	9.921506e-001	-1.164067e-002	-2.608071e-004	4.533282e-004	1.851887e-004	2.545375e-004	9.998694e-001	-9.568739e-003
174471125	9.969092e-001	-3.410537e-003	-6.734174e-004	1.910088e-003	-3.410028e-004	9.746572e-004	9.966255e-001	-1.346188e-002
177283563	9.950263e-001	-1.415802e-003	-9.153691e-004	8.820894e-004	-2.270342e-004	9.639673e-004	1.010917e+000	-2.195587e-002
180096000	9.909306e-001	-1.107115e-002	5.257494e-004	1.726578e-003	-1.698649e-004	1.074650e-003	9.986337e-001	-2.028840e-002
182908438	9.974604e-001	4.011772e-007	-1.663099e-005	3.189034e-004	2.411659e-004	1.492042e-003	1.000161e+000	-1.545678e-002
185720875	9.973226e-001	-8.826631e-003	8.692943e-005	1.100360e-003	-1.883255e-004	4.118808e-004	9.912924e-001	-1.748159e-002
188533313	9.992549e-001	-4.219807e-003	2.737815e-004	-2.174734e-004	-6.120729e-004	-1.993284e-004	1.002441e+000	-2.069565e-002
191345750	9.955871e-001	-8.121398e-003	-2.001303e-004	6.416934e-004	6.176907e-005	2.021712e-003	1.001989e+000	-1.608143e-002
194158188	1.002385e+000	5.401752e-003	-2.979538e-004	1.232016e-003	9.623907e-004	-8.967478e-005	1.000561e+000	-1.794880e-002
196970625	1.001702e+000	-7.304028e-003	5.451077e-005	6.339352e-004	-3.385753e-004	-4.119448e-004	9.998949e-001	-2.047210e-002
199783063	9.941899e-001	1.329810e-003	-1.334786e-003	9.730466e-004	7.099444e-004	4.956400e-004	1.002372e+000	-2.238037e-002
202595500	9.967252e-001	-4.792440e-003	-7.119634e-004	5.957688e-004	-2.703209e-004	4.180669e-004	1.001639e+000	-1.639597e-002
205407938	9.973114e-001	-4.032883e-003	-6.446027e-004	7.953135e-004	1.706108e-003	-5.113729e-004	9.974377e-001	-2.024148e-002
208220375	9.974030e-001	-1.712833e-003	-7.882194e-004	1.161123e-004	-2.819976e-004	8.663369e-004	1.001440e+000	-1.600901e-002
211032813	1.000925e+000	-5.473112e-003	3.005921e-004	-2.854052e-004	4.826613e-004	3.693975e-004	9.956219e-001	-1.514646e-002
213845250	9.991427e-001	-1.313515e-002	-2.589958e-004	8.005619e-004	2.620592e-004	1.120116e-003	1.001984e+000	-2.049659e-002
216657688	9.991866e-001	-1.347506e-002	2.270029e-004	7.457200e-004	-1.859862e-004	9.684160e-004	9.957639e-001	-2.182350e-002
219470125	9.958258e-001	-1.012342e-002	4.536226e-004	4.633435e-004	1.951042e-004	1.394305e-003	9.921551e-001	-1.868146e-002
222282563	9.968495e-001	-1.385852e-002	-3.342982e-004	9.555650e-004	1.008653e-005	1.188772e-003	9.951384e-001	-2.000931e-002
225095000	9.991562e-001	-7.998141e-003	-1.531116e-003	1.316081e-003	7.238328e-005	1.161320e-003	9.984990e-001	-1.647100e-002
227907438	9.969768e-001	-4.623732e-003	-1.101245e-003	9.719776e-004	4.383330e-004	1.508199e-003	9.978526e-001	-1.715584e-002
230719875	1.005143e+000	-7.683013e-003	4.170119e-004	1.583749e-003	-1.312233e-003	5.669513e-006	9.997667e-001	-2.193266e-002
233532313	9.915830e-001	-6.483815e-003	-6.271122e-004	1.016200e-003	2.748486e-004	1.077326e-003	9.926209e-001	-1.847084e-002
236344750	9.924891e-001	-1.064409e-002	1.614765e-004	1.756723e-003	5.079382e-005	2.771850e-004	1.001814e+000	-1.841242e-002
239157188	9.967073e-001	-7.547580e-003	-5.919077e-004	1.188491e-003	1.849894e-004	4.601021e-004	1.000480e+000	-2.000749e-002
241969625	1.000814e+000	-4.171453e-003	-5.475516e-004	1.087231e-003	1.513685e-004	1.600938e-003	9.992427e-001	-1.885047e-002
244782063	1.001584e+000	-1.049645e-002	3.056055e-004	1.288097e-003	-5.495956e-004	1.715148e-003	9.995141e-001	-2.097956e-002
247594500	9.995972e-001	-1.122181e-002	-6.931099e-004	4.786222e-004	-4.567025e-004	9.279540e-004	1.001919e+000	-2.174110e-002
250406938	1.001418e+000	-7.672021e-003	-1.963290e-004	1.503964e-003	-5.730592e-004	1.177954e-003	9.996382e-001	-1.958313e-002
253219375	1.000862e+000	-9.145365e-003	-4.443471e-004	1.425170e-003	-1.746493e-003	1.109424e-004	9.953447e-001	-1.917888e-002
256031813	1.002545e+000	-1.302061e-002	-5.050955e-005	2.944068e-004	1.248617e-004	1.385700e-003	9.984651e-001	-2.635769e-002
258844250	9.966650e-001	-1.088047e-002	-1.166517e-003	1.414529e-003	-6.478573e-004	1.385022e-003	9.981840e-001	-2.163932e-002
261656688	1.002248e+000	-1.299162e-002	-1.922330e-004	1.447547e-003	3.674262e-004	2.438522e-003	9.996690e-001	-2.736019e-002
264469125	1.000487e+000	-1.159604e-002	9.550557e-005	1.425030e-003	-2.339188e-004	-3.586754e-004	9.906102e-001	-2.049836e-002
267281563	1.000712e+000	-8.001597e-003	1.140237e-004	4.886800e-004	-3.674393e-004	1.321267e-003	9.938630e-001	-1.671590e-002
270094000	1.009293e+000	-1.182440e-002	-6.534314e-004	1.131653e-003	1.663677e-004	1.393865e-003	9.962739e-001	-2.683541e-002
272906438	1.005152e+000	-8.075890e-003	-4.818822e-004	1.059218e-003	3.680622e-004	1.393938e-003	9.995574e-001	-1.665696e-002
275718875	9.969435e-001	-4.827779e-003	-4.030004e-004	1.956988e-003	-1.300577e-003	1.530129e-003	1.003455e+000	-2.409288e-002
278531313	1.001878e+000	-1.085177e-002	-4.950568e-004	-9.663634e-005	-5.037886e-004	8.582326e-004	9.925566e-001	-2.621335e-002
281343750	9.891889e-001	-4.792214e-003	-1.030328e-003	4.883369e-004	-8.788617e-005	1.907930e-003	9.969221e-001	-2.322378e-002
284156188	1.002739e+000	-1.428439e-002	1.246142e-004	1.210862e-003	-9.972316e-004	1.623790e-003	9.950112e-001	-2.812742e-002
286968625	9.960635e-001	-4.333880e-004	4.209673e-004	1.629515e-003	-3.258121e-004	9.175227e-004	9.985642e-001	-2.565767e-002
289781063	9.966912e-001	-1.412463e-002	1.505197e-004	1.992464e-003	-2.776474e-004	1.264140e-003	9.945948e-001	-2.600534e-002
292593500	1.000664e+000	-6.092476e-003	-7.570189e-004	1.571798e-003	-1.188771e-003	2.372510e-003	9.916442e-001	-1.823036e-002
295405938	9.943575e-001	-1.830028e-002	-6.919901e-004	1.241018e-003	1.597156e-004	1.497059e-003	9.952970e-001	-2.405444e-002
298218375	9.972722e-001	-1.470220e-002	1.715003e-004	2.844854e-003	-7.383954e-004	2.530732e-003	9.869009e-001	-1.655219e-002
301030813	9.996901e-001	-1.856021e-002	9.745538e-005	1.602549e-003	-1.238701e-003	2.097159e-003	1.004313e+000	-3.241436e-002
303843250	9.988455e-001	-9.815673e-003	-3.288473e-004	6.415727e-004	-1.852072e-004	1.033600e-003	9.996551e-001	-2.202992e-002
306655688	9.897463e-001	-1.049843e-002	2.113088e-004	4.543709e-004	2.504587e-004	2.023654e-003	9.929846e-001	-3.597644e-002
309468125	9.952719e-001	-1.884317e-002	-1.064253e-003	1.891624e-003	1.485028e-004	1.479020e-003	9.998309e-001	-3.270995e-002
312280563	9.974725e-001	-6.248247e-003	-6.201324e-004	1.075708e-003	4.911328e-005	1.545182e-003	9.958536e-001	-2.887369e-002
315093000	9.986594e-001	-6.622348e-003	-6.317779e-004	6.761064e-004	-7.059885e-004	1.505900e-003	9.887084e-001	-2.930876e-002
317905438	9.955703e-001	-1.720771e-002	-4.913636e-004	9.223631e-004	-1.072202e-003	1.852096e-003	9.957505e-001	-2.761757e-002
320717875	9.954267e-001	-1.517469e-002	-1.630984e-003	8.950643e-004	-2.789387e-004	2.911953e-003	9.995992e-001	-2.727290e-002
323530313	9.964632e-001	-1.215529e-002	3.965655e-004	8.354703e-004	-1.245960e-003	1.914712e-003	9.963096e-001	-3.324497e-002
326342750	9.961525e-001	-9.818878e-003	-9.832618e-004	1.143715e-003	1.832752e-004	1.159476e-003	9.976386e-001	-1.875528e-002
329155188	9.981154e-001	-1.559685e-002	-1.258397e-003	6.423796e-004	-9.815581e-004	1.369689e-003	9.856507e-001	-2.952910e-002
331967625	1.005842e+000	-2.046014e-002	-2.412060e-006	1.495418e-003	-9.907251e-004	2.125862e-003	9.931047e-001	-2.979475e-002
334780063	1.000840e+000	-1.201830e-002	8.655735e-005	9.899926e-004	-8.288154e-004	1.788493e-003	9.970500e-001	-3.574508e-002
337592500	9.916849e-001	-1.773521e-002	-1.145561e-003	1.047364e-003	2.257919e-004	2.181426e-003	9.939982e-001	-2.524655e-002
340404938	1.005299e+000	-1.418129e-002	-6.818516e-004	9.074679e-004	8.250515e-005	1.702525e-003	1.000875e+000	-3.763376e-002
343217375	9.958358e-001	-1.378265e-002	-6.204419e-004	1.069185e-003	-2.114410e-004	5.802202e-004	9.864487e-001	-3.235025e-002
346029813	1.004729e+000	-1.162728e-002	-1.172471e-003	9.725142e-004	-1.262131e-003	7.883233e-004	9.934643e-001	-2.272570e-002
348842250	9.951781e-001	-1.930859e-002	2.540819e-004	6.019794e-004	7.679790e-005	7.601917e-004	9.908065e-001	-3.169181e-002
351654688	9.935115e-001	-1.545749e-002	-1.008492e-003	1.121650e-003	-4.768799e-004	2.049765e-003	9.935229e-001	-3.435790e-002
354467125	1.005815e+000	-1.639312e-002	-1.070469e-004	1.821999e-003	6.996299e-004	1.200314e-003	9.992079e-001	-3.170847e-002
357279563	9.978127e-001	-8.215799e-003	-1.137132e-003	1.125569e-003	-1.516026e-003	1.354648e-003	9.940339e-001	-2.565956e-002
360092000	9.980308e-001	-1.676089e-002	-4.881933e-004	1.823623e-003	-5.919843e-004	1.158823e-003	9.938898e-001	-2.702363e-002
362904438	1.000886e+000	-1.271579e-002	-1.937533e-004	2.626130e-003	-3.766577e-004	1.729615e-003	1.003917e+000	-3.047164e-002
365716875	9.956783e-001	-1.170455e-002	3.066271e-004	1.230480e-003	-1.362078e-003	1.269399e-003	9.991790e-001	-3.325225e-002
368529313	9.909295e-001	-1.456262e-002	-1.582584e-003	8.699383e-004	-5.709983e-006	2.524520e-003	9.902615e-001	-3.394254e-002
371341750	9.970388e-001	-1.407118e-002	-7.611831e-004	2.218903e-003	-6.836103e-004	2.362277e-003	9.921327e-001	-3.163620e-002
374154188	9.970229e-001	-1.419989e-002	-1.093066e-003	1.022568e-003	1.938827e-004	1.271754e-003	1.000101e+000	-2.880017e-002
376966625	9.931216e-001	-1.439030e-002	1.509319e-004	1.333165e-003	-1.205820e-003	1.479283e-003	9.942985e-001	-2.828597e-002
379779063	9.997491e-001	-1.765012e-002	-1.473472e-003	3.048414e-003	-5.953701e-005	1.360753e-003	9.916837e-001	-2.942714e-002
382591500	9.942233e-001	-1.344113e-002	-5.178683e-004	2.780887e-003	-1.234504e-003	1.626714e-003	9.939605e-001	-2.886846e-002
385403938	9.961805e-001	-1.504391e-002	-4.494620e-004	1.610717e-003	-1.333830e-003	9.478470e-004	9.962007e-001	-2.930213e-002
388216375	9.937258e-001	-1.115243e-002	-1.569250e-003	2.129988e-003	-1.156302e-004	1.984543e-003	9.940595e-001	-2.791313e-002
391028813	9.974161e-001	-1.185580e-002	-5.559881e-004	1.310878e-003	-1.292639e-003	8.900634e-004	9.996312e-001	-2.887342e-002
393841250	9.940827e-001	-1.043624e-002	-1.071168e-003	1.583320e-003	-1.449835e-003	8.902191e-004	9.886500e-001	-3.277460e-002
396653688	1.001213e+000	-1.244686e-002	-1.580923e-004	1.098500e-003	-1.847159e-003	2.539154e-003	9.976819e-001	-3.045260e-002
399466125	9.941913e-001	-1.960553e-002	-3.288059e-004	1.249276e-003	-5.022968e-004	1.489426e-003	9.952131e-001	-2.678602e-002
402278563	9.976942e-001	-1.674962e-002	-1.624638e-003	1.436096e-003	-9.297972e-004	1.813251e-003	9.927004e-001	-3.590676e-002
405091000	1.000615e+000	-1.837507e-002	-7.247493e-004	2.200815e-003	-8.666820e-004	1.724880e-003	9.921894e-001	-3.125745e-002
407903438	9.902433e-001	-1.245639e-002	-1.154933e-003	-3.789210e-004	-1.967863e-003	1.935092e-003	9.911861e-001	-3.612228e-002
410715875	9.976689e-001	-1.476659e-002	-1.222469e-003	1.208940e-003	-1.145249e-003	1.380208e-003	9.949716e-001	-3.366278e-002
413528313	9.963753e-001	-1.517089e-002	-1.219038e-003	2.129121e-003	-1.622754e-003	1.703120e-003	9.957722e-001	-2.874755e-002
416340750	9.982715e-001	-1.482694e-002	-5.966682e-004	6.197529e-004	-8.981975e-004	8.618576e-004	9.991450e-001	-3.657808e-002
419153188	9.960731e-001	-2.074573e-002	3.937270e-004	2.565373e-003	-6.848624e-004	1.465683e-003	9.861630e-001	-3.456601e-002
421965625	9.888168e-001	-7.557570e-003	-2.196189e-003	1.536725e-003	-2.100505e-005	1.974113e-003	1.005861e+000	-3.060766e-002
424778063	9.919420e-001	-2.073604e-002	-7.622039e-004	1.257296e-003	-8.003985e-004	2.791261e-003	9.961294e-001	-3.288484e-002
427590500	9.933255e-001	-1.337396e-002	-8.696336e-004	2.030317e-003	-8.981732e-004	2.432672e-003	9.938742e-001	-3.609129e-002
430402938	1.000273e+000	-1.981794e-002	-6.303720e-004	1.611475e-003	-1.117532e-003	2.051593e-003	9.939168e-001	-3.184134e-002
433215375	9.920418e-001	-1.930846e-002	-8.033969e-004	2.810198e-003	-4.790346e-004	3.561791e-003	9.892760e-001	-3.530174e-002
436027813	9.932173e-001	-1.016123e-002	-5.718833e-004	8.638269e-004	-2.034960e-004	1.104087e-003	9.941173e-001	-3.039589e-002
438840250	1.003023e+000	-1.426749e-002	-9.251890e-004	1.780709e-003	-2.749011e-004	5.493371e-004	9.913494e-001	-3.380482e-002
441652688	9.969479e-001	-2.005514e-002	-1.470496e-003	7.222566e-004	-3.183441e-004	1.884966e-003	1.001843e+000	-3.888191e-002
