!Agilent Technologies,E5071C,MY46104547,A.08.12
!Date: Thu Apr 21 14:10:55 2016
!Data & Calibration Information:
!Freq	S11:SOLT2(ON)	S21:SOLT2(ON)	S12:SOLT2(ON)	S22:SOLT2(ON)
# Hz S dB R 50
300000	1.436891e-003	-8.837579e-002	-8.556826e+001	5.088146e+001	-8.010600e+001	-7.540889e+001	7.632427e-002	-1.770709e-001
1549813	-8.743247e-004	-1.605302e-001	-7.500383e+001	-5.427153e+001	-7.663787e+001	-8.208727e+001	2.141129e-002	-2.752737e-001
2799625	4.026257e-005	-2.606777e-001	-7.840436e+001	-6.139439e+001	-8.785403e+001	1.122954e+002	1.213156e-002	-4.776027e-001
4049438	4.733247e-005	-3.738100e-001	-7.935854e+001	4.929135e+001	-7.183463e+001	-1.078989e+002	1.201079e-002	-7.368899e-001
5299250	1.563897e-003	-4.881976e-001	-7.153945e+001	1.065359e+002	-7.805869e+001	1.454292e+002	1.270788e-002	-9.095022e-001
6549063	-7.500524e-004	-5.884500e-001	-7.157059e+001	7.084767e+001	-8.205833e+001	6.165349e+000	5.716217e-003	-1.067580e+000
7798875	-3.602508e-004	-7.110562e-001	-7.995330e+001	-1.239689e+002	-8.226281e+001	1.271666e-001	9.002080e-003	-1.257543e+000
9048688	-1.171111e-003	-8.110066e-001	-7.439089e+001	1.497386e+002	-7.278290e+001	1.452894e+002	7.394441e-003	-1.409284e+000
10298500	-2.138738e-003	-9.303401e-001	-8.386678e+001	2.087917e+001	-8.348824e+001	2.983666e+001	-8.499164e-005	-1.604398e+000
11548313	-5.155543e-004	-1.040301e+000	-7.828468e+001	-1.015301e+002	-7.654397e+001	-8.628562e+001	8.124997e-003	-1.876760e+000
12798125	-8.473582e-003	-1.136968e+000	-5.484805e+001	-9.194001e+000	-5.491699e+001	-9.897467e+000	-3.002882e-002	-2.031692e+000
14047938	-2.366313e-003	-1.245217e+000	-7.693525e+001	1.363749e+002	-7.575013e+001	1.486737e+002	2.299063e-003	-2.221483e+000
15297750	-2.741150e-003	-1.362986e+000	-7.981347e+001	-3.719505e+001	-7.932301e+001	-3.174106e+001	-7.628307e-004	-2.345812e+000
16547563	-3.273290e-003	-1.466704e+000	-7.833748e+001	7.858567e+001	-8.342573e+001	7.731664e+001	-4.479923e-003	-2.485970e+000
17797375	-4.978505e-003	-1.597107e+000	-7.297708e+001	6.372461e+001	-7.380421e+001	5.819735e+001	-6.549072e-003	-2.753049e+000
19047188	-3.993730e-003	-1.688346e+000	-8.687877e+001	-1.444003e+002	-8.143271e+001	-1.180518e+002	-4.517004e-003	-2.915021e+000
20297000	-4.279745e-003	-1.797777e+000	-8.330221e+001	4.517709e+001	-8.240923e+001	2.564398e+001	-4.879469e-003	-3.086393e+000
21546813	-5.104930e-003	-1.914880e+000	-8.043691e+001	8.530605e+001	-8.040288e+001	7.044524e+001	-5.378037e-003	-3.266769e+000
22796625	-5.456715e-003	-2.029498e+000	-7.267919e+001	1.197848e+002	-7.250845e+001	1.159438e+002	-6.935379e-003	-3.442332e+000
24046438	-6.767078e-003	-2.137217e+000	-7.249978e+001	-5.213814e+001	-7.150187e+001	-4.934017e+001	-8.667765e-003	-3.660839e+000
25296250	-4.091835e-003	-2.242408e+000	-8.848963e+001	5.488939e+001	-8.910715e+001	-3.314909e+001	-8.033531e-003	-3.843548e+000
26546063	-5.778679e-003	-2.355300e+000	-7.710504e+001	1.384654e+002	-7.731199e+001	1.514991e+002	-3.184225e-003	-4.003873e+000
27795875	-6.013218e-003	-2.463051e+000	-8.159471e+001	-9.938430e+001	-7.747535e+001	-9.135061e+001	-1.571180e-002	-4.214077e+000
29045688	-5.739685e-003	-2.581466e+000	-7.946336e+001	-1.699294e+002	-7.812685e+001	-1.669353e+002	-1.139668e-002	-4.437207e+000
30295500	-6.637415e-003	-2.692133e+000	-9.113749e+001	1.956520e+001	-8.848599e+001	6.657938e+000	-1.087873e-002	-4.622992e+000
31545313	-9.592279e-003	-2.809690e+000	-6.862258e+001	-1.533091e+002	-6.914059e+001	-1.572574e+002	-1.943798e-002	-4.829127e+000
32795125	-8.657362e-003	-2.907654e+000	-8.140214e+001	-1.269514e+002	-8.457627e+001	-1.398651e+002	-2.834247e-002	-4.943837e+000
34044938	-7.996564e-003	-3.024735e+000	-7.927898e+001	7.734291e+001	-7.743968e+001	7.698702e+001	-2.116058e-002	-5.126068e+000
35294750	-8.448660e-003	-3.124958e+000	-7.367208e+001	1.183234e+002	-7.240331e+001	1.067735e+002	-2.236302e-002	-5.362199e+000
36544563	-8.059657e-003	-3.245875e+000	-7.027801e+001	6.091450e+001	-7.027617e+001	6.169460e+001	-1.528539e-002	-5.511048e+000
37794375	-8.906953e-003	-3.333970e+000	-8.313692e+001	1.207619e+002	-8.463731e+001	1.236517e+002	-1.764141e-002	-5.695950e+000
39044188	-7.756309e-003	-3.458380e+000	-7.604004e+001	7.815206e+001	-7.442249e+001	7.749032e+001	-2.080887e-002	-5.901426e+000
40294000	-6.810702e-003	-3.573042e+000	-8.024481e+001	7.348371e+001	-8.074750e+001	7.305495e+001	-2.043920e-002	-6.016973e+000
41543813	-8.290608e-003	-3.689176e+000	-7.430249e+001	1.172236e+002	-7.519619e+001	1.285071e+002	-2.027979e-002	-6.299750e+000
42793625	-9.166416e-003	-3.778071e+000	-7.903129e+001	1.691212e+000	-7.631151e+001	-1.315853e+001	-3.498759e-002	-6.374227e+000
44043438	-9.842826e-003	-3.907745e+000	-8.068485e+001	3.685386e+001	-7.975642e+001	3.274840e+001	-2.907517e-002	-6.620547e+000
45293250	-9.736543e-003	-4.006395e+000	-8.487108e+001	7.984740e+001	-8.880484e+001	7.429337e+001	-3.173369e-002	-6.831523e+000
46543063	-1.027495e-002	-4.128629e+000	-8.605086e+001	1.294033e+002	-8.685036e+001	1.435252e+002	-3.396323e-002	-7.068543e+000
47792875	-1.433379e-002	-4.219544e+000	-7.437888e+001	1.508426e+002	-7.181023e+001	1.579216e+002	-5.428324e-002	-7.123430e+000
49042688	-1.319103e-002	-4.328167e+000	-6.395362e+001	3.389523e+001	-6.377399e+001	3.477913e+001	-4.828362e-002	-7.324519e+000
50292500	-1.229137e-002	-4.436615e+000	-7.535478e+001	4.172641e+001	-7.562823e+001	5.328554e+001	-3.081799e-002	-7.470980e+000
51542313	-1.048646e-002	-4.559610e+000	-9.361769e+001	1.417126e+002	-8.549073e+001	9.075405e+001	-3.183132e-002	-7.668110e+000
52792125	-1.330103e-002	-4.652939e+000	-6.935895e+001	3.161114e+000	-6.920855e+001	2.009218e+000	-4.102755e-002	-7.871464e+000
54041938	-1.283514e-002	-4.759402e+000	-7.379642e+001	1.407050e+002	-7.707093e+001	1.455751e+002	-3.578757e-002	-8.050332e+000
55291750	-1.145304e-002	-4.884768e+000	-8.261346e+001	4.201181e+001	-8.103605e+001	6.908256e+001	-3.425679e-002	-8.251212e+000
56541563	-1.145872e-002	-4.995706e+000	-8.032632e+001	4.243802e+001	-7.780727e+001	5.090559e+001	-3.543476e-002	-8.396998e+000
57791375	-1.078543e-002	-5.112965e+000	-7.885570e+001	8.280474e+001	-7.882491e+001	8.234869e+001	-3.486476e-002	-8.627995e+000
59041188	-1.112980e-002	-5.221302e+000	-8.777415e+001	7.251661e+001	-8.572231e+001	9.613914e+001	-3.817890e-002	-8.815873e+000
60291000	-1.104693e-002	-5.327484e+000	-7.748379e+001	1.568017e+002	-7.775886e+001	1.673841e+002	-4.192070e-002	-9.008160e+000
61540813	-1.215529e-002	-5.440388e+000	-7.425738e+001	7.919273e+001	-7.346771e+001	7.972899e+001	-4.040100e-002	-9.204924e+000
62790625	-1.263017e-002	-5.558902e+000	-8.323171e+001	9.425108e+001	-8.184814e+001	1.145261e+002	-4.450341e-002	-9.441373e+000
64040438	-1.427963e-002	-5.655090e+000	-6.913509e+001	1.474242e+002	-6.936716e+001	1.522783e+002	-5.331429e-002	-9.593395e+000
65290250	-1.372602e-002	-5.758572e+000	-6.268159e+001	1.167981e+002	-6.286975e+001	1.183250e+002	-6.788878e-002	-9.770584e+000
66540063	-1.282703e-002	-5.860560e+000	-7.878190e+001	6.775867e+001	-7.908289e+001	6.292025e+001	-5.169694e-002	-9.942503e+000
67789875	-1.543435e-002	-5.982891e+000	-6.542713e+001	-5.832289e+001	-6.576905e+001	-6.537619e+001	-5.694027e-002	-1.009918e+001
69039688	-1.447116e-002	-6.071350e+000	-7.535436e+001	3.726359e+001	-7.237874e+001	2.239612e+001	-4.992843e-002	-1.020926e+001
70289500	-1.318728e-002	-6.194601e+000	-7.749481e+001	5.931206e+001	-7.852751e+001	5.435463e+001	-5.075371e-002	-1.042484e+001
71539313	-1.361703e-002	-6.314831e+000	-7.316644e+001	7.681736e+001	-7.433450e+001	7.859011e+001	-5.339251e-002	-1.067289e+001
72789125	-1.783408e-002	-6.422933e+000	-7.214893e+001	-1.694047e+002	-7.204457e+001	-1.644526e+002	-6.096888e-002	-1.077703e+001
74038938	-1.341490e-002	-6.525979e+000	-9.700946e+001	1.371140e+002	-8.730490e+001	1.384782e+002	-5.561470e-002	-1.101724e+001
75288750	-1.932374e-002	-6.627234e+000	-5.878928e+001	1.490161e+002	-5.874008e+001	1.460910e+002	-7.236820e-002	-1.106074e+001
76538563	-1.555104e-002	-6.755369e+000	-7.063357e+001	9.484259e+001	-7.159433e+001	9.322167e+001	-5.331015e-002	-1.134485e+001
77788375	-1.551157e-002	-6.863454e+000	-7.328419e+001	4.511003e+001	-7.190098e+001	5.067142e+001	-5.396634e-002	-1.157963e+001
79038188	-1.906769e-002	-7.036982e+000	-5.980646e+001	7.897358e+001	-6.015314e+001	7.869653e+001	-6.525097e-002	-1.198234e+001
80288000	-2.105615e-002	-7.069337e+000	-6.108371e+001	8.754007e+001	-6.050847e+001	8.679688e+001	-7.062513e-002	-1.177007e+001
81537813	-1.775071e-002	-7.170746e+000	-7.436328e+001	1.197323e+002	-7.354697e+001	1.161661e+002	-6.243443e-002	-1.202672e+001
82787625	-1.795662e-002	-7.291271e+000	-7.768316e+001	1.121467e+002	-7.518647e+001	1.190752e+002	-6.155946e-002	-1.221043e+001
84037438	-1.801619e-002	-7.404732e+000	-7.447425e+001	7.319423e+001	-7.391054e+001	8.519003e+001	-5.837786e-002	-1.242145e+001
85287250	-1.881520e-002	-7.519133e+000	-7.098900e+001	4.568938e+001	-6.964725e+001	4.673780e+001	-5.729577e-002	-1.262744e+001
86537063	-1.981291e-002	-7.624574e+000	-6.755195e+001	1.191622e+002	-6.650124e+001	1.188090e+002	-5.776580e-002	-1.277791e+001
87786875	-1.826689e-002	-7.734835e+000	-7.384160e+001	9.005426e+001	-7.547059e+001	9.552697e+001	-5.776401e-002	-1.298185e+001
89036688	-1.913564e-002	-7.850763e+000	-7.444315e+001	1.116395e+002	-7.360986e+001	1.057899e+002	-6.005866e-002	-1.314777e+001
90286500	-1.893124e-002	-7.970878e+000	-7.588065e+001	1.045264e+002	-7.823712e+001	9.749092e+001	-5.708050e-002	-1.336707e+001
91536313	-2.468550e-002	-8.061976e+000	-7.041355e+001	7.158317e+001	-7.096478e+001	7.917343e+001	-5.689743e-002	-1.361684e+001
92786125	-1.856113e-002	-8.191975e+000	-7.211408e+001	5.547284e+001	-7.230775e+001	5.769205e+001	-6.430974e-002	-1.376794e+001
94035938	-2.064240e-002	-8.308814e+000	-6.956057e+001	8.091787e+001	-7.026246e+001	8.245923e+001	-7.550421e-002	-1.395929e+001
95285750	-2.955271e-002	-8.409498e+000	-6.034228e+001	-1.173529e+001	-6.012381e+001	-1.361752e+001	-9.612295e-002	-1.416253e+001
96535563	-2.596291e-002	-8.498217e+000	-6.825154e+001	4.701216e+000	-6.839264e+001	8.963438e+000	-8.269039e-002	-1.414379e+001
97785375	-2.349558e-002	-8.645428e+000	-6.962984e+001	7.424207e+001	-6.941402e+001	7.994942e+001	-7.006492e-002	-1.443214e+001
99035188	-2.105091e-002	-8.698130e+000	-6.723717e+001	8.766528e+001	-6.705092e+001	8.843027e+001	-6.286972e-002	-1.460301e+001
100285000	-2.102909e-002	-8.825491e+000	-7.237417e+001	1.193614e+002	-7.292925e+001	1.127720e+002	-8.064660e-002	-1.478367e+001
101534813	-2.049886e-002	-8.947613e+000	-7.448188e+001	9.630806e+001	-7.333778e+001	8.993464e+001	-7.448204e-002	-1.484335e+001
102784625	-2.198904e-002	-9.056198e+000	-7.163479e+001	1.215510e+002	-7.131237e+001	1.233138e+002	-6.737031e-002	-1.507374e+001
104034438	-2.127808e-002	-9.157321e+000	-6.869735e+001	8.670447e+001	-6.860012e+001	8.276733e+001	-5.702117e-002	-1.534765e+001
105284250	-2.278278e-002	-9.273291e+000	-7.731557e+001	9.979727e+001	-7.675280e+001	9.524881e+001	-7.028359e-002	-1.550207e+001
106534063	-2.182141e-002	-9.381005e+000	-7.609703e+001	4.383631e+001	-7.464164e+001	4.375534e+001	-6.868224e-002	-1.566248e+001
107783875	-2.206100e-002	-9.508891e+000	-8.684610e+001	6.319203e+001	-8.385893e+001	2.556477e+001	-7.810059e-002	-1.587065e+001
109033688	-2.268113e-002	-9.621526e+000	-7.158018e+001	1.046964e+002	-7.194766e+001	1.004163e+002	-7.233315e-002	-1.603512e+001
110283500	-2.390406e-002	-9.764949e+000	-6.887735e+001	7.682309e+001	-6.922355e+001	8.174311e+001	-6.463237e-002	-1.636680e+001
111533313	-2.914367e-002	-9.844735e+000	-6.337126e+001	-1.603145e+002	-6.338254e+001	-1.625895e+002	-8.909906e-002	-1.639568e+001
112783125	-2.476619e-002	-9.926328e+000	-6.836442e+001	8.617606e+001	-6.866857e+001	9.486394e+001	-6.987025e-002	-1.644668e+001
114032938	-2.130165e-002	-1.006203e+001	-7.793787e+001	7.652690e+001	-7.769404e+001	6.441296e+001	-6.591303e-002	-1.675508e+001
115282750	-2.176754e-002	-1.016649e+001	-7.456811e+001	8.818938e+001	-7.394106e+001	7.975475e+001	-5.867677e-002	-1.692595e+001
116532563	-2.363436e-002	-1.030940e+001	-7.534714e+001	5.305877e+001	-7.420329e+001	5.015744e+001	-6.561659e-002	-1.722367e+001
117782375	-2.243753e-002	-1.039068e+001	-7.226706e+001	1.320715e+002	-7.321411e+001	1.223425e+002	-6.630527e-002	-1.735060e+001
119032188	-2.201731e-002	-1.051305e+001	-6.912050e+001	6.875523e+001	-6.918261e+001	6.473548e+001	-6.252046e-002	-1.751585e+001
120282000	-2.490189e-002	-1.063603e+001	-6.872882e+001	1.260350e+002	-6.938998e+001	1.302782e+002	-7.431128e-002	-1.774800e+001
121531813	-2.533256e-002	-1.076372e+001	-7.099264e+001	9.809473e+001	-7.106323e+001	9.823274e+001	-7.427400e-002	-1.800092e+001
122781625	-2.187120e-002	-1.083987e+001	-6.756314e+001	8.289683e+001	-6.696054e+001	8.034482e+001	-6.544313e-002	-1.804781e+001
124031438	-3.121718e-002	-1.094625e+001	-6.660533e+001	7.185908e+001	-6.713103e+001	6.936387e+001	-7.172430e-002	-1.825628e+001
125281250	-2.401352e-002	-1.107203e+001	-7.202394e+001	7.875514e+001	-7.019704e+001	7.865390e+001	-7.269862e-002	-1.854490e+001
126531063	-2.402584e-002	-1.120052e+001	-6.780886e+001	1.553363e+002	-6.804638e+001	1.514058e+002	-1.185703e-001	-1.871009e+001
127780875	-2.761738e-002	-1.128910e+001	-6.196387e+001	7.718954e+001	-6.207419e+001	7.661739e+001	-1.028337e-001	-1.862179e+001
129030688	-3.540197e-002	-1.137858e+001	-6.293866e+001	9.528923e+001	-6.308928e+001	9.403376e+001	-1.020354e-001	-1.887366e+001
130280500	-2.602620e-002	-1.147247e+001	-7.096108e+001	9.881960e+001	-7.107566e+001	1.012883e+002	-7.285477e-002	-1.899779e+001
131530313	-2.648887e-002	-1.161667e+001	-6.919207e+001	7.219652e+001	-6.882698e+001	7.003852e+001	-6.525333e-002	-1.922794e+001
132780125	-2.540064e-002	-1.171717e+001	-7.253672e+001	1.559799e+002	-7.136159e+001	1.513959e+002	-7.053055e-002	-1.943850e+001
134029938	-2.838367e-002	-1.181583e+001	-7.135753e+001	4.910663e+001	-7.123774e+001	4.586346e+001	-8.108443e-002	-1.945807e+001
135279750	-2.594865e-002	-1.193479e+001	-7.155696e+001	8.499859e+001	-7.086237e+001	8.370709e+001	-8.371744e-002	-1.970044e+001
136529563	-2.596431e-002	-1.203818e+001	-6.706366e+001	8.962917e+001	-6.757060e+001	8.658484e+001	-7.190568e-002	-1.985265e+001
137779375	-2.543115e-002	-1.214891e+001	-6.931739e+001	4.449998e+001	-6.997521e+001	4.241187e+001	-8.143077e-002	-2.015630e+001
139029188	-2.789990e-002	-1.225971e+001	-6.997374e+001	6.448629e+001	-6.998671e+001	6.755462e+001	-7.282449e-002	-2.026029e+001
140279000	-2.409137e-002	-1.239935e+001	-6.768516e+001	9.086243e+001	-6.765979e+001	9.191964e+001	-7.821734e-002	-2.052561e+001
141528813	-3.068180e-002	-1.252468e+001	-7.048235e+001	7.589476e+001	-6.989331e+001	7.386380e+001	-7.838554e-002	-2.075145e+001
142778625	-3.278689e-002	-1.261285e+001	-6.688480e+001	4.945744e+001	-6.740014e+001	5.229366e+001	-1.024541e-001	-2.081555e+001
144028438	-2.953833e-002	-1.269459e+001	-7.007443e+001	7.956163e+001	-7.014460e+001	8.421247e+001	-8.656504e-002	-2.094916e+001
145278250	-2.876272e-002	-1.283338e+001	-7.235852e+001	8.744765e+001	-7.189376e+001	8.256702e+001	-8.178602e-002	-2.114177e+001
146528063	-3.067226e-002	-1.295030e+001	-7.110762e+001	8.151659e+001	-6.954862e+001	8.325652e+001	-8.291378e-002	-2.132133e+001
147777875	-3.063492e-002	-1.304730e+001	-6.934003e+001	1.120900e+002	-7.019665e+001	1.130753e+002	-9.531427e-002	-2.145894e+001
149027688	-2.880138e-002	-1.317331e+001	-6.808025e+001	5.457229e+001	-6.798204e+001	5.464046e+001	-8.700834e-002	-2.168326e+001
150277500	-3.044808e-002	-1.328924e+001	-6.948994e+001	9.692263e+001	-6.960955e+001	9.741773e+001	-9.401463e-002	-2.188199e+001
151527313	-3.362271e-002	-1.343755e+001	-6.752536e+001	8.472493e+001	-6.680802e+001	8.673247e+001	-8.635533e-002	-2.215286e+001
152777125	-3.299561e-002	-1.348883e+001	-7.250228e+001	5.361363e+001	-7.178458e+001	4.883473e+001	-1.122842e-001	-2.230735e+001
154026938	-3.046219e-002	-1.363781e+001	-7.411706e+001	1.029285e+002	-7.328905e+001	7.928104e+001	-1.015128e-001	-2.256667e+001
155276750	-3.462914e-002	-1.373522e+001	-6.609283e+001	1.400125e+002	-6.576688e+001	1.395107e+002	-1.078756e-001	-2.263943e+001
156526563	-3.340686e-002	-1.385890e+001	-7.013723e+001	1.028212e+002	-7.083656e+001	1.011254e+002	-9.344994e-002	-2.283653e+001
157776375	-3.123100e-002	-1.400609e+001	-6.926906e+001	9.713503e+001	-6.890562e+001	9.441532e+001	-8.820541e-002	-2.316578e+001
159026188	-5.602639e-002	-1.401348e+001	-6.409370e+001	-1.286213e+001	-6.439369e+001	-1.618984e+001	-1.451710e-001	-2.308422e+001
160276000	-3.402542e-002	-1.413706e+001	-6.806272e+001	1.100264e+002	-6.749218e+001	1.156491e+002	-1.073463e-001	-2.327433e+001
161525813	-3.394101e-002	-1.427892e+001	-6.338669e+001	7.605691e+001	-6.355418e+001	7.776083e+001	-1.171042e-001	-2.330190e+001
162775625	-3.182703e-002	-1.439279e+001	-7.275187e+001	7.436989e+001	-7.151794e+001	6.807601e+001	-1.072114e-001	-2.347654e+001
164025438	-3.286085e-002	-1.451572e+001	-6.947155e+001	1.050081e+002	-6.989422e+001	1.020922e+002	-1.006594e-001	-2.379628e+001
165275250	-3.071655e-002	-1.462874e+001	-7.028558e+001	8.089898e+001	-6.920592e+001	8.008196e+001	-9.930633e-002	-2.401657e+001
166525063	-3.213359e-002	-1.473247e+001	-7.023677e+001	7.925022e+001	-7.073512e+001	7.992769e+001	-9.899315e-002	-2.416390e+001
167774875	-3.067748e-002	-1.485348e+001	-6.770205e+001	8.046844e+001	-6.801474e+001	7.758211e+001	-1.006389e-001	-2.436505e+001
169024688	-3.216612e-002	-1.498990e+001	-6.903988e+001	7.183612e+001	-6.897654e+001	7.352866e+001	-9.840425e-002	-2.454186e+001
170274500	-2.995019e-002	-1.510916e+001	-7.059174e+001	6.812704e+001	-6.980846e+001	6.200097e+001	-9.668691e-002	-2.480198e+001
171524313	-3.138604e-002	-1.523661e+001	-6.984314e+001	8.556877e+001	-6.985299e+001	8.612009e+001	-9.500989e-002	-2.497138e+001
172774125	-3.315956e-002	-1.537981e+001	-6.754125e+001	9.496108e+001	-6.749113e+001	9.846108e+001	-9.784247e-002	-2.520898e+001
174023938	-5.599441e-002	-1.556665e+001	-5.695984e+001	8.226893e+001	-5.703731e+001	8.214549e+001	-1.527757e-001	-2.548656e+001
175273750	-4.075556e-002	-1.551278e+001	-6.382428e+001	-8.195087e+001	-6.388272e+001	-8.269490e+001	-1.484157e-001	-2.535742e+001
176523563	-3.588440e-002	-1.566515e+001	-6.994479e+001	7.131227e+001	-7.027249e+001	6.948117e+001	-1.099887e-001	-2.562759e+001
177773375	-4.140325e-002	-1.580835e+001	-6.639527e+001	7.296160e+001	-6.695574e+001	7.258841e+001	-1.118774e-001	-2.590296e+001
179023188	-3.693313e-002	-1.587195e+001	-7.236933e+001	6.738284e+001	-7.148903e+001	6.596886e+001	-1.147268e-001	-2.609083e+001
180273000	-3.624844e-002	-1.601035e+001	-7.126281e+001	8.285102e+001	-7.122966e+001	7.960877e+001	-1.309726e-001	-2.625439e+001
181522813	-4.009868e-002	-1.613637e+001	-7.537514e+001	5.159759e+001	-7.761934e+001	6.361221e+001	-1.308275e-001	-2.643096e+001
182772625	-4.248024e-002	-1.620244e+001	-6.819694e+001	8.895352e+001	-6.849168e+001	9.201466e+001	-1.372882e-001	-2.643760e+001
184022438	-4.121508e-002	-1.637020e+001	-6.833438e+001	9.785575e+001	-6.785310e+001	9.694268e+001	-1.256051e-001	-2.671583e+001
185272250	-4.335462e-002	-1.643024e+001	-6.973322e+001	9.210863e+001	-7.063651e+001	9.036693e+001	-1.236423e-001	-2.695799e+001
186522063	-3.831388e-002	-1.658835e+001	-6.975936e+001	6.417156e+001	-6.956880e+001	5.840572e+001	-1.233146e-001	-2.724639e+001
187771875	-3.746724e-002	-1.671779e+001	-6.956429e+001	8.453491e+001	-6.982356e+001	7.840410e+001	-1.313457e-001	-2.723997e+001
189021688	-4.084317e-002	-1.687605e+001	-6.767736e+001	6.401963e+001	-6.826862e+001	6.357488e+001	-1.358415e-001	-2.762840e+001
190271500	-5.504667e-002	-1.686684e+001	-5.930783e+001	4.392626e+001	-5.915428e+001	4.340244e+001	-1.831275e-001	-2.744217e+001
191521313	-4.070031e-002	-1.703101e+001	-6.943584e+001	7.418295e+001	-6.883641e+001	7.584462e+001	-1.287640e-001	-2.770767e+001
192771125	-4.084289e-002	-1.716333e+001	-8.175165e+001	8.635149e+001	-8.662430e+001	1.010016e+002	-1.351407e-001	-2.801190e+001
