# Hz S RI R 50
346500000	-0.89513453976813	-0.250470640936615	-5.48624513717595E-03	3.70631797172994E-02			-5.68560212348707E-03	3.71528689408297E-02	-0.905180858618572	-0.218993316206186
346517500	-0.896499693882683	-0.244580410894351	-5.2736479306007E-03	3.77575649703911E-02			-5.51898850173259E-03	3.78539311789397E-02	-0.906362439086835	-0.212590215647253
346535000	-0.897810571878145	-0.23893286748187	-5.13726591781827E-03	3.84881171721755E-02			-5.31923460561422E-03	3.85694145051276E-02	-0.907247662634381	-0.206945035612105
346552500	-0.898582101186652	-0.232961192604932	-5.03259899058509E-03	3.92080511855845E-02			-5.27710914648592E-03	3.92854327054801E-02	-0.908245000337025	-0.200908290275358
346570000	-0.899984460319617	-0.227465096447601	-4.94386860604099E-03	4.00456015497564E-02			-5.18501089213463E-03	4.01170787895339E-02	-0.909123717089651	-0.195026909799213
346587500	-0.900990283359325	-0.221244675084416	-4.8191532008468E-03	4.09349549563393E-02			-5.03980934710562E-03	4.10219647964306E-02	-0.909949079311957	-0.188872656319971
346605000	-0.901613178690133	-0.215500976785962	-4.65539724841442E-03	4.18399739910153E-02			-4.87086165688244E-03	4.19584051016064E-02	-0.91109232174857	-0.182368910441567
346622500	-0.902417287244689	-0.209478520020183	-4.42969472087224E-03	4.28191140899379E-02			-4.67206781117256E-03	4.29151390900763E-02	-0.911702761204435	-0.176375968903705
346640000	-0.903198708131783	-0.203230626052275	-4.13249765097047E-03	4.37579212894168E-02			-4.37878374450942E-03	4.38821324119662E-02	-0.912115963316714	-0.17021849566413
346657500	-0.904251157362336	-0.197493293983735	-3.81837999493934E-03	4.47487601030519E-02			-4.02588303825831E-03	4.48397197851691E-02	-0.913291469168036	-0.163834221768069
346675000	-0.904512789788785	-0.191216892715207	-3.44112559355984E-03	4.56744502671458E-02			-3.67404486382898E-03	4.58029531020055E-02	-0.914410682966719	-0.157612327152905
346692500	-0.904964788899879	-0.185414000094678	-3.04886184530843E-03	4.65873881351953E-02			-3.25339935531879E-03	4.67239989429433E-02	-0.914408498869187	-0.150713650860761
346710000	-0.9052459901722	-0.178939190760217	-2.55753507096037E-03	4.74419583930018E-02			-2.83598047662061E-03	4.76227779584166E-02	-0.91492449585416	-0.144251968587876
346727500	-0.905692848064009	-0.17311194769152	-2.16535183993136E-03	0.048310446103135			-2.41911114862784E-03	4.84661649238183E-02	-0.914939990203964	-0.137742556088948
346745000	-0.905897250151711	-0.167064939237814	-1.79459642818415E-03	4.91017322748711E-02			-2.0552578203019E-03	4.92650363839783E-02	-0.915393633637815	-0.131292427404414
346762500	-0.90691505788932	-0.160964583244147	-1.46977641989459E-03	0.049967549021828			-1.75781941471552E-03	5.01213039064703E-02	-0.915732309712279	-0.124601241007984
346780000	-0.907326553808773	-0.15536334361691	-1.25575878894049E-03	5.08745106662529E-02			-1.49593229325172E-03	5.10201024142073E-02	-0.915818452832141	-0.118589718564149
346797500	-0.90784610865767	-0.149633880582338	-9.80742717062619E-04	5.18716780924575E-02			-1.24961648431028E-03	5.20520814617356E-02	-0.916299474282146	-0.111828986227904
346815000	-0.908649604326374	-0.143331725168042	-6.76531201662558E-04	5.29190766371606E-02			-9.40265029087508E-04	5.30822569215314E-02	-0.916386872654593	-0.105713320291299
346832500	-0.908859013996198	-0.136931888927184	-3.23670605674846E-04	5.39929710153715E-02			-6.10732833191616E-04	5.42065243075959E-02	-0.917338489809593	-9.89280690775074E-02
346850000	-0.910095772708247	-0.130757732810223	2.25338117335492E-05	0.05511528746845			-2.44544779312611E-04	5.53105235259966E-02	-0.917205494846351	-9.23061721945349E-02
346867500	-0.910431323857993	-0.124286234972603	4.73403123512938E-04	5.62131463865216E-02			1.32614906720145E-04	5.63962452431656E-02	-0.918071173410288	-8.54325643286971E-02
346885000	-0.911383985251031	-0.117990861715334	8.08696172185675E-04	5.73599330988958E-02			5.06057848859923E-04	5.75929812314181E-02	-0.918587548756554	-0.078108242592652
346902500	-0.911703294620793	-0.11139516624934	1.19009264563428E-03	5.86061467545759E-02			8.89612464910024E-04	0.058857569482866	-0.918869861395741	-7.09888908302617E-02
346920000	-0.912422208755838	-0.104265062880746	1.64813493347721E-03	5.99291282392078E-02			1.39056198137689E-03	6.01769705564838E-02	-0.918733977365255	-6.31164795745688E-02
346937500	-0.913198630096108	-9.76305237272446E-02	2.19898700083343E-03	6.12346629393004E-02			1.94992305416277E-03	6.14373652665108E-02	-0.91834133620897	-5.57430847979112E-02
346955000	-0.91358996874251	-9.07147914913763E-02	2.72007366722299E-03	6.25033349486945E-02			2.44041055989376E-03	0.062737194944048	-0.917761245570124	-4.82695606679778E-02
346972500	-0.914109534349601	-8.33312252276965E-02	3.30683453698591E-03	0.063918300576811			2.97467587864145E-03	6.42165471633416E-02	-0.917327792802891	-4.10951567026036E-02
346990000	-0.914174901068051	-7.63095338490556E-02	3.91848231343796E-03	6.54512912279783E-02			3.63456154828737E-03	6.57080891457828E-02	-0.917501259934315	-0.034018634571327
347007500	-0.914195676155463	-6.92776925451309E-02	4.75917196693051E-03	0.066885335650465			4.43300666286675E-03	0.067198927636637	-0.916755378281289	-2.65629225360719E-02
347025000	-0.914432486437431	-6.19279666149098E-02	5.65752507514298E-03	6.83461092755012E-02			5.39048189041582E-03	6.86413780029721E-02	-0.916332322827113	-1.95028854956662E-02
347042500	-0.914581044464467	-5.43770565482154E-02	6.61063222479429E-03	0.069663827658268			6.27220506261209E-03	6.99967038132149E-02	-0.91637694723124	-1.17516152539107E-02
347060000	-0.91477422251264	-4.68465232452957E-02	7.54300029579321E-03	7.09279768344579E-02			7.20125067637839E-03	7.12534438599383E-02	-0.915866656202774	-4.13665298385669E-03
347077500	-0.91486281992764	-3.91600790415611E-02	8.32106964221153E-03	7.21929742482382E-02			8.04356262980226E-03	7.25799701705366E-02	-0.915604148513143	3.70896136295186E-03
347095000	-0.914927387007103	-3.17131289368265E-02	9.17355552448892E-03	7.36253490136109E-02			8.90857020997843E-03	7.39443732826631E-02	-0.914652978696592	1.14115701898606E-02
347112500	-0.914784058699036	-2.39990796414472E-02	1.01086143399778E-02	7.50354171373564E-02			9.77047599827132E-03	7.53837964850187E-02	-0.914237819443708	1.94202654462862E-02
347130000	-0.914260321548771	-0.01609716859335	1.11002678011936E-02	7.63846778954717E-02			1.07652592463154E-02	7.67325653557441E-02	-0.913232869023548	2.67790069966735E-02
347147500	-0.913922330843468	-8.12536898576242E-03	1.19835671826928E-02	7.76589987753264E-02			0.011703525460661	0.078093161034023	-0.912883232144678	3.48636457362407E-02
347165000	-0.913677217689225	6.55921344140144E-06	1.27826644865258E-02	7.90688926577391E-02			0.012499812494894	7.95178144495342E-02	-0.912462693151407	4.33127295797855E-02
347182500	-0.913679169311724	8.08125831369017E-03	1.36013105103744E-02	8.07140563830939E-02			0.01334227077163	0.0810850336882	-0.911687062219488	5.15479146138949E-02
347200000	-0.913263673212834	0.016630182237631	1.45528146945429E-02	8.23177686218977E-02			1.42535219506232E-02	8.27566767273046E-02	-0.911214910798642	6.02672083689353E-02
347217500	-0.912251211715872	2.49954197661712E-02	1.55597270372161E-02	8.40166548267079E-02			1.53016329264974E-02	8.44753169819033E-02	-0.910201967593097	0.069108146869496
347235000	-0.911334936890551	3.38824843861467E-02	1.65613566600738E-02	8.57116050409874E-02			1.63419361311864E-02	8.61974973347557E-02	-0.909005417007953	7.80216985385871E-02
347252500	-0.91077333895667	4.24911957869416E-02	1.76946702354359E-02	8.75150249357929E-02			1.74017121995107E-02	8.79839391143333E-02	-0.907747854832163	8.69868171224187E-02
347270000	-0.909328284758387	5.15669190087242E-02	1.88148471971925E-02	8.93316922303382E-02			1.85142180170029E-02	8.98814075147582E-02	-0.906192060723932	9.64627888896868E-02
347287500	-0.908382985564406	6.05104965608457E-02	2.00676647913388E-02	9.13023782153737E-02			1.97563039438608E-02	9.17920264219827E-02	-0.904510058957188	0.105489593501857
347305000	-0.906643081834804	6.95155635263954E-02	2.13698080322504E-02	9.32204560767674E-02			0.021056293114639	9.36895945974596E-02	-0.902426775175685	0.114694284760728
347322500	-0.905324109274715	0.078511896356776	2.26941080455181E-02	9.52141140983628E-02			2.23922885052444E-02	9.57275738554901E-02	-0.900591250814187	0.124162537149963
347340000	-0.903309658567604	8.75889820152223E-02	2.41005389212704E-02	9.72479834159234E-02			0.023812314964685	9.78386810523503E-02	-0.89805163468818	0.133562282525728
347357500	-0.901416502068097	9.72470749380206E-02	2.56607759782068E-02	9.94934400462964E-02			2.53407769314442E-02	0.100089086553317	-0.895684079295702	0.143405704076344
347375000	-0.89901483222	0.106481754268523	2.72615818713587E-02	0.10177032840023			2.69599157091129E-02	0.102385247790198	-0.892910022382532	0.152750020270803
347392500	-0.896696505020421	0.116051368766386	2.90742217595025E-02	0.104115562403118			2.87858212011143E-02	0.104728849476506	-0.889812142900276	0.16225429941322
347410000	-0.89383671062582	0.125159130632093	3.11323014657841E-02	0.106446514904883			3.08841470710262E-02	0.10708821745401	-0.886976471868252	0.17181507876196
347427500	-0.891097104140822	0.134540467393341	3.32562894959094E-02	0.108631684152551			3.30246739535845E-02	0.109293067668249	-0.883562840760838	0.180907319481863
347445000	-0.888182342645667	0.143777455722869	3.54578342023393E-02	0.110840006794179			3.52945025649283E-02	0.111594507864635	-0.880678005003043	0.190650818162653
347462500	-0.884903545147345	0.152816751567226	3.76974710639351E-02	0.113112223564324			3.75074693589577E-02	0.113744171915348	-0.877031886380055	0.199660119675056
347480000	-0.881735822660798	0.162168063069029	4.01067899199885E-02	0.115363961396654			3.99364771879483E-02	0.116053326114721	-0.873877559499734	0.209306112388149
347497500	-0.878714172544361	0.17141927516716	0.042570463721255	0.117692839858359			4.24187743668597E-02	0.118376488117729	-0.870603776793578	0.218942068533674
347515000	-0.87522940935531	0.180364614345759	4.52240768905613E-02	0.119921529111795			4.51058062796324E-02	0.120765715851721	-0.867319132736402	0.228687525430117
347532500	-0.872088581827896	0.189344448071757	0.047938078382008	0.122297129686218			4.77628060676882E-02	0.12306414611544	-0.863663077534765	0.238723061081174
347550000	-0.86872441385618	0.199125788794166	5.08098970383164E-02	0.124568619122114			5.06199138657842E-02	0.12545946463509	-0.860381189310337	0.249185231660758
347567500	-0.865101621511043	0.208811267972898	5.37389483797194E-02	0.126876984966846			5.36432442341847E-02	0.127818746475637	-0.856280608357362	0.260107385791669
347585000	-0.861483639459945	0.218362787819603	5.69231237283783E-02	0.129241481355832			5.68387582317192E-02	0.130165190355472	-0.851589039936325	0.27074870832393
347602500	-0.857375768940891	0.227976114911789	6.02524943437353E-02	0.131344734256173			6.01520915601252E-02	0.132410148515087	-0.846697546051893	0.281808958105562
347620000	-0.853190082868516	0.237467101563645	6.34951916929396E-02	0.133637115873787			6.34235033440824E-02	0.134515079607497	-0.841488534218877	0.292284255951976
347637500	-0.849310975254383	0.247115897678054	0.066937254380012	0.13591846181396			6.68423776351442E-02	0.136927422685109	-0.835893841735519	0.303247490631171
347655000	-0.845160396629535	0.257131909534547	7.04736717619171E-02	0.138389642108695			7.04392108956276E-02	0.139419408960814	-0.830313063701245	0.314156573490589
347672500	-0.840817377543307	0.267085358434971	7.43292791936618E-02	0.140642323338075			7.43742739968758E-02	0.141706963437179	-0.823524540565103	0.324165132004562
347690000	-0.835820630353198	0.277531156933856	7.82839887600406E-02	0.143120189685599			7.83754035934893E-02	0.144221653064536	-0.817381098974867	0.335386388845209
347707500	-0.830620525795693	0.288206274913092	8.26910254121364E-02	0.145497204136836			8.27437192803957E-02	0.146509360688982	-0.810368049117922	0.346009521665242
347725000	-0.825324346483507	0.298343757990582	8.73414885218634E-02	0.147540774370398			8.74454430944639E-02	0.148628371357288	-0.803124704844804	0.356405082678819
347742500	-0.819534823907157	0.308676972798893	9.20421583508125E-02	0.149315741047394			9.21842621234828E-02	0.150463665598653	-0.795992826866875	0.366721635357157
347760000	-0.813907522052866	0.318890419935329	9.66766313065662E-02	0.150984414685237			9.68327735919357E-02	0.152135025377079	-0.788274349631417	0.377054138873832
347777500	-0.807226053001701	0.328953542598634	0.101394399246418	0.152519536708731			0.101704650233331	0.153780082632477	-0.780599223890984	0.3868727611022
347795000	-0.801203819687273	0.339071706218988	0.106030462759569	0.154091583690954			0.10632026506566	0.155279857448799	-0.772602404523192	0.39674711826019
347812500	-0.795130288396363	0.349182504474011	0.110689831168171	0.15565793505876			0.111001140265943	0.156852919983397	-0.764455480579085	0.407061918535433
347830000	-0.788682798665348	0.359420705413308	0.115447291581747	0.157376461497525			0.115906975775634	0.158486471285248	-0.755627416640959	0.416581725999361
347847500	-0.781902202638448	0.370383061168282	0.12039928532487	0.159039529405569			0.120872058339809	0.160177371910521	-0.747021616245841	0.426153214749804
347865000	-0.775077500764686	0.380977542838651	0.125532714936912	0.160561022308428			0.125880181832044	0.161791978904093	-0.738694431772692	0.435442352207228
347882500	-0.767662344481001	0.39177982741155	0.130408502636003	0.16223317418208			0.130888143080621	0.163531514522463	-0.73058311764458	0.444858505952218
347900000	-0.760032584611615	0.402295860358459	0.135280564828699	0.164239999732241			0.135862732383817	0.165590117343978	-0.722250489311987	0.454677302529496
347917500	-0.75257097511133	0.413589787526712	0.140746553188392	0.166810971623492			0.141361805097351	0.168049432382475	-0.713447202179602	0.464903263419516
347935000	-0.744154915385514	0.424921008300415	0.146940077308948	0.169252525654128			0.147536158199505	0.170374817503557	-0.704212386209461	0.475168289014268
347952500	-0.734894954803187	0.436123244657871	0.153515713177801	0.171347938921516			0.15414119595662	0.172649778886886	-0.694678039312608	0.48481096121215
347970000	-0.725573200912191	0.447089507263803	0.160130000456444	0.173314122354417			0.160924594387029	0.174684835111051	-0.685285585497521	0.495000388145032
347987500	-0.715798625627367	0.458455842253315	0.16725311042584	0.17546372545528			0.167983142900624	0.176598740414441	-0.676163047432122	0.505539748355167
348005000	-0.705096595077174	0.469471956464512	0.174809143404876	0.177243925645317			0.17577289943457	0.178576162849558	-0.665802875329517	0.51745850718682
348022500	-0.694313936481314	0.480432818060657	0.182869630047586	0.178938845717962			0.183811123388835	0.180235063660563	-0.654635401617814	0.528842454823121
348040000	-0.682985443346634	0.491580387115079	0.1912240981388	0.180333895337132			0.192179553426514	0.181715765703975	-0.642374784358218	0.540911561583292
348057500	-0.670555438646539	0.5018748143798	0.199917632677226	0.181454257354925			0.201022128758722	0.182862198517266	-0.628621263994663	0.552460107905995
348075000	-0.6584883259373	0.511585843847121	0.208928428674451	0.182150274398972			0.21018235077043	0.18343530789148	-0.614031214929523	0.562945883211273
348092500	-0.646554797147291	0.521571906958063	0.217969239844999	0.182325938379346			0.219310041703318	0.183663676728661	-0.599697320648346	0.572273094469629
348110000	-0.634016561731335	0.532236507754416	0.227020626675487	0.183079799211394			0.228247140475969	0.184286454003376	-0.584924603598209	0.582070779079191
348127500	-0.620259621973615	0.542792454186659	0.237235631031567	0.183493243099158			0.238613010941141	0.18478431133812	-0.568982126378394	0.59188102760918
348145000	-0.605759895101897	0.552319507872597	0.247705568594523	0.183272636935948			0.249154383122406	0.184383844214487	-0.552343945545743	0.599957344699215
348162500	-0.590342337390199	0.561919761613717	0.258493960591455	0.182379309860569			0.260084890948611	0.183561957199912	-0.536182603645459	0.60742517886086
348180000	-0.57463574529956	0.570391963100075	0.269435622664842	0.18119975485554			0.271009919862813	0.182271609128172	-0.520013380883541	0.614401894448151
348197500	-0.558310964284202	0.578739354648356	0.280569095568743	0.179544827640605			0.282239890039817	0.180560970087483	-0.503851060052429	0.621535583679587
348215000	-0.541532447080122	0.586033209746919	0.29173375467523	0.177643706976151			0.29359648393359	0.178721826127637	-0.487635223471075	0.628834418985789
348232500	-0.525333691873462	0.592414386095199	0.303529217880754	0.17541306856908			0.3053959407675	0.176300923269358	-0.470586996203917	0.636146609768334
348250000	-0.508923106257333	0.59866208114055	0.315456753818998	0.172899036948263			0.317551183081797	0.173840860885139	-0.452821240217849	0.643990669185267
348267500	-0.492869995573877	0.604965743587886	0.328282723622598	0.169798891666404			0.330435012877566	0.170641259694241	-0.433365003004085	0.650823621083942
348285000	-0.476006917230254	0.611628821907353	0.341707495681179	0.165948408496469			0.343896968170804	0.1668337766368	-0.413118292520743	0.657056971055764
348302500	-0.458194097726364	0.618176877059384	0.355269543459211	0.161105627912031			0.357711733070852	0.161884639273613	-0.391987878055283	0.662358032387279
348320000	-0.439456546253892	0.623891963034568	0.36918017287161	0.155464479578686			0.371503127484093	0.156117614428955	-0.370500038944832	0.665963614677329
348337500	-0.419929499659945	0.629064266085444	0.382869128524312	0.148653317683166			0.385358035442522	0.149200097220867	-0.348337978978016	0.668912996889913
348355000	-0.399521521255594	0.633269601558704	0.397145468439635	0.140754027846474			0.399661927390957	0.14100280570873	-0.325648008739776	0.670555583704495
348372500	-0.378418435051619	0.635860135118888	0.410983661619665	0.131835118634281			0.413668596890054	0.132036939161325	-0.302977761867181	0.670325879498669
348390000	-0.357144066787262	0.637152649489087	0.424482878292365	0.122021356674111			0.42717704024463	0.122097849494261	-0.280699729903608	0.668971708314722
348407500	-0.335943474090353	0.637009984360053	0.43765379961982	0.110934081619951			0.440420943827871	0.110628974616856	-0.258168071834793	0.665823839946432
348425000	-0.315396466357327	0.635321367377681	0.44997300558381	9.85731605020012E-02			0.45264583477684	9.84022199444175E-02	-0.237041738620444	0.662030080715933
348442500	-0.29621002391322	0.632908835687425	0.461221609459061	8.60232509024613E-02			0.463689606496079	8.57363833218516E-02	-0.216265446843785	0.657648156916444
348460000	-0.277330627450068	0.630087609048469	0.471683812163929	7.37395798613661E-02			0.474472926906671	7.32335346686684E-02	-0.195645390280275	0.652541931897844
348477500	-0.258251911644032	0.627145764636486	0.482769679056144	6.16357343060122E-02			0.485434145902111	0.060890338497812	-0.17494253293737	0.647317007260112
348495000	-0.23920161972008	0.624002068021737	0.494366195207125	4.82110089918036E-02			0.497017821146702	4.71206775406053E-02	-0.153664848125765	0.640501881249271
348512500	-0.220241021084542	0.619866380122415	0.505436690679817	3.30909859451916E-02			0.508182577376131	3.21177346105384E-02	-0.132947714700817	0.632168366214192
348530000	-0.201253910509259	0.615008152809118	0.515699212971986	1.68472171253265E-02			0.51827660443768	1.55946157020258E-02	-0.113558367884139	0.621057656503097
348547500	-0.182116179308872	0.608682464020877	0.52464731967456	-3.94597330322901E-04			0.527138725226461	-1.8494947634434E-03	-9.56975640283564E-02	0.609644367866292
348565000	-0.163807400753392	0.600736796793978	0.531928573560325	-1.87164811688745E-02			0.534460473576071	-2.00574665544139E-02	-8.00530641143107E-02	0.597143767851609
348582500	-0.147566443818692	0.592390591286179	0.537561653115125	-0.036464730545422			0.540115910176272	-3.81320452752113E-02	-6.72064177789967E-02	0.585397169696628
