# Hz S RI R 50
1382400000	-0.953087786553163	0.117109754107802	1.54415904995447E-04	-6.06984394096049E-03			7.9953686336207E-05	-6.02430734447881E-03	-0.96151453009124	8.39094166731399E-02
1382650000	-0.951860117935934	0.117097082781382	8.74892716643699E-05	-6.02302200036675E-03			1.55919801038834E-05	-6.04708792930307E-03	-0.961220896791579	8.54425406932257E-02
1382900000	-0.952729241394428	0.118698196564281	8.51969341471196E-05	-6.05486835012237E-03			1.2743111147117E-04	-6.02214126225259E-03	-0.961206234404528	0.085663978519677
1383150000	-0.951333769633835	0.119483421857339	4.42893377412271E-05	-6.00459802853179E-03			4.8259556245798E-05	-6.02042695624292E-03	-0.96148429167372	8.63475165366333E-02
1383400000	-0.951886739944766	0.120456652095918	6.17192750202212E-05	-6.02331486628427E-03			8.43721930807612E-05	-5.93342073669862E-03	-0.961852297533337	8.68515834128159E-02
1383650000	-0.95098832849887	0.120518391128389	8.91444808273628E-05	-6.00687150497374E-03			1.34720858315657E-04	-5.97151771703686E-03	-0.961530242251923	8.74032450665469E-02
1383900000	-0.951151249302771	0.120979875902262	7.09379819900796E-05	-5.85388329370279E-03			5.14245305966952E-05	-6.01433192823015E-03	-0.961620340850567	8.92357139301003E-02
1384150000	-0.949925726651402	0.121801292132948	8.92845652718705E-05	-5.8870426011109E-03			1.63726096600672E-04	-5.92667339465698E-03	-0.961429654688581	8.91829848430097E-02
1384400000	-0.950325016332342	0.123334747409957	2.60339171247141E-05	-5.92298808708375E-03			6.24634121439605E-05	-5.94327958746226E-03	-0.961711498251784	9.06244249898166E-02
1384650000	-0.950112155602851	0.122345239417914	7.7155606215116E-05	-5.94183639210075E-03			8.80545238655115E-05	-5.87691338610799E-03	-0.960642781205894	9.10257336403489E-02
1384900000	-0.949790301921124	0.124402215972146	2.25881232849257E-05	-5.92472557148471E-03			2.61350365484335E-05	-5.90434512327258E-03	-0.960752099246526	9.23767428702546E-02
1385150000	-0.949072896042578	0.124941808453116	8.34062011194259E-06	-5.84314846361008E-03			2.71916797746401E-05	-5.87534913164533E-03	-0.960959815261032	9.34583648667207E-02
1385400000	-0.949187303026935	0.125130221799257	3.14307380377696E-05	-5.87217147317154E-03			4.30097561782636E-06	-5.73115807590486E-03	-0.960477510068266	9.34410130905579E-02
1385650000	-0.950755841433907	0.127306170909408	-1.34738337515517E-05	-5.86055129414213E-03			2.93222697840954E-05	-5.85604824179897E-03	-0.960854131014766	9.46514404816566E-02
1385900000	-0.949556290046696	0.127233836688187	1.22436844475608E-05	-5.76379413392589E-03			7.1580804336306E-05	-5.76776393871818E-03	-0.961229437562055	9.44214438993716E-02
1386150000	-0.949366761056447	0.129009872846065	3.101796886703E-05	-5.76295326028375E-03			2.50715515766147E-05	-5.65487806963768E-03	-0.960402687081038	9.64743135664141E-02
1386400000	-0.949450590683142	0.129515312412963	3.8251111606778E-05	-5.78007833237676E-03			-6.35796209806531E-06	-5.65499747985612E-03	-0.961560086289436	9.65558147420344E-02
1386650000	-0.94902557656354	0.13069739075826	-1.40252198786221E-05	-5.70481734630063E-03			2.71584986586298E-05	-5.70182534394283E-03	-0.96023774783212	9.76867581215784E-02
1386900000	-0.950591263041804	0.130790417644144	2.34817636052186E-05	-5.63366826262934E-03			3.68513943665188E-05	-5.67817317357348E-03	-0.960769924024675	9.83771918143267E-02
1387150000	-0.949247321186978	0.131629562593402	1.64826481155028E-05	-5.59441459913641E-03			-2.435625599337E-05	-5.58222588340472E-03	-0.961435141573076	9.90821722913827E-02
1387400000	-0.950514639979536	0.133469339534509	2.83597262846574E-05	-5.54630448277837E-03			1.6232856724333E-05	-5.58384520316936E-03	-0.960937177882065	9.94846066088173E-02
1387650000	-0.948561736634975	0.133495176242697	9.63915913574012E-06	-5.57432498103822E-03			2.40474909053006E-05	-5.60558436143258E-03	-0.959661300483217	0.100062912626522
1387900000	-0.950401607798158	0.133607934487774	5.87482193229991E-06	-5.61972491234049E-03			-5.55969849319031E-06	-5.56797093692529E-03	-0.960446727897448	0.10127897299607
1388150000	-0.950640722706224	0.135941158359942	1.0025454633774E-04	-5.67615475384224E-03			1.21344727335989E-04	-5.52788371882368E-03	-0.96086834452252	0.100843261891241
1388400000	-0.9483261012144	0.136766640025123	-2.68241217033217E-06	-5.54060856399603E-03			7.28610679769123E-05	-5.56666371059478E-03	-0.959647751028749	0.103487588889755
1388650000	-0.948789692203919	0.137036101980376	-2.18925628103521E-05	-5.44887259443896E-03			5.99263765284589E-05	-5.52336509812205E-03	-0.958342020959945	0.103849947389917
1388900000	-0.94920636955037	0.137747174527679	1.18568059167973E-04	-5.59886047160052E-03			-2.5286386046868E-06	-5.5089516730106E-03	-0.958877104909541	0.10443747160744
1389150000	-0.948310992732956	0.138474475105935	1.01454974649405E-04	-5.46230543233021E-03			2.09793895999539E-05	-5.48828395587107E-03	-0.959117049778709	0.105180259247529
1389400000	-0.948609352781749	0.140073140771706	1.07904126984497E-04	-5.42582719771901E-03			9.68629741405004E-05	-5.47340496511847E-03	-0.959181088169643	0.106111508235587
1389650000	-0.948166174273437	0.140650994849058	5.21390865813338E-05	-5.44013613311441E-03			6.7556466336879E-05	-5.4642845973077E-03	-0.959955205774078	0.106642908990937
1389900000	-0.948056396919408	0.141820698025718	6.03535881438678E-05	-5.48134502781017E-03			9.9817310238518E-05	-5.45656212062053E-03	-0.959245343463109	0.108424775381712
1390150000	-0.948078317178028	0.14240365861136	7.36603767133116E-05	-5.41648126846751E-03			1.23972659337529E-04	-5.39687174243355E-03	-0.958186690202741	0.108338191797279
1390400000	-0.947071266364974	0.142117055255813	7.43623591452845E-05	-5.36652730875086E-03			1.08990392351357E-04	-5.36301997938675E-03	-0.95843066021767	0.108602383387279
1390650000	-0.946754284773535	0.144193420435094	8.82322243073984E-05	-5.35257725468961E-03			1.54701946549277E-04	-5.33704958039488E-03	-0.956847433422534	0.110147894648569
1390900000	-0.947221415164663	0.144225265007542	1.11997748627319E-04	-5.40510826449274E-03			1.81284443160121E-04	-5.37935324882306E-03	-0.957307527056548	0.110680199563726
1391150000	-0.947099666451195	0.145690520821181	1.42743855952925E-04	-5.35736874508296E-03			1.1899371231724E-04	-5.39086154516993E-03	-0.956941188979274	0.111720663932382
1391400000	-0.945712993151042	0.146147778402775	1.33399463837798E-04	-5.38977015097755E-03			1.56272302092798E-04	-5.35870319657515E-03	-0.956556632321575	0.111852891925818
1391650000	-0.946828294342944	0.147416012646324	1.50832316795272E-04	-5.44770523989827E-03			7.45653496886623E-05	-5.30444325238762E-03	-0.956717631946026	0.113088381931049
1391900000	-0.945166374943521	0.14878805248651	1.76669264709262E-04	-5.37616846203542E-03			1.20384017483643E-04	-5.30091307511375E-03	-0.956696808517499	0.113072164673792
1392150000	-0.945150424679219	0.148052500665325	1.39914268059149E-04	-5.34699382865752E-03			8.38997393009063E-05	-5.25987665404072E-03	-0.957754978256718	0.114727989267272
1392400000	-0.944446967616698	0.150526567589738	2.01065943900232E-04	-5.26472058269589E-03			1.74189685228547E-04	-5.38264738659311E-03	-0.956883927652852	0.114712014005754
1392650000	-0.945198801109652	0.150083382523371	1.58964198666561E-04	-5.32712368846262E-03			2.33034271105396E-04	-5.29641757420883E-03	-0.957117627717037	0.115874658045227
1392900000	-0.944607918231329	0.15239555132805	1.7077733489404E-04	-5.31707449712801E-03			1.77218591758521E-04	-5.32102935756844E-03	-0.957093327922431	0.117486569217941
1393150000	-0.94517963790809	0.152879555912773	1.46713687411723E-04	-5.33405854811973E-03			6.97212559771861E-05	-5.22303099137398E-03	-0.956169909938953	0.117965826041116
1393400000	-0.94406309233606	0.15447348048924	1.46305183819384E-04	-5.27379676328571E-03			1.46841209394886E-04	-5.28941972679965E-03	-0.955109124811582	0.119471220607306
1393650000	-0.944579258668134	0.155387744169217	1.5065972168152E-04	-5.2848162124253E-03			3.82967504468322E-05	-5.21801794782052E-03	-0.955310632134374	0.120381668174578
1393900000	-0.944476383963075	0.155470160877734	2.3765135312533E-04	-5.26279157492323E-03			1.02648419482176E-04	-5.23716286493708E-03	-0.954888158729449	0.120610933894191
1394150000	-0.942747132036228	0.155043226348605	1.75614115513768E-04	-5.21799204075816E-03			1.45055507456225E-04	-5.19420568082878E-03	-0.954321334590219	0.120968801554065
1394400000	-0.942991467969407	0.156413388222021	1.75167620319057E-04	-5.2798201592432E-03			1.26918667340371E-04	-5.24819844608418E-03	-0.9550491608723	0.121864858190282
1394650000	-0.943593658162491	0.156310285928316	1.79577971319963E-04	-5.30699043188151E-03			1.40408643675619E-04	-5.15072958013525E-03	-0.954447737312846	0.12161643860039
1394900000	-0.943778400795137	0.157683272641002	2.2403423919691E-04	-5.1730349701485E-03			2.16208309795535E-04	-5.2193284330001E-03	-0.95375496475214	0.12382091137279
1395150000	-0.943415305059554	0.157378850995069	1.25966422334398E-04	-5.22038848598247E-03			2.27944281893854E-05	-5.2900911773108E-03	-0.952746871163305	0.124749926470384
1395400000	-0.943750340879655	0.158036679740918	1.78587830555159E-04	-5.21225462536735E-03			1.51894673839496E-04	-5.16383453263268E-03	-0.95431581986778	0.123707750590362
1395650000	-0.942100855983685	0.15933281751809	8.99039394771686E-05	-5.22142783836274E-03			1.49572506820457E-04	-5.20645706030878E-03	-0.953171451099898	0.125866099989628
1395900000	-0.943247513994088	0.159519537953308	1.81352467384229E-04	-5.14488032397933E-03			1.20180120990741E-04	-5.13277948452244E-03	-0.954805963227751	0.126039057290293
1396150000	-0.94046322894482	0.161021670773683	1.27324355095409E-04	-5.20448107205288E-03			1.75038019434824E-04	-5.22982018579163E-03	-0.953447170096502	0.126799348805133
1396400000	-0.942330726585606	0.160972073551669	2.25107129505496E-05	-5.22519283031476E-03			7.9380332666999E-05	-5.1562753820396E-03	-0.95349482335621	0.127252233700252
1396650000	-0.941771121900566	0.162839862674429	4.89236632112813E-05	-5.19551364335483E-03			1.84142720151107E-04	-5.16487589832369E-03	-0.953463657940806	0.12738482985861
1396900000	-0.942519065076716	0.161806627615225	7.92097538947962E-05	-5.23233420814476E-03			1.15234365312729E-04	-5.12541995912966E-03	-0.954345588995534	0.128746591934156
1397150000	-0.941910331883275	0.163168875319195	6.47849912370285E-05	-5.16707368165628E-03			3.70052805806037E-05	-5.11045789248154E-03	-0.954042463769282	0.129822745169724
1397400000	-0.941939481361052	0.163654958630672	3.70156319479806E-05	-5.07656622607824E-03			1.10000643783007E-04	-5.07209813462568E-03	-0.95329448104405	0.130596276609533
1397650000	-0.942180378834985	0.165473616047451	5.35356198286431E-05	-5.06774118596017E-03			1.86002750966112E-05	-5.06107793438947E-03	-0.953265446494823	0.131037967320781
1397900000	-0.941843950806123	0.165964549678584	3.77453114788782E-05	-5.02304258979743E-03			1.36124151655576E-05	-5.03747613791564E-03	-0.953953164899167	0.130164750004655
1398150000	-0.942146224220596	0.166568634799191	-4.51741432151793E-05	-5.07608515300315E-03			6.75895531804203E-05	-4.97218826898487E-03	-0.953738144585753	0.132268364672468
1398400000	-0.941555783018418	0.167090620001457	3.9532406216187E-05	-5.09111437566912E-03			1.20685975319889E-04	-5.04056792486906E-03	-0.95357924977241	0.133005430100891
1398650000	-0.940601942999589	0.166784789266713	5.64821839267607E-05	-5.02622669440582E-03			2.74411413982425E-05	-4.92172747914368E-03	-0.953851369578279	0.133403826060892
1398900000	-0.94057089208027	0.169111160097932	6.01366228344386E-05	-5.00592201118777E-03			-3.91309512757848E-06	-4.95204712079975E-03	-0.95381366599854	0.134790305973682
1399150000	-0.939660519518257	0.169862357307476	8.73247644090798E-07	-4.98071667007443E-03			1.20316936097213E-05	-5.04637340926831E-03	-0.954218572810469	0.135107576934941
1399400000	-0.939756154141344	0.170567933655074	2.60626340784303E-05	-4.88208500285333E-03			-6.82482689285997E-06	-5.05162756235732E-03	-0.954138105463299	0.135872451081782
1399650000	-0.939528182058401	0.171938922289422	7.29888990342894E-05	-4.94480806911031E-03			-9.95012882491214E-06	-4.87926391684509E-03	-0.954489969512724	0.137420514303447
1399900000	-0.941467674524017	0.172625168810763	1.51322444663421E-06	-4.92170377667433E-03			-1.30187443565997E-04	-4.93266441573574E-03	-0.954622879252464	0.139415790656569
1400150000	-0.93960484746655	0.174009523526288	-5.0285499368517E-05	-4.83421009858597E-03			2.13329737389516E-05	-4.93233279867736E-03	-0.954080905356229	0.139102401208942
1400400000	-0.940606980711757	0.174940787248692	-3.34686876860191E-05	-4.87394504689728E-03			-4.07483962634803E-05	-4.87418974527473E-03	-0.954329183623582	0.140553719064733
1400650000	-0.941023854230797	0.174964858681267	-1.33043023362316E-05	-4.8717939622902E-03			-6.89704361501793E-05	-4.8643819410521E-03	-0.953737608914888	0.139851411205441
1400900000	-0.941271997832921	0.176838234823028	-2.15118731002729E-05	-4.80943812982013E-03			5.37687954910672E-05	-4.90065688180828E-03	-0.954428370955217	0.142092130657776
1401150000	-0.940510306417536	0.177035309436054	-7.9304371688459E-06	-4.74371990748656E-03			3.60143614069949E-05	-4.81728818753481E-03	-0.953228727524361	0.142357292018528
1401400000	-0.941095122184833	0.178275737205827	5.65656410262773E-06	-4.70785061333224E-03			9.22226276403208E-05	-4.82803709774858E-03	-0.952717150694568	0.142826692470633
1401650000	-0.941290662460667	0.179360595745898	8.32111666519983E-05	-4.7393502236903E-03			-2.50415330219701E-05	-4.69183832507225E-03	-0.953375195554784	0.144821961608053
1401900000	-0.940277751094836	0.179651758649107	-4.40877031826983E-05	-4.72918020618119E-03			-0.000088635028047	-4.7365092538765E-03	-0.952820008147525	0.145069960696357
1402150000	-0.940660947570957	0.180730589453607	-9.03105054694903E-05	-4.68294401724972E-03			-8.86411447492515E-06	-4.7221160530697E-03	-0.95295089370161	0.146610459158027
1402400000	-0.939885670986447	0.181610153957195	3.16589226015621E-06	-4.66595097088693E-03			5.25638676062184E-05	-4.65190765182693E-03	-0.953372730178125	0.147040398587826
1402650000	-0.939827391497429	0.182689756568494	5.69168023922859E-05	-4.65189304791194E-03			6.41889465153669E-05	-4.64235752873129E-03	-0.953579213442885	0.148687473502418
1402900000	-0.939506045929519	0.183690109517575	7.80274358480926E-05	-4.6760720705554E-03			-3.58711013330311E-06	-4.63795993911503E-03	-0.953453288716475	0.148576485977922
1403150000	-0.938512184619612	0.184058704675555	-3.90940426155705E-05	-4.53546802135487E-03			1.38687176612123E-04	-4.58651072877039E-03	-0.95330953988933	0.15008223582975
1403400000	-0.939533053486891	0.185306764865221	7.7012910688303E-05	-4.56539981176132E-03			2.05355690568848E-05	-4.62943106107244E-03	-0.951853954510945	0.151389764655953
1403650000	-0.938152521722717	0.186115224348763	6.25323021165283E-05	-4.52687904048436E-03			2.65302228917057E-05	-4.55967726991456E-03	-0.951907761796278	0.152998599494433
1403900000	-0.939012911106076	0.187612724996907	5.68086368236538E-05	-4.5150949930764E-03			4.75939540724021E-05	-4.54101338487065E-03	-0.951354270369044	0.153877879516572
1404150000	-0.938247330192456	0.188046601509101	1.22722987457258E-04	-4.47693808584789E-03			8.772646055475E-05	-4.55041285640975E-03	-0.949875359674357	0.154107879845317
1404400000	-0.937806137744027	0.18907333145528	1.18972886782323E-04	-4.48700325875999E-03			9.25266646799388E-05	-4.58720542538098E-03	-0.949442535877201	0.154950593596885
1404650000	-0.937691571019255	0.190961159814867	1.1489873283613E-04	-4.51644787771768E-03			1.17889080874693E-04	-4.48251118844149E-03	-0.949061555464627	0.154759716875931
1404900000	-0.937384518436105	0.190989162256855	7.37931664038857E-05	-4.53947165462476E-03			5.69400579826347E-05	-4.47443040591352E-03	-0.949633515547109	0.155922414970632
1405150000	-0.936688929966039	0.191931023425557	1.41488915003029E-05	-4.36533435292686E-03			9.1023214218783E-05	-4.39774014559979E-03	-0.948653351905945	0.157386577364088
1405400000	-0.936934155242469	0.193131176219263	1.44805208563355E-04	-4.41906305601967E-03			8.91400811210456E-05	-4.41919570550656E-03	-0.948768882864107	0.157732256633795
1405650000	-0.93547230099442	0.193748573917384	1.08346360053131E-04	-4.35042489544977E-03			1.07521496070039E-04	-4.38730368125458E-03	-0.948561996535338	0.15866766734284
1405900000	-0.935859350614403	0.195987920585307	1.55034550457205E-04	-4.3117794050948E-03			1.24487996503161E-04	-4.42470559757296E-03	-0.948872426558826	0.159203860782278
1406150000	-0.93441642959354	0.195416860416105	1.03784384358622E-04	-4.36906008904598E-03			1.96948094577754E-04	-4.37765418207607E-03	-0.949781023965705	0.159689564312955
1406400000	-0.935477547208801	0.196896266794426	1.61049662722646E-04	-4.39874536398343E-03			1.60738669542955E-04	-4.36231927623349E-03	-0.948764402528888	0.160341383982456
1406650000	-0.934530127533824	0.196536365828683	1.02701253124043E-04	-4.40927839776388E-03			1.98993569426073E-04	-4.38300037597705E-03	-0.948540859034891	0.161435727304221
1406900000	-0.93454917967378	0.197888009078781	1.695143417534E-04	-4.34777176205116E-03			2.15050371076771E-04	-4.32104772673425E-03	-0.94883190283654	0.162526017699262
1407150000	-0.933758081892615	0.198710053205205	1.31146821741494E-04	-4.39342744535857E-03			2.14338183854907E-04	-4.27645509244218E-03	-0.947006138565846	0.164027055061015
1407400000	-0.934586230801503	0.198656741023929	1.65878846189499E-04	-4.31209271042919E-03			2.63654826300518E-04	-0.004363795297764	-0.947821206605958	0.164449784645406
1407650000	-0.933295771117697	0.199586475174918	1.20428586873895E-04	-4.29757291578012E-03			1.88678856972721E-04	-4.36232487583497E-03	-0.947641306034454	0.166151838595132
1407900000	-0.934488945300784	0.200971336534861	1.60117894699526E-04	-4.30382573909422E-03			1.70856429297365E-04	-4.33896605312772E-03	-0.947018398941617	0.16639567493449
1408150000	-0.93317870981421	0.19997104217786	1.82712721408039E-04	-4.31524875191877E-03			2.17095070925418E-04	-4.31137348460984E-03	-0.946379953308041	0.167633279788012
1408400000	-0.934425652920508	0.201081223335158	2.21133815621688E-04	-4.33735983945667E-03			0.000161001207454	-0.004221742160093	-0.945757065445899	0.168362202699995
1408650000	-0.932303911679375	0.202220536076999	2.22171778477726E-04	-4.30725107615096E-03			2.4021642888889E-04	-4.30967114808508E-03	-0.946586266683474	0.168285295142501
1408900000	-0.93393168267651	0.202252729262012	1.07340433565983E-04	-0.004322662124964			2.66401636892135E-04	-4.34449856960059E-03	-0.947684488469165	0.170340019032481
1409150000	-0.933157062102912	0.203578141378022	2.39419120313356E-04	-4.32927649272098E-03			2.74366957091402E-04	-4.34265760865311E-03	-0.945722299059058	0.170878929612454
1409400000	-0.932874808980382	0.203904399199792	1.57740158181465E-04	-4.22707013510985E-03			2.72899679529235E-04	-4.2791113008763E-03	-0.945858331764783	0.170962571261677
1409650000	-0.932015232357976	0.205311992469304	1.50780223810217E-04	-4.28785292100852E-03			1.96758168027583E-04	-4.33099397685478E-03	-0.946723640462773	0.171655958666375
1409900000	-0.931531934463856	0.206233236822752	1.65066013706887E-04	-4.26725785108657E-03			2.81626776563034E-04	-4.30200039110667E-03	-0.945632259930902	0.172218893657044
1410150000	-0.931348439501735	0.206951258316597	1.74975539071453E-04	-4.34058956747278E-03			2.00804606827548E-04	-4.21710350215676E-03	-0.946510350964707	0.172485151877438
1410400000	-0.931760753291925	0.208003823993366	1.26602190837355E-04	-4.29129934093926E-03			8.33885616188295E-05	-4.21730483234543E-03	-0.946796769647169	0.174081355365224
1410650000	-0.932325879274956	0.209447930101444	1.51432722432909E-04	-4.25278344250258E-03			1.33681037654147E-04	-4.16059433231821E-03	-0.947323182069225	0.17437800494065
1410900000	-0.9322900882451	0.210026435871263	1.4949762801124E-04	-4.20857041864658E-03			5.62949221856957E-05	-4.20488570387951E-03	-0.946554160172844	0.175407575150494
