# Hz S RI R 50
50000000	0.994932204544243	-9.27302814219336E-02	3.65148824786151E-05	6.27873924355616E-04			2.91355173758694E-05	6.31217486480807E-04	0.994921325113967	-9.34436119672402E-02
53718750	0.994325546972866	-9.93982346190366E-02	8.10734819299221E-05	6.52196145707947E-04			7.55171578234423E-05	6.4328519692528E-04	0.994703201965405	-9.84047752835656E-02
57437500	0.994325123962263	-0.105609215534281	9.14662162942083E-05	7.02130312876266E-04			9.85446576334132E-05	6.96444073416047E-04	0.9939863277398	-0.105467059541369
61156250	0.992778575114863	-0.112216191413607	9.17707617843862E-05	7.19686183444885E-04			8.70790503119429E-05	7.23456871620712E-04	0.99287277897898	-0.11252195920173
64875000	0.993156694694801	-0.118700025999067	5.16093272815966E-05	8.40202423643447E-04			4.41186946813663E-05	8.44372704660464E-04	0.991776733700601	-0.11873627103228
68593750	0.991499396617322	-0.125859566948206	1.26983351079402E-04	8.63901934453955E-04			1.37076062400552E-04	8.2496696578391E-04	0.991697485414132	-0.125656711071273
72312500	0.990520326889017	-0.132990689931843	1.28593406765783E-04	8.67574797915609E-04			1.10275544695834E-04	8.68540364828292E-04	0.990934516596224	-0.132266955031601
76031250	0.989456195084636	-0.138655052302945	1.75680474292162E-04	9.14015619532435E-04			1.64321617968364E-04	9.19624106936979E-04	0.990117147282617	-0.137869525572621
79750000	0.988482730331925	-0.145308976127319	1.34631084351378E-04	9.66492880472594E-04			1.24637972868064E-04	9.64116775110583E-04	0.988734357076731	-0.146830473455904
83468750	0.986317226331333	-0.151810153277075	1.99297147592259E-04	9.76554101486015E-04			1.85686815014425E-04	9.82706209806812E-04	0.987927333697367	-0.152617535348539
87187500	0.98499386295855	-0.159977963349692	1.56974287018159E-04	1.06079709148028E-03			1.84124634088933E-04	1.05770543605096E-03	0.987483974690978	-0.158494958085173
90906250	0.984531521450344	-0.166166204515848	2.68591150707493E-04	1.02115003612432E-03			2.45935979768691E-04	1.0182046925498E-03	0.985381478836744	-0.166209621832486
94625000	0.984074559883966	-0.171367328074521	2.21244505156528E-04	1.13624825128327E-03			1.75188157034365E-04	1.13110772378212E-03	0.984492331925212	-0.173642513364014
98343750	0.983071019942997	-0.177851313756444	2.19089056922622E-04	1.22422194291374E-03			2.4347464304435E-04	1.19115039571907E-03	0.980146786410408	-0.178689253846051
102062500	0.981904616957195	-0.18528672302709	2.56516677037335E-04	1.18251222155808E-03			2.47911019406047E-04	1.1641566504433E-03	0.981706342110094	-0.186592549859444
105781250	0.980838904813115	-0.193713714621183	2.60122059817008E-04	1.27911452986376E-03			2.47152777873151E-04	1.29583365074582E-03	0.981529706781835	-0.191648226317421
109500000	0.979089353368632	-0.201015431913997	2.43223484349925E-04	1.34138852398278E-03			2.36184454240101E-04	1.3447300634546E-03	0.977365701732681	-0.198222445080283
113218750	0.978853442499144	-0.205761456426841	3.01800143597297E-04	1.33582178049108E-03			2.7275798885853E-04	1.34748111472441E-03	0.977117648601366	-0.205872384834128
116937500	0.976467017365576	-0.213580870534616	3.36397791112935E-04	1.3953521755949E-03			3.10405141462345E-04	1.40030841037877E-03	0.976645479803066	-0.212064972365159
120656250	0.975555746722088	-0.220032622745713	3.52207963481392E-04	1.44265566063577E-03			3.36033757993265E-04	1.47754141269601E-03	0.974030758352651	-0.218807946169237
124375000	0.971078967699102	-0.226013016179291	3.79331031844454E-04	1.47406553370355E-03			3.34965682268865E-04	1.45504348985919E-03	0.972840867587228	-0.225381756066893
128093750	0.970510813717719	-0.232437362604377	4.16399922333349E-04	1.47146086424407E-03			4.19461566504631E-04	1.4886257498561E-03	0.971132305277092	-0.23220797208368
131812500	0.969296648405261	-0.238811625884265	3.81933698355025E-04	1.5320934492784E-03			3.77309823390124E-04	1.55648488888341E-03	0.969958187781552	-0.238591897192617
135531250	0.968060099291205	-0.245132355138488	4.40737248285125E-04	1.5890080660739E-03			4.29045249441391E-04	1.59073978327199E-03	0.967213003402311	-0.245445641796399
139250000	0.967590061402123	-0.250787869413791	4.68755760541275E-04	1.61364650288709E-03			4.82869736257808E-04	1.60435439332089E-03	0.965194352344648	-0.251612891698957
142968750	0.964902771209768	-0.257572390180448	4.58183522555291E-04	1.66757141720214E-03			4.27156112948064E-04	1.68655760629601E-03	0.963690738008562	-0.258888739910719
146687500	0.963087392063032	-0.263765308510597	4.77251880070223E-04	1.68817330453879E-03			4.66967561072832E-04	1.68999505452155E-03	0.961132022518096	-0.26498785557804
150406250	0.960885721991652	-0.270107253709991	5.31303452483656E-04	1.72417432549958E-03			5.01953486064387E-04	1.72809653937243E-03	0.960161833901655	-0.272271982755772
154125000	0.958902541837481	-0.277248835850406	5.39424119912579E-04	1.78395339525324E-03			5.31152377090093E-04	1.79011456472455E-03	0.958699839491631	-0.280346555137898
157843750	0.957145527338226	-0.28279839752356	5.48856445337825E-04	1.81420602139411E-03			5.44302348151503E-04	1.82135055308962E-03	0.955616590590815	-0.284881526973511
161562500	0.956720468179402	-0.291283328434882	5.59617973955782E-04	1.86545310734483E-03			5.68377050436192E-04	1.86975524805264E-03	0.953566815198809	-0.291918601400969
165281250	0.95327784439667	-0.295758031530069	5.91010972955598E-04	1.90745827161224E-03			5.99037067146901E-04	1.91409531589683E-03	0.952252795071094	-0.296073134884031
169000000	0.954019820989958	-0.302240799491885	6.23874661141042E-04	1.91753459798869E-03			6.31451000508896E-04	1.94844489953087E-03	0.950461741409368	-0.303464687131752
172718750	0.952388008674461	-0.309659013543069	7.1757457587167E-04	2.00466381099607E-03			7.1596010490544E-04	2.01207062731198E-03	0.947075409435682	-0.310289521433374
176437500	0.948476283280076	-0.31566328865494	6.64551004217843E-04	1.99793027261279E-03			6.53036678276997E-04	2.03102993914803E-03	0.945707410946991	-0.315902460747565
180156250	0.946415134788765	-0.322285886052093	7.12619036108255E-04	2.04872733352254E-03			7.10949403247352E-04	2.04820511928971E-03	0.943638873303732	-0.322001839193151
183875000	0.941622522484435	-0.329213798834398	7.84297040792854E-04	2.08599214750627E-03			7.63171318694624E-04	2.10218270787883E-03	0.940891403386309	-0.329035099175246
187593750	0.942330334250917	-0.335379812418086	7.74952075171097E-04	2.12631312232138E-03			7.65142810285546E-04	2.11973251129807E-03	0.938964831751376	-0.335771947236751
191312500	0.939372897601865	-0.341622110026566	8.24392492326479E-04	2.0578378620655E-03			8.50712305244242E-04	2.11887521546261E-03	0.936389479799089	-0.341981040494574
195031250	0.937488182507243	-0.347073325766078	8.38949568880364E-04	2.21086184554642E-03			8.54549028515205E-04	2.1987499608645E-03	0.934340985870617	-0.347870119606626
198750000	0.934295413431364	-0.353893627139905	8.62296342482961E-04	2.22084946117457E-03			8.561190739241E-04	2.21873364882268E-03	0.932715016269353	-0.353676420060647
202468750	0.931888235087731	-0.359664305857828	8.8516243720936E-04	2.24411631663766E-03			8.67903372885454E-04	2.21670260987682E-03	0.931779709421167	-0.360234369265697
206187500	0.929117583539002	-0.366241947011308	9.60356394057284E-04	2.2623332714391E-03			9.47723088546459E-04	2.27205060597395E-03	0.927252104585952	-0.366996906226531
209906250	0.927078367685904	-0.371912238406753	9.53846485941677E-04	2.33709934802831E-03			9.48289428576052E-04	2.31665157022673E-03	0.923327503826896	-0.373023771418711
213625000	0.923634878632226	-0.378361737280934	1.02761538702444E-03	2.35293916693203E-03			1.00619463588444E-03	2.35492634817528E-03	0.921739870545591	-0.379349049745877
217343750	0.921646611486753	-0.384732144449976	1.01229465361734E-03	2.41077938421302E-03			1.05227885541206E-03	2.40040356272165E-03	0.919473650183646	-0.386792679663478
221062500	0.919922639849809	-0.39027082191175	1.08030707812937E-03	0.002394731026018			1.03563621561224E-03	2.38474786397989E-03	0.916855985936941	-0.390897444186522
224781250	0.917842130628731	-0.397383493333533	1.10348290257238E-03	2.45576914359327E-03			1.09641831942726E-03	2.45481202130474E-03	0.912958134356617	-0.39701373224283
228500000	0.915604225103481	-0.404210890987549	1.15492691061369E-03	2.49163086772714E-03			1.09848133475783E-03	2.49570414227022E-03	0.910629874984734	-0.403622624896297
232218750	0.911346518361952	-0.409664064783381	1.14236296456406E-03	2.50753914895642E-03			1.13740377426222E-03	2.50296556406854E-03	0.908713763976526	-0.409731746139242
235937500	0.907639710999488	-0.416822474726236	1.24799808010847E-03	2.55652037995298E-03			1.22432720464008E-03	2.54373631272547E-03	0.905983341932308	-0.416397199205831
239656250	0.906197343838595	-0.420180752030702	1.21947253165602E-03	2.58459139530409E-03			1.2240457819758E-03	2.5904104874057E-03	0.902931584619558	-0.421401004867915
243375000	0.902901314483602	-0.42857484209976	1.24893851880301E-03	2.60312209694138E-03			1.25496796421759E-03	2.59629525506411E-03	0.899208743497667	-0.42812987085069
247093750	0.901232817712844	-0.435469954166558	1.30141531882326E-03	2.62104132359011E-03			1.28990840556566E-03	2.64008121451008E-03	0.897222751538641	-0.434233213620373
250812500	0.896018991786668	-0.439846125281096	1.31355819188799E-03	2.65800960181193E-03			1.32672033894674E-03	2.65193279390563E-03	0.893238166075337	-0.440385438926051
254531250	0.89239822820264	-0.443688531834906	1.34616795686835E-03	2.85468402647843E-03			1.33885631684333E-03	2.84289768137995E-03	0.890228261895953	-0.44587251668508
258250000	0.890922098123609	-0.450959832888878	1.4069491688616E-03	2.71510238129733E-03			0.001400382080765	2.72974449869797E-03	0.88785732038887	-0.451542212541275
261968750	0.889397664317119	-0.459288094882947	1.44711788525165E-03	2.73707685085782E-03			1.42150957492011E-03	0.002752094948632	0.884321682684638	-0.458351467602805
265687500	0.884488299100125	-0.462535439004851	1.47860059692796E-03	2.74319556511303E-03			1.48746179138895E-03	2.7415909442727E-03	0.882451723468431	-0.464800463281844
269406250	0.882269394589505	-0.468726640936263	1.5181639015295E-03	2.79120143043996E-03			1.51663424010306E-03	2.8207631983564E-03	0.8787595302278	-0.470984432104457
273125000	0.879587004020296	-0.474485390590967	1.61255428304693E-03	2.82746209169314E-03			1.55966557084248E-03	2.82196063033497E-03	0.874817817195567	-0.474422224761242
276843750	0.875038493730578	-0.480363258285956	1.59221004585786E-03	2.85096604176784E-03			1.59428724085915E-03	2.84222555118828E-03	0.871665824804074	-0.48053414090222
280562500	0.872919681010703	-0.486391257147543	1.64169592570397E-03	2.85696268762016E-03			1.6445424376472E-03	2.88332525782938E-03	0.869461576881663	-0.488227073315796
284281250	0.867311059712065	-0.491402143617734	1.67696918287216E-03	2.93617737923574E-03			1.66907009853572E-03	2.8945661717944E-03	0.864214636794338	-0.494384156869511
288000000	0.865887495842485	-0.497949935146628	1.68802722149354E-03	2.91119301680843E-03			1.69417422118891E-03	2.91804309235052E-03	0.861381277717744	-0.499613538260266
291718750	0.861891921983117	-0.504150026909514	1.79450982925349E-03	2.92778475177406E-03			1.75732558698073E-03	2.94310299295996E-03	0.858176253110034	-0.503418510032424
295437500	0.859295209580388	-0.510594297703248	1.79381293547616E-03	2.96543796357257E-03			1.7971124251521E-03	2.96679677112148E-03	0.852502335796873	-0.509963773908639
299156250	0.855915313415309	-0.513955497757563	1.85135396493579E-03	3.00106527436799E-03			1.84438476856466E-03	2.99967496777873E-03	0.852289665061505	-0.516391951245985
302875000	0.852943322418856	-0.520393580063589	1.88550995307716E-03	3.00409524517372E-03			1.8777791709267E-03	3.00171364863749E-03	0.849762905969525	-0.520593527031627
306593750	0.849351792479238	-0.527329622981897	1.92881985728358E-03	3.02033886606178E-03			1.9117149465476E-03	3.02989860283673E-03	0.844877497251159	-0.526342763106784
310312500	0.846860769502412	-0.528083985431127	0.001954440553785	3.02125216410865E-03			1.92388803664939E-03	3.01325025779738E-03	0.842019649103602	-0.532318628536516
314031250	0.841941347852201	-0.536273847519331	1.98799766524885E-03	3.0719398852895E-03			2.01164718897711E-03	3.09955390285773E-03	0.836732526306798	-0.537516038377823
317750000	0.837141952627016	-0.543105234014525	2.02460265779062E-03	3.03995101964034E-03			2.01081873712739E-03	3.04029333242331E-03	0.833062340793915	-0.54263294539206
321468750	0.83483094253699	-0.547262350152798	2.06811185099806E-03	3.09407805319307E-03			2.04314940187019E-03	3.11254299776206E-03	0.830370988828665	-0.548188142492489
325187500	0.830990869187591	-0.554157675749588	2.12311511981394E-03	3.0850635260835E-03			2.12052010904728E-03	3.12840538416622E-03	0.826130556012378	-0.554040240099274
328906250	0.82892672721912	-0.556996400394063	2.15595790946698E-03	3.15618370306268E-03			2.16220232282584E-03	3.14307581036271E-03	0.823736042234527	-0.559633515363572
332625000	0.824872588210524	-0.564578340548134	2.1995202121687E-03	3.1443924808354E-03			2.19604870446936E-03	3.14782705295335E-03	0.819727899073982	-0.564722627470641
336343750	0.821352129329743	-0.568257690590075	2.23927481104767E-03	3.13491631663006E-03			2.25062688206898E-03	3.13034807694209E-03	0.815322356226623	-0.571179415132646
340062500	0.817975036272532	-0.574097917878065	2.30077061239697E-03	3.21055601854894E-03			2.33248434828589E-03	3.18757272478615E-03	0.811883878746174	-0.575748164900747
343781250	0.814016588509708	-0.579077797073346	2.33742040849215E-03	3.22658371968607E-03			2.33398661738004E-03	3.22119353562879E-03	0.808258375296444	-0.582662664741061
347500000	0.811159573452767	-0.58492981196677	2.3511378730271E-03	3.22926001744808E-03			2.32743666307308E-03	3.25687419992777E-03	0.804625651466675	-0.586605043002914
351218750	0.806913259063472	-0.590510176682826	2.4424809335511E-03	3.20741211679896E-03			2.44149656014934E-03	3.25930683920187E-03	0.799367932185958	-0.592299770413131
354937500	0.803105340411345	-0.594249316059813	2.47211548164202E-03	3.23885432881889E-03			2.4945303841662E-03	3.22068677089495E-03	0.793571614355722	-0.598061921696796
358656250	0.79848711140546	-0.599642096755702	2.54486605411057E-03	3.28302801130151E-03			2.51284360282281E-03	3.27382430742115E-03	0.791702315469541	-0.601533744180409
362375000	0.794843763789243	-0.604519918375279	2.5602315586792E-03	3.28957600193895E-03			2.56739259064837E-03	3.29520222903711E-03	0.787980048654255	-0.607327936874991
366093750	0.792383262604411	-0.61222460089903	2.60378798840815E-03	3.30558470930599E-03			2.60561960215221E-03	3.31028835057441E-03	0.783177830985849	-0.612373143119945
369812500	0.788892099738883	-0.615241618004484	2.64859164433923E-03	3.31480787243781E-03			2.62855367566175E-03	3.34019790768411E-03	0.780237616413547	-0.617510855522471
373531250	0.782215349095869	-0.618360873165987	2.66691333511112E-03	3.32710776208344E-03			2.70839040064006E-03	0.003306699521791	0.77571626293814	-0.622415431889226
377250000	0.779148539548353	-0.624791348873745	2.75412158786185E-03	3.37410870434328E-03			2.73727690008578E-03	0.003362232395185	0.772267142837538	-0.628227053572876
380968750	0.773458126620791	-0.630804210237945	2.8044192730965E-03	3.32627318413863E-03			2.81186591222731E-03	3.35288347957986E-03	0.767009104335391	-0.632524562212614
384687500	0.771061319723342	-0.634926047431451	2.84019517765325E-03	3.34746323918451E-03			2.82466108247863E-03	3.32334968727043E-03	0.76303976223586	-0.637408367223771
388406250	0.766110683404674	-0.63916179940736	2.84515199958755E-03	3.37878479235506E-03			2.87726281218455E-03	3.38669638808544E-03	0.760175946515847	-0.642486353563816
392125000	0.764593368416565	-0.645932099072317	2.92372688404939E-03	3.37137636403113E-03			2.91145785545633E-03	3.39457086436822E-03	0.754945594355865	-0.646722823971985
395843750	0.757371184813836	-0.64978424904812	2.96107639115327E-03	3.38967414904189E-03			2.98817241522684E-03	3.36532940683448E-03	0.749231528366745	-0.651551438159294
399562500	0.754903313019301	-0.654087531121301	3.07649350566633E-03	3.39552988317169E-03			3.09153602538071E-03	3.38740189415842E-03	0.746365531673488	-0.655750337800274
403281250	0.749862322647662	-0.65820665000048	3.10117957992192E-03	3.41080688919302E-03			3.07372905764008E-03	3.38152678523599E-03	0.740960775300044	-0.662561593934789
407000000	0.746060840870336	-0.663746268726171	3.12487262620729E-03	3.39804512454389E-03			3.09646614101582E-03	3.42652149536484E-03	0.736342262473803	-0.665864183531875
410718750	0.740855169382936	-0.66846232108929	3.16525343835252E-03	3.42699570824603E-03			3.16598381238126E-03	3.40502495209811E-03	0.731181037553191	-0.672819984911756
414437500	0.736134985085657	-0.674026457150411	3.18384582139398E-03	3.44376816853682E-03			3.18197160901253E-03	3.41666513435918E-03	0.72777865779434	-0.677829504693528
418156250	0.733175886110473	-0.679679673319315	3.23103454575112E-03	3.44887435522004E-03			3.22448711137803E-03	3.42940682845455E-03	0.720627885486166	-0.682821603259614
421875000	0.729553735879645	-0.68301085359667	3.27922931630732E-03	3.43707898734465E-03			3.28472118159533E-03	3.4452339463206E-03	0.718817071848818	-0.686665728795456
425593750	0.724035992757866	-0.686157582771964	3.3198681868276E-03	3.4533778953895E-03			3.37069462378592E-03	3.41629793421414E-03	0.712858466944197	-0.689078757254876
429312500	0.720235457696598	-0.692510314072529	3.38743543295711E-03	3.45097071556575E-03			3.38336757549966E-03	3.41951766667849E-03	0.708495296801031	-0.694455879635574
433031250	0.713484986538053	-0.697586832093525	0.00343321570998	3.47735707739899E-03			3.43126655493916E-03	3.45738959737459E-03	0.705458582061608	-0.700277912289061
436750000	0.710597450886484	-0.699984168967081	3.48223072219529E-03	3.42953585580886E-03			3.45846992555024E-03	3.43656090201684E-03	0.699767505917244	-0.704521013498609
440468750	0.70993043559441	-0.7058976930874	3.54069917675825E-03	3.4493564211745E-03			3.51631322503571E-03	3.43863308937153E-03	0.694895979837583	-0.710346357609563
444187500	0.699101348049746	-0.712272940602537	3.58952033763265E-03	3.44662894039265E-03			3.59277384103108E-03	3.46221052047904E-03	0.690253620216786	-0.714772294528306
447906250	0.69684963651659	-0.715872015101248	3.61364453665042E-03	3.45614289697625E-03			3.59386452334152E-03	3.47278430692281E-03	0.685903289437399	-0.718435597096558
451625000	0.692100615606914	-0.721024098266454	3.66054929673186E-03	3.47376205743466E-03			3.65225693170807E-03	3.45057800093064E-03	0.680322442653547	-0.722624682259946
455343750	0.6862234709343	-0.725247421410464	3.70760436103641E-03	3.43991749245182E-03			3.71496239166963E-03	3.43860789791884E-03	0.677656539935769	-0.727039742498571
459062500	0.683930282268569	-0.729396365113649	0.003762771768509	3.44643876032378E-03			3.7470251713386E-03	3.45290519704066E-03	0.673063965379382	-0.732926832505846
462781250	0.675359605366229	-0.731745048372089	3.82574956090081E-03	3.41673360090897E-03			3.80927283464387E-03	3.3995924323109E-03	0.66602050811554	-0.734454283654213
466500000	0.675170668244366	-0.737117000201902	3.88382635101405E-03	3.4526724447802E-03			3.83303069391611E-03	3.44985489103048E-03	0.658977721606511	-0.73865184972748
470218750	0.668515838312013	-0.742083080604751	3.90720146908634E-03	3.43680776990613E-03			3.90795467133631E-03	3.43891235278426E-03	0.654706567154794	-0.74737748465228
473937500	0.664363156221999	-0.744827226656729	3.93171946848211E-03	3.41804380914514E-03			3.95985067391518E-03	3.40548939398216E-03	0.650019512244114	-0.750833708924891
477656250	0.659565228271874	-0.749352241072343	3.9787822585753E-03	3.44355560226681E-03			3.97910262920659E-03	3.45155915988757E-03	0.646140532827989	-0.753392412501137
481375000	0.654675054602137	-0.753534864444942	4.04256600215682E-03	3.43075720697694E-03			4.0399073282723E-03	3.40735900479988E-03	0.63899326071976	-0.759014264294629
485093750	0.648884813304849	-0.757139864794795	4.09695680726384E-03	3.4393428426865E-03			4.0768418718966E-03	3.42997868732427E-03	0.637093660343557	-0.758462925037672
