# Hz  S  RI  R  50
! ADVANTEST Corporation R3860A
! Date: Thu Oct 13 15:25:00 2016
3.0000000000e+005  1.000215e+000  6.330022e-003  1.533964e-004 -1.565964e-004  1.807942e-004 -1.895050e-004  9.986363e-001  9.167591e-004
3.4248125000e+006  1.000872e+000 -6.366900e-003 -7.566794e-005  6.849037e-005 -9.896520e-005  9.255297e-005  9.995906e-001 -6.333937e-003
6.5496250000e+006  9.996943e-001 -1.233893e-002  2.130797e-004  5.368695e-004  1.784378e-004  5.692158e-004  9.980043e-001 -1.325862e-002
9.6744375000e+006  9.987037e-001 -2.066956e-002  1.315659e-005  2.771448e-004 -8.830659e-005  2.288687e-004  9.990701e-001 -2.059524e-002
1.2799250000e+007  1.000734e+000 -2.687291e-002  5.849848e-005  7.225021e-004  5.793312e-005  6.953651e-004  9.998479e-001 -2.700018e-002
1.5924062500e+007  1.000407e+000 -3.306350e-002  1.688939e-005  8.706257e-004  5.322395e-005  7.642259e-004  9.985341e-001 -3.360059e-002
1.9048875000e+007  9.997436e-001 -3.957961e-002  9.298514e-005  9.307243e-004  1.606447e-004  1.034241e-003  9.979383e-001 -4.001135e-002
2.2173687500e+007  9.995269e-001 -4.585391e-002  6.260544e-006  1.257644e-003  1.210512e-005  1.237139e-003  9.979933e-001 -4.564783e-002
2.5298500000e+007  9.993927e-001 -5.236243e-002  1.180457e-004  1.456893e-003  1.921007e-004  1.477082e-003  9.967630e-001 -5.264176e-002
2.8423312500e+007  9.978396e-001 -5.859464e-002 -6.789919e-005  1.594329e-003 -2.866389e-005  1.577100e-003  9.972512e-001 -5.889863e-002
3.1548125000e+007  9.958849e-001 -6.501529e-002 -4.780742e-004  1.418462e-003 -4.077856e-004  1.356246e-003  9.947140e-001 -6.673035e-002
3.4672937500e+007  9.969205e-001 -7.087009e-002  1.822596e-004  1.831598e-003  1.782850e-004  1.810033e-003  9.948622e-001 -7.101822e-002
3.7797750000e+007  9.962457e-001 -7.694496e-002  1.702438e-004  2.041134e-003  1.477177e-004  2.130875e-003  9.948936e-001 -7.735354e-002
4.0922562500e+007  9.967337e-001 -8.510884e-002  2.443875e-004  2.124006e-003  2.400415e-004  2.060314e-003  9.937989e-001 -8.423150e-002
4.4047375000e+007  9.954682e-001 -8.998397e-002  1.317241e-004  2.326350e-003  4.953273e-005  2.399847e-003  9.923674e-001 -8.980357e-002
4.7172187500e+007  9.951833e-001 -9.670319e-002  2.381800e-004  2.403260e-003  1.680251e-004  2.416366e-003  9.929193e-001 -9.535260e-002
5.0297000000e+007  9.915513e-001 -1.028569e-001  1.952977e-004  2.606076e-003  2.253968e-004  2.682908e-003  9.928482e-001 -1.026925e-001
5.3421812500e+007  9.925817e-001 -1.086659e-001  6.744741e-004  2.800255e-003  5.742430e-004  2.711944e-003  9.909644e-001 -1.084164e-001
5.6546625000e+007  9.919834e-001 -1.168397e-001  4.227246e-004  2.948157e-003  4.764223e-004  3.059482e-003  9.908421e-001 -1.153301e-001
5.9671437500e+007  9.910759e-001 -1.215024e-001  4.533648e-004  3.073109e-003  4.858756e-004  3.078030e-003  9.906248e-001 -1.215155e-001
6.2796250000e+007  9.878101e-001 -1.287677e-001  5.557545e-004  3.370866e-003  5.943430e-004  3.376627e-003  9.887865e-001 -1.278699e-001
6.5921062500e+007  9.894038e-001 -1.350319e-001  7.482130e-004  3.321444e-003  7.678139e-004  3.392704e-003  9.887734e-001 -1.334078e-001
6.9045875000e+007  9.884486e-001 -1.412084e-001  5.602945e-004  3.641369e-003  5.152140e-004  3.600994e-003  9.876649e-001 -1.400328e-001
7.2170687500e+007  9.875391e-001 -1.476043e-001  6.421452e-004  3.747228e-003  5.963232e-004  3.771591e-003  9.865336e-001 -1.470813e-001
7.5295500000e+007  9.865860e-001 -1.530596e-001  6.707995e-004  3.732780e-003  7.081876e-004  3.784736e-003  9.858389e-001 -1.517569e-001
7.8420312500e+007  9.852641e-001 -1.590902e-001  6.845361e-004  4.095143e-003  7.292111e-004  4.130007e-003  9.846009e-001 -1.587317e-001
8.1545125000e+007  9.846912e-001 -1.655259e-001  9.479236e-004  4.210718e-003  8.913963e-004  4.220662e-003  9.842939e-001 -1.657151e-001
8.4669937500e+007  9.815331e-001 -1.726665e-001  1.106043e-003  4.573308e-003  1.038422e-003  4.609163e-003  9.818138e-001 -1.723225e-001
8.7794750000e+007  9.817322e-001 -1.788894e-001  8.504410e-004  4.355289e-003  9.378566e-004  4.357008e-003  9.807655e-001 -1.781353e-001
9.0919562500e+007  9.809440e-001 -1.845675e-001  9.744183e-004  4.715065e-003  9.392643e-004  4.615056e-003  9.809127e-001 -1.843331e-001
9.4044375000e+007  9.798089e-001 -1.913141e-001  1.030568e-003  4.788219e-003  1.061955e-003  4.831611e-003  9.796085e-001 -1.910011e-001
9.7169187500e+007  9.780396e-001 -1.957459e-001  1.110226e-003  5.077954e-003  1.154831e-003  5.009457e-003  9.776086e-001 -1.964111e-001
1.0029400000e+008  9.772123e-001 -2.030869e-001  1.177973e-003  5.089762e-003  1.164719e-003  5.075177e-003  9.759251e-001 -2.031348e-001
1.0341881250e+008  9.763196e-001 -2.098182e-001  1.172967e-003  5.220597e-003  1.138573e-003  5.291008e-003  9.748483e-001 -2.095536e-001
1.0654362500e+008  9.747280e-001 -2.145873e-001  1.335826e-003  5.472919e-003  1.359564e-003  5.492194e-003  9.731383e-001 -2.148664e-001
1.0966843750e+008  9.732315e-001 -2.218167e-001  1.454131e-003  5.497742e-003  1.447625e-003  5.542488e-003  9.706162e-001 -2.209145e-001
1.1279325000e+008  9.720654e-001 -2.284710e-001  1.479686e-003  5.678979e-003  1.472749e-003  5.685610e-003  9.702104e-001 -2.279348e-001
1.1591806250e+008  9.686882e-001 -2.352564e-001  1.447231e-003  5.750156e-003  1.428674e-003  5.782854e-003  9.678975e-001 -2.351650e-001
1.1904287500e+008  9.690951e-001 -2.398104e-001  1.566956e-003  6.073942e-003  1.560181e-003  6.035047e-003  9.672617e-001 -2.392596e-001
1.2216768750e+008  9.672603e-001 -2.460272e-001  1.643124e-003  6.131970e-003  1.664912e-003  6.097661e-003  9.653102e-001 -2.456392e-001
1.2529250000e+008  9.647331e-001 -2.529096e-001  1.742270e-003  6.291387e-003  1.738388e-003  6.290921e-003  9.642378e-001 -2.521543e-001
1.2841731250e+008  9.631258e-001 -2.581571e-001  1.850574e-003  6.355071e-003  1.859684e-003  6.419471e-003  9.625826e-001 -2.572750e-001
1.3154212500e+008  9.617164e-001 -2.645806e-001  1.951194e-003  6.565864e-003  1.950331e-003  6.614638e-003  9.600780e-001 -2.634065e-001
1.3466693750e+008  9.602020e-001 -2.707057e-001  1.913758e-003  6.688735e-003  1.976456e-003  6.692417e-003  9.589937e-001 -2.690522e-001
1.3779175000e+008  9.577683e-001 -2.760087e-001  2.162206e-003  6.869247e-003  2.161176e-003  6.809102e-003  9.562003e-001 -2.742424e-001
1.4091656250e+008  9.561887e-001 -2.826731e-001  2.242126e-003  7.028213e-003  2.164618e-003  7.106801e-003  9.552454e-001 -2.810968e-001
1.4404137500e+008  9.542570e-001 -2.894264e-001  2.289278e-003  7.062497e-003  2.255843e-003  7.105693e-003  9.529488e-001 -2.872020e-001
1.4716618750e+008  9.516538e-001 -2.955332e-001  2.391808e-003  7.319836e-003  2.370375e-003  7.317177e-003  9.514365e-001 -2.931011e-001
1.5029100000e+008  9.499896e-001 -3.001989e-001  2.599462e-003  7.359872e-003  2.562909e-003  7.351608e-003  9.500997e-001 -2.996408e-001
1.5341581250e+008  9.484408e-001 -3.067260e-001  2.577866e-003  7.490672e-003  2.613511e-003  7.555162e-003  9.481877e-001 -3.050536e-001
1.5654062500e+008  9.462396e-001 -3.127022e-001  2.602360e-003  7.774631e-003  2.690862e-003  7.763884e-003  9.460286e-001 -3.119161e-001
1.5966543750e+008  9.441746e-001 -3.179820e-001  2.733985e-003  7.847729e-003  2.771681e-003  7.759413e-003  9.440005e-001 -3.165991e-001
1.6279025000e+008  9.426711e-001 -3.248139e-001  2.941347e-003  7.888502e-003  2.854957e-003  7.923178e-003  9.421793e-001 -3.233061e-001
1.6591506250e+008  9.400034e-001 -3.304805e-001  2.954831e-003  8.175242e-003  2.954968e-003  8.119860e-003  9.390180e-001 -3.295743e-001
1.6903987500e+008  9.375941e-001 -3.368767e-001  3.106636e-003  8.284600e-003  3.160832e-003  8.280139e-003  9.362041e-001 -3.364125e-001
1.7216468750e+008  9.358478e-001 -3.428700e-001  3.276022e-003  8.268853e-003  3.228809e-003  8.291005e-003  9.352726e-001 -3.413405e-001
1.7528950000e+008  9.335381e-001 -3.480627e-001  3.261105e-003  8.444506e-003  3.232363e-003  8.499893e-003  9.324223e-001 -3.491565e-001
1.7841431250e+008  9.304659e-001 -3.541706e-001  3.357113e-003  8.622960e-003  3.343325e-003  8.701929e-003  9.299052e-001 -3.551206e-001
1.8153912500e+008  9.289967e-001 -3.597246e-001  3.513052e-003  8.655745e-003  3.511447e-003  8.652948e-003  9.281868e-001 -3.593103e-001
1.8466393750e+008  9.273947e-001 -3.657050e-001  3.709773e-003  8.899637e-003  3.711987e-003  8.840742e-003  9.243366e-001 -3.660673e-001
1.8778875000e+008  9.249574e-001 -3.713158e-001  3.780594e-003  9.025044e-003  3.777035e-003  9.020866e-003  9.224540e-001 -3.721127e-001
1.9091356250e+008  9.212182e-001 -3.763371e-001  3.971611e-003  9.255428e-003  3.905607e-003  9.250478e-003  9.200605e-001 -3.770167e-001
1.9403837500e+008  9.194748e-001 -3.835486e-001  4.024900e-003  9.167460e-003  4.066316e-003  9.152989e-003  9.174207e-001 -3.831349e-001
1.9716318750e+008  9.171093e-001 -3.892781e-001  4.145674e-003  9.256271e-003  4.162402e-003  9.327231e-003  9.155993e-001 -3.887208e-001
2.0028800000e+008  9.138648e-001 -3.952883e-001  4.179344e-003  9.481909e-003  4.202237e-003  9.461391e-003  9.119678e-001 -3.944115e-001
2.0341281250e+008  9.119850e-001 -4.004464e-001  4.303652e-003  9.592787e-003  4.418439e-003  9.606900e-003  9.091997e-001 -3.995310e-001
2.0653762500e+008  9.095212e-001 -4.060369e-001  4.494573e-003  9.695537e-003  4.438748e-003  9.780857e-003  9.074777e-001 -4.052672e-001
2.0966243750e+008  9.068056e-001 -4.129708e-001  4.659850e-003  9.903861e-003  4.633377e-003  9.855188e-003  9.047548e-001 -4.115166e-001
2.1278725000e+008  9.039270e-001 -4.175397e-001  4.734807e-003  9.938737e-003  4.734818e-003  9.934356e-003  9.021291e-001 -4.168995e-001
2.1591206250e+008  9.005042e-001 -4.239819e-001  4.848333e-003  1.001872e-002  4.901296e-003  1.000473e-002  8.991006e-001 -4.219121e-001
2.1903687500e+008  8.978269e-001 -4.284940e-001  5.061394e-003  1.015189e-002  4.988907e-003  1.017532e-002  8.959410e-001 -4.277941e-001
2.2216168750e+008  8.925610e-001 -4.342127e-001  5.112955e-003  1.041213e-002  5.147981e-003  1.046450e-002  8.909034e-001 -4.323531e-001
2.2528650000e+008  8.921085e-001 -4.401265e-001  5.284978e-003  1.033541e-002  5.287590e-003  1.036980e-002  8.908038e-001 -4.383012e-001
2.2841131250e+008  8.902568e-001 -4.459710e-001  5.460397e-003  1.050218e-002  5.386218e-003  1.052756e-002  8.883311e-001 -4.445140e-001
2.3153612500e+008  8.862737e-001 -4.516236e-001  5.621186e-003  1.064145e-002  5.582176e-003  1.070350e-002  8.856015e-001 -4.501444e-001
2.3466093750e+008  8.829122e-001 -4.570594e-001  5.716456e-003  1.062473e-002  5.727040e-003  1.062509e-002  8.826038e-001 -4.555779e-001
2.3778575000e+008  8.807691e-001 -4.628009e-001  5.867624e-003  1.078879e-002  5.830056e-003  1.079848e-002  8.795413e-001 -4.609433e-001
2.4091056250e+008  8.774180e-001 -4.684752e-001  6.000580e-003  1.091280e-002  5.971144e-003  1.092891e-002  8.762157e-001 -4.668008e-001
2.4403537500e+008  8.737169e-001 -4.723050e-001  6.203140e-003  1.092934e-002  6.256947e-003  1.094115e-002  8.731893e-001 -4.715147e-001
2.4716018750e+008  8.709403e-001 -4.781438e-001  6.255670e-003  1.112062e-002  6.257299e-003  1.115565e-002  8.706509e-001 -4.780643e-001
2.5028500000e+008  8.683219e-001 -4.839397e-001  6.435692e-003  1.118600e-002  6.443143e-003  1.125763e-002  8.673328e-001 -4.840962e-001
2.5340981250e+008  8.640583e-001 -4.903629e-001  6.625926e-003  1.135353e-002  6.707361e-003  1.136871e-002  8.635331e-001 -4.904265e-001
2.5653462500e+008  8.616645e-001 -4.948778e-001  6.728173e-003  1.136585e-002  6.722920e-003  1.136308e-002  8.607398e-001 -4.938153e-001
2.5965943750e+008  8.585882e-001 -5.007368e-001  6.870300e-003  1.143299e-002  6.883965e-003  1.144784e-002  8.578082e-001 -4.998780e-001
2.6278425000e+008  8.549417e-001 -5.062179e-001  7.009336e-003  1.158927e-002  7.032671e-003  1.165305e-002  8.541847e-001 -5.054628e-001
2.6590906250e+008  8.520147e-001 -5.103870e-001  7.179594e-003  1.174526e-002  7.165970e-003  1.177202e-002  8.509176e-001 -5.096334e-001
2.6903387500e+008  8.487344e-001 -5.164602e-001  7.328643e-003  1.185656e-002  7.356866e-003  1.183078e-002  8.473938e-001 -5.155169e-001
2.7215868750e+008  8.462492e-001 -5.222017e-001  7.595891e-003  1.190612e-002  7.567089e-003  1.187641e-002  8.439034e-001 -5.207746e-001
2.7528350000e+008  8.408626e-001 -5.263782e-001  7.776907e-003  1.178395e-002  7.817375e-003  1.176859e-002  8.389772e-001 -5.259224e-001
2.7840831250e+008  8.383453e-001 -5.327367e-001  7.820591e-003  1.193832e-002  7.786696e-003  1.198007e-002  8.371920e-001 -5.314524e-001
2.8153312500e+008  8.352851e-001 -5.381700e-001  8.032369e-003  1.212786e-002  8.039508e-003  1.209752e-002  8.336097e-001 -5.365829e-001
2.8465793750e+008  8.313111e-001 -5.434993e-001  8.219779e-003  1.216429e-002  8.226398e-003  1.223455e-002  8.284319e-001 -5.421656e-001
2.8778275000e+008  8.279555e-001 -5.481607e-001  8.320621e-003  1.216303e-002  8.267937e-003  1.219590e-002  8.262986e-001 -5.468483e-001
2.9090756250e+008  8.243362e-001 -5.532702e-001  8.483610e-003  1.239156e-002  8.414710e-003  1.241430e-002  8.228855e-001 -5.518243e-001
2.9403237500e+008  8.207449e-001 -5.587813e-001  8.685913e-003  1.233907e-002  8.705508e-003  1.243800e-002  8.198950e-001 -5.578879e-001
2.9715718750e+008  8.164394e-001 -5.626420e-001  8.897918e-003  1.244037e-002  8.927874e-003  1.245007e-002  8.151304e-001 -5.614528e-001
3.0028200000e+008  8.136714e-001 -5.692411e-001  9.050555e-003  1.259368e-002  9.143393e-003  1.255784e-002  8.116136e-001 -5.682307e-001
3.0340681250e+008  8.093962e-001 -5.744047e-001  9.247431e-003  1.254951e-002  9.238040e-003  1.262107e-002  8.083626e-001 -5.722360e-001
3.0653162500e+008  8.037594e-001 -5.793644e-001  9.344723e-003  1.270903e-002  9.313553e-003  1.276465e-002  8.024982e-001 -5.777931e-001
3.0965643750e+008  8.023925e-001 -5.831034e-001  9.507860e-003  1.274547e-002  9.482443e-003  1.276087e-002  8.005868e-001 -5.821605e-001
3.1278125000e+008  7.984583e-001 -5.873545e-001  9.757637e-003  1.271383e-002  9.773550e-003  1.276958e-002  7.981213e-001 -5.871139e-001
3.1590606250e+008  7.934989e-001 -5.937748e-001  9.907166e-003  1.280616e-002  9.948533e-003  1.291846e-002  7.940946e-001 -5.927184e-001
3.1903087500e+008  7.901425e-001 -5.982270e-001  1.010238e-002  1.281074e-002  1.014035e-002  1.286340e-002  7.908681e-001 -5.965840e-001
3.2215568750e+008  7.871663e-001 -6.032084e-001  1.028785e-002  1.296177e-002  1.025747e-002  1.302494e-002  7.863482e-001 -6.020461e-001
3.2528050000e+008  7.820657e-001 -6.080983e-001  1.046745e-002  1.297164e-002  1.046614e-002  1.304667e-002  7.826970e-001 -6.072244e-001
3.2840531250e+008  7.785629e-001 -6.115963e-001  1.067414e-002  1.295338e-002  1.064799e-002  1.307858e-002  7.777517e-001 -6.101937e-001
3.3153012500e+008  7.753521e-001 -6.174505e-001  1.087146e-002  1.310971e-002  1.091262e-002  1.314513e-002  7.745727e-001 -6.165423e-001
3.3465493750e+008  7.710078e-001 -6.224757e-001  1.095646e-002  1.315712e-002  1.096204e-002  1.314826e-002  7.703304e-001 -6.215183e-001
3.3777975000e+008  7.666513e-001 -6.281762e-001  1.121650e-002  1.330243e-002  1.126861e-002  1.328876e-002  7.661647e-001 -6.269351e-001
3.4090456250e+008  7.638602e-001 -6.320995e-001  1.130565e-002  1.317810e-002  1.126388e-002  1.326612e-002  7.629274e-001 -6.307056e-001
3.4402937500e+008  7.588023e-001 -6.372084e-001  1.154670e-002  1.324099e-002  1.150638e-002  1.326869e-002  7.582291e-001 -6.363332e-001
3.4715418750e+008  7.547679e-001 -6.421772e-001  1.161949e-002  1.332787e-002  1.167223e-002  1.334028e-002  7.540002e-001 -6.409216e-001
3.5027900000e+008  7.507694e-001 -6.462144e-001  1.199970e-002  1.335181e-002  1.200946e-002  1.339686e-002  7.506791e-001 -6.446270e-001
3.5340381250e+008  7.467908e-001 -6.514096e-001  1.212556e-002  1.328158e-002  1.203447e-002  1.336730e-002  7.464043e-001 -6.499280e-001
3.5652862500e+008  7.425815e-001 -6.568558e-001  1.224563e-002  1.345460e-002  1.223604e-002  1.350601e-002  7.417310e-001 -6.549320e-001
3.5965343750e+008  7.364593e-001 -6.597516e-001  1.257081e-002  1.340531e-002  1.258303e-002  1.348023e-002  7.353606e-001 -6.580864e-001
3.6277825000e+008  7.338168e-001 -6.652894e-001  1.267376e-002  1.352778e-002  1.263463e-002  1.352193e-002  7.335377e-001 -6.636002e-001
3.6590306250e+008  7.298319e-001 -6.703114e-001  1.282568e-002  1.349186e-002  1.280666e-002  1.354010e-002  7.284682e-001 -6.679373e-001
3.6902787500e+008  7.246723e-001 -6.740892e-001  1.305846e-002  1.354476e-002  1.307802e-002  1.363528e-002  7.229353e-001 -6.729674e-001
3.7215268750e+008  7.208213e-001 -6.779282e-001  1.313529e-002  1.343457e-002  1.318324e-002  1.349524e-002  7.199001e-001 -6.761133e-001
3.7527750000e+008  7.164443e-001 -6.822420e-001  1.337783e-002  1.361030e-002  1.335716e-002  1.357131e-002  7.153785e-001 -6.812035e-001
3.7840231250e+008  7.118299e-001 -6.875541e-001  1.363579e-002  1.361697e-002  1.358244e-002  1.363613e-002  7.106699e-001 -6.858070e-001
3.8152712500e+008  7.077993e-001 -6.908977e-001  1.377374e-002  1.365131e-002  1.375041e-002  1.359992e-002  7.058499e-001 -6.893254e-001
3.8465193750e+008  7.029878e-001 -6.957361e-001  1.392748e-002  1.363076e-002  1.400066e-002  1.365709e-002  7.019889e-001 -6.933819e-001
3.8777675000e+008  6.976911e-001 -7.003815e-001  1.411855e-002  1.374967e-002  1.416998e-002  1.373222e-002  6.968027e-001 -6.988143e-001
3.9090156250e+008  6.915325e-001 -7.048037e-001  1.437987e-002  1.369748e-002  1.436898e-002  1.367929e-002  6.916066e-001 -7.033108e-001
3.9402637500e+008  6.885845e-001 -7.075592e-001  1.451405e-002  1.370004e-002  1.451903e-002  1.371168e-002  6.886793e-001 -7.064980e-001
3.9715118750e+008  6.837279e-001 -7.126123e-001  1.471843e-002  1.371766e-002  1.478064e-002  1.377301e-002  6.840333e-001 -7.114129e-001
4.0027600000e+008  6.797655e-001 -7.168655e-001  1.493662e-002  1.377792e-002  1.499719e-002  1.379415e-002  6.795187e-001 -7.154458e-001
4.0340081250e+008  6.748477e-001 -7.211514e-001  1.520978e-002  1.367479e-002  1.517783e-002  1.369204e-002  6.753681e-001 -7.191611e-001
4.0652562500e+008  6.706819e-001 -7.257607e-001  1.533814e-002  1.369129e-002  1.536377e-002  1.367196e-002  6.700701e-001 -7.241097e-001
4.0965043750e+008  6.658352e-001 -7.299538e-001  1.558555e-002  1.375077e-002  1.560741e-002  1.376208e-002  6.654888e-001 -7.290280e-001
4.1277525000e+008  6.611714e-001 -7.326640e-001  1.573276e-002  1.367833e-002  1.581486e-002  1.372247e-002  6.611305e-001 -7.307203e-001
4.1590006250e+008  6.568588e-001 -7.381736e-001  1.594882e-002  1.370452e-002  1.595452e-002  1.378043e-002  6.573269e-001 -7.365154e-001
4.1902487500e+008  6.526947e-001 -7.421414e-001  1.619712e-002  1.375696e-002  1.620338e-002  1.382598e-002  6.519416e-001 -7.411413e-001
4.2214968750e+008  6.472734e-001 -7.470352e-001  1.642609e-002  1.377720e-002  1.645300e-002  1.380754e-002  6.468309e-001 -7.452803e-001
4.2527450000e+008  6.428798e-001 -7.504774e-001  1.653495e-002  1.359730e-002  1.654069e-002  1.374039e-002  6.427602e-001 -7.483118e-001
4.2839931250e+008  6.386748e-001 -7.545277e-001  1.672341e-002  1.370925e-002  1.675133e-002  1.368215e-002  6.370937e-001 -7.523277e-001
4.3152412500e+008  6.325328e-001 -7.588302e-001  1.694983e-002  1.363796e-002  1.693554e-002  1.367329e-002  6.319776e-001 -7.569838e-001
4.3464893750e+008  6.280701e-001 -7.613065e-001  1.717327e-002  1.354153e-002  1.714267e-002  1.358311e-002  6.277222e-001 -7.598557e-001
4.3777375000e+008  6.233193e-001 -7.651178e-001  1.721021e-002  1.367442e-002  1.727792e-002  1.373012e-002  6.226271e-001 -7.650198e-001
4.4089856250e+008  6.185665e-001 -7.691253e-001  1.755387e-002  1.366313e-002  1.758404e-002  1.365649e-002  6.179170e-001 -7.686214e-001
4.4402337500e+008  6.118850e-001 -7.729295e-001  1.790140e-002  1.357414e-002  1.796468e-002  1.358607e-002  6.102023e-001 -7.720957e-001
4.4714818750e+008  6.078976e-001 -7.762941e-001  1.796419e-002  1.353954e-002  1.798861e-002  1.355210e-002  6.076380e-001 -7.754749e-001
