# Hz S RI R 50
647500000	-0.415298608148731	-0.816243065785759	5.64489858458132E-03	-2.10908906273977E-03			5.7194807421647E-03	-2.0799603956871E-03	-0.491827929614186	-0.790609327344118
647812500	-0.418836880032894	-0.814159277520606	5.67764353479857E-03	-2.03532656555431E-03			5.65058910945377E-03	-2.0078226360198E-03	-0.491938483211843	-0.794589096589299
648125000	-0.416507819488208	-0.816759137204372	5.77549366201808E-03	-2.04887990194378E-03			5.64598783446065E-03	-2.00031396266835E-03	-0.492995011151929	-0.794798206477152
648437500	-0.418631391206469	-0.814725404349041	5.71057263749822E-03	-2.10858224822531E-03			5.71772676066975E-03	-2.18549167610606E-03	-0.493355509666815	-0.790980787800625
648750000	-0.418110948977495	-0.81382285071516	5.72299747412329E-03	-2.17721135007679E-03			5.73197236342492E-03	-0.002180496168097	-0.496530574046588	-0.792140704137998
649062500	-0.419583560530333	-0.814616024487186	5.78827834041156E-03	-2.25486208726009E-03			5.88684851196519E-03	-2.26736336531741E-03	-0.495093981774447	-0.790900969021326
649375000	-0.419355978464298	-0.815037699331324	5.70996804342045E-03	-2.28740379383639E-03			5.71257339511319E-03	-2.33288891113484E-03	-0.497625300403234	-0.789165578449675
649687500	-0.420389543769363	-0.811777944900662	5.71344594423349E-03	-2.33271400985687E-03			5.75277664868078E-03	-2.33194062673984E-03	-0.49444903207456	-0.788739937682502
650000000	-0.420134462709334	-0.812950456766444	5.63814110428179E-03	-2.26429614710513E-03			5.68805888578853E-03	-2.41121651361735E-03	-0.495797981926221	-0.787886997661964
650312500	-0.423817647881017	-0.813245782935958	5.6284717736393E-03	-2.38072665332269E-03			5.57187479067496E-03	-2.33114501787584E-03	-0.499150892396689	-0.789333749506586
650625000	-0.422383601866395	-0.813599002090165	5.59318857139694E-03	-2.3814219403877E-03			5.57635864373652E-03	-2.32246577842654E-03	-0.497555790739676	-0.787150336014903
650937500	-0.423049321822349	-0.809061289316863	5.59736714256314E-03	-2.33935367898503E-03			5.58632641684163E-03	-2.39935703103368E-03	-0.498980490742786	-0.787543414669302
651250000	-0.424166870114967	-0.809290177354728	5.54570337694182E-03	-2.34190118373085E-03			5.64636061026207E-03	-2.40014795745816E-03	-0.501399828605396	-0.786622550813798
651562500	-0.425762466941808	-0.807717134766629	5.67143370652481E-03	-2.45272053227889E-03			5.67417143551547E-03	-2.38892698037954E-03	-0.502456607037845	-0.789244730574833
651875000	-0.426180934138399	-0.809269535157311	5.65806173126686E-03	-2.33000216674714E-03			5.60717008149322E-03	-2.3622982601609E-03	-0.502308824296747	-0.787358028002919
652187500	-0.426860832794608	-0.810704843433169	5.54797190052162E-03	-2.43906003522364E-03			5.5500076944255E-03	-2.50734029616972E-03	-0.502342403283084	-0.787668542441474
652500000	-0.426573486393809	-0.809616360417986	5.58327193462876E-03	-2.47075251969152E-03			5.53828533163484E-03	-2.52689406515514E-03	-0.501110799870146	-0.78486350063246
652812500	-0.427175777127413	-0.80921860360757	5.53223280666304E-03	-2.51893811136977E-03			5.58528481395866E-03	-2.59394181011341E-03	-0.504717878310244	-0.78636653417267
653125000	-0.43098479307498	-0.809692241390687	5.51247321067116E-03	-2.58623246696085E-03			5.48523610975118E-03	-2.52052382736295E-03	-0.505824086264667	-0.781376240337496
653437500	-0.42807001740953	-0.808674288473619	5.48594851194846E-03	-2.57695054819527E-03			5.41895860950068E-03	-2.61955223776627E-03	-0.506342162460746	-0.783055008527782
653750000	-0.429728352422045	-0.807628752225838	5.3800423520319E-03	-2.73471304313528E-03			5.41149878255918E-03	-2.63855782381022E-03	-0.505217949205618	-0.783214807912758
654062500	-0.430446508080489	-0.807790225558883	5.31085769036788E-03	-2.64606652780821E-03			5.45082829292833E-03	-2.61724008313115E-03	-0.505982472766991	-0.782653321819754
654375000	-0.431197371698432	-0.804864039375143	5.28400008021267E-03	-2.70736128598393E-03			5.29147253926045E-03	-2.75257510588451E-03	-0.507962215521049	-0.783043377939311
654687500	-0.432399215487968	-0.807104972734235	5.2329913126626E-03	-2.67508273259743E-03			5.20789660463564E-03	-2.71290424044839E-03	-0.507032083901257	-0.783095810839834
655000000	-0.434320455024921	-0.807196140215856	5.22832008877988E-03	-2.74094303116164E-03			5.27835934469466E-03	-2.76139284317284E-03	-0.508452261823987	-0.781706409264864
655312500	-0.432433356391062	-0.802827985116718	5.15608989144628E-03	-2.74705789323795E-03			5.22710648633553E-03	-2.6396675069418E-03	-0.510745118730751	-0.780821532038734
655625000	-0.435391140124295	-0.805275076924794	5.12680446765847E-03	-2.72793368938386E-03			5.09982713209945E-03	-2.63359766638752E-03	-0.508470478788179	-0.780412792702765
655937500	-0.435946679924447	-0.804093488354045	5.04162338293371E-03	-2.66661652942544E-03			5.06736865840056E-03	-2.70628666555815E-03	-0.512725176558449	-0.779990673186947
656250000	-0.436432841909431	-0.805562048397694	4.98563108439604E-03	-2.71700030553048E-03			4.95868054113279E-03	-2.56972096669163E-03	-0.511332273491	-0.776925193593351
656562500	-0.436403274811282	-0.80367515398224	4.9410513059108E-03	-2.6702369944875E-03			4.98960300777853E-03	-2.63704776140882E-03	-0.511948336912896	-0.777659705050017
656875000	-0.436761863550903	-0.805033526089588	4.94025182376761E-03	-2.65737057911711E-03			4.96809642140579E-03	-2.7032428935251E-03	-0.51396905607193	-0.779854733158448
657187500	-0.439356111023296	-0.806395309143869	4.87876256454085E-03	-2.66023540619919E-03			4.90862918958531E-03	-2.68254819456376E-03	-0.516280597898722	-0.778597025602811
657500000	-0.438251054331499	-0.80425539285283	4.83953556430411E-03	-2.6255320118697E-03			4.91551533121544E-03	-2.70610240685454E-03	-0.514734427795675	-0.775388645617156
657812500	-0.436983471099821	-0.803631778310917	4.81111700601579E-03	-2.66400406683233E-03			4.7963870616093E-03	-2.60525717746604E-03	-0.51674110576256	-0.777114782228537
658125000	-0.440366337744165	-0.803347957384588	4.79843586190487E-03	-2.59719081842192E-03			4.72067617137902E-03	-2.54670887257248E-03	-0.516507573548441	-0.774837923330239
658437500	-0.442162839064119	-0.804292600070431	4.68565343973336E-03	-2.53184828891786E-03			4.7340426501834E-03	-2.50163970517449E-03	-0.51544760305324	-0.773544673396779
658750000	-0.440231585722559	-0.803654335887581	4.73392217576136E-03	-2.52389217344772E-03			4.70656799107526E-03	-2.55037724315113E-03	-0.516683382670639	-0.774741242723294
659062500	-0.440968237287267	-0.798916617818575	4.71825649469093E-03	-2.53428573447811E-03			4.67694910373158E-03	-2.52367710837361E-03	-0.521087753526316	-0.77415693139653
659375000	-0.44269928791678	-0.801001765734385	4.63591776108512E-03	-2.43365380048844E-03			4.63287687411243E-03	-2.45823109605478E-03	-0.51774010259956	-0.772389360363433
659687500	-0.443090504561068	-0.80006304066839	4.64212247984129E-03	-2.46670383891212E-03			4.6927335484612E-03	-2.39413156436546E-03	-0.521325681516209	-0.772241509771309
660000000	-0.444070274083944	-0.80018654751925	4.62367225268975E-03	-2.39255090549193E-03			4.63796990421133E-03	-2.35063721059819E-03	-0.520003077443592	-0.771421921128131
660312500	-0.444335194963555	-0.796496373680576	4.65706669142112E-03	-2.35627722259773E-03			4.59612155612092E-03	-2.36271843343544E-03	-0.522557259377194	-0.772391951686413
660625000	-0.443987035598644	-0.799116857254432	4.67829942078942E-03	-2.29330913509637E-03			4.64378103555705E-03	-2.31855310945534E-03	-0.52399756144456	-0.772236640028807
660937500	-0.446017404226976	-0.798386242875255	4.65850051871186E-03	-2.24892201879156E-03			4.59646996071223E-03	-2.29307184835546E-03	-0.523332285417322	-0.769023005918991
661250000	-0.447446914535135	-0.79836378821717	4.63006050280135E-03	-2.20043405489851E-03			4.59928718710394E-03	-2.30121586485621E-03	-0.525047791740535	-0.768058694923567
661562500	-0.448851167487841	-0.798770717100831	4.59924179034751E-03	-2.23423844991727E-03			4.62881081681789E-03	-2.18918464379126E-03	-0.522830345100616	-0.76990311316975
661875000	-0.447496606896527	-0.797153313776278	4.67530577262984E-03	-2.25101910596313E-03			4.59285864167378E-03	-2.16441835237128E-03	-0.525250765783036	-0.769610754686084
662187500	-0.447610928716377	-0.795696439219306	4.65834977250464E-03	-2.18815774340686E-03			4.66068178426602E-03	-2.20801331291565E-03	-0.52556431965748	-0.769987459652881
662500000	-0.452501993120393	-0.795726257038158	4.65550732293034E-03	-2.13447075837391E-03			4.67503317667809E-03	-2.19713886841253E-03	-0.526397754707021	-0.767159647423486
662812500	-0.450395976685789	-0.796856916099446	4.68612245414444E-03	-2.09795895475314E-03			4.62091756671433E-03	-2.14562424100531E-03	-0.527867102011321	-0.766160874887999
663125000	-0.450482974839118	-0.795264463554214	4.60532762944462E-03	-2.13835600523661E-03			4.57649737755232E-03	-2.16943275360561E-03	-0.528848263368875	-0.766931692031673
663437500	-0.455276266506762	-0.793466705043021	4.63894123587824E-03	-2.06912639989724E-03			4.61396069233591E-03	-2.03766421371107E-03	-0.527194222488248	-0.76395081379938
663750000	-0.452362293651596	-0.79486649911185	4.5599554019056E-03	-2.05055676697855E-03			4.6282428285296E-03	-1.97177295363759E-03	-0.527790425044713	-0.764168317364503
664062500	-0.454196621717269	-0.798627096608198	4.59446119947433E-03	-1.96213566368833E-03			4.66328154425074E-03	-1.98407466331572E-03	-0.528745058167812	-0.764805661538683
664375000	-0.455763463111258	-0.793454879738891	4.55871202777637E-03	-1.97828338202436E-03			4.57207065337918E-03	-1.97963855405757E-03	-0.532639778179302	-0.764670075951819
664687500	-0.459728192620111	-0.796634660771189	4.62852897872716E-03	-1.95866937647902E-03			4.69501770284112E-03	-1.90151773589311E-03	-0.532102108534558	-0.763557070570427
665000000	-0.455490752022471	-0.790055370101685	4.72869081121484E-03	-1.80987657764749E-03			4.72464006923537E-03	-1.90079013511233E-03	-0.529895529258907	-0.763523359807393
665312500	-0.457249569454752	-0.793402475075725	4.80012628842558E-03	-1.85348766715752E-03			4.76468301827376E-03	-0.001844165508961	-0.532185351769538	-0.764252298113459
665625000	-0.459957451798964	-0.793892381408252	4.87136351132926E-03	-1.9012034384398E-03			4.81524153030196E-03	-1.78645795900906E-03	-0.533366507064739	-0.760357398372879
665937500	-0.457078810660903	-0.792217964618032	4.88236989051138E-03	-1.80044976084653E-03			4.84045870524488E-03	-1.98438524382776E-03	-0.534905623160458	-0.761490421916006
666250000	-0.458320170614289	-0.79156985965186	4.88047233744485E-03	-1.9395577635501E-03			4.87502806233335E-03	-1.86437257131072E-03	-0.53613476970015	-0.760999539088317
666562500	-0.462809533889608	-0.794359401345339	4.95110671839939E-03	-1.93679087395587E-03			4.98703044737047E-03	-1.93001202194779E-03	-0.537042568497091	-0.758926934090425
666875000	-0.461231528113391	-0.790826388931667	4.95017644694559E-03	-1.88554655688573E-03			4.97973937577971E-03	-1.86032743324883E-03	-0.535050126242589	-0.759623376994963
667187500	-0.462822347256501	-0.789852251249082	5.11266870589619E-03	-1.90638665694824E-03			5.09078214296466E-03	-1.9122564988029E-03	-0.539085340715073	-0.759674266101547
667500000	-0.46392373542608	-0.790863816202492	5.04032804949327E-03	-1.87902118588961E-03			5.1413087800607E-03	-1.89415234899112E-03	-0.536834444590252	-0.756209469720847
667812500	-0.462482923692945	-0.789321895956263	5.1208339921855E-03	-1.97773476458171E-03			5.09313821181848E-03	-1.96332792025708E-03	-0.537064755700974	-0.756250130642466
668125000	-0.46380650400951	-0.788422061784586	5.21808965413558E-03	-2.01097865639093E-03			5.23132376921942E-03	-2.11710443813507E-03	-0.541828039145428	-0.758585278734322
668437500	-0.464606569223956	-0.787609457149768	5.29893221114369E-03	-2.03064978132392E-03			5.21967884725902E-03	-2.14115974875268E-03	-0.539806945557542	-0.755797108729795
668750000	-0.463589075309259	-0.785682916134415	5.26973789080286E-03	-2.17750061956321E-03			5.15052585671582E-03	-2.23406918108896E-03	-0.540703505561819	-0.754908313854678
669062500	-0.464273300776142	-0.7886051676402	5.30633378250439E-03	-2.29600907412593E-03			5.21493780346355E-03	-2.33043284971398E-03	-0.54017019801147	-0.754346443137113
669375000	-0.465221187577021	-0.786423005009589	5.27449062875387E-03	-2.34575518168375E-03			5.27493070414514E-03	-2.33561044625437E-03	-0.541414925395078	-0.754707265705546
669687500	-0.465573940915474	-0.78706225588712	5.18619600263567E-03	-2.41144724424202E-03			5.21658652660284E-03	-2.47473669961178E-03	-0.540638919006342	-0.752579774254361
670000000	-0.466533627682307	-0.786541005415101	5.24293458144377E-03	-2.47104273798943E-03			5.21980060674251E-03	-2.51975350836056E-03	-0.544447372939501	-0.752731184333251
670312500	-0.467391525627373	-0.786062728178857	5.11612727364708E-03	-2.56976521837097E-03			5.03398468608787E-03	-2.59378817138257E-03	-0.543498841653536	-0.751874125654311
670625000	-0.46833654346451	-0.787197825028021	5.12604484347118E-03	-2.68482785861422E-03			5.14082173390234E-03	-2.60169698927375E-03	-0.544925195154216	-0.751741911130651
670937500	-0.468401856524627	-0.784090135101042	5.06747827464651E-03	-2.66064784493162E-03			5.03081063706056E-03	-2.67417644506036E-03	-0.54439430146214	-0.750439161380035
671250000	-0.471484739320358	-0.785371758440467	5.03997341949827E-03	-2.6832388352207E-03			4.98976282181993E-03	-2.69530477523996E-03	-0.544092846591358	-0.751728416998752
671562500	-0.470792478264572	-0.782706778305887	4.81083228560266E-03	-2.81282505650676E-03			4.89901953707124E-03	-2.74370728407305E-03	-0.545641226518356	-0.751359391768902
671875000	-0.472188981696772	-0.784262299590783	4.85172546492363E-03	-2.82698134059683E-03			4.95394842104305E-03	-2.77155813492756E-03	-0.546010822631243	-0.751139821190835
672187500	-0.473613582055744	-0.781727514049999	4.79170125520109E-03	-2.77720407899531E-03			4.78157320778711E-03	-2.85715518563521E-03	-0.546441230748195	-0.747273864369286
672500000	-0.472755564098492	-0.781756952022795	4.71938942361715E-03	-2.79713308573671E-03			0.004767601947343	-2.85506011057993E-03	-0.546469437456437	-0.75004362710955
672812500	-0.475118246161827	-0.782301697784973	4.5056496587129E-03	-2.94170963834515E-03			4.61091791031215E-03	-2.91195544531728E-03	-0.546267539513195	-0.750338461967152
673125000	-0.476359576695683	-0.781707169315605	4.48629670189139E-03	-2.89996744270599E-03			4.47811290776557E-03	-2.87378780397236E-03	-0.549099444392764	-0.746838541241484
673437500	-0.476693689669528	-0.780035834589807	4.40775258198358E-03	-2.89750717696583E-03			4.42753622798963E-03	-2.90460953845257E-03	-0.549523352210851	-0.747446763937148
673750000	-0.476296360470877	-0.781942933487932	4.3044096412353E-03	-2.92830898352044E-03			4.39460857750077E-03	-2.85819839599517E-03	-0.550209388612719	-0.747642253159826
674062500	-0.478967215925272	-0.777750517139994	4.2051609483025E-03	-2.76281699875225E-03			4.21632056678042E-03	-2.91906992497451E-03	-0.552468810244094	-0.745812913595557
674375000	-0.479324170400492	-0.78143307206397	4.20678506517557E-03	-2.82117269660539E-03			4.20738519897206E-03	-2.80660535709336E-03	-0.549765367646849	-0.745109443666588
674687500	-0.478914903121793	-0.778279851505077	4.07661981408446E-03	-2.8470386226972E-03			4.12938732301494E-03	-2.85989238681872E-03	-0.551276534350104	-0.74614180678442
675000000	-0.47646666167384	-0.777696287642279	4.06470652376511E-03	-2.7350709350077E-03			4.05169984295322E-03	-2.62422985793936E-03	-0.552429102825755	-0.745083544128379
675312500	-0.479080356003004	-0.778188729722501	3.95386261136747E-03	-2.68443434503737E-03			4.01201926063402E-03	-2.71943939932618E-03	-0.553114804949247	-0.743727347359467
675625000	-0.479738998391407	-0.775475729865072	3.98828256784847E-03	-2.60873212358461E-03			4.03257118135624E-03	-2.50444449565633E-03	-0.554636242602987	-0.743812647774084
675937500	-0.481431926673543	-0.774770284075765	3.96375333119064E-03	-2.51636634013579E-03			3.8900104846977E-03	-2.57220783525718E-03	-0.55353258761973	-0.747152890020378
676250000	-0.480986251906092	-0.776370112382009	3.94935366304161E-03	-2.55377385449831E-03			3.86835969254195E-03	-2.53306301272053E-03	-0.555464246580928	-0.742308508440923
676562500	-0.484774537990418	-0.778210011822762	3.80226858979655E-03	-2.60860155823835E-03			3.86251422132494E-03	-2.48286233013206E-03	-0.555127046105801	-0.742149605638649
676875000	-0.484197133205579	-0.775032583133499	3.78356680810632E-03	-2.50407957502418E-03			3.82969199975601E-03	-2.43575533004513E-03	-0.556582883950457	-0.742233398267569
677187500	-0.485009883853763	-0.77526427881453	3.75867574003244E-03	-2.41390309022275E-03			3.82264441103741E-03	-2.46215132036495E-03	-0.556897274012249	-0.739878454435827
677500000	-0.484214640666788	-0.776578249175753	3.77164542883095E-03	-2.35879196539172E-03			3.74806881292557E-03	-2.38299142515634E-03	-0.559872088870859	-0.740827981912551
677812500	-0.485892751849378	-0.774634767567342	3.76312064389115E-03	-2.3153436778204E-03			3.74384835751428E-03	-2.30241798968274E-03	-0.55898917260236	-0.740678795357002
678125000	-0.487821205855173	-0.774054528137635	3.61153214171425E-03	-2.27884929724637E-03			3.7076131195099E-03	-2.24485422073679E-03	-0.559557075039967	-0.742324074049177
678437500	-0.487063738917018	-0.77287929078097	3.60960397328111E-03	-2.13348754465593E-03			3.65379036203218E-03	-2.21091887270377E-03	-0.560403357483449	-0.739350899127324
678750000	-0.486662309623952	-0.772164072753478	3.65191261221449E-03	-0.002078685755353			3.71126673735357E-03	-2.08429482183462E-03	-0.561196467615494	-0.738464211394691
679062500	-0.488067598596609	-0.775190188450929	3.64831449547011E-03	-2.01246592046547E-03			3.70468570866504E-03	-2.11141515957816E-03	-0.560657296437794	-0.738385664570404
679375000	-0.490631576992246	-0.771511448866428	3.54882285908911E-03	-2.06224225416501E-03			3.64337381997053E-03	-2.04231170212604E-03	-0.562782930041715	-0.7382796342088
679687500	-0.491559706892116	-0.770649976918902	3.63615069203631E-03	-1.99276741494788E-03			3.60549248235177E-03	-2.07607003386749E-03	-0.563083105982843	-0.737125092733447
680000000	-0.49223385826546	-0.770059041721209	3.73819170447355E-03	-1.87126175077371E-03			3.61821297436547E-03	-1.85297667113197E-03	-0.563810495116659	-0.736366951821901
680312500	-0.490795446659584	-0.770872592715471	3.63837227647248E-03	-1.8957686698073E-03			3.62700260675311E-03	-1.88257270415424E-03	-0.563012529037521	-0.734607864925246
680625000	-0.494271034272244	-0.768728473063889	3.57104796298692E-03	-1.83068667818325E-03			3.59183632267584E-03	-1.78714800290174E-03	-0.567630289218061	-0.736586784384368
680937500	-0.491710485928386	-0.770071863291552	3.56949817107977E-03	-1.8111290385488E-03			3.63401550226004E-03	-1.73312951083643E-03	-0.567572871326383	-0.734926347377241
681250000	-0.492240329363666	-0.769467220824439	3.68121132009573E-03	-1.78657041308599E-03			3.58791778328272E-03	-1.75392584295152E-03	-0.56741642479195	-0.734179914223099
681562500	-0.493746223601154	-0.768861753756809	3.51954976167496E-03	-1.58387888004631E-03			3.51259992241067E-03	-1.66610468460225E-03	-0.56823338159365	-0.734012845716145
681875000	-0.495516067426048	-0.765196873938342	3.49975408307415E-03	-1.48539693627057E-03			3.42747201021639E-03	-1.52265970849944E-03	-0.56909487098106	-0.733125501026889
682187500	-0.494933669481963	-0.766522681963576	3.55042350711841E-03	-1.38324170546066E-03			3.49880901978365E-03	-1.48943651533327E-03	-0.569381676284483	-0.731759734460545
682500000	-0.497815518348072	-0.766366247597527	3.66912944907846E-03	-1.40041358767116E-03			3.62348851701957E-03	-1.38239756371312E-03	-0.57150846336902	-0.733213274744182
682812500	-0.494503711978498	-0.76548365650692	3.56679274824359E-03	-1.29501133681895E-03			3.63888208748102E-03	-1.18544288148416E-03	-0.571047246695853	-0.729013834943746
683125000	-0.496346266588237	-0.766029551937999	3.63311979003324E-03	-1.10309568411951E-03			3.72104080934458E-03	-1.15911517177921E-03	-0.573178622072103	-0.730012337543894
