# Hz S RI R 50
820000000	-0.302522294701605	-0.933245764020422	1.31085445109747E-02	-3.83383909680497E-03			1.32209412850601E-02	-3.75916665993348E-03	-0.29228259405373	-0.935782830439196
821175000	-0.304806140172237	-0.932688049967053	1.31399729281981E-02	-3.88905996551817E-03			1.31974105201261E-02	-3.8105813779235E-03	-0.29586566616514	-0.934771444991229
822350000	-0.309310486659723	-0.929132054866466	1.31165771525173E-02	-3.91925485649714E-03			1.32112557020638E-02	-3.98408858375694E-03	-0.29782967853421	-0.932015508667568
823525000	-0.309002818026896	-0.929610044751672	1.31891822246326E-02	-3.9641326756822E-03			1.31701053426316E-02	-4.01676328235858E-03	-0.300465949211802	-0.932945328747522
824700000	-0.314121694628007	-0.930990947356717	1.31575184821338E-02	-3.97697552369788E-03			1.32726624201618E-02	-3.93339835833009E-03	-0.302378661454911	-0.932823132304083
825875000	-0.315026815166771	-0.929479468536134	1.31560161179938E-02	-4.02078477183856E-03			1.30889141204313E-02	-4.0536098250903E-03	-0.305364058945237	-0.929254399572909
827050000	-0.316063161971931	-0.927960519395029	1.31400079494324E-02	-4.03799107115667E-03			1.31458013988946E-02	-4.06284139698354E-03	-0.308893554004454	-0.930036294247472
828225000	-0.317774055346734	-0.927870675332971	1.31370099849862E-02	-4.06482437051653E-03			1.32160079455322E-02	-4.07921613176448E-03	-0.31064819566245	-0.930381225348976
829400000	-0.322064176021991	-0.925892649297706	1.32351920716321E-02	-4.27805657920761E-03			1.31707206212332E-02	-4.21433952641985E-03	-0.31291027587957	-0.927912391245106
830575000	-0.323928270593125	-0.927514566029983	1.30760531074349E-02	-4.08525179977256E-03			1.31152323826169E-02	-4.12283803449653E-03	-0.314530662144957	-0.928605961389688
831750000	-0.326080040037388	-0.923931798946243	1.31480022478369E-02	-4.1883296764406E-03			1.31209649567006E-02	-4.23146488970743E-03	-0.31895797212018	-0.927455030961281
832925000	-0.331929728734905	-0.922017337500193	1.30637557001249E-02	-4.27157729385243E-03			0.013116388229689	-4.19246529232386E-03	-0.320623741822185	-0.926324590687675
834100000	-0.331085572277782	-0.921105006029669	1.30587318622846E-02	-4.19751775357157E-03			1.31624462267529E-02	-4.37947331591986E-03	-0.32487761627001	-0.923479453977893
835275000	-0.33376846402481	-0.920729681236185	1.30792899651908E-02	-4.3026430463925E-03			1.31026073418433E-02	-4.29500054582272E-03	-0.326346971887807	-0.922535371412435
836450000	-0.3373069398367	-0.921661082728544	1.30321866979282E-02	-4.39201255392451E-03			1.31175378826668E-02	-4.37408518357762E-03	-0.329298669475175	-0.923664647644913
837625000	-0.338964265949607	-0.919156530492408	1.30719412957328E-02	-4.28991241571034E-03			1.30838385379376E-02	-4.4227151809136E-03	-0.331233813419676	-0.921225628793707
838800000	-0.341016355599915	-0.918167025875066	1.30580305654568E-02	-4.40873272943702E-03			1.31647857685275E-02	-4.45348546443304E-03	-0.333425974241799	-0.922457881177236
839975000	-0.344806396305509	-0.918293223801132	1.30636671802309E-02	-4.46486848250644E-03			1.30772563512301E-02	-4.48849035980716E-03	-0.334881260504927	-0.921131578481882
841150000	-0.345443407420715	-0.916051734265971	1.30188037317243E-02	-4.39903331785381E-03			1.30560165745532E-02	-4.49649764716482E-03	-0.338385389258441	-0.918896900671255
842325000	-0.348548686801113	-0.913703599516383	0.013041284010894	-4.49415474767176E-03			1.30655636254001E-02	-4.51998032177059E-03	-0.338032575994372	-0.919812707166347
843500000	-0.350190729709071	-0.913958479044771	1.30185899885164E-02	-4.63936360875824E-03			1.29846515616821E-02	-4.48314021194518E-03	-0.341454925817346	-0.917029447087066
844675000	-0.353098341819567	-0.913682639719396	1.30204149064496E-02	-4.55303315202745E-03			1.29424901638221E-02	-4.51153448409684E-03	-0.344933697353023	-0.916050471964921
845850000	-0.356006343349531	-0.912725535173774	1.30259015649579E-02	-4.59557677643263E-03			1.29897175520979E-02	-4.54567431181915E-03	-0.345802866807738	-0.916222324557081
847025000	-0.358230311702414	-0.913458048980801	1.30522793068169E-02	-4.57648048517346E-03			0.013092882355183	-4.65344702272451E-03	-0.34929670359314	-0.914324734125345
848200000	-0.358813890785547	-0.909802108320071	1.30161775922128E-02	-4.68548090721854E-03			1.28865796844639E-02	-4.63948114114638E-03	-0.352816388122764	-0.915092053078512
849375000	-0.362148179974387	-0.910535217232006	1.30658353339249E-02	-4.73139971096222E-03			1.30110147224586E-02	-4.62878767696704E-03	-0.353596607566295	-0.914178459695299
850550000	-0.364547858413204	-0.909448885063528	1.29610968055737E-02	-4.78911591740756E-03			1.30575254274031E-02	-4.81212503028478E-03	-0.353966352109336	-0.914535360923672
851725000	-0.368536351694394	-0.907739471312506	1.30621420066583E-02	-4.75348134789281E-03			1.29875855900309E-02	-4.84776334304666E-03	-0.360864022415646	-0.908812362137275
852900000	-0.36965548498556	-0.906719642570061	1.29564082597099E-02	-4.81246935307839E-03			1.29772357558919E-02	-4.8264458657512E-03	-0.361396137617378	-0.910405020273069
854075000	-0.37125745369716	-0.905429432550837	1.29248139081467E-02	-4.9179066343352E-03			1.30004110848654E-02	-4.89639756654563E-03	-0.363234184277251	-0.909609426651958
855250000	-0.374661420637339	-0.907162617936531	1.29861801283376E-02	-4.95748432867078E-03			1.28593406455267E-02	-4.83691647194206E-03	-0.365165653979077	-0.907215446131843
856425000	-0.375783929893619	-0.904397133497639	1.30010232766701E-02	-4.94393560792534E-03			1.29870617533364E-02	-4.89260799075954E-03	-0.365192165535117	-0.908189077583001
857600000	-0.380250066735047	-0.902417848277063	1.28796189823747E-02	-4.9620073538861E-03			1.30343512117629E-02	-4.98029985995222E-03	-0.371681367026293	-0.905592787300406
858775000	-0.381967271407344	-0.902328464788716	1.28725524004654E-02	-5.01337913832779E-03			1.29819714136654E-02	-4.9131979014287E-03	-0.371501983770418	-0.906465482672137
859950000	-0.385128649239036	-0.902877179782694	1.29014194502514E-02	-5.14927941204087E-03			0.012925884731789	-4.9814666326774E-03	-0.376190241436275	-0.905109534037433
861125000	-0.386874923857356	-0.898812297348849	1.28980352446826E-02	-5.09879343896757E-03			1.28192745124387E-02	-5.07503052009341E-03	-0.378546932160319	-0.904121089260529
862300000	-0.390004428721716	-0.898796726619057	1.28338160597754E-02	-5.07602340562839E-03			0.012896067187337	-5.00045793316855E-03	-0.378769254753213	-0.89904561156333
863475000	-0.391079524760654	-0.897630164144097	1.29518485086059E-02	-5.09038991767486E-03			0.012910752959245	-5.09611022223007E-03	-0.380092168676178	-0.900281275318964
864650000	-0.392382554606788	-0.897849899522093	1.29138750843726E-02	-5.15425992546028E-03			1.28774661666821E-02	-5.17672551868074E-03	-0.388916773939136	-0.900190440319987
865825000	-0.397765992760162	-0.896592953286065	1.28102456153875E-02	-5.22294381661563E-03			1.28701137858359E-02	-5.21116552291338E-03	-0.388966230618098	-0.899760568963476
867000000	-0.398438704979399	-0.895997738655686	0.012885759248633	-5.22054357946235E-03			1.28717576716082E-02	-5.2435205434385E-03	-0.387858425933376	-0.896853771587122
868175000	-0.40131401206343	-0.89395905795013	1.27959597997494E-02	-5.29480581859127E-03			1.28433633710228E-02	-5.38807408461044E-03	-0.39191515844125	-0.895607379624548
869350000	-0.403204273348678	-0.892707761882972	1.27695988602049E-02	-5.25944363324051E-03			1.27968019112719E-02	-5.38094729114405E-03	-0.395414668635321	-0.896661125971639
870525000	-0.406538084924478	-0.890967130212469	1.27066853775896E-02	-5.40414944837653E-03			0.012744834542299	-5.33166780640166E-03	-0.395875340491373	-0.893143105476822
871700000	-0.408373333760773	-0.891018260603244	1.28168519815777E-02	-5.39477391033475E-03			1.27839177028056E-02	-5.44034894331866E-03	-0.400069481146494	-0.893938860830727
872875000	-0.410786851153816	-0.887908412048292	1.27398264499132E-02	-5.40220461502151E-03			1.28393309912855E-02	-5.45708454733936E-03	-0.404378778307629	-0.894527271794082
874050000	-0.412855646930385	-0.887958325597862	1.28130431619528E-02	-5.47323755813518E-03			1.27657715285501E-02	-5.46122159499876E-03	-0.405272557974078	-0.890920586446105
875225000	-0.416433802918938	-0.888367079590196	1.28036243491303E-02	-5.58602327645879E-03			1.27854585226802E-02	-5.5552778289758E-03	-0.408481178786758	-0.893608693074177
876400000	-0.417919656684131	-0.884978758675838	1.27249615034615E-02	-5.55091730494867E-03			1.27677523335699E-02	-5.52740388361796E-03	-0.408688519044299	-0.891800896510883
877575000	-0.418470456614445	-0.884911233465835	1.27904150205602E-02	-5.56405806227243E-03			1.26991410428743E-02	-5.60488112838728E-03	-0.411279002335883	-0.886336389021242
878750000	-0.422042526044202	-0.884070639569054	1.26339115700746E-02	-5.64413192026467E-03			1.27344385882396E-02	-5.60106895116286E-03	-0.414703491585326	-0.888996386603168
879925000	-0.424504514941522	-0.88124868518821	1.26131960935529E-02	-5.65097995939982E-03			1.26940124437011E-02	-5.75383904690977E-03	-0.416622633801125	-0.886373608217371
881100000	-0.426710280768051	-0.88143289245696	1.27143186334909E-02	-5.66223873321755E-03			1.26113621711221E-02	-5.73043597257133E-03	-0.419938269116393	-0.883137939358406
882275000	-0.429638494648582	-0.879887164769669	1.26875615449835E-02	-5.77981982286472E-03			1.27014356741843E-02	-0.005703150228361	-0.421097857139466	-0.883249078897746
883450000	-0.431483652335986	-0.879370228820886	1.26541426646238E-02	-5.78571883470404E-03			1.26036750333341E-02	-5.67042679079157E-03	-0.424465720188457	-0.881072272908742
884625000	-0.432092864838196	-0.876831849516068	1.26020105567633E-02	-5.74201592423741E-03			1.26057631939011E-02	-5.72269898150767E-03	-0.424202702916567	-0.88017478716528
885800000	-0.434033718177535	-0.877082092493605	1.26790906828665E-02	-5.88457457298676E-03			1.25351254497029E-02	-5.9560483889486E-03	-0.429850238237323	-0.880606602978311
886975000	-0.438483773114435	-0.875469154837193	1.25751344927371E-02	-5.89455758663822E-03			1.25876364382806E-02	-5.82502006710816E-03	-0.430210831176193	-0.879700136553551
888150000	-0.441174686012983	-0.874900938715343	1.26021239348181E-02	-5.87863791953239E-03			1.26642387695134E-02	-5.91026604404338E-03	-0.435511109714028	-0.877068448013908
889325000	-0.442826402457796	-0.87270024031415	1.25958958960368E-02	-5.89290670865316E-03			0.012596781559881	-5.94045362145074E-03	-0.436208319708812	-0.876023009940062
890500000	-0.447535379503839	-0.873079315194759	1.25299830224927E-02	-6.01026434054969E-03			1.25309453251839E-02	-5.99167175436333E-03	-0.438140507375075	-0.87614052352779
891675000	-0.446663061919404	-0.868993454883658	1.24909485683636E-02	-6.01959889654832E-03			1.25342609329348E-02	-6.03925375590253E-03	-0.439056050862266	-0.873043115246544
892850000	-0.448746850059037	-0.8679470224128	1.24956916934751E-02	-6.08352515333859E-03			1.25461770665229E-02	-6.08719325980265E-03	-0.443168287001357	-0.872047914791527
894025000	-0.452583001881546	-0.868592948634496	1.23867027681801E-02	-6.03168220913259E-03			1.23340895250321E-02	-6.1084497422005E-03	-0.444953085848548	-0.871339668783588
895200000	-0.458056784507896	-0.868029648234227	1.25069198823367E-02	-6.10132663181226E-03			1.24522995160277E-02	-6.11976564395069E-03	-0.448088895195303	-0.871390248928798
896375000	-0.455883688776895	-0.866657752695395	1.24800437540662E-02	-6.09887405887404E-03			0.012485327429314	-6.17608493627227E-03	-0.447598592683667	-0.86753444897797
897550000	-0.457677437135708	-0.864833358767693	0.01248221974203	-6.13219681538947E-03			1.24590358672904E-02	-6.15448084425551E-03	-0.450810730850558	-0.867487324293011
898725000	-0.461246085228896	-0.863885223031318	0.012435514199567	-6.17508129764038E-03			1.24446414891969E-02	-6.14338408744591E-03	-0.453164327507822	-0.865850802228873
899900000	-0.46349221428353	-0.860309553999426	1.24206174958533E-02	-6.21181894277751E-03			1.25158251397567E-02	-6.20165648603956E-03	-0.4572182216683	-0.866197371122987
901075000	-0.46669543734372	-0.858476824264137	1.25141450717815E-02	-6.20346946790235E-03			1.24850176748707E-02	-6.2247972648547E-03	-0.458013462986371	-0.863215228651421
902250000	-0.468889917436752	-0.858094915891982	1.23770671069009E-02	-6.11762528661552E-03			1.23890900527302E-02	-6.21096841337071E-03	-0.461921590731152	-0.862576876710312
903425000	-0.470967793407327	-0.856321460702285	1.23630101413271E-02	-6.25518006917645E-03			1.24207414939582E-02	-6.35868289056971E-03	-0.461654042388782	-0.862379622303502
904600000	-0.473511561694254	-0.858871552040064	1.23514975476491E-02	-6.31626013555122E-03			1.23766241662262E-02	-6.42914311003693E-03	-0.463949291907755	-0.860051958563154
905775000	-0.475055957428984	-0.856099959208533	1.24192130332015E-02	-6.34318209286543E-03			1.22833207234513E-02	-6.39717450008612E-03	-0.467287174333264	-0.859232147693794
906950000	-0.476157030640841	-0.853385487536137	1.23061758711178E-02	-6.45407776783777E-03			0.01224598493387	-6.41618283620465E-03	-0.468499546602901	-0.857429904164845
908125000	-0.481162980536863	-0.852968794048715	1.23917918364818E-02	-6.4370076943152E-03			1.22976343227368E-02	-6.41325254397411E-03	-0.471628195836943	-0.857908168898151
909300000	-0.483077608258933	-0.851326706618392	1.23203845794845E-02	-6.46619932140426E-03			1.23674358515977E-02	-6.47158526559014E-03	-0.474249915344381	-0.856623636364358
910475000	-0.482990541466341	-0.850832971530228	1.24141482470009E-02	-6.54398151734256E-03			1.23378120780714E-02	-6.51708890196623E-03	-0.474840228025934	-0.853694207661306
911650000	-0.486912605079313	-0.848063831055392	1.22429624878564E-02	-6.59383748232218E-03			1.22880796156199E-02	-6.58363583329956E-03	-0.479156113537156	-0.853248051534731
912825000	-0.489630240153207	-0.848421144082387	1.21690039063689E-02	-6.57128474686378E-03			1.22587307840601E-02	-6.61081928049771E-03	-0.481053655375558	-0.852389598691382
914000000	-0.492167849072119	-0.847820115514594	1.22764153733615E-02	-6.53498699182623E-03			1.22231957547093E-02	-6.57745004756571E-03	-0.483449677063055	-0.854039105295761
915175000	-0.493471807671675	-0.845527978554582	1.22089050489849E-02	-6.61364088133814E-03			1.21754878672763E-02	-6.64680649037671E-03	-0.486914127950504	-0.848202183845184
916350000	-0.496571796983782	-0.843557846663659	1.22976656832801E-02	-6.59809342159425E-03			1.22799780422197E-02	-6.80532884982237E-03	-0.487729967984505	-0.847491541547561
917525000	-0.498247639341097	-0.841179665649225	1.21988534768072E-02	-6.71519479185412E-03			1.22447869403644E-02	-6.69810934355581E-03	-0.489937247025877	-0.848105343521609
918700000	-0.499615450472333	-0.841359856941591	1.21243273415174E-02	-6.76402365105844E-03			1.22001238855467E-02	-6.74602687155846E-03	-0.493728020227503	-0.847801516297966
919875000	-0.502459786380115	-0.839757544230753	0.012175961451699	-6.73552787079734E-03			1.20977573364823E-02	-6.76141190989811E-03	-0.492786553536023	-0.846213224777958
921050000	-0.502744088510832	-0.839770214400056	1.21079529055938E-02	-6.81579521051159E-03			1.21243100708837E-02	-6.85946480512577E-03	-0.495018412404053	-0.844731769354048
922225000	-0.507001586435307	-0.836549549643689	1.21421974427727E-02	-6.87117580464767E-03			1.21305607753148E-02	-6.95547472596491E-03	-0.498947152203032	-0.841149372376053
923400000	-0.507611440574276	-0.833776412677391	1.20450754098364E-02	-6.82261478488251E-03			1.21009357783236E-02	-6.86165201919272E-03	-0.50125477311811	-0.839258377090552
924575000	-0.511987671739612	-0.836734809942438	1.20992232914517E-02	-6.94176235914474E-03			1.20768506286014E-02	-6.85471757768213E-03	-0.50236065803093	-0.838973544804829
925750000	-0.512901256752455	-0.833041914674851	1.19934034822095E-02	-6.94590851717579E-03			1.20994767822922E-02	-6.99700899385322E-03	-0.504834344258076	-0.836337324428831
926925000	-0.513109395804671	-0.831944433784691	1.19744821862826E-02	-6.96006203835036E-03			1.20102309370765E-02	-7.05899978725717E-03	-0.507336605852868	-0.835931719113609
928100000	-0.517754134355427	-0.82842547084325	1.19724188031287E-02	-6.97892830180557E-03			1.19148298375498E-02	-7.05205416376587E-03	-0.509995734731714	-0.835216489238927
929275000	-0.518419263325604	-0.829647051009151	1.19309029370142E-02	-7.00571455754536E-03			1.19606705258356E-02	-7.11385334018351E-03	-0.511278034759523	-0.83400907972103
930450000	-0.520775605425204	-0.825557089421239	1.20854360880148E-02	-7.10635918700268E-03			1.19272452342686E-02	-7.14514146655029E-03	-0.513351453542804	-0.831691202383296
931625000	-0.526379813338602	-0.828345621448538	1.19336228549315E-02	-7.12611754720902E-03			1.19091974973085E-02	-7.11570870850585E-03	-0.516293330305382	-0.82887547518832
932800000	-0.529117505756449	-0.824433835974935	1.18987303537873E-02	-7.08810641751994E-03			1.18650542763967E-02	-7.10113129685561E-03	-0.518375296775675	-0.829478265992693
933975000	-0.527758816144682	-0.824819351037926	1.19128951944352E-02	-7.20606370292417E-03			1.18582650949091E-02	-7.27153534123895E-03	-0.519878451119899	-0.826377320073141
935150000	-0.530833563775402	-0.821933009422702	1.18639139818678E-02	-7.18040973860949E-03			1.18916580152432E-02	-7.16718487122095E-03	-0.523778181412471	-0.826448854543703
936325000	-0.532953673917921	-0.819103093481095	1.17444137809427E-02	-7.29134837587858E-03			1.18010173957569E-02	-7.20574006028857E-03	-0.524877555108754	-0.827264348991718
937500000	-0.535194059976073	-0.818253125999802	1.17646825127586E-02	-7.24459713113636E-03			1.18467043326402E-02	-7.27378064228699E-03	-0.526848794013357	-0.82256272790737
938675000	-0.536678944700446	-0.817870673527128	1.18206767098252E-02	-7.33174541883795E-03			1.17655169561892E-02	-7.28243356008685E-03	-0.529546541887139	-0.823054162490794
939850000	-0.536952204280171	-0.815893853669487	1.17528156645864E-02	-7.26031350586062E-03			1.16976925065162E-02	-7.46021766599161E-03	-0.532019613976159	-0.82040001429252
941025000	-0.541044516026559	-0.811928847230397	1.16588030066154E-02	-7.31162085467852E-03			0.011697509748508	-7.41152483300371E-03	-0.532920253391858	-0.819131919408701
942200000	-0.542834486388341	-0.812692387458255	1.17153334409978E-02	-7.34288601630384E-03			1.16501998725186E-02	-7.33659408639205E-03	-0.534469403877105	-0.818517908409039
943375000	-0.54950742646992	-0.811016370314894	1.16388923890759E-02	-7.38228495686604E-03			1.17485400056131E-02	-7.35837498854042E-03	-0.537798567669453	-0.81678601136997
944550000	-0.548969861597658	-0.807670625813418	1.16251462866591E-02	-7.53700211298499E-03			1.15899137148332E-02	-7.53533082442703E-03	-0.539257320653354	-0.81624112192121
945725000	-0.549757277911932	-0.809566397037822	1.15531499310459E-02	-7.5055154407966E-03			1.16398616834621E-02	-7.48298054936073E-03	-0.542498517450826	-0.814504833892901
946900000	-0.552454580055616	-0.805662091357237	1.15971562707142E-02	-7.60106419090032E-03			1.14977283377412E-02	-7.53177456770758E-03	-0.544217998931926	-0.811835735968445
948075000	-0.555545738613935	-0.804826507615819	1.15057221627762E-02	-7.57714338605131E-03			0.011579235249665	-7.61720245858719E-03	-0.545093611475861	-0.812422364092674
949250000	-0.557169384965233	-0.804269333160798	1.15676473887441E-02	-7.56488443257409E-03			1.15543345213738E-02	-7.50267133639782E-03	-0.547230107684809	-0.812316030299086
950425000	-0.558974284492092	-0.800953294766653	1.14877490882481E-02	-7.58096701045556E-03			1.13879634410796E-02	-7.56078672484283E-03	-0.549640229805105	-0.808767154225233
951600000	-0.561768938392419	-0.801612832843859	1.14835888042768E-02	-7.5956939424836E-03			1.15239028717105E-02	-7.56068831282531E-03	-0.55187414445678	-0.80627839077245
952775000	-0.563972903575448	-0.796882937931747	1.13761296620339E-02	-7.63438193563437E-03			0.011486237194708	-7.61572413335939E-03	-0.555213027200362	-0.804163276062517
953950000	-0.564212177203923	-0.796355067298351	1.13532531526927E-02	-7.66604398560303E-03			1.14961919066286E-02	-7.60382688003885E-03	-0.556995902524302	-0.802922148860021
