# Hz S RI R 50
300000	0.995110812860419	-5.02078954856036E-04	1.52933522106301E-04	5.09349209019429E-05			-7.38493627702089E-05	2.95959865031241E-05	0.997910907288501	-2.02393281232337E-03
2174812.5	0.999249357574528	-6.79407925345247E-03	4.96840108932945E-05	7.79278571603643E-05			4.31228160169773E-05	7.04175752630699E-05	1.00135120710848	-7.51309202570625E-03
4049625	0.998915820696909	-1.49887451162288E-02	4.10296429175522E-05	1.7698086021516E-04			-6.88516257756324E-05	1.76629242700535E-04	0.998943942001449	-1.43640571372849E-02
5924437.5	0.999918262214713	-2.23058915019262E-02	-8.46027577366951E-06	2.31705816417744E-04			1.29645707497133E-05	2.3377809542022E-04	0.999099697998552	-2.16108577979815E-02
7799250	0.998477168967885	-2.85684083804622E-02	4.80833554072586E-05	3.73106279980833E-04			-5.27525125437454E-06	3.23959173150796E-04	1.00026133225474	-2.94032971041536E-02
9674062.5	0.998287833197507	-3.49303110747546E-02	-1.30414869961898E-04	3.94096242455461E-04			-9.35800896854618E-05	4.15140755630388E-04	0.997434119470424	-3.54133312386608E-02
11548875	0.998738550224227	-0.040821109836781	8.64865766648205E-05	5.92598161976205E-05			1.54099644778744E-04	1.10524149191786E-05	0.998150924335554	-4.25520253819997E-02
13423687.5	0.998711551156413	-4.75295148848162E-02	-5.38823361258666E-05	3.95143341521742E-04			-1.15760321576055E-04	3.71801786261528E-04	0.998826377162738	-0.049153346536581
15298500	0.998898840219503	-5.34938182311987E-02	-2.78070724606997E-05	5.42290358769108E-04			3.84650702885885E-05	5.04691953559638E-04	0.99570637737494	-5.57486637579772E-02
17173312.5	0.995876180473594	-6.16346260029105E-02	-2.12022782145345E-06	5.70911334000505E-04			2.59445133840294E-05	6.6372408080355E-04	0.997242140374813	-6.28689565989813E-02
19048125	0.994907710781834	-0.068268846662579	3.32915427332951E-05	2.09581915864531E-04			5.27940133921758E-05	2.60822908075948E-04	0.997206699651297	-6.97090050667386E-02
20922937.5	0.997879571496957	-7.08673235208172E-02	-1.17741081485093E-04	7.73877390953524E-04			-2.00699651591159E-04	7.95909796648947E-04	0.996508489402886	-7.67561061760304E-02
22797750	0.99594774448031	-7.97748296670727E-02	1.31650050863277E-04	8.24711244059048E-04			2.84815594990412E-05	7.81556743331945E-04	0.995729157878315	-8.40199457574431E-02
24672562.5	0.994755396095693	-8.61832414043974E-02	-1.34125763120969E-04	4.58476113303755E-04			-1.25062835185571E-04	5.58800722588424E-04	0.992142475702693	-9.16811670032698E-02
26547375	0.994637965971458	-9.13874629234343E-02	1.3353785073557E-04	9.50487053749506E-04			8.35143402581795E-05	9.59884329548079E-04	0.992417093114543	-9.72339494339515E-02
28422187.5	0.993625843207311	-9.90250403734969E-02	6.53371177825399E-05	8.24773992219833E-04			9.8448494623647E-05	8.36530159177639E-04	0.994141216553617	-0.101445347961463
30297000	0.992084410179055	-0.104822963085145	9.21466157015773E-05	1.11201912737022E-03			1.24644233705639E-04	1.08653082840341E-03	0.991088356312616	-0.109676709800316
32171812.5	0.995162631117944	-0.112812675698384	1.46228930626771E-04	1.17901123845844E-03			1.5557663948078E-04	1.08071686405985E-03	0.990051116253904	-0.116133117318445
34046625	0.993373615978208	-0.117574402181224	2.93601895155759E-04	1.07088922979898E-03			1.71950642568198E-04	1.1317847844361E-03	0.989486439430541	-0.12405971354791
35921437.5	0.990643926009187	-0.12492703117002	2.38283362117337E-04	1.03415970103699E-03			1.99967935363703E-04	1.08102262098799E-03	0.990972801253077	-0.131750263256425
37796250	0.989416838268163	-0.129693007760748	-7.67146317008651E-07	1.32189342274923E-03			-1.00029941724923E-05	1.22147501680441E-03	0.986429404372188	-0.136030858364053
39671062.5	0.986622162938078	-0.137474501859501	1.05823557891816E-04	1.08102974048164E-03			1.06035281623639E-04	1.04292513819736E-03	0.986389254518994	-0.144551418877777
41545875	0.986707333512509	-0.144184149109586	1.94603800341545E-04	1.27677411401019E-03			2.51848025278201E-04	1.29072879842704E-03	0.987170610916308	-0.150888104918395
43420687.5	0.986415477604521	-0.150690638330322	1.83029904500596E-04	1.25270514764678E-03			1.76300653784199E-04	1.22590569856722E-03	0.985798400598753	-0.158128567574959
45295500	0.98233220173642	-0.156797732526488	9.02970110740387E-04	1.5070835134673E-03			1.02877069416795E-03	1.43841693625669E-03	0.981590304332699	-0.164803011517359
47170312.5	0.984237959907288	-0.162433967281175	2.56655662005638E-04	1.22074100258504E-03			2.87733932905184E-04	1.35360773301439E-03	0.980776826201665	-0.171408898734763
49045125	0.981468880762181	-0.170457498144459	2.21345786942996E-04	1.36471246054966E-03			8.07023044422943E-05	1.26950821509285E-03	0.981388878684431	-0.179048213242309
50919937.5	0.980830291508374	-0.176228002783932	2.07656995420554E-04	1.68786972378903E-03			3.59890711346752E-04	1.50920123503165E-03	0.978507569412584	-0.186153461237103
52794750	0.977297228233733	-0.180428476773858	4.20824489330026E-04	1.64150471829852E-03			4.24980327442259E-04	1.61523141930117E-03	0.978378287539716	-0.192453153849121
54669562.5	0.977448376989754	-0.190673334708842	3.06355713323009E-04	6.11609363564897E-04			3.2002514462616E-04	6.34711600623484E-04	0.976757778762446	-0.196078449561003
56544375	0.977715026800781	-0.194111522950215	4.27038866211635E-04	1.74177113600915E-03			3.04573052579871E-04	1.74227373109854E-03	0.978375668341263	-0.20296129666588
58419187.5	0.97742586735069	-0.202800592707689	2.26999997798374E-04	1.57916015707579E-03			3.3349920300567E-04	1.57555080537977E-03	0.975913799675018	-0.212656566540645
60294000	0.974558860397561	-0.208231655079663	4.0434676768525E-04	1.84213275156834E-03			3.69524857979982E-04	1.8976041926475E-03	0.973494053155068	-0.215070365504057
62168812.5	0.970988946167251	-0.214783994586393	6.1067539442736E-04	2.0632515317951E-03			6.50412373486316E-04	2.01530499793282E-03	0.971578979606946	-0.225800254228999
64043625	0.969683679001039	-0.217923952300004	4.84023640495937E-04	1.95491214413676E-03			4.53231612782244E-04	1.94352954909932E-03	0.969693709927001	-0.22988961944122
65918437.5	0.970159679301766	-0.226588363137881	5.40769187854415E-04	2.00535287198521E-03			6.00950487335971E-04	2.01067595065656E-03	0.966428150001087	-0.233822749471334
67793250	0.967915610378801	-0.233479678282991	6.73910616043096E-04	1.84479947120901E-03			6.27318079318547E-04	1.80073486190094E-03	0.967578434667514	-0.243459902039713
69668062.5	0.967488185146379	-0.238275021020985	6.77516215715855E-04	2.01736859953754E-03			6.54610883770176E-04	2.06136549682129E-03	0.96755069207227	-0.251552924757217
71542875	0.963741377272575	-0.245135377036663	6.32331948488167E-04	2.03712367338604E-03			7.03144623381323E-04	2.01138423612391E-03	0.96286278783151	-0.258101692873783
73417687.5	0.960996433926073	-0.249287605960308	7.82635542642657E-04	2.26990010738014E-03			8.35531990575927E-04	2.23036087859536E-03	0.96172749043864	-0.261449152904986
75292500	0.961153014323106	-0.257307299856403	5.87200898070249E-04	2.27214554106675E-03			6.63850780790271E-04	2.18917547379222E-03	0.958661430213593	-0.269808554841405
77167312.5	0.957558307963523	-0.26301127383638	8.66437892308255E-04	2.41165550707158E-03			8.73355652342135E-04	2.36691354232169E-03	0.955803993849855	-0.276871876295959
79042125	0.955486093584966	-0.269988456547769	6.29314375441213E-04	2.2813756784018E-03			7.44793245634957E-04	2.20451195145162E-03	0.953981221119366	-0.283297678134577
80916937.5	0.954020331100819	-0.279047743075564	7.13650101416372E-04	2.47140204556284E-03			8.56155026890762E-04	2.4871925932689E-03	0.9541108677534	-0.289602435454261
82791750	0.953458904336742	-0.282539390152959	9.04680557187995E-04	2.49832581809423E-03			9.38867447733605E-04	2.55335688764616E-03	0.953803097063354	-0.293323825197246
84666562.5	0.950238439898004	-0.287601556210394	1.04805145940566E-03	2.3800297268547E-03			1.0465699762298E-03	2.43228875344953E-03	0.949159483982395	-0.301864176421626
86541375	0.947819569156774	-0.29505335555655	0.001325853059078	2.43098390006345E-03			1.35299812266865E-03	2.30353265747737E-03	0.944839460068258	-0.30962482248395
88416187.5	0.946323087898077	-0.301580663682159	7.22041378247025E-04	2.17894539507863E-03			7.39226242074095E-04	2.19617411735332E-03	0.942581081509465	-0.313300262277246
90291000	0.943287007346632	-0.308204087454389	9.13832505004499E-04	2.63920000543745E-03			9.9802117365662E-04	2.67230348311238E-03	0.940705168143064	-0.320431450761126
92165812.5	0.941379285388641	-0.311745599354609	8.2809590387121E-04	2.56207359296956E-03			8.05900981781006E-04	2.49170450974875E-03	0.94014658554692	-0.326714475514006
94040625	0.938110943204842	-0.320099742863027	1.07977830202888E-03	2.62430520417091E-03			1.04558033703157E-03	2.6449318506591E-03	0.936902534827984	-0.333064526504409
95915437.5	0.937575593962691	-0.324255871369124	1.11160818852489E-03	2.62104906638988E-03			1.16359199070571E-03	2.61106606579634E-03	0.933874380199465	-0.338423736914451
97790250	0.935534102246172	-0.331179175961751	1.0081375231037E-03	2.70737971632475E-03			9.75181324122371E-04	2.69524995460241E-03	0.931751341727882	-0.34579977821804
99665062.5	0.929045636755099	-0.335761167179867	9.33306057200487E-04	1.78483522903563E-03			9.08644642631859E-04	1.74853165563474E-03	0.928404152798553	-0.352236907048825
101539875	0.929418904306384	-0.342428796991705	1.11079977774966E-03	2.93282077993333E-03			1.03538929945086E-03	3.00684514857278E-03	0.926312195119499	-0.356256398455802
103414687.5	0.928541926059403	-0.347907436848572	1.41593420222375E-03	2.86359191415242E-03			1.38947059821617E-03	2.8602846752423E-03	0.926162152790033	-0.364738166775039
105289500	0.925164215448385	-0.354488711413419	1.11851054938954E-03	2.67002194559751E-03			1.07158399788931E-03	2.63854774266252E-03	0.922569479695475	-0.370580149656755
107164312.5	0.923130919084072	-0.360668475364471	1.29481015262679E-03	2.73161966053414E-03			1.3592231336237E-03	2.7241169714703E-03	0.920129149428979	-0.377777456548213
109039125	0.919298221399408	-0.364591912950996	1.29034756740591E-03	2.94674045172007E-03			1.26241151291617E-03	2.9367047972194E-03	0.917454608041545	-0.382584262245192
110913937.5	0.918724975810766	-0.371183274006405	1.3390768624612E-03	3.08123958776541E-03			1.39504915434196E-03	3.07674306011205E-03	0.916163244217298	-0.388650521120442
112788750	0.914215042771424	-0.376962510117878	1.2810105382023E-03	3.02432687913516E-03			1.28103484211806E-03	3.01111971311335E-03	0.912433042051741	-0.395327130446035
114663562.5	0.910384402329831	-0.38333852138174	1.24537153835789E-03	2.91169558705691E-03			1.21203735770099E-03	2.84789948969382E-03	0.9083548799241	-0.401690091580615
116538375	0.909505543283471	-0.389121801081887	1.38331985783103E-03	3.12309878470554E-03			1.42149926956397E-03	3.18375957665367E-03	0.906725279610371	-0.407412930802635
118413187.5	0.906267122926184	-0.394581398397768	1.19776317230558E-03	3.17733211138129E-03			1.14298264276635E-03	0.003110664351984	0.902345450348457	-0.412477883852323
120288000	0.903815109116449	-0.401407966133222	1.57596533948225E-03	3.22912717540528E-03			1.63533672744802E-03	3.26106868094296E-03	0.900521861619929	-0.418866323965719
122162812.5	0.900322321708927	-0.405387168021166	1.50557359634513E-03	3.15524934088478E-03			1.53530399187453E-03	3.11371045804698E-03	0.897622063359419	-0.424273784333458
124037625	0.896318628322691	-0.412364760388393	1.78838333352377E-03	3.37103326601702E-03			1.77200448298721E-03	3.37926368163737E-03	0.895209865649083	-0.432497323015133
125912437.5	0.893879002260027	-0.418805429388357	1.92735848906645E-03	2.94082315352084E-03			1.87301335527246E-03	3.03823546598772E-03	0.891597504052109	-0.437174364647067
127787250	0.892340471252228	-0.421838367315427	1.76262698540509E-03	3.71148345421297E-03			1.85015636625285E-03	3.72249373412056E-03	0.887861090106359	-0.442258480584118
129662062.5	0.889305384535061	-0.427946791279558	1.73797460969332E-03	2.99297171920434E-03			1.69790604773661E-03	3.00763391728713E-03	0.883969246116051	-0.447997082540342
131536875	0.886381690224273	-0.433903670886512	1.86231019664125E-03	3.35159049775135E-03			1.79034847706774E-03	3.36900401804735E-03	0.880713195086166	-0.45433909384464
133411687.5	0.881751579894041	-0.44130248496176	1.77718612552634E-03	3.19234316841485E-03			1.7297310754302E-03	3.27995984926263E-03	0.87671021724585	-0.460264369621201
135286500	0.879695755163882	-0.44630809397905	1.98997940185843E-03	3.32676259119597E-03			1.9362710287088E-03	3.30798877276372E-03	0.874022610860399	-0.468717261054128
137161312.5	0.87518871467644	-0.449939513259128	2.07747085918698E-03	3.56581854835144E-03			2.01218600411743E-03	3.65227963842849E-03	0.871860691597371	-0.472922475959318
139036125	0.873526813461553	-0.45729000408497	2.1107279816236E-03	3.05741422244652E-03			2.1164119567666E-03	3.07768317754531E-03	0.869491135710576	-0.47678280384781
140910937.5	0.87066442342936	-0.461092402546302	1.98396811436998E-03	3.23364207897215E-03			2.11192667829126E-03	3.3085041736468E-03	0.866290316936375	-0.486321972514135
142785750	0.865967361135081	-0.46644301061659	1.91020261796897E-03	3.56440026989543E-03			1.94075019033798E-03	3.53113428424676E-03	0.863609668785152	-0.489575352265305
144660562.5	0.85948316264714	-0.471984987110941	2.23775029598955E-03	3.27917352649581E-03			2.33957312062266E-03	3.34963681398107E-03	0.857577132732574	-0.493662959667121
146535375	0.859541201904028	-0.477700710353653	2.24340150825782E-03	3.61492857728864E-03			2.23467948120955E-03	3.65030633337717E-03	0.857703832173659	-0.501708064633983
148410187.5	0.857058783740987	-0.484628313677233	2.08639698554009E-03	3.15841474439273E-03			2.06245487947793E-03	3.22678801536383E-03	0.853693946111405	-0.506037622072652
150285000	0.854960927389623	-0.4893481637855	2.19347183439861E-03	3.31647563528543E-03			2.19955613335157E-03	3.31174114089906E-03	0.849464955972448	-0.512161357353277
152159812.5	0.849140518989859	-0.493175889744621	2.12487292302586E-03	3.71813513721204E-03			2.13235639807118E-03	3.60971838244127E-03	0.847649531129345	-0.518629705303077
154034625	0.84764212598306	-0.497729842822485	2.21661305633037E-03	3.66933405045726E-03			2.30557309000393E-03	3.77302125436134E-03	0.840729542210872	-0.520933055482748
155909437.5	0.841279801871031	-0.504675228517997	2.65494436875063E-03	3.66841363646406E-03			2.6312219714669E-03	3.64358543198864E-03	0.838244449248818	-0.527484683436031
157784250	0.837179842615903	-0.508386224683979	2.3732560084737E-03	3.67766918569427E-03			2.38560399274196E-03	3.73286166479351E-03	0.834247979718746	-0.53344600685075
159659062.5	0.837193553676465	-0.515146009225272	2.47609767194909E-03	3.61350326307817E-03			2.43678995737455E-03	3.65358848410004E-03	0.831115466757198	-0.538710177705756
161533875	0.831169299611932	-0.520121897067731	2.5602985124519E-03	3.61386102003549E-03			2.52598589893851E-03	3.6121661937668E-03	0.825619862743946	-0.544994399607317
163408687.5	0.826720368423566	-0.524147948255952	2.43840045305898E-03	3.8361931797274E-03			2.41647891505734E-03	3.89413759664548E-03	0.822250953071576	-0.549393189977487
165283500	0.825880512530824	-0.529307541910631	2.70594740225493E-03	3.6630143576106E-03			2.72637368759722E-03	3.65916952084785E-03	0.819975090562455	-0.555726898764035
167158312.5	0.819882405882365	-0.536801436413266	2.57859016005266E-03	3.8688263295739E-03			2.6159411432506E-03	3.8297479673535E-03	0.81551961414543	-0.560338551882519
169033125	0.817390780268024	-0.539316604006951	2.75574981783457E-03	3.84457179012237E-03			2.72996678510517E-03	0.003888195848535	0.811015007251787	-0.565783625702302
170907937.5	0.812714945521244	-0.546384021149688	2.82624161269534E-03	3.74693752796489E-03			2.90097626442822E-03	3.67762483973631E-03	0.808795098875899	-0.572472570824197
172782750	0.808852000142911	-0.54954246329358	3.09949371551196E-03	3.67952671197857E-03			3.06475354848623E-03	3.63647522389205E-03	0.803141109854722	-0.576136141969256
174657562.5	0.806185483977347	-0.555044409862174	2.99161290745351E-03	3.45617808076647E-03			2.99982810640445E-03	3.46630189706007E-03	0.798644587379269	-0.580221158121473
176532375	0.803247697423587	-0.56085004322222	3.01834833165481E-03	3.58164536103608E-03			3.05622216024689E-03	3.64107771109254E-03	0.795557916731045	-0.584311103369184
178407187.5	0.799837553930367	-0.564952879049166	2.89718375480634E-03	3.82198124768422E-03			2.92573742970958E-03	3.78558599493913E-03	0.792503717585573	-0.592465718704355
180282000	0.794962725545393	-0.569173788645768	3.07184632482567E-03	4.00140961258642E-03			3.12085746468493E-03	3.9205590682897E-03	0.786852989879153	-0.598171768912024
182156812.5	0.792725573712942	-0.573981346318811	0.003236118949943	3.96498965003077E-03			3.22969794929527E-03	3.99659306250247E-03	0.782895341723312	-0.602121160810737
184031625	0.788940265676716	-0.578316211562485	2.88132264001196E-03	3.58513819413909E-03			2.94713964481736E-03	3.52608106295219E-03	0.779109346233901	-0.606939982599963
185906437.5	0.78349060874786	-0.584262662247438	3.21812442110665E-03	3.89635680702339E-03			3.16964106537045E-03	3.89966395096618E-03	0.777338523608981	-0.612937517975241
187781250	0.779346377374185	-0.590264661557136	3.26495639178785E-03	3.8945624939203E-03			3.34734231768618E-03	3.91592509870132E-03	0.77219708148702	-0.616728990866588
189656062.5	0.773638148776862	-0.596224875530292	3.70397828886399E-03	3.92627682169429E-03			3.67902561347199E-03	3.96723354859257E-03	0.765442947632587	-0.622259456866987
191530875	0.772291198177289	-0.597156688963396	3.58590055569725E-03	3.75047776183088E-03			3.54713463423796E-03	3.73707661306306E-03	0.762371125225703	-0.62517283597628
193405687.5	0.768050942106699	-0.602504217733354	3.20034180246615E-03	3.73415879804925E-03			3.15112729152721E-03	3.80311729392712E-03	0.760137117698125	-0.630583515521332
195280500	0.764102543261638	-0.608379300693626	3.26916681756904E-03	3.99990343573575E-03			3.23955397275205E-03	4.00825886636474E-03	0.755812429366525	-0.635586307358512
197155312.5	0.759541841959879	-0.612778058780375	3.48921655271404E-03	3.93510725334911E-03			3.53922512154427E-03	3.86644000969094E-03	0.750680908416251	-0.64129687339147
199030125	0.752043800983473	-0.615911910594792	3.26217763132816E-03	3.70364266177623E-03			3.23424086136487E-03	3.83110612543168E-03	0.745500377881053	-0.644454518659056
200904937.5	0.748871212249742	-0.620537942604471	3.82527988086943E-03	3.80279680061231E-03			3.87178543690766E-03	3.79157629600078E-03	0.740004942662523	-0.648688018602797
202779750	0.747056231201085	-0.625669577497066	3.44852725148617E-03	3.67154316835798E-03			3.4270177954731E-03	3.59367857203783E-03	0.740114580238694	-0.656265833797703
204654562.5	0.742945214145574	-0.630868210737836	3.56400070836474E-03	3.85052026689049E-03			3.62689009638871E-03	3.76056103474006E-03	0.732868564104853	-0.660729789277639
206529375	0.738882059544468	-0.634233838792257	3.67466373181655E-03	3.85881730649241E-03			3.62027618624083E-03	3.87959089684251E-03	0.727542337435785	-0.664572385657921
208404187.5	0.735735972120175	-0.637798007347453	3.45259269938487E-03	4.19056608934748E-03			3.37460407087828E-03	4.18926587135363E-03	0.723899050411384	-0.667164033154121
210279000	0.729670537891098	-0.642613872160125	3.67154299299431E-03	3.70767299896562E-03			3.74996157252983E-03	3.70252879032456E-03	0.720413494944117	-0.674312444256776
212153812.5	0.726857199782285	-0.648627013196865	3.6314830765852E-03	3.94268102843453E-03			3.60850088141726E-03	4.00348630585916E-03	0.71579244464736	-0.678749245015126
214028625	0.722021976712353	-0.651963118980457	4.01402142431429E-03	3.97322210147695E-03			3.97844689822489E-03	4.04320948951746E-03	0.71020421534419	-0.681882322934264
215903437.5	0.719456743714398	-0.656011241063939	3.84657367445304E-03	4.16208484205171E-03			3.9548235304883E-03	4.0039124165973E-03	0.704236580035096	-0.685809825761779
217778250	0.713028006501659	-0.659213800626656	4.23476919604534E-03	4.19468758369261E-03			4.17260777913465E-03	4.16894040483984E-03	0.701477351685487	-0.690661820830513
