# Hz S RI R 50
300000	0.999907826663738	-2.51355399600492E-03	3.13277549293087E-05	-2.00088877794766E-05			3.962995450739E-06	-3.01754267266023E-05	0.99975632385205	-7.954901867181E-04
1862312.5	1.00044000239919	-7.72127263455476E-03	-3.27024924835716E-06	-1.54629962535423E-06			-1.13794641266018E-05	1.98478304095959E-06	1.00016451816547	-7.40598864629928E-03
3424625	0.99975645699348	-1.43272102452986E-02	-1.34532062708795E-05	4.1664662147033E-06			5.84435757803707E-06	1.34618378283182E-05	0.999936217734172	-1.37889701880916E-02
4986937.5	0.999844704001379	-2.02584207707629E-02	-3.6365495636474E-05	7.32136933615762E-05			-3.24805424953488E-05	5.74743385448365E-05	0.999564054343782	-2.05029117158245E-02
6549250	0.999526573074889	-2.67810973868594E-02	-5.07855938911163E-05	-2.52254886213424E-05			-3.46015633596722E-05	-3.39635704652996E-05	0.999215437760724	-2.70252661832195E-02
8111562.5	0.998719137769782	-3.27604839858461E-02	1.65552383318126E-04	-9.0971555294048E-05			1.47156389673328E-04	-8.30233659943116E-05	0.999411246649636	-0.033235257743103
9673875	0.99896223263357	-0.038984714401178	-1.29908173406831E-04	1.80809795699175E-04			-1.58305338468349E-04	2.0147639524467E-04	0.998911531444438	-3.92242933387461E-02
11236187.5	0.998718349867834	-4.53409183043086E-02	1.68539310405271E-05	3.89361068343343E-05			1.82500985050804E-05	4.38976672961763E-05	0.99863471923058	-4.58841817249562E-02
12798500	0.998191772087082	-0.051750233009626	5.84122877800015E-06	2.5298557380531E-05			-2.96004619650691E-07	5.60599569801855E-05	0.998535986503825	-5.19476407608906E-02
14360812.5	0.997719244515704	-5.75455305998378E-02	1.30424109600007E-04	-1.45372650746018E-04			1.10073162046287E-04	-1.45923760895528E-04	0.99779840290522	-5.81623778820387E-02
15923125	0.997802212412006	-6.41726673231042E-02	-4.00709856833692E-05	-1.56832356425736E-06			-2.11764483782726E-05	1.18289542646014E-05	0.997338292369482	-6.47859319665352E-02
17485437.5	0.99719638760573	-7.06409482554837E-02	-6.1402676960197E-07	1.43151637393078E-05			-2.8723601252116E-05	2.09332531723963E-05	0.997037024203154	-7.08762048041525E-02
19047750	0.996318949260668	-7.68999339015244E-02	-1.91313103262684E-05	3.90093341098649E-05			-2.11227585340809E-05	4.36801687101318E-05	0.996605409712092	-7.73233404492495E-02
20610062.5	0.995976504811588	-0.082574234219277	2.86682757517087E-05	-1.23899768971962E-05			6.09298605677632E-05	-1.6114324574402E-05	0.995783543373409	-8.28558519698347E-02
22172375	0.99535306771102	-8.93423917609411E-02	-3.22603483216684E-05	-1.10462937098542E-04			-5.99838354623412E-05	-1.09042608788597E-04	0.995012518636774	-8.95450986284717E-02
23734687.5	0.994653473639305	-9.50624000514116E-02	3.8484359674751E-05	9.82451458226744E-05			4.1254857417629E-05	9.16863434597704E-05	0.994150201785861	-9.57741537908011E-02
25297000	0.993894550972373	-0.101898283944084	5.80755225726317E-05	-2.70360225754031E-05			5.87151422709252E-05	-2.78653011737593E-05	0.993948317532459	-0.102358333901783
26859312.5	0.993148006074703	-0.10744644731763	4.82339115723352E-05	-1.45610094541884E-05			5.6966684497645E-05	-2.04915781848928E-05	0.993076814220361	-0.10834054401319
28421625	0.992219686720951	-0.114340244148832	1.75999014434272E-05	-6.3118385388677E-05			2.66885598051787E-05	-7.82217149760252E-05	0.992346525558022	-0.114044990152535
29983937.5	0.991669686398748	-0.119894763682323	-9.03083532075213E-05	1.05414535468164E-04			-6.04308205272548E-05	9.65169973704285E-05	0.991368972600226	-0.120426236970712
31546250	0.990905439520334	-0.126170363267808	7.90718067142342E-05	1.45726151257013E-05			6.00021466316857E-05	-8.33061332935895E-06	0.99073532077247	-0.126836980160614
33108562.5	0.990212767858963	-0.132591248302673	-1.41961360944698E-05	6.60677780084586E-05			-7.78136711287629E-06	5.54245320522622E-05	0.989971031714361	-0.133484645323162
34670875	0.988981499511221	-0.138660300149027	1.86059891089097E-05	3.0237523188194E-05			2.80654898921341E-05	4.14997032168495E-05	0.988758342942455	-0.139385316600813
36233187.5	0.988112968277615	-0.145274411856804	-1.36134466252433E-05	1.40620416010378E-05			-2.0492814943322E-05	7.71028987528706E-07	0.987937587446947	-0.146073768972464
37795500	0.986221794308944	-0.150872410242649	-3.71960787038899E-04	-4.13837722660927E-04			-3.51604606818895E-04	-3.91015307570305E-04	0.986170502588409	-0.15210848825543
39357812.5	0.986608023439958	-0.157311396787209	9.42448818104403E-06	-1.59935449312716E-05			-2.69393557302631E-05	1.38631889227549E-05	0.98604896687816	-0.158358656881754
40920125	0.985090361299075	-0.1638119498269	2.07662204570459E-06	2.88213667084668E-05			-1.15164356361748E-05	2.27233216655917E-05	0.984832963962609	-0.164586148830168
42482437.5	0.984126267979004	-0.169521085671761	2.55529663790515E-05	7.60897066601921E-05			7.91081605660874E-06	5.92770083342973E-05	0.98344318306347	-0.170295091506262
44044750	0.982934592027302	-0.175534287212121	3.22158049017145E-05	3.09491960934681E-05			1.44576230601252E-05	3.59466626117352E-05	0.982789526494588	-0.176532612114644
45607062.5	0.979934607148952	-0.181951722799051	1.15907860122763E-04	5.92256169008024E-04			1.05079353527291E-04	6.03724988638122E-04	0.979712366129883	-0.182958456463079
47169375	0.980598229182923	-0.187332893366522	-2.92863595066125E-06	7.28412928528638E-05			-7.69409028449006E-06	3.6923513879239E-05	0.980166878787157	-0.188344341982588
48731687.5	0.979351999325381	-0.194433452007133	3.95736960919952E-05	9.84036195815527E-05			5.41756592342955E-05	1.04214773365244E-04	0.979300258708989	-0.195056080344458
50294000	0.977997216721197	-0.199771554077341	2.74436225467043E-06	4.14844017864206E-05			4.73872783068217E-05	3.41905337074915E-05	0.977983252407159	-0.201189751233309
51856312.5	0.976912316000124	-0.206418949351559	1.6305969486775E-06	-1.20275616681414E-06			-2.4591776116675E-05	9.5393140850088E-06	0.976363794369632	-0.207191736505574
53418625	0.975220700635194	-0.212578396286837	2.17075589899443E-05	-6.01983975505041E-05			4.77468458734823E-05	-4.12422502233825E-05	0.975314392483434	-0.213527841126667
54980937.5	0.973257974635339	-0.218652496525702	1.82917665713605E-05	6.17753177950046E-05			2.2769210036531E-05	3.77592883336159E-05	0.97362104303079	-0.219498144102076
56543250	0.972301532574883	-0.224677850231708	2.59591061673844E-05	-1.50385706209362E-05			1.71260426658729E-05	5.55374308526664E-06	0.972124889534627	-0.225431646328012
58105562.5	0.9706212814407	-0.229755198478958	4.66844241054424E-05	4.84738836303506E-05			3.62250551083326E-05	3.3412752299312E-05	0.970862790452729	-0.231377550918839
59667875	0.969684766985948	-0.236776022294313	-1.1360328184998E-07	3.33818992546499E-06			2.0221788523742E-05	2.10774493291316E-05	0.969335854379199	-0.238009009384352
61230187.5	0.967746411061222	-0.242491437294613	1.11421395738227E-04	-1.57388161403751E-05			1.31176255638786E-04	8.53023282427626E-06	0.967270615347719	-0.2430260248574
62792500	0.966364508671608	-0.248385853684794	2.78267910913532E-05	-4.98003042943585E-05			2.89549040825637E-05	-6.35485961166042E-05	0.966085222965664	-0.250180927937361
64354812.5	0.964699494200804	-0.254097254772317	-1.78296588387856E-05	-1.0818276418746E-04			-4.85501858592775E-05	-1.29824997514144E-04	0.963776428255321	-0.255620875943816
65917125	0.963356491815151	-0.259993977142902	-4.86756325905874E-05	-2.67706624529529E-06			-2.0629815826155E-05	1.36443609279249E-06	0.963118287328871	-0.261643507886171
67479437.5	0.96182654571672	-0.266513502942039	3.50637451277012E-05	5.26418091897746E-05			4.24511337095554E-05	1.6921558825234E-05	0.961041396911269	-0.267774342901622
69041750	0.959900916040694	-0.272234888383536	1.73211686474948E-05	7.55748867805298E-06			2.47348836625368E-05	2.64104759475002E-05	0.959294941354072	-0.273906253341595
70604062.5	0.958249467969807	-0.278670329861585	-1.21729572821165E-05	1.06452329599432E-05			2.38245861075272E-05	3.93813029196768E-06	0.957812127553091	-0.279862967162461
72166375	0.955846017079394	-0.284558002911888	5.85758414149054E-05	7.23144952198391E-05			2.8374261059612E-06	7.74894094690365E-05	0.955194468362065	-0.285815834651733
73728687.5	0.954059160544932	-0.290562980291477	-5.86696353067332E-05	1.03199287866352E-05			-3.71661874974395E-05	1.61668729747031E-05	0.95359908359487	-0.291773263035378
75291000	0.952369244837424	-0.29642812278625	-4.4459825338197E-06	5.43018066904572E-05			6.95972768811322E-06	5.95116950515259E-05	0.951779448812296	-0.297903935815389
76853312.5	0.950191407497835	-0.30204433117524	-3.0747164917953E-05	2.46292607786406E-05			-2.90465809422588E-05	1.89098651414402E-05	0.949711780745534	-0.304149425972434
78415625	0.948785684316501	-0.307830091666322	-9.50113368272548E-07	5.33841945610242E-05			1.13988743978272E-06	3.45850887196895E-05	0.947820539474248	-0.309630639007941
79977937.5	0.945190400648072	-0.314987965523259	7.11367530774006E-05	2.54571348003107E-04			6.94206369863589E-05	2.48547172981944E-04	0.94545268383462	-0.316009548234366
81540250	0.944286358751635	-0.320067991791245	3.78668103212246E-05	-3.48977472561291E-06			1.42752427806433E-05	7.21468570321265E-06	0.943268014005616	-0.322070282544714
83102562.5	0.942226618795359	-0.325967501067587	8.57566677368791E-05	-4.16040230369983E-05			9.25743298898082E-05	-4.33411946545955E-05	0.942178877320492	-0.327224091163862
84664875	0.940303815516265	-0.331712693128396	-5.28071929629483E-05	5.81939669331745E-05			-6.72919564402872E-05	7.08814647498846E-05	0.939557874662306	-0.333260982322403
86227187.5	0.938193321037575	-0.337505848169021	-2.62309952263402E-06	6.66895747582775E-05			-6.06085118016449E-06	6.17196947377051E-05	0.937646815481509	-0.339258103117061
87789500	0.935939791759471	-0.343221527562501	3.03688000606984E-05	4.57752237433257E-06			1.98391061362452E-05	-1.24036967887904E-05	0.935329505105895	-0.345015318108086
89351812.5	0.933774823389243	-0.349745873518408	6.19315135736858E-06	4.79027455141272E-05			6.16368365020901E-07	5.66213654623567E-05	0.933036088920194	-0.351470886153235
90914125	0.930921970709918	-0.355549841037259	8.61518122182638E-05	-7.82047421213409E-06			8.14437648517149E-05	-8.24780644334182E-06	0.930378720739783	-0.356558110506349
92476437.5	0.9292051279419	-0.359449562704626	8.24406831567642E-05	1.79523743668512E-05			8.49103887533873E-05	1.72049836095633E-05	0.928544951106862	-0.361750559441859
94038750	0.926844245348938	-0.366780621390895	1.54310587343809E-05	7.00251771531481E-05			1.1145190714664E-05	5.46393754073463E-05	0.92621429203701	-0.367979652403388
95601062.5	0.923454144190145	-0.373099153479644	2.76578701646387E-04	2.06022819189691E-04			2.72634876214273E-04	2.10134631000687E-04	0.921245605752037	-0.374944304680578
97163375	0.922180536652353	-0.378388112395617	7.61607231699314E-06	3.77652713330906E-05			1.21164606237051E-05	2.79296893163228E-05	0.921155362202799	-0.380033319107847
98725687.5	0.919958392345221	-0.38402996539677	-1.1495676875591E-05	4.32699583913387E-05			-4.88315483878102E-06	3.57903755178337E-05	0.918465511480377	-0.386167930835562
100288000	0.916685603067039	-0.388818192884675	3.35736199641903E-05	-2.87897040611595E-05			1.17803950210061E-05	-6.17956858705435E-06	0.916071793296533	-0.390866985159308
101850312.5	0.914685518229468	-0.3946616581111	-1.5918466867586E-05	9.00713548448029E-05			-1.26026663336433E-05	1.00929750586857E-04	0.913809705972206	-0.39662431467547
103412625	0.911821178181108	-0.401051438132439	-4.90384275758221E-05	9.94699389198163E-05			-3.99814572483764E-05	7.93215929460236E-05	0.911052215236347	-0.402788266065811
104974937.5	0.909536243227522	-0.406970867252943	3.0129480102222E-05	-2.30382202459439E-05			4.26974954733883E-05	-4.57068034542294E-05	0.908455315324966	-0.409028295185325
106537250	0.906472766800382	-0.412824576861108	-5.52252865589322E-05	7.8177576871552E-06			-2.33717870580355E-05	5.45664249330512E-06	0.905677033141337	-0.414855794263985
108099562.5	0.904046579962965	-0.419033926175127	-2.40989936966445E-05	2.06043216908925E-05			-1.80578138515699E-05	3.65248356266921E-05	0.902976056517228	-0.4205435752219
109661875	0.900898768202393	-0.423915714914673	8.53803524835801E-05	2.06228707922003E-05			8.46954597420271E-05	7.34870798314621E-07	0.900032398836808	-0.426070304186009
111224187.5	0.898090950594655	-0.429533368528186	1.03395765277194E-04	-1.16217619983881E-04			1.02042521844508E-04	-1.14055388148303E-04	0.897208864230603	-0.431901775134471
112786500	0.8959948099334	-0.434660492238433	-4.7482050455258E-05	9.61594835882454E-07			-6.19349125544515E-05	1.8390531109771E-05	0.894622276063257	-0.437024043475173
114348812.5	0.892623201080541	-0.440532407684245	5.02309861945122E-05	7.34373476551573E-05			2.09770118420958E-05	7.69350084165049E-05	0.892175697920149	-0.442769759908303
115911125	0.890331848530867	-0.445619515331566	-4.44291686448127E-05	-5.75899328068859E-05			-5.00978929860407E-05	-6.3338673050927E-05	0.889297993386804	-0.447881555961469
117473437.5	0.887183633140993	-0.452240745471789	1.78011231289957E-05	6.31816269929669E-05			1.44272053492249E-05	3.12469801212485E-05	0.885899534574143	-0.454146754476384
119035750	0.884302057694216	-0.457246432580044	-3.43097920121612E-05	6.8667826894658E-05			-4.37092389514805E-05	5.6970783698285E-05	0.882606490911658	-0.458472567375956
120598062.5	0.881424721939122	-0.462735538018202	-6.07938405000088E-05	2.10668635322891E-05			-5.39306787298002E-05	3.08482821207195E-05	0.880291469916471	-0.464847580308494
122160375	0.878657792569925	-0.468573603223799	-6.99030406526105E-06	6.26850119645816E-05			6.85524973745907E-06	5.17772654264964E-05	0.877468113385253	-0.470432122884491
123722687.5	0.875545646385788	-0.473958816276896	6.09793423543426E-06	6.78966560737735E-05			2.91989981223925E-06	5.76081085002472E-05	0.874626997727998	-0.476415344072225
125285000	0.872378952710886	-0.479928648361854	4.67687366806448E-05	1.13880171873211E-05			5.55703309569762E-05	-7.81367542184152E-06	0.871180190853264	-0.481995254912823
126847312.5	0.868575250084523	-0.4845426313757	4.80130903849023E-05	-7.9208444447202E-06			7.23171542384631E-05	-8.40501151929867E-06	0.867181901261099	-0.487045874047829
128409625	0.86571369521317	-0.490739505082122	9.62729715000489E-05	3.14155545897315E-05			8.26102214270265E-05	2.54192755871442E-05	0.865229597051649	-0.492305653926062
129971937.5	0.862307958344732	-0.495791576872051	9.34250750020826E-05	1.2717241339531E-04			1.02567742398932E-04	1.29317067474974E-04	0.860091310841196	-0.497737267297169
131534250	0.859933592692274	-0.501353389841761	-1.32568964392753E-05	3.93304020299448E-05			-1.53830570288166E-05	3.02242950086875E-05	0.858915767719617	-0.502836973892264
133096562.5	0.856367287230255	-0.506163080831551	-4.94146821217695E-06	2.33327791838366E-05			5.36290195336351E-06	-1.01254750468614E-05	0.855078389901797	-0.508733415432634
134658875	0.853133266659304	-0.511038043507169	-9.22636385199084E-07	6.26328106661499E-05			-1.21907965561334E-05	5.78039630606443E-05	0.852170584226776	-0.514083869235673
136221187.5	0.849688815379715	-0.516786850374741	1.24359731208662E-05	7.83542869970278E-05			5.58764065415567E-06	8.87075954492326E-05	0.848169835902121	-0.519077204524249
137783500	0.84675741660919	-0.52294173434177	-4.96475875957392E-05	-1.98469598093148E-05			-6.27479591519293E-06	-1.35763708942392E-05	0.845730125399191	-0.52468880035704
139345812.5	0.843442776750523	-0.52799455774315	2.21912462528951E-05	3.11400074431204E-05			5.7908764560422E-05	1.5583248323409E-05	0.842262294856872	-0.529769770865494
140908125	0.839757664288511	-0.533647794194005	9.70422109361735E-06	-5.35972778652551E-06			2.83847141447274E-05	-1.64330572021867E-05	0.838942770072583	-0.535536992400721
142470437.5	0.83644986403488	-0.539078243756829	-3.26533048768911E-05	5.78219262776668E-06			-3.76514115956507E-05	3.65329956771061E-06	0.834981327678374	-0.54049951303922
144032750	0.832481267185356	-0.544104072723884	-8.14993781918905E-05	5.67436002040853E-05			-8.16475609037302E-05	2.92707152500423E-05	0.830947802809464	-0.546737464566338
145595062.5	0.828254646585429	-0.54838310584022	1.33661578518978E-05	5.83323599911015E-05			3.74341653374129E-05	7.42731767755101E-05	0.826405542234692	-0.551196827815098
147157375	0.825458785897488	-0.55328072474789	1.9114510835775E-05	1.18992942583147E-04			2.82013464051362E-05	1.19791258194213E-04	0.823869317676982	-0.556408705692004
148719687.5	0.821499905992078	-0.559353586085169	5.68064884061121E-05	6.85881749497748E-05			4.66515048027698E-05	7.00266291017202E-05	0.820723935658876	-0.561392427134086
150282000	0.818379775021096	-0.562714278173502	-5.13495792988469E-05	-4.64777833989345E-06			-2.84785734237126E-05	-9.88467560334458E-06	0.81723004046453	-0.565209784389399
151844312.5	0.814896986961817	-0.570031679183526	7.14433769747672E-06	2.35672927155114E-05			1.43033790601219E-05	3.5570829198863E-05	0.813970841247754	-0.571853874597683
153406625	0.811010509277653	-0.574445558473688	4.80288576711334E-05	7.29218057626137E-05			5.29093459565189E-05	8.11098903388911E-05	0.809082864554873	-0.576498349051752
154968937.5	0.806793117595861	-0.579369907421326	2.57557212687482E-05	-6.34668272594016E-05			4.46052726285511E-05	-6.45347808950026E-05	0.805543543651559	-0.581820376123798
156531250	0.803186962984482	-0.584619157319776	-3.91612390474126E-05	1.93768129114592E-04			-4.95544122991865E-05	1.79016169200328E-04	0.802194410207256	-0.586891084859995
158093562.5	0.80009767329186	-0.590009592058803	2.89784838958379E-05	1.80197441755292E-05			4.51194785099853E-05	1.52930689745691E-05	0.798628117241828	-0.592349120143509
159655875	0.796034019850006	-0.595544403898973	-1.43751579409453E-05	2.85080822972345E-05			1.34829832291886E-05	4.5412373810604E-05	0.794390616612697	-0.597731506778617
161218187.5	0.791184114418757	-0.600412516786078	-7.65421846402323E-05	-6.2038203412119E-05			-7.85663480128641E-05	-6.26350343980048E-05	0.789845978726906	-0.603113507817253
162780500	0.787437838216719	-0.605795588705796	1.26479204428135E-05	3.96507082895051E-05			3.97597228859947E-05	3.15809070382757E-05	0.786694712756573	-0.607489319614287
164342812.5	0.782382368206449	-0.610383926447769	3.50645067137766E-05	8.04144468219909E-05			3.47952029873977E-05	7.10965248414985E-05	0.781436615046906	-0.612298195783713
165905125	0.779772429665556	-0.614880904063518	-1.78706341800559E-05	4.30252312003621E-06			-6.92313360621856E-06	-5.57620392885244E-06	0.778949193311494	-0.615833401233492
167467437.5	0.775916040029358	-0.620251724128487	-1.2281946160929E-05	5.06386316506813E-05			-6.19760327557273E-06	1.25047441698243E-05	0.774761993873381	-0.622765957276593
169029750	0.771652585848729	-0.624438388427874	1.06274083144182E-04	-6.09835158403476E-05			1.08953260562552E-04	-5.22063440382609E-05	0.770471795648149	-0.626712349234627
170592062.5	0.76821051172338	-0.629258230875158	9.94035018680806E-05	8.673681569614E-06			1.05195045947943E-04	-1.31788617190894E-05	0.76670168565478	-0.632257881193539
172154375	0.763445941515445	-0.635171381966185	1.07870060318659E-04	7.85985226618292E-05			9.2868003813777E-05	7.03290909391611E-05	0.762025126687822	-0.637498077213177
173716687.5	0.75968990353451	-0.639421459234799	4.4892372844109E-05	8.32089252722088E-05			1.49936880455137E-05	8.22304472884228E-05	0.758242403294143	-0.641646268859695
175279000	0.755391779297715	-0.644557366536542	6.21765773826684E-05	2.20076018026444E-05			4.51364696144615E-05	4.47764736167655E-05	0.753955286919296	-0.646721850512833
176841312.5	0.751101324779524	-0.64999431233671	-3.47351525444833E-07	4.61089170569818E-05			-2.09420047228117E-05	5.02063342948879E-05	0.749209706486997	-0.651776725780219
178403625	0.746178188311864	-0.654453234777641	-6.87925934086779E-05	-4.03546529808804E-06			-1.07214681320932E-04	-2.81088984237117E-06	0.74482459349325	-0.656974016933616
179965937.5	0.74233800160675	-0.658960326394019	6.48580286065109E-05	6.54157813468916E-05			5.5161917800381E-05	6.81013311007452E-05	0.73999311197627	-0.661097372008938
