# Hz S RI R 50
50000000	0.988194691815202	-0.145115309649026	3.0867951090075E-05	7.88441157332871E-05			4.12340436486683E-05	7.69379027736621E-05	0.989565716028044	-0.143246625853867
53718750	0.986422013009276	-0.155410700127823	-1.83739212632359E-05	1.01133883430108E-04			-2.07592405943003E-05	9.17494533766003E-05	0.987329650736515	-0.154130206298816
57437500	0.984738557689661	-0.165983228035014	1.55055754798218E-05	1.31001357386148E-04			-3.7564565956843E-05	8.98664859428994E-05	0.985706730860489	-0.164534314594458
61156250	0.982524576781334	-0.178079271253097	5.83807447060409E-05	1.07377421748053E-04			4.98455099860184E-05	8.97619847339635E-05	0.984206472780928	-0.17527776239637
64875000	0.980086148921213	-0.187645960887718	9.70709434543983E-05	1.58631588952937E-04			1.18456779024662E-04	1.83185612635347E-04	0.982287413390003	-0.186118868387193
68593750	0.978149161741119	-0.198327651903678	1.22672983996915E-05	1.41299892775736E-04			-2.23220120120467E-06	1.54769476919561E-04	0.979609577406522	-0.196692930929619
72312500	0.976474503852193	-0.209030590799996	5.8464864344864E-05	1.69002311426483E-04			3.28520654521879E-05	1.3902808867465E-04	0.979127701128455	-0.206773252563823
76031250	0.97203677101288	-0.21933473682924	1.1844322334847E-04	9.05424858754958E-05			8.69495905173544E-05	1.00704339241684E-04	0.975132259987367	-0.217487279262862
79750000	0.970014678955189	-0.229403850500432	-1.05196185465525E-05	2.4391877106461E-04			2.81910046418011E-05	2.45203932594008E-04	0.972849552207883	-0.228297600504603
83468750	0.967587867806948	-0.241629600794107	5.44230491109294E-05	1.55258014558606E-04			6.33534950444585E-05	1.59593621691841E-04	0.970506793138068	-0.238469081860904
87187500	0.965015834503957	-0.253293358058453	7.32783901218245E-05	1.50529274101127E-04			3.80783365893026E-05	1.53051405554969E-04	0.966410161138562	-0.248690878152684
90906250	0.962003862558871	-0.261076377174308	5.68361833952703E-05	1.64599959070645E-04			6.11090787794647E-05	1.7423706606576E-04	0.961936044959828	-0.262520636821136
94625000	0.959402651673951	-0.271208020211978	8.30887791781016E-05	2.27868032956697E-04			9.79911538693116E-05	2.13265828752603E-04	0.961721880790902	-0.270459208919729
98343750	0.957309785381583	-0.281966217688145	6.36066503925638E-05	1.98953893981755E-04			7.23394840852307E-05	2.12385247484635E-04	0.959013626083296	-0.279262715060112
102062500	0.954847384775464	-0.292142912208701	8.68043068311518E-05	1.0616652260894E-04			9.65603165522329E-05	1.15718351454779E-04	0.955809110123849	-0.288310208706228
105781250	0.951351774664045	-0.301911061963014	1.80002115783177E-05	2.01549369989837E-04			3.57011171838641E-05	2.08066582011479E-04	0.953252670788436	-0.301913223043096
109500000	0.947079093124868	-0.311994854708946	3.95851382468967E-05	2.15463950932358E-04			6.52516753309475E-05	2.01688884432104E-04	0.947996436200114	-0.310044931532398
113218750	0.942770784790358	-0.322371996597972	6.15002140684897E-05	2.5455376041661E-04			7.65570256603262E-05	2.43296269300749E-04	0.945148449011222	-0.320068135053952
116937500	0.942039416013464	-0.334053548285692	1.04386222394459E-04	2.3750325612835E-04			6.42312335947384E-05	2.41578919040783E-04	0.94294368025466	-0.331084094950592
120656250	0.934437216417321	-0.343162474572043	1.34211282942329E-04	2.72452985586675E-04			1.4631492377995E-04	2.69704817949623E-04	0.937867290910515	-0.340519200979963
124375000	0.932028465533007	-0.353043867927085	1.0953367286761E-04	2.6878696600695E-04			1.02263101370507E-04	2.48206481857289E-04	0.934940584524873	-0.350449477525183
128093750	0.929155282985617	-0.36269825486621	7.87607100802817E-05	1.60407902882272E-04			5.29071248633191E-05	2.00221087788298E-04	0.930441153457933	-0.360703544565401
131812500	0.924795360838228	-0.37240293514245	1.4612004852702E-04	3.31112687801008E-04			1.6423238336949E-04	3.17193092508897E-04	0.925793795339754	-0.370079012608823
135531250	0.920766110368289	-0.382535492029583	1.29960928489932E-04	3.61683078912744E-04			1.16060655116425E-04	3.73207617729015E-04	0.923557179552951	-0.380911158929344
139250000	0.916093467886856	-0.392104366592098	1.67709409587233E-04	2.39149959462308E-04			1.62195068041876E-04	2.47341986082376E-04	0.918128232043291	-0.389705336620408
142968750	0.912949050193049	-0.401048834518613	1.35507827834831E-04	3.19536452344385E-04			1.30980279779995E-04	2.78513597518211E-04	0.914466136479857	-0.39986046699056
146687500	0.908359385118273	-0.411121275209011	1.90892346511094E-04	2.33641750842944E-04			2.06491680873525E-04	2.44631219942299E-04	0.908222830367267	-0.407288908863313
150406250	0.902622094629787	-0.420010975901148	2.44018182906652E-04	2.25594474934522E-04			2.45097381595026E-04	2.00692772863286E-04	0.903747388045915	-0.418900425208208
154125000	0.897159225169118	-0.431115348520065	1.45462807154205E-04	3.01036758531761E-04			1.66594666765349E-04	3.00697316744112E-04	0.902447971018829	-0.428294088136253
157843750	0.894775272013439	-0.439463164953305	1.58921283226014E-04	4.08812717849848E-04			1.35574395786527E-04	4.0230911729444E-04	0.897803377667047	-0.438321755657269
161562500	0.890039649833518	-0.449557557598345	1.94646247428146E-04	3.01616470205156E-04			1.77558694228965E-04	3.0416335110814E-04	0.889876614252252	-0.447270197470805
165281250	0.884330115603262	-0.457612790529058	1.52941660569943E-04	3.95275062940576E-04			1.76655436846364E-04	3.89963858742871E-04	0.885825184778672	-0.457164595707945
169000000	0.878467635453442	-0.467290139524157	2.01368914072866E-04	3.53995995204564E-04			2.14654002899063E-04	3.43944394742387E-04	0.880854224311855	-0.465012050928798
172718750	0.87558297477203	-0.478362048204368	1.81625718727423E-04	3.32892596686815E-04			1.92979861283002E-04	3.39955617144666E-04	0.875889299911732	-0.476516887747738
176437500	0.86716610652635	-0.485774152909505	2.98814892892731E-04	3.69783795030406E-04			2.96711788340462E-04	3.4937172692782E-04	0.871285757177031	-0.484595460422364
180156250	0.862104045363698	-0.497594877963679	1.7092951333942E-04	3.63397841255257E-04			1.77917936865403E-04	3.63919981930113E-04	0.867081202937758	-0.494199407267259
183875000	0.858662845431619	-0.503882407981706	2.97044622021369E-04	4.36756427584856E-04			2.85339758996114E-04	4.11585062417502E-04	0.86039560045888	-0.502044669558829
187593750	0.851603461734307	-0.514793936612067	2.57108024053737E-04	4.24377280261167E-04			2.42952691482098E-04	4.1032713502869E-04	0.854625162054024	-0.512171291704464
191312500	0.847097552938282	-0.523542439113117	2.58298548571723E-04	3.33947997480701E-04			2.68042992323129E-04	3.48992377030053E-04	0.849005040621629	-0.522318324214739
195031250	0.842170192189313	-0.532407855579736	2.72797626235814E-04	4.09890378492584E-04			2.65003448813955E-04	4.11051256447696E-04	0.843103003773911	-0.530783160601224
198750000	0.834986460432444	-0.541448786090576	2.25486655830964E-04	3.49865702103413E-04			2.40434744936093E-04	3.59149824448443E-04	0.837263164915465	-0.538898312929404
202468750	0.828862068453463	-0.55035302172882	2.7498868135327E-04	3.67681326249899E-04			2.79830191314276E-04	3.42479320646246E-04	0.831183008423259	-0.549034369888111
206187500	0.822300704132274	-0.557988964987746	2.90270939774863E-04	3.75027777123279E-04			3.1989759402743E-04	3.43474553303018E-04	0.82594830880794	-0.556703560326622
209906250	0.815105219653066	-0.567671929560269	2.45228540830083E-04	4.01150998558822E-04			2.42571654279969E-04	4.216014077119E-04	0.820458443619297	-0.565255273241194
213625000	0.810259617046053	-0.576386001076138	2.74269788524621E-04	3.62874709485079E-04			2.72278447540147E-04	3.74524084639594E-04	0.813642602658864	-0.572566245994054
217343750	0.805068518581313	-0.58519517878031	2.78221490651684E-04	4.088958644003E-04			2.7473026708153E-04	3.96908417879123E-04	0.807942245794436	-0.581674661000302
221062500	0.797415241007597	-0.593287435459238	2.90136035458455E-04	4.20169053320943E-04			2.9004562139818E-04	4.05919871670666E-04	0.801331104057294	-0.588094102868594
224781250	0.789746521473039	-0.60207485827555	3.11376569922755E-04	3.58465087369903E-04			2.88616491100712E-04	3.57901694637165E-04	0.794500209547023	-0.599428633629481
228500000	0.782847902973333	-0.609848923553918	3.96483099462697E-04	5.37377868702005E-04			4.05366768152391E-04	5.1717807633307E-04	0.788175766954843	-0.608613980484951
232218750	0.776612033855929	-0.619400630596294	3.34667759546805E-04	3.70553928927055E-04			3.3311426850239E-04	3.95938083207573E-04	0.78040158617098	-0.615221684949981
235937500	0.768729620080551	-0.626604942798136	3.39284940805461E-04	5.15178015929264E-04			3.12186854350177E-04	4.8030226082882E-04	0.777046580884958	-0.624353128073377
239656250	0.763929061036832	-0.636946039526149	3.40546240684459E-04	3.67305279968448E-04			3.66305015743543E-04	3.94593532830115E-04	0.769981798300501	-0.63181983492403
243375000	0.756580047069934	-0.642891199648267	3.19078403253926E-04	4.44356600228186E-04			3.02825648471046E-04	4.4041698531012E-04	0.759725661389888	-0.640423691769993
247093750	0.74851261717643	-0.652286690480797	4.49263642999219E-04	5.26975780097524E-04			4.31414585809087E-04	5.03623125620845E-04	0.754782883304494	-0.647395572004743
250812500	0.7406968534543	-0.659114892894973	3.52695522834115E-04	4.36105044967972E-04			3.75028595578629E-04	4.17396895171258E-04	0.746598053261241	-0.655295490389145
254531250	0.735586015219851	-0.669211794089293	4.02174411110846E-04	4.14524046407686E-04			4.01574286578552E-04	4.40611951150696E-04	0.739975192179397	-0.663630522543357
258250000	0.727324941483192	-0.674405506761252	4.05544935074912E-04	4.07040196838199E-04			4.10524374974087E-04	4.12103089949241E-04	0.73206190044719	-0.670815836675516
261968750	0.719456784814819	-0.682755559753432	4.33918078648815E-04	4.78964828590586E-04			4.4928105307375E-04	4.62141274267775E-04	0.726177425744372	-0.679028869048603
265687500	0.712625693744247	-0.688451798217811	5.71035489668034E-04	3.76436375291187E-04			5.86186946577594E-04	3.78191507141555E-04	0.717851044137405	-0.686036344644464
269406250	0.705556126577132	-0.696453162910873	5.09211645300691E-04	3.90372383007103E-04			4.78722934196796E-04	3.93374243268889E-04	0.711714530361417	-0.693200113620357
273125000	0.697718248397276	-0.70365860258189	4.55436469442514E-04	4.28694251045844E-04			4.6161281874924E-04	4.14526480299999E-04	0.705399693397706	-0.70175660924441
276843750	0.690703284590304	-0.711332347576342	4.628135666365E-04	4.22992852625182E-04			4.45928993423728E-04	4.46001959754837E-04	0.696278040090558	-0.707851754502522
280562500	0.682605815729025	-0.718285172870182	4.59775154097405E-04	4.65586193498179E-04			4.8727368475257E-04	4.78066695788477E-04	0.689379971717566	-0.712379145163917
284281250	0.676492524241334	-0.725860592645524	5.14695496939499E-04	3.76400942047541E-04			4.92889176924867E-04	3.83701858241046E-04	0.68232687933629	-0.720015797742741
288000000	0.668110105902324	-0.733018911251596	4.33822347944292E-04	4.26918266111681E-04			4.17422299613708E-04	4.14855347120805E-04	0.676039081354897	-0.731762211829576
291718750	0.660069261710711	-0.73959028513884	4.7037742758974E-04	4.74083342625266E-04			4.8892661507266E-04	4.81409148084082E-04	0.666410538630322	-0.73489149903693
295437500	0.651753041228859	-0.747098587680678	5.03055787646969E-04	3.86347272270532E-04			4.95502107208635E-04	4.08334755559956E-04	0.658292520583765	-0.743363947197351
299156250	0.642683381719341	-0.75397321183901	5.10002111255115E-04	4.43573258472031E-04			5.36459736589838E-04	4.43947341451084E-04	0.650669217573979	-0.751430021436033
302875000	0.636871995917384	-0.760713067938339	5.86970279481988E-04	4.11796516647212E-04			5.98292127605351E-04	4.20272501852667E-04	0.640151256542061	-0.757280012901113
306593750	0.626884221168862	-0.766902701290891	6.08293499668119E-04	4.49226706557498E-04			5.86497656065803E-04	4.13565223356209E-04	0.632449395699337	-0.763818276568499
310312500	0.618853290749075	-0.775392737283756	5.766836865133E-04	4.74547669014845E-04			5.7261034466675E-04	4.82940852505566E-04	0.625658295023261	-0.770152649042814
314031250	0.611148202842149	-0.780982757408833	5.66972875298493E-04	5.50167691681322E-04			5.74708177989547E-04	5.30055845008467E-04	0.616378470136343	-0.776106887879901
317750000	0.602284334647692	-0.785776084532331	5.99520039053612E-04	5.01951700238469E-04			5.98134261524969E-04	4.84752637298094E-04	0.60782458873108	-0.782054232972675
321468750	0.595902068176491	-0.790564777050906	6.2034151549358E-04	4.74718511436018E-04			6.00821462475663E-04	4.68138454796855E-04	0.599860109925693	-0.78838271837495
325187500	0.585267781166793	-0.798038127157233	6.84612040119508E-04	4.70073816617605E-04			7.07408128525026E-04	4.70019174318056E-04	0.591038957803291	-0.792808040068
328906250	0.576757921986896	-0.802573690079277	6.80512243858234E-04	3.89162748531336E-04			6.85212402484868E-04	3.87126270622097E-04	0.584102275687951	-0.798721356944646
332625000	0.56983995286229	-0.810476571742182	6.7019060276179E-04	3.75322382866262E-04			6.65666149371634E-04	3.74241566228708E-04	0.574938474300036	-0.805474206480203
336343750	0.561428345084003	-0.81601176417119	7.31690831107553E-04	3.68403507960861E-04			7.31273944785035E-04	3.57564617077389E-04	0.564137166534872	-0.811585472364322
340062500	0.552088205149691	-0.821567399282193	6.39813337287803E-04	4.14930285941978E-04			6.24196597609893E-04	4.26144928995442E-04	0.557013636296506	-0.815875544228378
343781250	0.543131905374001	-0.826704252276354	7.11170026830929E-04	4.13267673100411E-04			7.09595303128978E-04	4.1866521038493E-04	0.549850744548636	-0.822229935017145
347500000	0.534982992699889	-0.832323161017545	7.39852949654644E-04	4.57056537141494E-04			7.67257483793232E-04	4.54425991912082E-04	0.540838894657232	-0.829025189185187
351218750	0.526026572818137	-0.838215310814924	6.8861831031243E-04	4.310120336636E-04			7.08602217353132E-04	4.37918795963302E-04	0.53360353064613	-0.836643411351127
354937500	0.515907034452049	-0.844233601800799	7.50405460391023E-04	4.22898761946804E-04			7.63476420890617E-04	4.37995995268923E-04	0.522139019529683	-0.840396479323402
358656250	0.510071023389113	-0.849958821180118	7.17295763181071E-04	4.69572631378207E-04			7.2639652276772E-04	4.64965026237893E-04	0.513654272363539	-0.845986045395699
362375000	0.499570913283451	-0.855701196429562	7.36240510136967E-04	4.38172860786913E-04			7.34806510105791E-04	4.46912366200943E-04	0.5036382770771	-0.850181959237737
366093750	0.489088069217725	-0.861564430869375	7.38869410339369E-04	4.25533901794791E-04			7.60732471912938E-04	4.1470932015667E-04	0.496107687871319	-0.85579286941945
369812500	0.478024786864141	-0.864253321561221	7.96181679653929E-04	4.18403285011668E-04			7.63259655852332E-04	4.25046445810894E-04	0.484565054182003	-0.861568760680654
373531250	0.467991471772593	-0.869393683128436	7.72103463585885E-04	3.98532015985322E-04			7.85582463496258E-04	3.91134442300989E-04	0.476373217880207	-0.866578081576251
377250000	0.457299875797625	-0.871556700919175	8.10351531356519E-04	4.8489317596058E-04			8.32523551014869E-04	5.18946502650934E-04	0.466667833333485	-0.870372018841136
380968750	0.450485517055963	-0.879051336003967	8.58412494368551E-04	4.33446250933698E-04			8.69358401815665E-04	4.56039302813186E-04	0.456986906765775	-0.874784867844469
384687500	0.439970028587322	-0.882591261994772	8.8086875473523E-04	4.42215640085982E-04			9.11387913249122E-04	4.25531635430467E-04	0.448779076025908	-0.880003681630958
388406250	0.432212332693999	-0.887677484449565	9.16316088861004E-04	4.66115563352122E-04			9.05390153262279E-04	4.47301632879017E-04	0.43919732723535	-0.884628886454542
392125000	0.421579849287396	-0.891367693371806	8.83320787064963E-04	4.38438436263397E-04			8.60965144716222E-04	4.57086438315669E-04	0.428834715972854	-0.887964561852828
395843750	0.412128418321137	-0.895826378947398	9.71391234726494E-04	3.38506540313636E-04			9.67095675995619E-04	3.10863472621417E-04	0.422633418217101	-0.89228143544977
399562500	0.403099733319899	-0.900983097216739	9.52711192723354E-04	3.75751690917908E-04			9.52856895824701E-04	3.97266850622024E-04	0.411536149971985	-0.897238389772348
403281250	0.394116753918046	-0.90579917793888	9.12414760369939E-04	3.90519543511446E-04			8.99267167905901E-04	3.59422938691538E-04	0.400167612021563	-0.903655080694353
407000000	0.382974496678154	-0.908040272883045	9.60947587616062E-04	3.83170082092418E-04			9.62506140342704E-04	3.75412105500078E-04	0.3926218680013	-0.906306095086398
410718750	0.373284467957741	-0.912171413877013	9.35767386303623E-04	4.06797546285815E-04			9.26157685077163E-04	3.77395165484558E-04	0.382019433817733	-0.911557188151637
414437500	0.364477470601298	-0.916825221217831	9.48429095666532E-04	3.95477853256694E-04			9.73730209280127E-04	4.14422112449862E-04	0.374616743620883	-0.917397662621833
418156250	0.352647722694399	-0.9205728071353	9.75910736068207E-04	3.55141595162955E-04			9.73705385573378E-04	3.69268455237992E-04	0.362953523469956	-0.918713051029546
421875000	0.343827201180004	-0.923758032685561	1.03277510521205E-03	3.51139556218185E-04			1.03445992271845E-03	3.3664024867503E-04	0.352247715055377	-0.920996331223876
425593750	0.332102749059953	-0.925248593365604	1.07892259506386E-03	3.35877487460848E-04			1.07822523800106E-03	3.41620200907749E-04	0.343146861975469	-0.924229631495284
429312500	0.322331325020519	-0.930058925837686	1.06955201141451E-03	3.6483134524741E-04			1.04242841760095E-03	3.36277074505953E-04	0.333008829628314	-0.926735104821186
433031250	0.315572668515091	-0.932567679082646	1.11038339929677E-03	3.26986742374177E-04			1.08051390197726E-03	3.12641549444578E-04	0.322877686144168	-0.930242725481374
436750000	0.308701559679682	-0.934589003645642	1.10218837443357E-03	3.04252559817561E-04			1.09346404401774E-03	3.0653652590475E-04	0.313298209746647	-0.933940100913918
440468750	0.295141322171928	-0.939214578569195	1.08075902494045E-03	3.24507695285219E-04			1.10115720901251E-03	3.32840702400016E-04	0.304268737020121	-0.93639517625882
444187500	0.284939151020407	-0.940321836888009	1.08610846334923E-03	3.35312996028684E-04			1.09035875231561E-03	3.41928868970025E-04	0.293153914297752	-0.938900327795983
447906250	0.273333427462305	-0.94400562021826	1.13023964469059E-03	3.55288107623153E-04			1.14320502953785E-03	3.41247766776497E-04	0.284291505149877	-0.941523543841412
451625000	0.266159816827861	-0.944752842954599	1.16179507439697E-03	2.73358623072647E-04			1.1614384556827E-03	2.61370254013919E-04	0.272468174017786	-0.944292603188029
455343750	0.254339571607063	-0.948719892374793	1.20199431622554E-03	3.04312968786127E-04			1.1843787693545E-03	3.17687016852196E-04	0.265629224073366	-0.947467445547793
459062500	0.24462679195086	-0.951911153877808	1.17075363253721E-03	2.69770864168995E-04			1.20743846655811E-03	2.61240126232902E-04	0.256015380929798	-0.949628472583895
462781250	0.233906950859731	-0.955638249701561	1.19043418677232E-03	2.65116188450279E-04			1.21078019863339E-03	2.44656601344892E-04	0.246979900178895	-0.950363088301258
466500000	0.223756735773095	-0.95744019217408	1.18035562281101E-03	2.3019835313672E-04			1.17312557426259E-03	2.4331538578761E-04	0.23321331234523	-0.95640989832167
470218750	0.21376893157405	-0.960552773374405	1.16383420955154E-03	2.7720300581631E-04			1.17046021134908E-03	2.53043383475053E-04	0.222338562587105	-0.957644046384001
473937500	0.202563451247998	-0.961371390512156	1.23020285180277E-03	2.85123671287447E-04			1.22506449251503E-03	2.96015805884253E-04	0.212004193199764	-0.960336306538962
477656250	0.193249307749794	-0.963542291673943	1.24269466811848E-03	2.7520482979277E-04			1.20324089712564E-03	2.7763782719597E-04	0.204035419022213	-0.961286556443911
481375000	0.183470244117474	-0.967089709206111	1.30715119302693E-03	2.76513162187996E-04			1.34420168563929E-03	2.74547085670674E-04	0.191685174269989	-0.965310426416254
485093750	0.171600691702276	-0.965790782046377	1.35620212750346E-03	2.59939575328542E-04			1.36512388603745E-03	2.71420504826925E-04	0.182523945901186	-0.967089163560449
