!Agilent Technologies,E5071C,MY46104097,A.08.12
!Date: Fri Sep 23 10:31:15 2016
!Data & Calibration Information:
!Freq	S11:SOLT2(ON)	S21:SOLT2(ON)	S12:SOLT2(ON)	S22:SOLT2(ON)
# Hz S RI R 50
769000000	6.898959e-001	-6.878247e-001	-1.639449e-003	-4.785342e-006	-1.719307e-003	2.589036e-004	6.623455e-001	-7.064007e-001
769125000	6.843042e-001	-6.871820e-001	-8.241122e-004	-4.159967e-004	-1.711563e-004	4.573109e-004	6.684862e-001	-7.016583e-001
769250000	6.867669e-001	-6.902544e-001	-1.004589e-004	-7.744042e-004	-1.139873e-003	-1.009790e-003	6.725878e-001	-7.125744e-001
769375000	6.848896e-001	-6.894312e-001	-2.077032e-003	-4.761915e-004	-1.226064e-003	-4.067101e-004	6.704639e-001	-7.062860e-001
769500000	6.843718e-001	-6.874286e-001	-1.021542e-003	9.146637e-005	-9.813134e-004	-3.441977e-004	6.672406e-001	-7.085818e-001
769625000	6.876605e-001	-6.873153e-001	-3.634146e-004	-6.674178e-004	-5.276416e-004	5.597370e-005	6.663640e-001	-7.075340e-001
769750000	6.848607e-001	-6.883506e-001	-6.413805e-004	-1.162307e-003	-4.227016e-004	7.799588e-004	6.647059e-001	-7.113181e-001
769875000	6.897224e-001	-6.914343e-001	-9.673576e-005	6.075632e-004	-6.723475e-005	1.986543e-005	6.662871e-001	-7.088498e-001
770000000	6.878944e-001	-6.903022e-001	-8.314407e-004	-6.050279e-004	-8.456459e-004	-7.950685e-004	6.601899e-001	-7.046258e-001
770125000	6.899473e-001	-6.884588e-001	3.855481e-004	5.747711e-004	3.611450e-004	-1.040865e-003	6.698655e-001	-7.081607e-001
770250000	6.853551e-001	-6.863799e-001	8.461640e-005	5.709944e-004	-1.192071e-003	-6.750018e-004	6.620952e-001	-7.077718e-001
770375000	6.889920e-001	-6.943240e-001	-1.943045e-003	1.751961e-004	-5.387348e-004	-5.419147e-004	6.685165e-001	-7.112257e-001
770500000	6.894111e-001	-6.949856e-001	-2.707730e-004	-5.483107e-004	-8.036425e-004	5.583115e-004	6.733558e-001	-7.147653e-001
770625000	6.849142e-001	-6.969011e-001	-1.469418e-003	-1.916234e-003	-6.401247e-004	-5.635951e-004	6.719945e-001	-7.051267e-001
770750000	6.783598e-001	-6.964118e-001	-2.303201e-003	-4.513486e-004	-6.196200e-004	2.680045e-004	6.585147e-001	-7.125134e-001
770875000	6.896626e-001	-6.959472e-001	-1.118093e-003	2.609413e-005	-8.769796e-004	-6.484818e-004	6.658093e-001	-7.134687e-001
771000000	6.824937e-001	-6.918537e-001	2.976789e-004	-1.243974e-003	-1.299609e-004	2.094486e-004	6.653511e-001	-7.109963e-001
771125000	6.893727e-001	-6.995084e-001	-4.139555e-004	-2.027685e-004	-2.741131e-004	6.149063e-005	6.702828e-001	-7.087188e-001
771250000	6.839826e-001	-7.005506e-001	-1.100149e-003	-2.454240e-004	-1.120192e-003	4.483549e-004	6.708937e-001	-7.162535e-001
771375000	6.904531e-001	-6.893248e-001	-2.241945e-004	-3.679821e-004	-1.153092e-003	5.005430e-004	6.629808e-001	-7.238155e-001
771500000	6.885810e-001	-6.902088e-001	-1.020972e-003	-6.591240e-004	-1.396591e-004	-1.159584e-003	6.609493e-001	-7.213408e-001
771625000	6.838880e-001	-6.881775e-001	-1.329427e-003	-5.237304e-004	-8.409704e-004	3.826098e-004	6.641420e-001	-7.123756e-001
771750000	6.920503e-001	-6.933609e-001	-1.784702e-003	-1.626097e-003	-1.012866e-003	-8.915736e-005	6.606070e-001	-7.135111e-001
771875000	6.761511e-001	-6.920163e-001	-7.643220e-004	-5.801789e-004	-2.968012e-004	-2.616717e-004	6.577892e-001	-7.103114e-001
772000000	6.856948e-001	-6.936339e-001	-9.951222e-004	-4.249376e-004	-4.982597e-004	-2.286295e-004	6.698369e-001	-7.102509e-001
772125000	6.851505e-001	-6.911935e-001	-9.091018e-004	1.373829e-004	-1.714464e-003	1.743752e-004	6.649636e-001	-7.135634e-001
772250000	6.789749e-001	-7.024742e-001	-1.534845e-004	-1.380118e-004	-2.140529e-005	5.304829e-004	6.669590e-001	-7.044063e-001
772375000	6.833824e-001	-6.960444e-001	-2.858313e-004	1.587909e-004	1.490210e-004	4.637271e-005	6.604162e-001	-7.118499e-001
772500000	6.850401e-001	-6.937116e-001	-1.286280e-003	-6.378104e-004	-6.889274e-004	1.062988e-004	6.666705e-001	-7.172939e-001
772625000	6.914010e-001	-6.932690e-001	-1.365247e-003	-7.004781e-004	-9.684180e-004	-1.092084e-003	6.624561e-001	-7.169661e-001
772750000	6.816799e-001	-6.946965e-001	1.258081e-004	-1.062786e-003	-1.101876e-003	-1.136018e-003	6.632290e-001	-7.136457e-001
772875000	6.812271e-001	-6.905843e-001	-1.251667e-003	-9.377310e-004	-1.268088e-003	2.555717e-005	6.622222e-001	-7.202653e-001
773000000	6.831087e-001	-6.939334e-001	-8.641898e-004	-6.758549e-004	-5.962376e-004	-8.332114e-004	6.662317e-001	-7.094457e-001
773125000	6.808324e-001	-7.021519e-001	-1.212115e-003	-1.183044e-003	-4.182595e-004	-2.668789e-004	6.630529e-001	-7.172282e-001
773250000	6.753164e-001	-7.003450e-001	-8.686539e-004	-2.985425e-004	-1.023800e-003	-3.628182e-004	6.541236e-001	-7.162840e-001
773375000	6.801770e-001	-6.976519e-001	-4.827144e-004	-1.548251e-004	-9.385083e-004	3.815140e-004	6.673179e-001	-7.257920e-001
773500000	6.813979e-001	-6.972207e-001	-6.074680e-004	-8.354930e-004	-6.278606e-004	6.489082e-005	6.603757e-001	-7.159436e-001
773625000	6.861425e-001	-6.975346e-001	-3.029059e-004	-1.082556e-003	-1.285546e-003	-1.411456e-003	6.545132e-001	-7.206609e-001
773750000	6.809582e-001	-7.027524e-001	7.726883e-004	2.711138e-004	-2.408964e-003	1.090559e-004	6.638786e-001	-7.199664e-001
773875000	6.869293e-001	-7.071787e-001	-1.801914e-003	-1.050239e-003	-5.898345e-004	5.365154e-004	6.612897e-001	-7.150343e-001
774000000	6.834540e-001	-6.988629e-001	-1.139539e-003	-5.051994e-004	-1.276469e-003	-2.512939e-004	6.616120e-001	-7.126421e-001
774125000	6.799676e-001	-6.969773e-001	-1.416985e-003	-8.502165e-004	-1.761934e-003	-1.005202e-004	6.703516e-001	-7.156780e-001
774250000	6.778917e-001	-7.056783e-001	-1.160518e-003	-1.673995e-004	-1.034106e-003	-3.174754e-004	6.541903e-001	-7.179564e-001
774375000	6.766031e-001	-7.032104e-001	-3.141436e-004	-3.610550e-004	-1.296509e-003	-2.219713e-005	6.553605e-001	-7.181127e-001
774500000	6.736894e-001	-7.040076e-001	-6.113988e-004	-2.826716e-004	-1.962625e-003	-9.902116e-004	6.594911e-001	-7.136102e-001
774625000	6.862805e-001	-7.093527e-001	-1.163003e-003	-1.876086e-004	-1.946488e-004	-3.769012e-004	6.548044e-001	-7.242708e-001
774750000	6.827754e-001	-7.025448e-001	-4.072768e-005	-1.094907e-003	-9.328847e-004	-7.359623e-004	6.659841e-001	-7.198343e-001
774875000	6.765990e-001	-7.005155e-001	-5.003803e-004	1.487425e-004	-1.001513e-003	-6.635261e-004	6.572056e-001	-7.219229e-001
775000000	6.816040e-001	-6.998301e-001	-4.876363e-005	9.711410e-004	-1.228984e-003	-1.603826e-004	6.648342e-001	-7.178841e-001
775125000	6.785302e-001	-7.068520e-001	-3.855667e-004	4.069589e-004	-3.922560e-004	-1.701727e-004	6.571108e-001	-7.311230e-001
775250000	6.723613e-001	-6.992688e-001	-7.834174e-004	-1.213169e-003	4.061414e-004	-9.063073e-004	6.567374e-001	-7.175794e-001
775375000	6.660994e-001	-6.930073e-001	-1.113241e-003	4.080955e-004	-4.912048e-004	-4.854844e-004	6.611462e-001	-7.243461e-001
775500000	6.729881e-001	-6.980256e-001	-4.003931e-004	-7.270974e-004	-4.172515e-004	-5.612646e-004	6.571859e-001	-7.237878e-001
775625000	6.754375e-001	-7.025902e-001	3.522136e-005	-2.899935e-004	-1.324207e-004	-6.949900e-004	6.500487e-001	-7.178486e-001
775750000	6.730204e-001	-7.041131e-001	-1.228920e-003	-7.105522e-004	-3.882890e-004	-1.134116e-003	6.673283e-001	-7.278637e-001
775875000	6.706050e-001	-7.009601e-001	-3.691500e-004	5.353591e-004	-1.317320e-003	-9.446279e-004	6.503258e-001	-7.249212e-001
776000000	6.801469e-001	-6.959931e-001	-7.056328e-004	4.222981e-004	-4.874031e-004	-1.784058e-005	6.565139e-001	-7.203200e-001
776125000	6.790029e-001	-7.018924e-001	-1.031937e-003	-6.000307e-004	-1.330994e-003	-5.603197e-004	6.487768e-001	-7.122702e-001
776250000	6.672922e-001	-7.103387e-001	-9.255330e-004	-1.538745e-003	-1.699700e-003	-9.184215e-004	6.498217e-001	-7.239095e-001
776375000	6.745674e-001	-6.990637e-001	-6.354050e-004	-5.980411e-004	-4.977856e-004	2.658833e-004	6.476116e-001	-7.328468e-001
776500000	6.741121e-001	-7.127747e-001	-2.247534e-004	-1.391114e-004	-7.679611e-004	-1.287560e-003	6.546384e-001	-7.221346e-001
776625000	6.719186e-001	-6.968240e-001	4.836370e-004	5.353427e-004	-5.650950e-004	1.052234e-004	6.542280e-001	-7.194494e-001
776750000	6.767225e-001	-7.083400e-001	-7.828297e-005	9.264588e-004	-1.819726e-003	1.478804e-004	6.598834e-001	-7.217207e-001
776875000	6.623279e-001	-7.055259e-001	-4.379721e-004	5.018426e-004	-1.034474e-003	-6.644256e-004	6.449957e-001	-7.180933e-001
777000000	6.693896e-001	-7.087183e-001	-3.517972e-004	9.683176e-004	-5.575973e-004	4.034782e-004	6.537547e-001	-7.168914e-001
777125000	6.706561e-001	-6.998696e-001	-2.423461e-004	4.461589e-004	-1.850223e-003	-1.754475e-003	6.482374e-001	-7.299879e-001
777250000	6.644734e-001	-7.063707e-001	-9.638275e-004	-6.495239e-004	-1.141287e-003	-3.752657e-004	6.517777e-001	-7.159331e-001
777375000	6.678239e-001	-7.110214e-001	-1.055063e-003	6.986757e-005	-2.097174e-003	-7.579786e-004	6.471277e-001	-7.200984e-001
777500000	6.712001e-001	-7.071596e-001	-1.296121e-003	-2.472282e-004	-1.211701e-004	-5.396102e-004	6.524923e-001	-7.268951e-001
777625000	6.690360e-001	-7.120763e-001	-8.131111e-004	-9.880601e-004	-1.069719e-003	7.095872e-004	6.537621e-001	-7.260621e-001
777750000	6.627070e-001	-7.059760e-001	-1.442745e-003	-8.911820e-004	-2.947208e-004	1.080013e-004	6.435449e-001	-7.332643e-001
777875000	6.755981e-001	-7.120728e-001	-5.904453e-004	-2.527692e-004	-4.366446e-004	-6.477855e-004	6.450465e-001	-7.204535e-001
778000000	6.689840e-001	-7.102275e-001	-1.523181e-003	6.071977e-004	-3.430040e-004	4.411337e-004	6.471350e-001	-7.245436e-001
778125000	6.643433e-001	-7.086627e-001	-1.376011e-003	4.389080e-004	-1.153146e-003	-3.042683e-004	6.512580e-001	-7.220637e-001
778250000	6.637225e-001	-7.131355e-001	-1.269483e-003	-3.495188e-004	-3.544438e-004	-4.694284e-004	6.409754e-001	-7.202797e-001
778375000	6.619069e-001	-7.030488e-001	-1.700663e-003	-3.862359e-004	-1.546448e-003	-2.011072e-004	6.423370e-001	-7.241161e-001
778500000	6.721946e-001	-7.074950e-001	-1.180068e-003	6.475968e-005	-1.308772e-003	-7.169386e-004	6.498806e-001	-7.353444e-001
778625000	6.613752e-001	-7.116952e-001	-1.143661e-003	1.142263e-003	-9.643908e-004	-5.860515e-004	6.559280e-001	-7.244864e-001
778750000	6.707977e-001	-6.985282e-001	-9.272124e-004	-1.700022e-003	-1.179809e-003	2.216677e-004	6.462802e-001	-7.331988e-001
778875000	6.641264e-001	-7.058507e-001	-6.315020e-004	5.590972e-004	-1.221421e-003	-1.101276e-004	6.373810e-001	-7.229699e-001
779000000	6.707366e-001	-7.113643e-001	-9.594807e-004	1.085005e-004	-7.350925e-004	-6.341774e-004	6.463562e-001	-7.252879e-001
779125000	6.747471e-001	-7.096789e-001	-9.653248e-004	-1.096565e-003	-1.071002e-003	9.563110e-004	6.486350e-001	-7.272255e-001
779250000	6.737303e-001	-7.141798e-001	-1.314152e-003	-8.776326e-005	-1.406760e-003	-9.373409e-004	6.387728e-001	-7.261881e-001
779375000	6.664245e-001	-7.082863e-001	-1.491095e-003	1.603944e-004	-6.862987e-004	-1.372699e-004	6.419366e-001	-7.284485e-001
779500000	6.624960e-001	-7.118823e-001	-1.766237e-003	-8.622744e-004	-9.817170e-004	1.106956e-004	6.452108e-001	-7.271357e-001
779625000	6.653941e-001	-7.083775e-001	-7.796668e-004	-4.238691e-004	-1.025923e-003	-8.562172e-004	6.410589e-001	-7.299102e-001
779750000	6.659857e-001	-7.124551e-001	-7.724006e-004	1.317053e-004	-6.568811e-004	6.680967e-005	6.452563e-001	-7.185441e-001
779875000	6.763095e-001	-7.121771e-001	-7.870292e-004	-8.232492e-004	-1.021801e-003	-5.894806e-004	6.371597e-001	-7.324282e-001
780000000	6.643896e-001	-7.128086e-001	-1.285860e-003	-6.245021e-005	-1.289463e-003	-4.881804e-004	6.418633e-001	-7.390707e-001
780125000	6.637439e-001	-7.126252e-001	-1.188037e-003	-3.933166e-004	3.407024e-004	-2.530953e-004	6.516853e-001	-7.234133e-001
780250000	6.568666e-001	-7.120668e-001	-9.276381e-004	-1.079225e-003	1.077451e-004	-1.743123e-004	6.413186e-001	-7.247606e-001
780375000	6.657761e-001	-7.079423e-001	-7.236300e-004	-2.771519e-006	-7.780696e-004	-1.356121e-003	6.502600e-001	-7.258242e-001
780500000	6.653462e-001	-7.014973e-001	-9.398788e-004	5.281178e-004	-2.195368e-003	-1.417908e-003	6.359879e-001	-7.329244e-001
780625000	6.628960e-001	-7.171337e-001	-3.576637e-004	-4.443036e-004	-1.310451e-003	1.816128e-005	6.436564e-001	-7.257192e-001
780750000	6.641796e-001	-6.973869e-001	-1.005591e-003	-7.311115e-004	-7.509843e-004	-5.309394e-004	6.446128e-001	-7.258679e-001
780875000	6.596969e-001	-7.121742e-001	-8.322559e-004	-4.908553e-004	9.138563e-005	7.627129e-004	6.463606e-001	-7.290158e-001
781000000	6.508652e-001	-7.189495e-001	-9.428914e-004	1.039079e-004	-1.017898e-003	-5.275410e-004	6.445073e-001	-7.295270e-001
781125000	6.643630e-001	-7.165150e-001	3.058617e-004	-9.670953e-004	-4.583394e-004	-7.421129e-004	6.409951e-001	-7.242514e-001
781250000	6.586509e-001	-7.087260e-001	-6.559532e-004	-1.514815e-004	-1.418287e-003	-4.247784e-004	6.356969e-001	-7.227773e-001
781375000	6.567905e-001	-7.134430e-001	-7.429343e-004	-8.047106e-005	-4.412349e-004	4.287941e-005	6.405580e-001	-7.285296e-001
781500000	6.631693e-001	-7.164998e-001	-8.782812e-005	-1.149462e-003	-1.115221e-003	-1.085892e-003	6.385476e-001	-7.319469e-001
781625000	6.569521e-001	-7.030486e-001	-2.177409e-003	-5.270524e-004	-8.272906e-004	-8.672637e-004	6.364721e-001	-7.308711e-001
781750000	6.624112e-001	-7.232116e-001	-2.870926e-004	-9.922347e-004	-1.605027e-003	-1.185274e-004	6.400127e-001	-7.251556e-001
781875000	6.655430e-001	-7.130922e-001	-4.872602e-004	-1.210118e-004	-1.543888e-003	-1.288911e-003	6.432603e-001	-7.307971e-001
782000000	6.608509e-001	-7.167955e-001	-1.951675e-004	-3.515653e-004	-8.002015e-004	6.192635e-004	6.338381e-001	-7.226206e-001
782125000	6.507987e-001	-7.147402e-001	-1.149664e-003	5.611544e-005	-1.388606e-003	-2.702350e-004	6.416262e-001	-7.296723e-001
782250000	6.565302e-001	-7.102602e-001	-5.596448e-004	-6.053107e-004	4.730456e-006	-3.782884e-004	6.393174e-001	-7.325318e-001
782375000	6.539977e-001	-7.036326e-001	-6.473792e-004	1.171239e-005	-1.516426e-003	-2.478900e-004	6.370535e-001	-7.276733e-001
782500000	6.507246e-001	-7.147586e-001	-6.511567e-004	-5.954863e-004	-1.249261e-003	-3.560887e-004	6.427978e-001	-7.289514e-001
782625000	6.629598e-001	-7.146249e-001	-7.065876e-004	2.133647e-004	-6.190378e-004	-1.256907e-003	6.349960e-001	-7.266024e-001
782750000	6.667033e-001	-7.161853e-001	-4.561595e-004	2.002099e-004	-1.713948e-003	2.705372e-004	6.448940e-001	-7.296874e-001
782875000	6.561166e-001	-7.138227e-001	-1.976018e-004	2.429004e-004	-7.383172e-004	-4.073371e-004	6.395454e-001	-7.326065e-001
783000000	6.529342e-001	-7.119001e-001	-3.212034e-004	-8.245941e-004	-2.431664e-004	1.606917e-004	6.360253e-001	-7.408245e-001
783125000	6.527351e-001	-7.059722e-001	-1.248849e-003	2.594316e-006	-1.259554e-004	-8.893497e-004	6.337867e-001	-7.410460e-001
783250000	6.407310e-001	-7.249624e-001	-6.019298e-004	-1.420696e-003	-9.391907e-004	-4.214951e-004	6.341288e-001	-7.256509e-001
783375000	6.564337e-001	-7.287604e-001	-2.330111e-003	-8.487021e-004	-7.286033e-004	1.348133e-004	6.311220e-001	-7.309422e-001
783500000	6.551105e-001	-7.154465e-001	-1.515078e-003	-4.105785e-004	-1.606766e-003	-9.771149e-004	6.292951e-001	-7.291675e-001
783625000	6.550827e-001	-7.140698e-001	-1.358999e-004	-7.679662e-004	-8.407665e-004	-1.177148e-003	6.326371e-001	-7.324368e-001
783750000	6.542041e-001	-7.152337e-001	-4.804899e-004	7.980972e-005	-8.082116e-004	-1.537596e-004	6.247701e-001	-7.263196e-001
783875000	6.474376e-001	-7.154643e-001	-1.097213e-003	-5.992252e-004	-1.627639e-003	-5.459510e-004	6.322974e-001	-7.352980e-001
784000000	6.545395e-001	-7.200191e-001	-7.064845e-004	-7.304792e-004	-3.555547e-004	-1.108032e-003	6.282958e-001	-7.383438e-001
784125000	6.577792e-001	-7.055544e-001	-1.651485e-003	-8.775183e-004	-1.132275e-003	-1.207322e-003	6.262355e-001	-7.324017e-001
784250000	6.449049e-001	-7.139092e-001	-6.229153e-004	1.437614e-004	-7.928588e-004	-5.117347e-004	6.290338e-001	-7.335986e-001
784375000	6.541474e-001	-7.240089e-001	-3.787641e-004	5.012792e-004	-4.400654e-004	-1.221822e-003	6.283382e-001	-7.322605e-001
784500000	6.509725e-001	-7.124107e-001	-7.207765e-004	-8.837232e-004	-6.447023e-004	-1.801724e-003	6.288656e-001	-7.246109e-001
784625000	6.495510e-001	-7.105462e-001	-2.187912e-004	-1.674327e-004	-9.856909e-004	-2.903882e-004	6.288966e-001	-7.362500e-001
784750000	6.558048e-001	-7.180808e-001	4.159380e-005	-1.239890e-003	-4.741453e-004	-1.885550e-003	6.227439e-001	-7.273675e-001
784875000	6.492687e-001	-7.151634e-001	-7.418947e-004	7.689086e-004	6.123296e-005	-1.942439e-004	6.297273e-001	-7.286802e-001
785000000	6.551668e-001	-7.216342e-001	-6.191627e-004	-7.198753e-004	-1.493526e-003	1.378266e-004	6.250659e-001	-7.374170e-001
785125000	6.582903e-001	-7.152773e-001	-8.239023e-004	-9.456340e-004	-7.713078e-004	2.138262e-004	6.288571e-001	-7.274600e-001
785250000	6.461836e-001	-7.141900e-001	-5.589148e-004	-6.339329e-004	3.260973e-005	-1.456299e-003	6.227999e-001	-7.420003e-001
785375000	6.526288e-001	-7.186233e-001	-1.424381e-003	-6.092993e-004	4.524133e-004	-1.235916e-003	6.262267e-001	-7.315390e-001
785500000	6.528215e-001	-7.131448e-001	-2.691394e-003	6.636579e-004	-4.773399e-004	-2.520404e-004	6.267302e-001	-7.260582e-001
785625000	6.498846e-001	-7.127216e-001	-8.526155e-004	-8.616092e-004	-1.033692e-003	-1.574853e-003	6.185237e-001	-7.329717e-001
785750000	6.453222e-001	-7.244396e-001	-1.269257e-003	2.897327e-004	-1.553986e-003	1.788921e-005	6.279401e-001	-7.190353e-001
785875000	6.506415e-001	-7.152159e-001	1.139345e-004	-5.444329e-004	-7.722033e-005	-1.129484e-003	6.283472e-001	-7.414262e-001
786000000	6.514238e-001	-7.202219e-001	3.988101e-004	1.254709e-004	-8.080026e-004	-1.694697e-003	6.250142e-001	-7.359261e-001
786125000	6.491607e-001	-7.166042e-001	-2.427791e-004	8.867254e-004	-1.125746e-003	6.328986e-005	6.248070e-001	-7.390557e-001
786250000	6.361984e-001	-7.114955e-001	-9.525134e-004	3.903371e-004	-1.503511e-003	5.800555e-004	6.245637e-001	-7.390552e-001
786375000	6.413976e-001	-7.219509e-001	-6.308283e-004	-1.151914e-003	-1.198038e-003	-1.150084e-003	6.148007e-001	-7.425727e-001
786500000	6.354300e-001	-7.240143e-001	-1.459026e-003	-7.318144e-004	-1.337105e-003	-6.009121e-004	6.272326e-001	-7.413710e-001
786625000	6.464994e-001	-7.126626e-001	-8.906683e-004	-4.190219e-004	-9.551015e-004	4.599833e-004	6.252073e-001	-7.299315e-001
786750000	6.429701e-001	-7.229484e-001	-1.747682e-003	-1.346442e-003	-2.288787e-003	-2.797358e-004	6.200167e-001	-7.369733e-001
786875000	6.463807e-001	-7.155202e-001	-1.276410e-003	-7.722825e-004	-6.962718e-004	-7.048487e-004	6.273212e-001	-7.326518e-001
787000000	6.404680e-001	-7.197847e-001	-7.408537e-004	-1.030506e-003	-3.044858e-006	-1.316637e-003	6.112487e-001	-7.413601e-001
787125000	6.470931e-001	-7.168564e-001	-6.341490e-004	-1.918779e-004	-1.001752e-003	-1.143569e-003	6.245683e-001	-7.424639e-001
787250000	6.405992e-001	-7.192534e-001	-1.271135e-003	-3.071891e-004	-3.748822e-005	-1.152796e-003	6.115115e-001	-7.295778e-001
787375000	6.404506e-001	-7.162184e-001	4.835152e-005	9.760918e-005	4.573635e-004	-1.636245e-005	6.188376e-001	-7.334353e-001
787500000	6.429016e-001	-7.191180e-001	-7.054207e-004	-8.931636e-004	-8.909110e-004	-4.804146e-004	6.286016e-001	-7.414852e-001
787625000	6.383981e-001	-7.200507e-001	-1.071095e-003	-1.187946e-004	-1.968055e-004	-5.459126e-004	6.272788e-001	-7.395649e-001
787750000	6.401230e-001	-7.218718e-001	-2.966811e-004	8.781488e-005	-1.258569e-003	-6.627867e-004	6.266298e-001	-7.358442e-001
787875000	6.314434e-001	-7.112306e-001	-1.233590e-004	8.737884e-004	-1.488386e-003	-2.937637e-004	6.110034e-001	-7.345796e-001
788000000	6.377741e-001	-7.150032e-001	-2.066893e-003	9.943356e-005	-1.206888e-003	-6.472448e-004	6.266115e-001	-7.387252e-001
788125000	6.376776e-001	-7.106836e-001	-1.585755e-003	-5.269354e-004	-2.019844e-003	-6.302400e-004	6.138781e-001	-7.360094e-001
788250000	6.496191e-001	-7.207669e-001	-3.536947e-004	-6.680258e-004	4.246160e-005	6.282651e-004	6.225864e-001	-7.359306e-001
