!Keysight Technologies,E5080A,MY55200989,A.11.70.00
!Date: Friday, June 15, 2018 10:23:17
!Correction: S11(Full 2 Port(1,2)) 
!S21(Full 2 Port(1,2)) 
!S12(Full 2 Port(1,2)) 
!S22(Full 2 Port(1,2)) 
!S2P File: Measurements: S11, S21, S12, S22:
# Hz S  dB   R 50
280000000 -0.14486712 -78.651497 -62.273029 16.776499 -62.264744 16.677887 -0.13866529 -79.29232
280187500 -0.14340281 -78.651855 -61.652374 18.883303 -61.562782 19.354206 -0.13931285 -79.329117
280375000 -0.13396211 -78.726715 -61.159782 19.125702 -61.337467 18.81138 -0.13706455 -79.353607
280562500 -0.13794468 -78.753853 -60.834099 18.154373 -60.774715 17.688305 -0.13921213 -79.433121
280750000 -0.13563143 -78.816246 -60.693699 13.687435 -60.530811 13.67 -0.13374035 -79.469597
280937500 -0.12401672 -78.888344 -60.588871 11.004736 -60.61034 10.551628 -0.13484672 -79.541191
281125000 -0.13151447 -78.960617 -61.04166 8.5356722 -61.005039 9.3937254 -0.13738564 -79.600945
281312500 -0.13709551 -79.031296 -61.478252 9.6683092 -61.495121 10.004505 -0.12744196 -79.666145
281500000 -0.12996052 -79.038666 -60.933933 12.118635 -60.964928 10.403687 -0.13361204 -79.736191
281687500 -0.12638792 -79.141586 -61.557735 8.4695892 -61.490631 7.8953505 -0.13683815 -79.76844
281875000 -0.14087993 -79.216743 -61.720642 10.937215 -61.642426 11.119603 -0.141058 -79.869156
282062500 -0.13600475 -79.226089 -61.226978 12.533212 -61.442894 12.938024 -0.1329523 -79.888664
282250000 -0.13781357 -79.336426 -61.515305 10.458229 -61.531815 10.064527 -0.13042493 -80.025032
282437500 -0.14198647 -79.433014 -61.753471 12.32207 -61.53027 13.147161 -0.14209378 -80.100838
282625000 -0.14359775 -79.476547 -61.104244 10.66579 -61.435623 11.314115 -0.14573506 -80.098923
282812500 -0.14786908 -79.504814 -61.456303 13.709193 -61.296421 14.018031 -0.14494428 -80.114906
283000000 -0.15353194 -79.554802 -61.489738 10.670854 -61.47102 11.347416 -0.15185831 -80.180443
283187500 -0.1569562 -79.581635 -60.850342 15.394427 -60.785431 15.528784 -0.15387498 -80.209297
283375000 -0.15436721 -79.588806 -61.052719 14.112138 -61.098568 12.986792 -0.16086024 -80.264359
283562500 -0.1525618 -79.677734 -60.383686 13.453338 -60.443871 13.487287 -0.1514999 -80.288429
283750000 -0.15189134 -79.666924 -60.114834 11.692189 -60.08535 10.894068 -0.15022309 -80.353676
283937500 -0.15639782 -79.710846 -59.967686 8.2576771 -60.037716 8.2531881 -0.1487419 -80.384674
284125000 -0.15125862 -79.722687 -60.543671 6.0061636 -60.418198 6.3218541 -0.14248379 -80.440407
284312500 -0.14889646 -79.765549 -60.408726 4.9750376 -60.386356 5.538331 -0.14744087 -80.512939
284500000 -0.13767803 -79.816933 -60.950077 4.1584148 -61.000881 4.2632298 -0.14057265 -80.555534
284687500 -0.13326839 -79.96122 -61.330505 6.4465823 -61.343239 5.9825611 -0.13600717 -80.614433
284875000 -0.1368348 -80.046036 -61.105145 7.1449695 -61.07407 7.5989022 -0.13770384 -80.712746
285062500 -0.1406247 -80.090714 -61.123871 6.677422 -61.172398 7.3134294 -0.14099067 -80.761795
285250000 -0.13643512 -80.204865 -60.906475 8.3436174 -60.873291 7.978374 -0.14233908 -80.811562
285437500 -0.14642179 -80.26812 -60.649632 8.4014101 -60.780918 7.5973697 -0.13809729 -80.900742
285625000 -0.1399985 -80.272194 -60.723423 4.0623956 -60.709286 3.3567467 -0.14154303 -80.974838
285812500 -0.14233993 -80.397179 -61.128113 6.4124737 -61.298187 6.8983727 -0.14619938 -81.079193
286000000 -0.14667888 -80.445862 -61.476376 9.5062389 -61.341465 9.7353926 -0.15810989 -81.146278
286187500 -0.15327579 -80.541733 -60.545486 12.77571 -60.470909 12.865962 -0.15901117 -81.169945
286375000 -0.16845827 -80.545113 -59.703232 4.8317609 -59.668602 4.5338936 -0.16451345 -81.207306
286562500 -0.16462143 -80.610725 -60.511707 1.2315699 -60.333385 1.4724739 -0.17114332 -81.238304
286750000 -0.17020504 -80.593018 -60.716152 3.5722358 -60.694237 3.7447746 -0.16482127 -81.18335
286937500 -0.17242439 -80.597336 -60.496498 3.6025364 -60.519428 3.017488 -0.16162059 -81.27346
287125000 -0.16534297 -80.6707 -60.818604 3.8119214 -60.922352 3.8262608 -0.16054693 -81.291618
287312500 -0.17139198 -80.690559 -60.478848 1.4058148 -60.633549 1.1077055 -0.16337278 -81.303726
287500000 -0.15514284 -80.723976 -60.790615 0.75607574 -61.020538 0.22104619 -0.15533303 -81.414391
287687500 -0.16897635 -80.756424 -60.73119 -2.4566214 -60.742542 -3.779563 -0.16213381 -81.477966
287875000 -0.15996613 -80.759964 -61.297882 2.6069574 -61.098675 2.5552495 -0.16086964 -81.484093
288062500 -0.15154314 -80.797089 -60.944942 -1.2838957 -61.097298 -0.39078954 -0.15816623 -81.525093
288250000 -0.14179422 -80.909576 -61.357601 -2.8684044 -61.522995 -2.1505754 -0.146227 -81.606354
288437500 -0.13993734 -80.97451 -61.884102 2.4963799 -61.834045 2.3782825 -0.14236401 -81.687218
288625000 -0.14532045 -81.093201 -61.555824 3.1255217 -61.509548 3.3465841 -0.14948711 -81.73838
288812500 -0.14418915 -81.146461 -61.434856 3.2046967 -61.465919 3.7474146 -0.14775801 -81.806602
289000000 -0.14100078 -81.24588 -61.066345 5.5403347 -61.313583 4.8992481 -0.14528269 -81.901939
289187500 -0.14925227 -81.307381 -60.733482 2.3305829 -60.549885 2.1594448 -0.14826338 -81.960236
289375000 -0.14830297 -81.385567 -61.034908 2.7069242 -61.176472 2.3507035 -0.1529256 -82.041901
289562500 -0.15337318 -81.414413 -60.452396 4.8405137 -60.583405 3.8974519 -0.14685315 -82.074059
289750000 -0.15798868 -81.475113 -60.499729 -0.011743777 -60.369919 0.83655405 -0.15488473 -82.181061
289937500 -0.16202298 -81.505913 -60.702633 -1.6217372 -60.832333 -1.3950138 -0.16750948 -82.22393
290125000 -0.1635955 -81.600021 -60.997086 -3.3379896 -60.817066 -2.1250448 -0.15727946 -82.247879
290312500 -0.16609251 -81.594025 -61.000336 -1.8047757 -61.018738 -1.5826284 -0.1613657 -82.278831
290500000 -0.1613224 -81.675804 -61.084248 -1.3775877 -61.140713 -2.3065121 -0.16011138 -82.357407
290687500 -0.1669881 -81.739357 -60.68956 -1.3978113 -60.625549 -1.7803674 -0.1606614 -82.399673
290875000 -0.17386134 -81.688004 -60.712727 -6.1642137 -60.644928 -6.2378106 -0.17247322 -82.409538
291062500 -0.16486596 -81.753586 -61.111256 -7.3537412 -61.141861 -6.9262958 -0.16627434 -82.505157
291250000 -0.18075487 -81.788025 -61.349934 -11.566725 -61.413593 -10.891935 -0.1708587 -82.483894
291437500 -0.16770479 -81.741631 -62.008106 -12.323655 -61.76067 -11.651475 -0.16494234 -82.49765
291625000 -0.14933681 -81.773109 -62.393887 -8.1176605 -62.348175 -8.4958897 -0.14795241 -82.543091
291812500 -0.14405034 -81.901527 -62.341877 -3.9312742 -62.395126 -3.6500595 -0.14348753 -82.618835
292000000 -0.14308351 -82.018204 -62.29018 -0.027129741 -62.313961 -1.8709035 -0.14359465 -82.727402
292187500 -0.1436 -82.053635 -62.334881 -4.9402018 -61.990452 -5.6560125 -0.14839415 -82.758667
292375000 -0.1466479 -82.13459 -62.24123 -6.277503 -62.3615 -6.1584463 -0.1443038 -82.818779
292562500 -0.14211385 -82.22908 -62.450478 -0.4103488 -62.555794 -0.82761097 -0.14283873 -82.930351
292750000 -0.1385019 -82.306557 -62.106369 -1.3920571 -62.165825 -1.056504 -0.14391156 -82.98674
292937500 -0.14073676 -82.393059 -62.742931 -0.76772797 -62.596199 -0.77114385 -0.14783256 -83.09565
293125000 -0.1477472 -82.471001 -61.952663 1.6529962 -61.793003 1.0197445 -0.14706823 -83.167099
293312500 -0.15241817 -82.540871 -61.903137 -1.6476352 -61.983917 -2.8601007 -0.1534861 -83.238152
293500000 -0.15554006 -82.568459 -61.798561 -1.5669765 -61.890388 -2.7934141 -0.15485962 -83.251343
293687500 -0.15470088 -82.600166 -61.842194 -4.7340775 -61.764229 -4.6642747 -0.15994501 -83.290596
293875000 -0.15620033 -82.671837 -61.876236 -4.1600704 -62.007751 -4.1524487 -0.14859171 -83.343048
294062500 -0.16067281 -82.713394 -62.096004 -6.331048 -62.194828 -6.2860956 -0.15464105 -83.474365
294250000 -0.15861879 -82.791756 -62.620895 -7.641212 -62.734085 -7.0687151 -0.16158284 -83.4674
294437500 -0.16460139 -82.773529 -62.806362 -3.2077441 -62.871407 -2.5168712 -0.15470929 -83.485657
294625000 -0.16856682 -82.857277 -62.584766 -3.2990093 -62.638523 -2.6344123 -0.1651742 -83.619392
294812500 -0.17400044 -82.849541 -62.959557 -0.44160542 -62.869534 -2.0646422 -0.17430383 -83.661285
295000000 -0.16953328 -82.847977 -62.72768 -1.5180869 -62.447163 -2.1146967 -0.17449524 -83.560806
295187500 -0.16259076 -82.867722 -63.334961 2.7789989 -63.352497 2.3449607 -0.1627299 -83.598907
295375000 -0.15448509 -82.95433 -62.697811 1.0966303 -62.509983 2.0621946 -0.15308124 -83.6548
295562500 -0.14739543 -83.028191 -62.245209 0.78145212 -62.367874 0.095125623 -0.14615506 -83.74646
295750000 -0.14799458 -83.103439 -62.419613 1.6243545 -62.468201 0.57450485 -0.14615849 -83.830765
295937500 -0.14615467 -83.181862 -62.342113 1.6221009 -62.430225 1.4464827 -0.14689958 -83.880463
296125000 -0.1438113 -83.244537 -62.277481 -0.77913213 -62.276432 -0.82251757 -0.14877039 -83.98201
296312500 -0.14866039 -83.288864 -62.712418 -3.0990691 -62.540062 -1.8560884 -0.14299898 -84.039749
296500000 -0.14611657 -83.412415 -63.17601 -0.73911458 -62.863247 -1.5300936 -0.15061498 -84.1278
296687500 -0.144511 -83.486725 -62.71196 1.2129524 -62.606472 1.5618155 -0.14189364 -84.17411
296875000 -0.14981744 -83.534325 -62.295803 -0.27005345 -62.32122 -0.013788273 -0.14244777 -84.247543
297062500 -0.14905609 -83.565025 -62.810768 -1.494627 -62.772476 -2.6007862 -0.14754698 -84.306259
297250000 -0.15023363 -83.651619 -63.056309 0.94611931 -62.93399 0.44453862 -0.14966662 -84.367935
297437500 -0.14927182 -83.690422 -62.690521 1.8811519 -62.689373 1.0985454 -0.15214933 -84.420212
297625000 -0.15476197 -83.776787 -62.772705 0.51590389 -62.647552 1.1403948 -0.1531533 -84.499176
297812500 -0.15985237 -83.829308 -62.473793 -0.099973589 -62.654171 0.1272307 -0.1530688 -84.522194
298000000 -0.16068359 -83.883797 -63.054054 1.2115321 -62.918781 1.7223169 -0.15267763 -84.583771
298187500 -0.15037341 -83.892647 -62.499275 2.6135814 -62.345181 2.2716732 -0.15276729 -84.619926
298375000 -0.15623914 -83.955795 -62.770226 1.2272257 -62.669426 1.0280093 -0.15609701 -84.685715
298562500 -0.15435328 -83.964882 -62.73217 3.5871766 -62.795158 3.2135382 -0.14952467 -84.714424
298750000 -0.14754736 -84.036003 -62.392948 2.9731493 -62.374851 3.5133634 -0.15176755 -84.806503
298937500 -0.1485621 -84.093132 -62.553303 1.6323125 -62.361099 0.76421368 -0.1541675 -84.856476
299125000 -0.14996898 -84.162102 -62.920403 3.9607563 -63.047432 3.6393502 -0.14981993 -84.88755
299312500 -0.1412928 -84.239624 -61.932373 6.3961229 -61.887905 6.2836885 -0.14575174 -84.98233
299500000 -0.14985408 -84.301247 -61.835793 0.56968772 -61.881157 0.98599201 -0.14520279 -85.011765
299687500 -0.14383721 -84.380806 -62.048546 4.6160536 -62.08567 4.2334328 -0.14949945 -85.141785
299875000 -0.14331369 -84.402237 -61.539471 -1.7417123 -61.580112 -1.4478612 -0.14070445 -85.18119
300062500 -0.1484407 -84.490456 -62.413834 -2.8522859 -62.590988 -2.9845908 -0.14349601 -85.240524
300250000 -0.14316957 -84.553749 -62.819942 -0.23238358 -62.637897 0.93800837 -0.14057033 -85.307533
300437500 -0.14933442 -84.610229 -62.637165 -0.50715178 -62.626514 -1.03891 -0.14573666 -85.348679
300625000 -0.14018698 -84.641365 -62.500408 2.612154 -62.410408 1.5674185 -0.14147469 -85.398407
300812500 -0.1446258 -84.737198 -62.436695 1.2574345 -62.514214 1.0028626 -0.14671609 -85.456055
301000000 -0.14318921 -84.842964 -62.62402 2.2323015 -62.594398 1.8191445 -0.14925683 -85.537369
301187500 -0.14804955 -84.894958 -62.739944 2.1203949 -62.426102 3.0734711 -0.14289147 -85.600662
301375000 -0.14472671 -84.919334 -62.475872 5.0433936 -62.431984 3.699105 -0.14425139 -85.643295
301562500 -0.14733648 -84.963867 -62.338383 2.81267 -62.204952 3.3110483 -0.14079134 -85.728867
301750000 -0.14485851 -85.020058 -62.136547 3.2366815 -62.099762 3.8179033 -0.14374249 -85.812386
301937500 -0.14481063 -85.108185 -62.100441 2.7716117 -62.081215 3.0671403 -0.14180399 -85.86441
302125000 -0.152225 -85.175728 -61.984211 1.9711952 -61.889248 1.7500566 -0.1428777 -85.920387
302312500 -0.14869395 -85.235229 -62.163048 -0.61418623 -61.973343 -0.62417603 -0.14695126 -85.99556
302500000 -0.14883375 -85.298836 -62.318142 -0.098264508 -62.293873 0.34408429 -0.14877024 -86.059631
302687500 -0.14956133 -85.337173 -62.060329 1.2514832 -62.013943 1.0805432 -0.14798751 -86.10878
302875000 -0.14866374 -85.420067 -62.219318 0.50897646 -62.188519 0.54012495 -0.14976114 -86.172318
303062500 -0.15571207 -85.484924 -62.046951 -1.7764719 -62.013588 -0.81119514 -0.14404395 -86.257706
303250000 -0.15157923 -85.531624 -62.406681 -0.022193264 -62.329273 -1.1351478 -0.14676805 -86.281265
303437500 -0.15157737 -85.637596 -62.355682 -2.2466643 -62.340992 -3.0678406 -0.14939232 -86.375221
303625000 -0.15478683 -85.685722 -62.532242 -0.35123634 -62.494797 -2.8009989 -0.15293762 -86.453659
303812500 -0.16039808 -85.754593 -62.591053 1.7503642 -62.563335 1.852564 -0.16174656 -86.509926
304000000 -0.16072702 -85.792923 -62.220333 -0.21589233 -62.278339 0.42257336 -0.16204064 -86.562881
304187500 -0.15836389 -85.820496 -61.856327 -0.61764377 -61.963375 -1.2230371 -0.1586851 -86.574371
304375000 -0.15531887 -85.848541 -62.283985 -4.3627615 -62.357323 -4.6261215 -0.15686001 -86.629066
304562500 -0.15485279 -85.972412 -62.874767 -3.5168552 -62.801971 -3.8430586 -0.155485 -86.670769
304750000 -0.15403776 -86.026436 -63.301964 -2.1760867 -63.340343 -1.9621347 -0.15446055 -86.777191
304937500 -0.15700635 -86.061447 -63.216167 1.8958691 -62.967159 2.1654363 -0.15743722 -86.799934
305125000 -0.15626362 -86.140266 -62.599861 3.7486875 -62.631065 4.6003919 -0.15526405 -86.897697
305312500 -0.15845297 -86.184517 -62.414574 1.6664512 -62.311745 2.6171527 -0.15604204 -86.945145
305500000 -0.16204742 -86.250114 -62.234642 0.79118997 -62.147324 0.3948707 -0.14816818 -87.022087
305687500 -0.15992646 -86.305573 -62.232681 0.59966838 -62.12479 0.16506769 -0.15202685 -87.044693
305875000 -0.16297758 -86.340401 -62.336426 -2.4175642 -62.35783 -2.955637 -0.15371665 -87.117233
306062500 -0.16065228 -86.403488 -62.442345 -2.5226529 -62.562119 -2.5100884 -0.15291798 -87.18544
306250000 -0.1576506 -86.487152 -62.581528 -2.3665299 -62.591866 -1.5479072 -0.15767002 -87.230217
306437500 -0.15776141 -86.55407 -62.712582 -2.3584385 -62.601509 -1.8953729 -0.149433 -87.304688
306625000 -0.15644643 -86.593987 -62.961815 -0.74467379 -62.944351 -0.96261144 -0.15328352 -87.342346
306812500 -0.16227145 -86.667534 -62.654194 0.64169204 -62.445683 0.42741138 -0.15364346 -87.470337
307000000 -0.16102202 -86.730438 -62.858128 0.83755928 -62.760773 1.1930126 -0.15933792 -87.518578
307187500 -0.16456304 -86.830704 -62.560764 -0.47242635 -62.493793 -1.0678478 -0.15818213 -87.543442
307375000 -0.15825438 -86.866959 -62.774204 -3.9517961 -62.79163 -4.9502459 -0.15864077 -87.661003
307562500 -0.16379414 -86.95623 -62.985287 -2.5836523 -63.067986 -1.9373614 -0.16392337 -87.734077
307750000 -0.16788243 -87.037476 -63.446999 -0.095924631 -63.626499 -1.0427197 -0.16719502 -87.772903
307937500 -0.16715688 -87.043823 -63.119301 0.65268278 -62.920731 0.20043647 -0.16350693 -87.846741
308125000 -0.17080456 -87.122589 -63.514359 -1.4748766 -63.420868 -0.87040073 -0.16637556 -87.907631
308312500 -0.17255573 -87.150345 -62.947968 3.0054262 -63.072624 4.2785182 -0.1658811 -87.961967
308500000 -0.17597078 -87.206589 -62.770237 1.4447749 -62.714508 2.1967199 -0.16727354 -88.033699
308687500 -0.17852153 -87.256279 -63.44717 0.88106185 -63.448242 1.2186507 -0.16742688 -88.057114
308875000 -0.17578122 -87.28437 -63.263706 4.9659691 -63.28907 4.1873379 -0.16508515 -88.122925
309062500 -0.17996676 -87.364799 -62.978615 4.4021959 -62.752377 3.0068271 -0.17189512 -88.159882
309250000 -0.17416644 -87.40197 -62.969021 5.7223816 -62.935612 4.5540981 -0.17408754 -88.199944
309437500 -0.17565803 -87.419693 -62.567745 4.9932504 -62.517845 5.2808557 -0.17110644 -88.236
309625000 -0.17023136 -87.484894 -62.661339 4.0384908 -62.640198 4.0173826 -0.16743356 -88.304962
309812500 -0.16783549 -87.566414 -62.783348 3.5232453 -62.643749 3.7161856 -0.16361262 -88.389694
310000000 -0.16674204 -87.652817 -62.137688 5.5962367 -62.217705 4.9213529 -0.16412367 -88.468697
310187500 -0.1630874 -87.712234 -62.353161 3.4768288 -62.295643 3.1340239 -0.16488609 -88.517197
310375000 -0.16578759 -87.79081 -62.334408 1.7045876 -62.116203 2.4365873 -0.16623177 -88.600708
310562500 -0.16570646 -87.85424 -62.227692 -0.12176528 -62.331421 0.13818167 -0.16931902 -88.637024
310750000 -0.1664456 -87.931847 -62.822643 -0.67436767 -62.635349 -0.63405311 -0.16604075 -88.721085
310937500 -0.16795829 -88.045563 -63.160828 -1.3558383 -63.085869 -0.78319716 -0.16812275 -88.815163
311125000 -0.17219625 -88.150681 -63.71006 0.021231707 -63.550018 0.78195143 -0.17373534 -88.92218
311312500 -0.17890838 -88.17392 -63.308922 2.6932316 -63.015778 3.1461151 -0.16842474 -88.935623
311500000 -0.18020408 -88.245033 -63.614769 4.0985217 -63.788086 3.8851833 -0.1783068 -89.012375
311687500 -0.18510985 -88.32061 -63.566475 4.9768009 -63.5047 5.7950354 -0.17863038 -89.095825
311875000 -0.18881179 -88.391815 -63.09108 7.3940616 -63.172523 7.2973375 -0.1844366 -89.1353
312062500 -0.19789091 -88.433044 -63.433914 8.8191042 -63.371624 9.1168613 -0.18745993 -89.206284
312250000 -0.21074016 -88.45961 -63.113922 13.231275 -63.185101 13.333945 -0.19622789 -89.287392
312437500 -0.20210582 -88.390289 -61.660198 16.206326 -61.68071 17.009489 -0.19690117 -89.275764
312625000 -0.20929104 -88.487823 -62.091026 9.483964 -62.137035 9.0132532 -0.20079382 -89.377167
312812500 -0.20368968 -88.459412 -62.075821 12.029729 -62.044685 11.847685 -0.21144243 -89.310196
313000000 -0.19773893 -88.521545 -61.626381 9.7748432 -61.731262 9.7025261 -0.20039558 -89.322754
313187500 -0.19476044 -88.566536 -62.0089 9.2518625 -61.926598 9.7324238 -0.19340512 -89.345955
313375000 -0.1869217 -88.599243 -60.950184 9.0984421 -60.969601 8.701787 -0.18706101 -89.407639
313562500 -0.18508708 -88.702744 -61.558754 6.2190437 -61.660648 5.6205707 -0.18572466 -89.495369
313750000 -0.19030869 -88.763634 -61.163582 8.2082453 -61.118595 9.3640165 -0.18783613 -89.528328
313937500 -0.17704445 -88.782417 -60.772339 3.7721128 -60.759262 4.0667043 -0.17834398 -89.602554
314125000 -0.17651603 -88.897972 -61.155922 2.1531386 -61.221104 3.4150507 -0.17599992 -89.68869
314312500 -0.17368931 -88.992226 -61.747028 -0.23784573 -61.429184 -0.76391178 -0.1762132 -89.778381
314500000 -0.17196216 -89.106468 -61.872444 0.41753072 -61.658649 0.60127127 -0.17482899 -89.922218
314687500 -0.17651501 -89.209984 -61.648121 -0.44414225 -61.698822 0.24528536 -0.17879933 -89.956215
314875000 -0.18346913 -89.289215 -62.015457 -2.3758092 -62.09478 -1.9687951 -0.18160842 -90.070129
315062500 -0.19267704 -89.365089 -62.86039 1.2734306 -62.906658 1.6948755 -0.19114028 -90.141296
315250000 -0.19525559 -89.363617 -63.106823 6.3129015 -63.041985 6.6410918 -0.18912634 -90.208504
315437500 -0.1989688 -89.459534 -62.320408 7.1089935 -62.241955 7.2313538 -0.19527252 -90.264549
315625000 -0.21433248 -89.547035 -62.556465 10.925874 -62.622581 11.375561 -0.20472942 -90.341591
315812500 -0.22840588 -89.555794 -62.120991 14.965833 -62.088726 15.159356 -0.21736217 -90.341232
316000000 -0.23057511 -89.44178 -60.845737 17.98436 -60.859463 18.320118 -0.22311756 -90.341064
316187500 -0.21734825 -89.457153 -59.928436 7.6944609 -59.922153 8.2218399 -0.21167101 -90.292091
316375000 -0.20212992 -89.515083 -60.213448 3.318069 -60.158218 3.3403921 -0.21078564 -90.378761
316562500 -0.20856071 -89.561874 -60.450329 4.5298066 -60.393978 4.5675249 -0.20823298 -90.423698
316750000 -0.20021825 -89.581673 -60.450287 2.2748075 -60.481682 2.2782042 -0.20210361 -90.428169
316937500 -0.19870886 -89.648689 -60.314651 0.21696022 -60.311546 0.85106719 -0.19832161 -90.501572
317125000 -0.18898426 -89.746857 -60.243004 -2.1365755 -60.182171 -1.7672945 -0.19732535 -90.576202
317312500 -0.19286995 -89.813408 -60.737328 -5.290072 -60.780064 -3.9238303 -0.19513841 -90.635529
317500000 -0.18747279 -89.812286 -60.927002 -6.1560979 -60.947102 -5.7664433 -0.1865674 -90.662193
