!Keysight Technologies,E5080A,MY55200989,A.11.70.00
!Date: Tuesday, January 30, 2018 08:35:51
!Correction: S11(Full 2 Port(1,2)) 
!S21(Full 2 Port(1,2)) 
!S12(Full 2 Port(1,2)) 
!S22(Full 2 Port(1,2)) 
!S2P File: Measurements: S11, S21, S12, S22:
# Hz S  dB   R 50
10000000 -0.0073920269 -1.4925091 -79.727501 148.9108 -78.518166 135.85713 -0.012263028 -1.4148951
11556250 -0.0091239726 -1.6425978 -74.149094 132.67812 -71.176773 122.16661 0.0057293326 -1.6322652
13112500 -0.0035944202 -1.8996507 -76.368858 4.2815819 -78.427719 9.5310316 0.0019801108 -1.8451618
14668750 -0.010501047 -2.0702956 -72.960587 -140.53728 -71.372414 -139.41971 -0.0059781428 -2.1125503
16225000 -0.011145591 -2.3013701 -87.139938 -31.938372 -78.408302 -38.817867 0.0013946175 -2.3904536
17781250 -0.01093798 -2.5822117 -65.481331 73.185249 -64.690704 74.450279 -0.011382762 -2.560401
19337500 -0.022159699 -2.7971506 -70.233368 -23.674896 -70.865654 -21.402803 -0.005157846 -2.7530558
20893750 -0.030665139 -2.9590337 -76.145714 169.31631 -76.468277 137.16502 0.00029431135 -2.9425592
22450000 -0.041362248 -3.1881993 -70.888458 91.283997 -72.710739 91.838387 -0.003195677 -3.1616738
24006250 -0.044727534 -3.3652418 -65.450394 104.81021 -66.353935 110.70297 -0.016642548 -3.3475928
25562500 -0.039224174 -3.5360889 -64.033928 61.344654 -64.551056 62.8769 -0.011428609 -3.535161
27118750 -0.029898662 -3.7675481 -65.859055 142.78996 -64.260849 147.24875 -0.020029215 -3.8025243
28675000 -0.040379386 -3.8772392 -66.812935 91.504883 -69.449844 93.625664 -0.010416781 -4.0372782
30231250 -0.040987745 -4.13975 -77.05426 47.968704 -77.625206 59.789845 -0.0043324628 -4.2341328
31787500 -0.038420938 -4.3053408 -72.292435 5.7007418 -73.433212 0.45005015 -0.011796565 -4.4020205
33343750 -0.033695042 -4.4564056 -69.106171 88.388512 -68.918091 91.959015 -0.014516176 -4.6342735
34900000 -0.04018354 -4.7452521 -66.595459 68.067078 -65.834465 73.138512 -0.0048097093 -4.909894
36456250 -0.04249645 -4.8140731 -62.600914 67.814461 -62.263386 71.601654 -0.012018781 -5.0898008
38012500 -0.039009593 -5.1652937 -66.757317 84.549622 -65.864822 86.97422 -0.015818365 -5.3249326
39568750 -0.049155854 -5.2946944 -66.864143 69.879913 -66.57148 71.85099 -0.00086248002 -5.5266213
41125000 -0.044656586 -5.4728975 -67.371643 85.961891 -66.526833 84.377785 -0.017231923 -5.7840796
42681250 -0.035400283 -5.7696424 -62.023254 89.409241 -62.070808 88.962067 -0.017515352 -6.0375686
44237500 -0.054560266 -5.8650608 -62.520874 58.222527 -61.978828 55.540531 -0.016745292 -6.216146
45793750 -0.036021952 -6.1098523 -61.738338 76.332382 -61.878426 73.576759 -0.0035280588 -6.4147944
47350000 -0.041548699 -6.3204951 -62.995808 67.138039 -62.448349 67.650429 -0.00081661012 -6.6064353
48906250 -0.040182542 -6.6099138 -64.879433 112.97002 -64.696808 113.31363 -0.012221521 -6.8697124
50462500 -0.035057884 -6.8017278 -66.081497 83.815536 -67.177864 83.169601 -0.01540415 -7.0469003
52018750 -0.046046466 -6.9587412 -61.725594 94.450722 -60.966042 94.738663 -0.015221527 -7.2889814
53575000 -0.040466946 -7.1787391 -62.909752 65.687691 -62.220276 63.439953 -0.015663235 -7.5085707
55131250 -0.041054901 -7.3650928 -61.144009 84.252602 -61.243462 88.441292 -0.0110043 -7.715064
56687500 -0.05005984 -7.5456386 -64.2043 73.044731 -64.801163 72.382896 -0.015519486 -7.9058623
58243750 -0.039397411 -7.7605762 -63.119709 68.958374 -62.638054 63.756039 -0.012296925 -8.1636887
59800000 -0.041384067 -8.0124207 -60.629642 70.958755 -60.63369 70.666435 -0.019429808 -8.3228703
61356250 -0.046544999 -8.2211056 -60.596142 83.986748 -60.296619 85.126747 -0.020958599 -8.5671835
62912500 -0.039639328 -8.4067907 -59.752586 64.455246 -60.249435 66.908524 -0.023281174 -8.7614212
64468750 -0.039551158 -8.5848923 -62.271439 93.671646 -62.84705 95.495872 -0.015975446 -8.9637575
66025000 -0.048278701 -8.8165007 -61.334103 84.547287 -61.861145 85.074326 -0.012670831 -9.1845093
67581250 -0.045830987 -8.9820518 -61.9049 73.304161 -62.271351 77.97831 -0.01041455 -9.4417582
69137500 -0.038752794 -9.2181749 -61.015381 71.512932 -61.008015 69.935478 -0.014164784 -9.6309566
70693750 -0.046872519 -9.4242926 -60.640949 90.263885 -60.742859 92.69101 -0.015377522 -9.8876686
72250000 -0.041673854 -9.5900726 -59.747131 87.677605 -59.921329 84.607948 -0.02609738 -10.149761
73806250 -0.050109662 -9.8251705 -61.810963 69.270233 -61.349052 68.734802 -0.023483083 -10.3104
75362500 -0.035572484 -10.043876 -59.535454 80.812019 -59.718666 80.8041 -0.01393961 -10.484165
76918750 -0.043378565 -10.250487 -60.900227 73.730659 -60.512638 73.518127 -0.0092919171 -10.738413
78475000 -0.041685872 -10.485824 -61.014908 76.629517 -61.353416 77.376595 -0.017209899 -10.93344
80031250 -0.04114347 -10.659004 -58.351963 80.935707 -58.390369 83.055023 -0.020529464 -11.201252
81587500 -0.037546851 -10.875468 -61.26054 82.452179 -61.299553 81.641319 -0.014191802 -11.366617
83143750 -0.037210748 -11.097738 -61.304039 67.877625 -61.280132 68.547806 -0.016893085 -11.598439
84700000 -0.044550177 -11.299059 -59.495342 72.630722 -59.789684 70.789764 -0.027066693 -11.811394
86256250 -0.041830938 -11.5121 -58.437984 77.691895 -58.32856 79.85199 -0.02811856 -12.062131
87812500 -0.05197753 -11.779547 -57.854546 67.428856 -58.046555 68.628288 -0.025165956 -12.272299
89368750 -0.060347676 -11.916875 -58.951813 67.694504 -59.011589 68.94249 -0.036819134 -12.391387
90925000 -0.053367563 -12.157187 -59.697453 60.327873 -59.745438 60.362194 -0.01903764 -12.683201
92481250 -0.04793939 -12.31859 -58.906818 70.304543 -58.529449 69.34301 -0.01831004 -12.916228
94037500 -0.053472456 -12.559527 -61.92136 74.67337 -62.231716 74.439621 -0.045213625 -13.13057
95593750 -0.049806632 -12.720093 -57.335228 81.962379 -57.18158 80.977966 -0.024646861 -13.305851
97150000 -0.041600328 -12.930542 -58.800575 77.918259 -58.590309 78.610817 -0.019760247 -13.525476
98706250 -0.046816643 -13.20003 -57.547401 71.924332 -57.588787 71.731369 -0.026710905 -13.830791
100262500 -0.05138569 -13.439171 -58.335228 76.241402 -58.368313 76.730461 -0.033179462 -14.05854
101818750 -0.052759286 -13.570644 -58.212818 57.48682 -58.407387 56.598068 -0.040985711 -14.161312
103375000 -0.051927906 -13.742085 -59.343407 70.454872 -59.060318 70.434059 -0.03317498 -14.381522
104931250 -0.049406726 -13.957746 -59.819717 66.357391 -60.075153 66.220253 -0.027884355 -14.565826
106487500 -0.04863283 -14.135345 -56.436077 65.071609 -56.332867 65.242279 -0.027212428 -14.786328
108043750 -0.049053103 -14.345332 -57.319347 70.436989 -57.338772 70.119453 -0.027963012 -15.02469
109600000 -0.042419072 -14.607314 -58.417263 74.505371 -58.366722 72.558594 -0.023655273 -15.266212
111156250 -0.049890582 -14.800537 -57.258217 71.554161 -57.084332 71.122696 -0.027576474 -15.472794
112712500 -0.047087312 -15.002185 -57.708805 75.984993 -57.629543 76.202553 -0.026918385 -15.679637
114268750 -0.048639596 -15.26861 -57.061775 74.963341 -57.197117 74.594543 -0.028657984 -15.961717
115825000 -0.056389447 -15.435061 -58.783939 57.043819 -58.752129 55.305752 -0.045173388 -16.086435
117381250 -0.053081837 -15.61893 -56.627026 63.784748 -56.377159 64.750122 -0.028550386 -16.351568
118937500 -0.051638909 -15.864841 -56.035595 69.421318 -56.021881 68.827499 -0.032949395 -16.583344
120493750 -0.059291415 -16.036489 -56.181747 83.864853 -56.193138 83.116043 -0.038140785 -16.789152
122050000 -0.053742524 -16.229385 -57.053078 71.299355 -57.026661 71.521942 -0.040379118 -16.972076
123606250 -0.050669882 -16.463436 -55.983906 68.670296 -55.941315 68.66246 -0.032253072 -17.227781
125162500 -0.063639291 -16.674545 -57.430981 70.985512 -57.391125 69.632233 -0.036219012 -17.411116
126718750 -0.060801532 -16.87808 -57.172417 74.50238 -57.228893 73.647552 -0.03529634 -17.629147
128275000 -0.059214775 -17.07534 -56.077541 71.485092 -56.03661 72.916153 -0.033741985 -17.922049
129831250 -0.064922191 -17.279579 -54.38961 57.621906 -54.420795 58.279915 -0.04240017 -18.067066
131387500 -0.066220872 -17.454973 -54.943176 73.822235 -55.023476 73.206001 -0.042458333 -18.223728
132943750 -0.067653231 -17.626888 -53.927513 74.385933 -54.022038 74.44976 -0.040890694 -18.49774
134500000 -0.059495669 -17.847069 -55.574211 73.460205 -55.494713 73.236389 -0.038914993 -18.717043
136056250 -0.058536496 -18.017881 -56.711857 71.394035 -56.596363 70.192207 -0.037004709 -18.915934
137612500 -0.052235778 -18.246128 -55.433178 76.127419 -55.5158 76.847305 -0.033678222 -19.115952
139168750 -0.056857701 -18.499044 -56.598087 70.748146 -56.51226 72.003021 -0.032465201 -19.367373
140725000 -0.055838823 -18.739491 -55.450489 60.830296 -55.565151 61.784634 -0.036893133 -19.618538
142281250 -0.058307864 -18.958639 -55.561947 69.100189 -55.746941 69.240143 -0.040313199 -19.860201
143837500 -0.069658943 -19.113903 -53.791 73.866417 -53.756165 75.332657 -0.052755132 -20.035648
145393750 -0.076835416 -19.324007 -53.29985 62.463966 -53.358562 62.309029 -0.043277122 -20.240356
146950000 -0.065412007 -19.479124 -55.181038 59.914162 -55.320446 58.735863 -0.042835757 -20.419605
148506250 -0.058162142 -19.739895 -55.199352 72.083931 -55.133457 71.367065 -0.040808789 -20.656693
150062500 -0.063082531 -19.901453 -55.205544 62.216022 -54.871918 62.183975 -0.041361328 -20.858482
151618750 -0.058598801 -20.135658 -55.338833 69.342667 -55.297005 69.578568 -0.041512202 -21.102608
153175000 -0.057619091 -20.31588 -54.383163 68.08226 -54.492546 68.69931 -0.03657515 -21.323549
154731250 -0.059611131 -20.588331 -54.018555 66.974571 -54.077988 67.12056 -0.039979722 -21.566881
156287500 -0.054591466 -20.793678 -54.13377 70.113503 -54.190403 69.194237 -0.037005823 -21.796988
157843750 -0.067120045 -21.140095 -55.023647 80.343422 -54.963837 78.769493 -0.05743815 -22.136993
159400000 -0.065640561 -21.217102 -55.821281 72.205971 -55.775082 69.989677 -0.050939396 -22.142992
160956250 -0.074244209 -21.329309 -55.44627 70.75148 -55.43383 68.551704 -0.05762044 -22.387955
162512500 -0.06241459 -21.588913 -53.914082 65.407295 -53.984486 65.156693 -0.049676325 -22.6399
164068750 -0.060521889 -21.78348 -53.684536 70.938019 -53.741692 70.977951 -0.045949914 -22.757479
165625000 -0.062170248 -21.993917 -53.812023 59.511528 -53.992874 59.949986 -0.048204593 -23.019806
167181250 -0.052943833 -22.210409 -54.097977 62.183819 -54.136471 62.794849 -0.049790718 -23.292889
168737500 -0.054980256 -22.462215 -53.648323 62.551899 -53.567966 62.900299 -0.049223304 -23.520113
170293750 -0.059071325 -22.685778 -52.978485 66.767929 -53.169907 66.339012 -0.043218531 -23.796249
171850000 -0.055245418 -22.915668 -53.396168 63.84613 -53.449295 63.446606 -0.052003719 -23.965574
173406250 -0.076233871 -23.056471 -52.649456 65.090355 -52.678963 65.718918 -0.070833214 -24.079081
174962500 -0.075807914 -23.205568 -53.776924 70.689133 -53.807079 70.999908 -0.063855715 -24.327356
176518750 -0.069125146 -23.404158 -53.433804 64.440353 -53.542828 64.226372 -0.052619178 -24.537102
178075000 -0.069354087 -23.677172 -53.151283 60.113731 -53.201786 62.544365 -0.051579665 -24.780207
179631250 -0.063642927 -23.871174 -53.572948 63.298805 -53.639393 63.828918 -0.053007405 -25.022053
181187500 -0.06014321 -24.096462 -53.281559 61.443336 -53.236092 61.139133 -0.049554411 -25.229118
182743750 -0.060376264 -24.338886 -53.29628 61.550816 -53.26989 62.376015 -0.048318334 -25.46764
184300000 -0.064396627 -24.531654 -53.270992 62.671616 -53.239979 63.465927 -0.045392625 -25.693478
185856250 -0.06062435 -24.837763 -53.129406 60.9636 -53.246807 60.125862 -0.054493297 -25.925547
187412500 -0.074562937 -24.981859 -53.529385 64.105728 -53.649921 64.050812 -0.061163943 -26.073872
188968750 -0.07892371 -25.107061 -52.735378 63.158875 -52.574886 62.883633 -0.057630964 -26.24732
190525000 -0.070194639 -25.294664 -52.163036 55.559673 -52.208462 55.95422 -0.056242827 -26.524551
192081250 -0.063151315 -25.538252 -52.903713 61.439335 -52.949406 60.667461 -0.055492591 -26.759363
193637500 -0.067937076 -25.707693 -53.187016 62.976818 -53.095776 61.684547 -0.057069268 -26.914724
195193750 -0.058744539 -25.957621 -52.655479 62.41185 -52.529938 61.894669 -0.051662739 -27.191715
196750000 -0.065239802 -26.144285 -52.929558 58.061008 -52.956745 59.383564 -0.05919781 -27.46244
198306250 -0.072732657 -26.383223 -52.680847 62.066967 -52.687187 59.550713 -0.057807516 -27.632275
199862500 -0.069804683 -26.623888 -52.408062 59.365791 -52.600605 59.172504 -0.065694056 -27.865631
201418750 -0.087652601 -26.909653 -52.049885 62.638096 -52.165821 63.457539 -0.07832817 -28.125763
202975000 -0.081912801 -26.972898 -52.578407 59.770134 -52.683292 60.900822 -0.060096178 -28.175007
204531250 -0.072656602 -27.161104 -52.307339 57.222134 -52.359177 58.921535 -0.059135109 -28.443424
206087500 -0.072416529 -27.427874 -52.101421 61.285252 -52.157936 61.650368 -0.057961583 -28.719963
207643750 -0.060742993 -27.583073 -52.134789 60.11417 -52.049435 59.586502 -0.057702735 -28.948084
209200000 -0.067607746 -27.824034 -52.582924 57.18882 -52.521053 56.934826 -0.054473206 -29.195927
210756250 -0.063756905 -28.075647 -52.029617 59.735973 -52.018002 58.780521 -0.063233152 -29.498631
212312500 -0.072586194 -28.279589 -51.492989 59.193119 -51.173683 59.357098 -0.064433932 -29.661312
213868750 -0.073873922 -28.535212 -51.578453 57.676147 -51.472347 57.535545 -0.061449308 -29.886221
215425000 -0.07990551 -28.655195 -51.360531 68.841797 -51.311707 66.843216 -0.094333015 -30.019409
216981250 -0.097177908 -28.861568 -53.764042 61.241642 -53.688293 61.080704 -0.063402392 -30.228672
218537500 -0.083086915 -29.040268 -51.780449 57.876648 -51.790852 57.608311 -0.064262308 -30.436676
220093750 -0.082431361 -29.228254 -51.641415 59.978836 -51.854908 58.871956 -0.061264742 -30.7432
221650000 -0.083057985 -29.42746 -51.938225 56.941483 -51.9953 58.08511 -0.058600195 -30.884247
223206250 -0.076079734 -29.6793 -50.990074 58.082241 -50.900005 57.006527 -0.065650038 -31.14007
224762500 -0.07706406 -29.864853 -51.517452 56.885906 -51.447697 56.860016 -0.053022623 -31.362457
226318750 -0.07422632 -30.176186 -51.777287 56.736259 -51.67577 57.204048 -0.05681064 -31.64399
227875000 -0.076372527 -30.332245 -51.117664 56.786297 -51.060062 57.427597 -0.056858376 -31.78166
229431250 -0.07219445 -30.641445 -50.902386 57.792095 -50.93642 57.416798 -0.074187607 -32.066826
230987500 -0.092467703 -30.79254 -50.70549 52.613926 -50.823387 52.175182 -0.082878552 -32.212936
232543750 -0.084415399 -30.864058 -50.796566 54.077991 -50.760559 53.704212 -0.066006385 -32.463722
234100000 -0.073917702 -31.118565 -50.644363 55.404064 -50.566261 56.091644 -0.070146024 -32.692307
235656250 -0.079968393 -31.329842 -50.644756 55.740257 -50.748489 55.38567 -0.071391597 -32.926903
237212500 -0.074562699 -31.61838 -51.700603 58.501583 -51.564106 57.94788 -0.06386254 -33.175892
238768750 -0.080155514 -31.729057 -50.93095 54.658257 -50.937275 55.790684 -0.074234903 -33.302853
240325000 -0.073594227 -32.001385 -50.622429 55.983627 -50.565552 56.494587 -0.06784299 -33.574917
241881250 -0.074414417 -32.185509 -50.784691 52.10989 -50.805737 53.010693 -0.062297076 -33.812168
243437500 -0.069767714 -32.503178 -51.061695 57.360153 -51.16288 57.284859 -0.07731726 -34.097607
244993750 -0.077243276 -32.62949 -50.259449 57.954639 -50.467102 58.826801 -0.085853413 -34.168724
246550000 -0.089459516 -32.756332 -49.875393 49.373688 -49.881676 49.347858 -0.069022231 -34.474907
248106250 -0.078717738 -33.072731 -50.53368 53.368828 -50.545708 53.063316 -0.063123383 -34.690872
249662500 -0.06662818 -33.160786 -50.626862 57.762459 -50.691147 57.210773 -0.074634239 -34.898571
251218750 -0.07469479 -33.428444 -50.291298 54.814564 -50.255157 54.328671 -0.078087606 -35.095295
252775000 -0.075572588 -33.614899 -50.173222 52.194389 -50.132488 52.62648 -0.072490245 -35.371307
254331250 -0.070787609 -33.884937 -50.643429 55.59663 -50.506363 56.276798 -0.068498403 -35.629021
255887500 -0.082645483 -34.1446 -49.842686 53.216763 -49.790688 53.454632 -0.077642813 -35.83136
257443750 -0.072716802 -34.356857 -50.181343 50.263634 -50.159981 51.441505 -0.085774548 -36.126129
259000000 -0.088424146 -34.527359 -50.540359 45.061123 -50.583008 45.144302 -0.090100028 -36.268665
260556250 -0.10492069 -34.634457 -50.932278 57.503338 -50.838722 56.209064 -0.089982666 -36.410164
262112500 -0.092043638 -34.887455 -49.717113 55.803726 -49.72509 54.560463 -0.092810825 -36.585716
263668750 -0.086390913 -35.115108 -50.559418 47.35033 -50.578915 48.357319 -0.088562623 -36.877422
265225000 -0.085378565 -35.323357 -50.630367 51.298218 -50.404572 51.229767 -0.091320843 -37.010796
266781250 -0.093199983 -35.58923 -50.206306 50.831844 -50.251915 50.985268 -0.10028063 -37.296158
268337500 -0.083393186 -35.71859 -49.445629 50.122799 -49.460953 50.429329 -0.08441136 -37.554916
269893750 -0.087173395 -35.947727 -50.343761 53.182896 -50.269962 52.913765 -0.08431036 -37.784595
271450000 -0.082000256 -36.22897 -49.99004 51.066605 -49.947498 51.345387 -0.085772827 -38.00148
273006250 -0.096785992 -36.448524 -48.720257 52.294559 -48.866226 53.12476 -0.099619113 -38.162636
274562500 -0.11363333 -36.544044 -49.70575 51.259892 -49.591251 49.476906 -0.10340654 -38.327934
276118750 -0.091977976 -36.74036 -49.510448 54.496326 -49.311199 53.857468 -0.089192815 -38.590775
277675000 -0.092723005 -36.980247 -49.481316 52.994892 -49.55299 52.949146 -0.088061005 -38.79414
279231250 -0.088857986 -37.212708 -49.66515 49.154293 -49.466137 49.373978 -0.080326483 -39.073215
280787500 -0.084821314 -37.479351 -49.692978 48.397781 -49.59676 48.605156 -0.085103728 -39.294262
282343750 -0.09390074 -37.661209 -49.444229 48.491714 -49.459805 49.298489 -0.095375881 -39.49419
283900000 -0.081621081 -37.939976 -49.349072 52.240025 -49.321167 52.071926 -0.095426217 -39.726025
285456250 -0.091613702 -38.128761 -49.396538 48.909245 -49.341972 49.408165 -0.096412726 -39.966145
287012500 -0.094169259 -38.303135 -49.162552 48.8577 -49.199833 48.465912 -0.12146094 -40.153919
288568750 -0.099548191 -38.449062 -49.133926 50.904598 -49.061546 51.079491 -0.098688491 -40.338566
290125000 -0.11337435 -38.716805 -49.491768 48.887199 -49.371326 49.450817 -0.098458976 -40.545345
291681250 -0.098486125 -38.91951 -49.301464 50.152954 -49.284496 49.755249 -0.10337727 -40.861538
293237500 -0.09801726 -39.108688 -49.343796 47.033939 -49.535038 47.207432 -0.092818446 -41.038109
294793750 -0.093417376 -39.305202 -49.206959 48.650574 -49.022362 48.88073 -0.096902646 -41.202904
296350000 -0.10535711 -39.517586 -48.946091 49.377048 -48.982643 49.431427 -0.099646412 -41.478123
297906250 -0.091801539 -39.802818 -49.120735 48.183571 -49.124805 48.717678 -0.095423914 -41.652466
299462500 -0.093620904 -40.003418 -49.125477 47.25433 -49.053074 47.276611 -0.096928887 -41.964813
301018750 -0.10068458 -40.400711 -49.008827 46.957706 -48.862434 46.644199 -0.10693555 -42.331348
302575000 -0.11296533 -40.45993 -48.176876 47.487511 -48.156395 46.824089 -0.11004085 -42.363907
304131250 -0.10686765 -40.581879 -48.900246 49.666939 -48.980846 49.323715 -0.113433 -42.596462
305687500 -0.1099883 -40.725796 -48.896454 49.104618 -48.908787 49.982433 -0.11265177 -42.74884
307243750 -0.11041243 -41.00082 -49.058338 45.893112 -48.92807 46.549831 -0.10031085 -43.034626
308800000 -0.10318143 -41.184227 -48.634651 45.751263 -48.571716 45.830162 -0.1055821 -43.23349
310356250 -0.10286146 -41.412197 -48.936085 46.114693 -48.975254 45.959553 -0.1066269 -43.47681
311912500 -0.098641597 -41.679218 -48.838406 47.380219 -48.859684 47.283333 -0.10869584 -43.751965
313468750 -0.10290617 -41.852139 -48.811611 48.132618 -48.689484 47.591148 -0.10845525 -44.016277
315025000 -0.096035257 -42.127975 -48.783005 43.975311 -48.653866 45.074722 -0.11386504 -44.2402
316581250 -0.11643269 -42.310162 -48.171017 43.4007 -48.192307 44.151871 -0.11508775 -44.380245
318137500 -0.10178128 -42.417416 -48.955257 48.759476 -48.912861 48.652409 -0.10887952 -44.517723
