!Agilent Technologies,E5071C,MY46104547,A.08.12
!Date: Thu Feb 23 09:46:05 2017
!Data & Calibration Information:
!Freq	S11:SOLT2(ON)	S21:SOLT2(ON)	S12:SOLT2(ON)	S22:SOLT2(ON)
# Hz S RI R 50
1000000	1.000216e+000	-2.024512e-003	1.234893e-004	-1.842189e-004	1.416159e-005	-9.759544e-005	9.996805e-001	-2.866135e-003
2874375	9.995006e-001	-5.279643e-003	-3.942834e-004	-1.868258e-004	2.020227e-004	3.264928e-005	9.994562e-001	-5.139474e-003
4748750	1.000181e+000	-8.310612e-003	6.921780e-004	7.108560e-005	8.569969e-005	-3.292727e-004	9.998605e-001	-9.450308e-003
6623125	9.999004e-001	-1.167611e-002	1.427777e-004	3.736429e-005	-9.408124e-005	2.222525e-004	1.000709e+000	-1.201558e-002
8497500	9.995673e-001	-1.552611e-002	-2.746981e-004	-2.950802e-004	1.600745e-005	-1.758992e-004	1.000325e+000	-1.610465e-002
10371875	1.000062e+000	-1.833394e-002	-6.696890e-005	1.096068e-004	-2.329611e-005	1.057407e-004	1.000276e+000	-1.886918e-002
12246250	9.998419e-001	-2.096401e-002	-6.268724e-005	-1.479453e-005	-3.247024e-005	-1.792794e-005	9.998872e-001	-2.242636e-002
14120625	9.992271e-001	-2.455120e-002	3.048633e-005	-3.681087e-005	-2.122082e-005	-1.455421e-004	9.992935e-001	-2.558970e-002
15995000	9.994776e-001	-2.841183e-002	2.829092e-005	-1.299979e-004	4.462928e-005	-4.787741e-005	1.000127e+000	-2.866425e-002
17869375	9.992942e-001	-3.166080e-002	-2.963867e-005	-3.501739e-005	-7.179126e-005	-4.912890e-005	9.995222e-001	-3.241510e-002
19743750	9.991948e-001	-3.419871e-002	5.093343e-005	7.164189e-005	9.352319e-005	6.245477e-005	9.996056e-001	-3.603056e-002
21618125	9.987759e-001	-3.816459e-002	-7.444939e-005	2.779325e-005	-2.653797e-005	6.064646e-005	9.996271e-001	-3.907109e-002
23492500	9.989533e-001	-4.171482e-002	3.970810e-005	-1.496596e-004	-4.706008e-006	-5.140034e-005	9.986192e-001	-4.226168e-002
25366875	9.985138e-001	-4.440607e-002	-2.463244e-005	-3.598893e-005	1.184992e-004	-1.222609e-004	9.983830e-001	-4.537221e-002
27241250	9.978652e-001	-4.764329e-002	2.690380e-006	-2.944501e-007	-1.710558e-006	4.835708e-005	9.990435e-001	-4.909817e-002
29115625	9.978228e-001	-5.094900e-002	1.166168e-004	3.520968e-005	1.523730e-004	2.922491e-005	9.978851e-001	-5.252497e-002
30990000	9.978353e-001	-5.408217e-002	8.794263e-005	1.808629e-005	2.443320e-005	7.907049e-005	9.981520e-001	-5.547236e-002
32864375	9.980208e-001	-5.784505e-002	-1.164384e-006	8.489690e-006	-4.976603e-005	1.454231e-005	9.982229e-001	-5.921266e-002
34738750	9.969860e-001	-6.132450e-002	1.479247e-004	2.958699e-005	4.712064e-005	1.830721e-005	9.975882e-001	-6.234272e-002
36613125	9.967621e-001	-6.399303e-002	1.493789e-005	-1.418313e-004	6.161196e-005	-1.718566e-004	9.968603e-001	-6.574886e-002
38487500	9.971575e-001	-6.770703e-002	4.873789e-005	1.185313e-004	4.096629e-005	1.124666e-004	9.968130e-001	-6.903124e-002
40361875	9.964479e-001	-7.042180e-002	-1.041191e-004	-6.500844e-006	-7.211888e-005	-1.127930e-004	9.972239e-001	-7.202855e-002
42236250	9.966071e-001	-7.399892e-002	-3.956257e-005	7.366050e-005	3.955968e-005	-2.570808e-005	9.966138e-001	-7.590431e-002
44110625	9.960478e-001	-7.703614e-002	2.070447e-005	6.409799e-005	-2.269950e-006	7.400724e-005	9.961221e-001	-7.899063e-002
45985000	9.954900e-001	-8.013408e-002	-5.081671e-005	-1.206094e-004	-1.026298e-004	-1.076807e-004	9.953147e-001	-8.243792e-002
47859375	9.956110e-001	-8.354244e-002	-8.565978e-005	3.618198e-005	-7.506567e-005	9.424610e-005	9.954082e-001	-8.565305e-002
49733750	9.952164e-001	-8.666792e-002	-4.468107e-005	-6.124113e-006	-1.296171e-005	-3.262042e-005	9.956805e-001	-8.886200e-002
51608125	9.947241e-001	-8.980711e-002	-6.808000e-005	-2.606337e-005	3.386971e-005	2.072807e-005	9.949837e-001	-9.262656e-002
53482500	9.950430e-001	-9.337874e-002	5.069540e-005	-6.769321e-005	-1.183760e-005	-4.670173e-005	9.948537e-001	-9.564552e-002
55356875	9.941119e-001	-9.607137e-002	2.967605e-006	8.188516e-005	3.031911e-005	1.106033e-004	9.940586e-001	-9.853348e-002
57231250	9.938347e-001	-9.987384e-002	1.561395e-005	2.115729e-005	-7.549180e-005	4.053606e-005	9.938771e-001	-1.025417e-001
59105625	9.935191e-001	-1.030844e-001	-1.287542e-005	1.850354e-005	-1.926017e-005	4.611917e-005	9.930656e-001	-1.055923e-001
60980000	9.933292e-001	-1.065716e-001	-1.473285e-005	-3.281047e-006	1.057115e-006	-2.238555e-005	9.934861e-001	-1.094043e-001
62854375	9.921440e-001	-1.106186e-001	-1.222423e-005	1.684520e-004	2.854902e-005	1.015897e-004	9.923272e-001	-1.122047e-001
64728750	9.923809e-001	-1.129151e-001	2.470707e-005	-1.476635e-005	-1.129257e-005	-5.643067e-006	9.922760e-001	-1.152392e-001
66603125	9.920455e-001	-1.161964e-001	-5.062818e-005	-3.593730e-005	-3.305977e-005	-2.158157e-005	9.919525e-001	-1.189354e-001
68477500	9.916436e-001	-1.194663e-001	-2.697234e-005	-2.471638e-005	-1.576780e-005	1.802339e-006	9.913819e-001	-1.221471e-001
70351875	9.914049e-001	-1.226367e-001	-3.951285e-005	-4.692372e-006	-1.944142e-005	4.191058e-005	9.906433e-001	-1.254931e-001
72226250	9.903370e-001	-1.258126e-001	2.591871e-005	1.622455e-004	1.469717e-005	8.250104e-005	9.904958e-001	-1.290453e-001
74100625	9.906862e-001	-1.287315e-001	2.719923e-005	1.536058e-005	-3.847198e-006	-1.151575e-004	9.897729e-001	-1.321223e-001
75975000	9.899932e-001	-1.319930e-001	-3.677374e-005	-6.846840e-005	4.224722e-005	-3.275105e-005	9.893287e-001	-1.354051e-001
77849375	9.894712e-001	-1.352088e-001	-1.126459e-005	-1.022074e-004	1.249338e-004	-5.779274e-005	9.888244e-001	-1.385991e-001
79723750	9.888284e-001	-1.393106e-001	8.854958e-005	1.445992e-004	4.425662e-005	8.124091e-005	9.885384e-001	-1.419442e-001
81598125	9.883511e-001	-1.414877e-001	-1.947729e-005	-1.080016e-004	-4.120643e-005	-1.086126e-004	9.877993e-001	-1.452226e-001
83472500	9.880455e-001	-1.449160e-001	4.369477e-005	4.102276e-005	-5.035226e-007	1.301270e-005	9.875613e-001	-1.484601e-001
85346875	9.874618e-001	-1.479918e-001	1.118237e-006	3.070921e-005	4.939541e-005	-8.008753e-005	9.872891e-001	-1.517506e-001
87221250	9.872334e-001	-1.513178e-001	7.132165e-005	6.077300e-005	-2.884929e-005	-1.050716e-005	9.864380e-001	-1.548428e-001
89095625	9.861279e-001	-1.548663e-001	-3.001078e-005	1.415775e-004	-3.201311e-005	6.403391e-005	9.858257e-001	-1.587525e-001
90970000	9.858866e-001	-1.576085e-001	-5.254740e-006	-5.216695e-005	-8.183497e-006	-6.062367e-006	9.849820e-001	-1.616646e-001
92844375	9.853691e-001	-1.610737e-001	1.114342e-004	-1.015426e-005	8.012381e-005	-6.162012e-005	9.848649e-001	-1.645906e-001
94718750	9.849564e-001	-1.642795e-001	9.538965e-005	5.447829e-006	5.357536e-005	-2.817363e-005	9.837915e-001	-1.679760e-001
96593125	9.843181e-001	-1.670692e-001	8.218787e-005	1.487211e-005	4.983453e-005	-4.845184e-006	9.836072e-001	-1.713153e-001
98467500	9.833574e-001	-1.708132e-001	-9.965071e-005	-8.781955e-006	4.931912e-006	-1.255099e-006	9.829295e-001	-1.747321e-001
100341875	9.825308e-001	-1.735159e-001	9.540171e-005	-1.753035e-005	2.872982e-005	2.166500e-005	9.821140e-001	-1.779342e-001
102216250	9.820712e-001	-1.768325e-001	-1.153923e-004	9.812116e-007	-5.769033e-005	-4.629979e-005	9.813049e-001	-1.814143e-001
104090625	9.820674e-001	-1.807198e-001	2.518665e-005	4.689031e-006	-3.508760e-005	2.808006e-005	9.818018e-001	-1.848530e-001
105965000	9.811854e-001	-1.835335e-001	-6.987368e-006	3.077637e-005	1.853755e-005	-1.725459e-005	9.801550e-001	-1.884884e-001
107839375	9.805825e-001	-1.866700e-001	-1.045632e-004	7.053497e-005	-9.839609e-005	1.370581e-004	9.787822e-001	-1.909817e-001
109713750	9.797029e-001	-1.891110e-001	-4.312036e-005	-1.722741e-005	-7.321803e-005	3.784439e-005	9.794281e-001	-1.942557e-001
111588125	9.792608e-001	-1.930169e-001	-6.643796e-005	-5.645371e-005	-1.908041e-004	-1.094897e-004	9.783056e-001	-1.972422e-001
113462500	9.782971e-001	-1.961795e-001	8.430269e-005	-4.062012e-005	8.482197e-005	6.369138e-005	9.779836e-001	-2.011151e-001
115336875	9.786013e-001	-1.996820e-001	-3.020223e-005	1.362963e-004	-7.376703e-005	6.928554e-005	9.777543e-001	-2.041868e-001
117211250	9.767809e-001	-2.022993e-001	3.286326e-005	-6.127804e-005	-5.481724e-005	-1.242041e-004	9.766018e-001	-2.075398e-001
119085625	9.764260e-001	-2.059283e-001	5.705857e-005	-6.558111e-005	5.565508e-005	5.244816e-005	9.752052e-001	-2.106456e-001
120960000	9.761310e-001	-2.087758e-001	-7.936273e-005	-1.014628e-004	-7.910031e-005	-5.369804e-006	9.747277e-001	-2.133835e-001
122834375	9.758140e-001	-2.123008e-001	5.993590e-005	1.312788e-004	4.988078e-005	4.345822e-005	9.744160e-001	-2.177653e-001
124708750	9.751045e-001	-2.151889e-001	9.351050e-005	9.384893e-006	-4.645861e-005	5.186685e-005	9.739114e-001	-2.208897e-001
126583125	9.738774e-001	-2.182421e-001	-3.580608e-005	-1.796641e-005	-8.045389e-005	1.878704e-005	9.734045e-001	-2.235202e-001
128457500	9.734322e-001	-2.217994e-001	-2.650073e-005	-3.209276e-005	-3.457592e-005	5.564166e-006	9.721522e-001	-2.265141e-001
130331875	9.725138e-001	-2.249477e-001	1.422994e-004	5.382963e-005	8.870837e-005	8.899353e-005	9.716115e-001	-2.295510e-001
132206250	9.718256e-001	-2.276438e-001	-6.061540e-005	9.680766e-005	-3.973198e-005	1.501192e-005	9.703269e-001	-2.332855e-001
134080625	9.702729e-001	-2.313555e-001	9.294497e-005	8.877322e-006	-2.714414e-005	-6.269479e-005	9.709129e-001	-2.360446e-001
135955000	9.699202e-001	-2.335922e-001	-3.887498e-005	-2.826302e-005	-6.888366e-005	-5.917339e-005	9.681167e-001	-2.395072e-001
137829375	9.699324e-001	-2.372156e-001	9.838516e-007	-1.011892e-005	-5.155067e-005	1.690031e-005	9.677496e-001	-2.425071e-001
139703750	9.692476e-001	-2.402531e-001	1.981121e-005	8.370692e-005	1.258513e-005	1.338171e-007	9.670932e-001	-2.462552e-001
141578125	9.683574e-001	-2.437552e-001	-9.696882e-005	5.965170e-005	-1.599092e-005	-1.691953e-005	9.661492e-001	-2.489966e-001
143452500	9.670699e-001	-2.470330e-001	-9.990460e-006	7.831342e-006	-1.842853e-005	1.423894e-005	9.658627e-001	-2.530334e-001
145326875	9.659664e-001	-2.494273e-001	-4.195804e-005	-4.708971e-005	3.603608e-006	-2.009604e-005	9.652137e-001	-2.551244e-001
147201250	9.653199e-001	-2.521473e-001	-4.821513e-005	8.541485e-005	6.306481e-005	3.255256e-005	9.643964e-001	-2.580226e-001
149075625	9.649317e-001	-2.553528e-001	9.385907e-006	-1.278655e-004	5.022333e-005	-7.080258e-005	9.629661e-001	-2.621567e-001
150950000	9.634675e-001	-2.589404e-001	-9.422960e-005	3.659142e-005	-7.906272e-005	-3.250837e-005	9.624535e-001	-2.652909e-001
152824375	9.604057e-001	-2.617756e-001	-3.226424e-005	2.551804e-004	-5.301201e-006	2.039549e-004	9.601954e-001	-2.685923e-001
154698750	9.617043e-001	-2.648854e-001	-2.762519e-005	-6.071022e-005	-2.733539e-005	5.544837e-005	9.595582e-001	-2.709464e-001
156573125	9.612411e-001	-2.675740e-001	-1.641170e-006	1.526391e-005	3.734487e-005	5.449285e-005	9.596540e-001	-2.746960e-001
158447500	9.597591e-001	-2.708379e-001	4.657735e-005	7.920913e-005	1.039830e-004	1.136764e-005	9.591645e-001	-2.767750e-001
160321875	9.590269e-001	-2.745344e-001	-3.069816e-005	4.129080e-005	-3.040609e-005	2.399685e-005	9.576475e-001	-2.802937e-001
162196250	9.582221e-001	-2.763168e-001	-1.727035e-004	1.006666e-004	-1.168422e-005	6.133576e-005	9.559693e-001	-2.834123e-001
164070625	9.568227e-001	-2.795848e-001	-2.026117e-005	1.027558e-004	-3.999691e-005	5.519808e-005	9.552586e-001	-2.869037e-001
165945000	9.569342e-001	-2.829736e-001	-1.039060e-006	4.100032e-005	2.978106e-005	1.233260e-004	9.552442e-001	-2.903260e-001
167819375	9.559245e-001	-2.865989e-001	5.595197e-005	-8.421928e-006	2.717150e-005	-1.144252e-005	9.546434e-001	-2.931388e-001
169693750	9.550396e-001	-2.892046e-001	3.712827e-005	5.291289e-005	-1.107536e-005	5.718483e-005	9.525850e-001	-2.963936e-001
171568125	9.530170e-001	-2.923700e-001	3.337758e-005	-1.271184e-004	4.320062e-005	-1.327563e-004	9.516703e-001	-2.990136e-001
173442500	9.528753e-001	-2.954517e-001	2.212539e-005	-7.126373e-005	3.741654e-006	5.058510e-005	9.510744e-001	-3.031063e-001
175316875	9.520835e-001	-2.985693e-001	5.116714e-005	1.859897e-005	6.807332e-005	1.133335e-005	9.495999e-001	-3.062325e-001
177191250	9.503884e-001	-3.020969e-001	-2.460446e-005	1.277866e-004	-4.034256e-005	6.718840e-006	9.487795e-001	-3.093739e-001
179065625	9.491951e-001	-3.054641e-001	4.837312e-005	-7.378267e-005	1.942738e-005	-1.091679e-005	9.481836e-001	-3.127759e-001
180940000	9.487217e-001	-3.079530e-001	2.406318e-005	8.358979e-005	1.081664e-004	1.021241e-004	9.454139e-001	-3.149875e-001
182814375	9.474582e-001	-3.109297e-001	-2.011040e-005	6.729416e-005	-4.777247e-005	6.841209e-005	9.446138e-001	-3.183228e-001
184688750	9.465780e-001	-3.142499e-001	-5.779948e-005	2.796166e-005	-2.468906e-005	2.453363e-005	9.439937e-001	-3.212342e-001
186563125	9.453443e-001	-3.171881e-001	-1.166489e-006	9.571877e-005	8.209888e-005	5.741801e-005	9.430768e-001	-3.241046e-001
188437500	9.432501e-001	-3.210388e-001	-2.673644e-005	1.688741e-005	-9.510629e-005	-8.339433e-006	9.411955e-001	-3.284832e-001
190311875	9.433614e-001	-3.231585e-001	-3.746950e-005	-1.143630e-004	-1.071716e-004	-4.531293e-005	9.412159e-001	-3.300611e-001
192186250	9.419744e-001	-3.264461e-001	-9.525360e-005	1.097885e-004	-8.657337e-006	-1.825638e-005	9.406648e-001	-3.342408e-001
194060625	9.410137e-001	-3.297210e-001	1.809838e-005	4.333481e-005	3.680225e-005	-6.519488e-006	9.383688e-001	-3.372307e-001
195935000	9.395766e-001	-3.328487e-001	-3.501243e-006	4.040993e-005	-3.008584e-005	5.635797e-005	9.378194e-001	-3.405593e-001
197809375	9.379983e-001	-3.348394e-001	7.141750e-005	-4.758928e-005	1.133111e-004	-6.249261e-005	9.358683e-001	-3.428738e-001
199683750	9.374372e-001	-3.382934e-001	1.021400e-006	5.231987e-005	-1.767453e-005	3.972473e-005	9.358648e-001	-3.455520e-001
201558125	9.362772e-001	-3.417080e-001	2.151924e-005	1.454141e-005	-2.838871e-005	-4.820349e-005	9.344748e-001	-3.491520e-001
203432500	9.353865e-001	-3.446988e-001	1.104675e-005	-4.514151e-005	-5.241959e-005	4.477971e-005	9.328787e-001	-3.522792e-001
205306875	9.347654e-001	-3.479205e-001	1.672665e-005	-2.901415e-005	-5.104526e-005	-7.549338e-006	9.322068e-001	-3.558649e-001
207181250	9.334757e-001	-3.503181e-001	-2.860433e-005	-7.686389e-006	-4.277746e-005	-4.837378e-006	9.297649e-001	-3.580367e-001
209055625	9.323891e-001	-3.537362e-001	8.294146e-005	1.108837e-004	7.761290e-005	8.573391e-005	9.297750e-001	-3.613989e-001
210930000	9.308209e-001	-3.559560e-001	5.453796e-005	4.956441e-005	9.430388e-005	4.083581e-005	9.284269e-001	-3.639449e-001
212804375	9.297633e-001	-3.597503e-001	1.000789e-005	9.644438e-005	2.717215e-005	2.460408e-005	9.268839e-001	-3.674705e-001
214678750	9.281115e-001	-3.629925e-001	5.295340e-005	-1.882638e-006	2.847346e-005	7.304654e-005	9.260299e-001	-3.701546e-001
216553125	9.274323e-001	-3.652306e-001	1.051195e-005	8.768152e-005	6.766269e-006	1.454911e-004	9.238903e-001	-3.733245e-001
218427500	9.262672e-001	-3.683396e-001	1.676576e-005	3.538732e-005	-5.390268e-005	2.967065e-005	9.228497e-001	-3.763454e-001
220301875	9.246234e-001	-3.713870e-001	6.591561e-006	4.335485e-005	-5.116919e-005	1.846280e-005	9.220502e-001	-3.791061e-001
222176250	9.240252e-001	-3.747407e-001	8.261577e-005	8.836623e-005	5.998129e-005	5.495559e-005	9.208665e-001	-3.825481e-001
224050625	9.221761e-001	-3.780171e-001	1.695687e-005	2.794871e-005	9.007269e-005	9.928352e-006	9.190792e-001	-3.862085e-001
225925000	9.208471e-001	-3.803606e-001	-1.613835e-004	9.620859e-005	-4.595087e-005	3.007471e-005	9.179830e-001	-3.881137e-001
227799375	9.202549e-001	-3.832549e-001	-1.178472e-004	-2.189817e-005	-3.001212e-005	4.111540e-005	9.170189e-001	-3.907862e-001
229673750	9.188223e-001	-3.863150e-001	6.100688e-005	3.847392e-005	3.022107e-005	2.401421e-006	9.158030e-001	-3.944490e-001
231548125	9.175015e-001	-3.897556e-001	-2.069374e-005	5.445966e-005	2.658402e-005	1.775920e-005	9.142690e-001	-3.973088e-001
233422500	9.149894e-001	-3.925390e-001	-3.129339e-005	-7.663258e-005	-3.489182e-005	5.548145e-006	9.117975e-001	-4.008840e-001
235296875	9.153940e-001	-3.953772e-001	-3.622915e-006	-8.451052e-005	2.624755e-005	-8.096638e-007	9.111500e-001	-4.033399e-001
237171250	9.140711e-001	-3.982040e-001	6.001960e-005	5.535210e-005	3.072530e-005	6.964470e-005	9.103583e-001	-4.065898e-001
239045625	9.126934e-001	-4.009963e-001	8.361836e-005	5.052330e-007	4.573173e-005	2.142920e-005	9.089729e-001	-4.100017e-001
240920000	9.112661e-001	-4.040778e-001	3.448962e-005	7.237830e-005	1.463325e-005	-9.639119e-005	9.074014e-001	-4.133220e-001
242794375	9.096822e-001	-4.066927e-001	5.610042e-006	-2.841170e-005	8.782991e-005	-2.146126e-005	9.052576e-001	-4.155319e-001
244668750	9.085217e-001	-4.096372e-001	4.909481e-005	2.797507e-005	2.974429e-005	2.461443e-005	9.047244e-001	-4.185912e-001
246543125	9.072283e-001	-4.130097e-001	5.003811e-005	-2.538731e-005	1.030916e-004	-3.751956e-005	9.031924e-001	-4.219576e-001
248417500	9.061632e-001	-4.158957e-001	-5.852210e-005	-5.591756e-005	9.845881e-006	5.157983e-006	9.014900e-001	-4.245450e-001
250291875	9.044146e-001	-4.194561e-001	-8.077640e-005	2.286904e-005	-1.286570e-005	2.430555e-006	9.003990e-001	-4.277660e-001
252166250	9.026273e-001	-4.218852e-001	1.815750e-005	-6.051588e-005	3.877331e-005	-8.459383e-005	8.986489e-001	-4.306879e-001
254040625	9.016382e-001	-4.250235e-001	4.144141e-005	-1.432226e-005	3.542511e-005	8.625779e-005	8.973806e-001	-4.335775e-001
255915000	8.998538e-001	-4.275884e-001	2.917425e-005	6.887828e-005	-9.171072e-006	-5.781911e-005	8.955800e-001	-4.364532e-001
257789375	8.986987e-001	-4.311402e-001	-6.960734e-005	3.958719e-005	-1.355408e-005	5.658815e-005	8.944104e-001	-4.402434e-001
259663750	8.967125e-001	-4.345390e-001	-4.146679e-005	-2.965337e-005	2.331817e-006	4.964816e-005	8.924066e-001	-4.430740e-001
261538125	8.952903e-001	-4.358415e-001	1.407097e-004	-6.445444e-005	4.035445e-005	-1.748062e-006	8.906618e-001	-4.448357e-001
263412500	8.947688e-001	-4.390153e-001	5.418395e-005	9.295759e-005	-4.752368e-006	5.214912e-005	8.899996e-001	-4.486326e-001
265286875	8.924098e-001	-4.415949e-001	1.054446e-004	9.933131e-005	7.506032e-005	3.579130e-005	8.876200e-001	-4.512876e-001
267161250	8.917386e-001	-4.452350e-001	-8.078600e-006	-7.052827e-006	-2.147289e-005	4.004235e-005	8.867230e-001	-4.543677e-001
269035625	8.885627e-001	-4.489448e-001	-1.007056e-005	8.936032e-005	3.681488e-005	4.871333e-005	8.832703e-001	-4.570751e-001
270910000	8.885377e-001	-4.502709e-001	6.836821e-005	1.050129e-004	7.831400e-005	3.952081e-005	8.839315e-001	-4.592402e-001
272784375	8.866843e-001	-4.530416e-001	-7.989263e-006	7.460931e-005	8.201811e-006	6.594509e-005	8.821469e-001	-4.627705e-001
274658750	8.854695e-001	-4.565533e-001	7.267681e-007	2.980965e-005	2.181942e-005	-1.597550e-006	8.798405e-001	-4.659107e-001
276533125	8.838420e-001	-4.596117e-001	-1.707657e-005	1.162346e-004	-7.128296e-005	5.706643e-005	8.781052e-001	-4.683259e-001
278407500	8.821637e-001	-4.607515e-001	-1.512835e-005	-8.980934e-005	1.189032e-005	-3.096671e-005	8.763728e-001	-4.709562e-001
280281875	8.808990e-001	-4.644388e-001	4.890223e-005	1.245871e-004	-9.701994e-005	3.002755e-005	8.763644e-001	-4.746355e-001
282156250	8.794563e-001	-4.670464e-001	1.363818e-005	-5.639697e-006	8.164756e-005	1.000169e-005	8.741513e-001	-4.772793e-001
284030625	8.779397e-001	-4.701307e-001	1.804674e-005	8.802664e-005	-6.192101e-005	-6.574602e-005	8.718667e-001	-4.799796e-001
285905000	8.765664e-001	-4.737558e-001	-3.841599e-005	-2.172967e-005	2.977449e-005	3.218120e-005	8.711549e-001	-4.833715e-001
287779375	8.746926e-001	-4.764440e-001	-4.690905e-005	2.632018e-005	2.409309e-005	7.883298e-005	8.690957e-001	-4.859895e-001
289653750	8.735213e-001	-4.784620e-001	-2.589764e-005	6.843505e-005	-8.556191e-005	8.044050e-006	8.681865e-001	-4.885142e-001
291528125	8.720072e-001	-4.810333e-001	3.304052e-005	5.039368e-005	6.533881e-006	1.937818e-005	8.666110e-001	-4.913399e-001
293402500	8.705855e-001	-4.848551e-001	5.472107e-005	1.764466e-005	-3.374454e-006	-3.881763e-005	8.648236e-001	-4.948747e-001
