!Agilent Technologies,E5071C,MY46104097,A.08.12
!Date: Wed Mar 07 15:40:14 2018
!Data & Calibration Information:
!Freq	S11:SOLT2(ON)	S21:SOLT2(ON)	S12:SOLT2(ON)	S22:SOLT2(ON)
# Hz S dB R 50
390000000	-9.628683e-002	-3.215578e+001	-7.304202e+001	1.381458e+001	-7.426513e+001	-4.201238e+001	-8.078782e-002	-3.125426e+001
390012500	-1.009002e-001	-3.214851e+001	-6.641377e+001	2.579017e+001	-7.269711e+001	3.518537e+000	-7.825087e-002	-3.126379e+001
390025000	-8.321738e-002	-3.215703e+001	-7.882327e+001	4.431051e+001	-7.381352e+001	-1.555521e+001	-8.674757e-002	-3.134844e+001
390037500	-9.074553e-002	-3.209560e+001	-7.555864e+001	1.689028e+001	-7.493041e+001	4.763424e+001	-8.918750e-002	-3.136154e+001
390050000	-8.230548e-002	-3.209045e+001	-6.914601e+001	3.576080e+001	-6.989962e+001	-7.965163e+000	-9.162740e-002	-3.140003e+001
390062500	-8.645047e-002	-3.210401e+001	-7.294167e+001	6.227410e+001	-7.038116e+001	2.005149e+001	-9.088072e-002	-3.136567e+001
390075000	-9.639814e-002	-3.219313e+001	-7.080098e+001	3.893472e+000	-7.085341e+001	-1.225575e+001	-9.036211e-002	-3.133598e+001
390087500	-9.119515e-002	-3.217472e+001	-7.105778e+001	2.784172e+001	-7.341518e+001	-3.525489e+000	-8.294605e-002	-3.139597e+001
390100000	-9.251512e-002	-3.208971e+001	-7.933255e+001	8.824309e+001	-8.138180e+001	-7.723303e+001	-8.796247e-002	-3.135507e+001
390112500	-8.625403e-002	-3.212757e+001	-9.080324e+001	3.137256e+001	-7.528192e+001	-5.948260e-001	-8.838745e-002	-3.129091e+001
390125000	-9.338738e-002	-3.218472e+001	-7.410356e+001	-3.811010e+001	-7.031981e+001	2.600266e+000	-9.538547e-002	-3.131228e+001
390137500	-8.667309e-002	-3.218290e+001	-7.485476e+001	-4.422408e+001	-7.041693e+001	1.061553e+001	-8.544130e-002	-3.136060e+001
390150000	-8.451627e-002	-3.209972e+001	-7.075614e+001	-1.521847e+001	-7.550319e+001	3.856489e+001	-8.828767e-002	-3.135658e+001
390162500	-9.370453e-002	-3.216005e+001	-7.040421e+001	-9.154936e+000	-7.837935e+001	3.632561e+001	-8.367006e-002	-3.133964e+001
390175000	-8.747708e-002	-3.213312e+001	-9.524695e+001	-6.613820e+001	-7.851734e+001	1.783298e+001	-9.367657e-002	-3.135656e+001
390187500	-8.891258e-002	-3.222080e+001	-7.725464e+001	-4.352736e+001	-7.349575e+001	2.291578e+001	-8.229348e-002	-3.139489e+001
390200000	-8.884946e-002	-3.220997e+001	-7.211945e+001	-1.784366e+001	-7.751483e+001	-5.699466e-001	-7.813755e-002	-3.136311e+001
390212500	-8.372876e-002	-3.227001e+001	-7.231893e+001	1.058206e+001	-7.330837e+001	-2.579243e+000	-9.018293e-002	-3.144106e+001
390225000	-9.187196e-002	-3.216585e+001	-8.726809e+001	1.187747e+002	-7.212412e+001	-1.735296e+001	-8.553978e-002	-3.140485e+001
390237500	-9.218599e-002	-3.216309e+001	-8.162731e+001	6.903515e+001	-7.460413e+001	1.893219e+001	-7.861139e-002	-3.141412e+001
390250000	-9.073250e-002	-3.214642e+001	-7.513731e+001	1.289806e+001	-8.050379e+001	2.348814e+001	-8.959686e-002	-3.140224e+001
390262500	-8.825611e-002	-3.221773e+001	-7.455728e+001	-5.716203e+001	-7.668530e+001	-6.541957e+001	-7.725502e-002	-3.142409e+001
390275000	-8.701687e-002	-3.215651e+001	-7.231016e+001	-2.298335e+001	-7.795373e+001	-9.087172e+000	-7.985682e-002	-3.137250e+001
390287500	-8.771693e-002	-3.223231e+001	-7.604323e+001	-8.715412e+000	-7.943393e+001	3.064704e+001	-7.752964e-002	-3.135500e+001
390300000	-8.023929e-002	-3.216745e+001	-7.608636e+001	-2.187557e+001	-7.833513e+001	5.453960e-001	-7.924323e-002	-3.131680e+001
390312500	-8.178091e-002	-3.228376e+001	-7.173982e+001	-3.635966e-001	-8.043796e+001	-2.374441e+001	-8.713437e-002	-3.134160e+001
390325000	-8.881564e-002	-3.227652e+001	-9.060299e+001	8.788041e+000	-8.508641e+001	-5.850614e+001	-8.686547e-002	-3.142180e+001
390337500	-8.586204e-002	-3.222127e+001	-7.705294e+001	1.276745e+001	-7.431859e+001	4.217444e+001	-7.991975e-002	-3.137430e+001
390350000	-9.767701e-002	-3.225237e+001	-8.215516e+001	-7.623507e+001	-7.540299e+001	-1.554773e+001	-8.616427e-002	-3.141561e+001
390362500	-9.107562e-002	-3.217311e+001	-7.561284e+001	-4.379320e+001	-7.315641e+001	-1.742726e+001	-1.000696e-001	-3.145068e+001
390375000	-9.013152e-002	-3.220951e+001	-7.420332e+001	1.996931e+001	-7.534885e+001	-5.872647e+000	-9.271684e-002	-3.134693e+001
390387500	-1.001915e-001	-3.215312e+001	-7.730926e+001	-1.405123e+002	-8.022100e+001	2.883702e+001	-9.091427e-002	-3.145027e+001
390400000	-8.728872e-002	-3.206630e+001	-8.010977e+001	-3.923909e-001	-7.686305e+001	8.409717e+001	-7.837432e-002	-3.135706e+001
390412500	-8.305916e-002	-3.217284e+001	-8.098028e+001	-3.184709e+001	-8.827481e+001	-6.277112e+001	-7.951826e-002	-3.137991e+001
390425000	-7.915775e-002	-3.211328e+001	-7.971844e+001	1.041997e+002	-7.901492e+001	-4.370979e+001	-9.239779e-002	-3.141038e+001
390437500	-9.104476e-002	-3.217727e+001	-7.054833e+001	6.760250e+001	-7.212815e+001	7.120688e+001	-9.300981e-002	-3.144520e+001
390450000	-8.724181e-002	-3.221444e+001	-8.189018e+001	-8.624704e+001	-7.143757e+001	2.143732e+001	-9.113699e-002	-3.141773e+001
390462500	-9.293069e-002	-3.225820e+001	-8.804918e+001	-1.221275e+002	-7.218778e+001	-3.361939e+001	-8.268234e-002	-3.143472e+001
390475000	-8.526277e-002	-3.222028e+001	-7.336851e+001	1.426914e+002	-7.977232e+001	1.498182e+002	-9.115505e-002	-3.139774e+001
390487500	-8.702049e-002	-3.218561e+001	-8.068308e+001	1.901726e+001	-8.253372e+001	-1.500819e+002	-7.612973e-002	-3.139563e+001
390500000	-7.942039e-002	-3.221449e+001	-7.703215e+001	-1.675689e+002	-8.649316e+001	-1.195860e+000	-9.366870e-002	-3.143769e+001
390512500	-8.833795e-002	-3.228178e+001	-7.918919e+001	3.145198e+001	-7.985538e+001	1.697724e+002	-9.477594e-002	-3.140893e+001
390525000	-9.502471e-002	-3.215747e+001	-8.346884e+001	1.723778e+002	-7.678944e+001	2.201637e+001	-9.676335e-002	-3.151376e+001
390537500	-8.954347e-002	-3.224497e+001	-8.219112e+001	2.399742e+001	-8.539696e+001	-4.678935e+001	-8.247807e-002	-3.151955e+001
390550000	-8.777214e-002	-3.225304e+001	-8.665074e+001	-1.495463e+002	-7.550819e+001	-1.141135e+002	-9.111673e-002	-3.144260e+001
390562500	-7.847631e-002	-3.227981e+001	-8.900414e+001	1.306738e+001	-7.932139e+001	1.551708e+002	-9.255833e-002	-3.143591e+001
390575000	-8.844646e-002	-3.220606e+001	-1.033398e+002	5.529291e+001	-7.296964e+001	-1.629062e+002	-8.652322e-002	-3.145441e+001
390587500	-8.868256e-002	-3.218237e+001	-9.049423e+001	5.707265e+001	-8.456467e+001	-6.153132e+001	-8.890293e-002	-3.139339e+001
390600000	-9.122203e-002	-3.219556e+001	-8.369242e+001	1.463129e+002	-7.764556e+001	1.158703e+002	-8.001502e-002	-3.133382e+001
390612500	-8.749547e-002	-3.226180e+001	-7.671686e+001	3.042530e+001	-7.691360e+001	-3.416001e+001	-8.014517e-002	-3.137139e+001
390625000	-9.060728e-002	-3.225322e+001	-1.026318e+002	-9.420329e+001	-7.858551e+001	1.173845e+002	-8.722297e-002	-3.134248e+001
390637500	-8.891319e-002	-3.224706e+001	-7.580099e+001	8.969293e+001	-7.491269e+001	1.340506e+002	-9.744316e-002	-3.137313e+001
390650000	-8.669886e-002	-3.226044e+001	-7.386477e+001	-1.532770e+002	-7.272211e+001	-4.207392e+000	-7.781526e-002	-3.142089e+001
390662500	-9.598191e-002	-3.218884e+001	-7.936957e+001	9.383958e+000	-7.192898e+001	1.037741e+002	-7.669633e-002	-3.141320e+001
390675000	-9.499730e-002	-3.227366e+001	-8.292645e+001	1.274901e+002	-7.095112e+001	3.059566e+001	-7.561689e-002	-3.142285e+001
390687500	-9.231867e-002	-3.226766e+001	-8.426675e+001	1.504430e+002	-8.730316e+001	8.442611e+001	-7.982726e-002	-3.142347e+001
390700000	-7.913287e-002	-3.224000e+001	-7.667778e+001	-1.633762e+002	-7.149981e+001	1.466429e+002	-7.291387e-002	-3.141668e+001
390712500	-8.622553e-002	-3.222813e+001	-7.403150e+001	3.725871e+001	-7.932031e+001	1.526721e+002	-8.778397e-002	-3.138001e+001
390725000	-8.881180e-002	-3.216935e+001	-8.233899e+001	8.738540e+001	-9.090058e+001	1.735823e+002	-7.797136e-002	-3.144520e+001
390737500	-7.971394e-002	-3.220903e+001	-6.927898e+001	9.482737e+001	-8.059369e+001	-1.299969e+002	-8.030745e-002	-3.146627e+001
390750000	-9.415371e-002	-3.219784e+001	-8.333200e+001	1.300385e+002	-7.559117e+001	-6.257951e+001	-7.906634e-002	-3.148178e+001
390762500	-8.838691e-002	-3.226854e+001	-7.914175e+001	1.307677e+002	-7.826526e+001	8.086990e+001	-7.724036e-002	-3.144111e+001
390775000	-8.928830e-002	-3.221935e+001	-7.838672e+001	6.573491e+001	-7.232169e+001	1.000753e+002	-8.201006e-002	-3.145477e+001
390787500	-7.732242e-002	-3.228065e+001	-7.113305e+001	7.039530e+001	-7.511465e+001	7.496512e+001	-8.826703e-002	-3.148357e+001
390800000	-8.637433e-002	-3.230980e+001	-6.783823e+001	-1.732666e+002	-7.147074e+001	1.194793e+002	-8.422784e-002	-3.142821e+001
390812500	-8.219360e-002	-3.230993e+001	-7.161922e+001	1.326810e+002	-7.174027e+001	4.558548e+001	-9.235000e-002	-3.141283e+001
390825000	-9.255062e-002	-3.229716e+001	-8.130613e+001	1.433787e+001	-7.474576e+001	1.442712e+002	-8.754281e-002	-3.140064e+001
390837500	-1.004911e-001	-3.231566e+001	-7.679308e+001	3.761231e+001	-9.881158e+001	1.778800e+002	-9.649342e-002	-3.139859e+001
390850000	-9.629524e-002	-3.227336e+001	-7.460633e+001	6.493882e+001	-8.305957e+001	5.015890e+001	-9.450904e-002	-3.146392e+001
390862500	-9.337391e-002	-3.219003e+001	-7.429353e+001	4.294701e+001	-7.245427e+001	6.513405e+001	-8.202587e-002	-3.149525e+001
390875000	-9.646588e-002	-3.217894e+001	-7.707638e+001	9.192068e+001	-7.312459e+001	1.360402e+002	-8.662091e-002	-3.148679e+001
390887500	-9.791921e-002	-3.225799e+001	-7.440302e+001	4.570892e+001	-8.096627e+001	1.073273e+002	-9.333762e-002	-3.146605e+001
390900000	-9.685505e-002	-3.224208e+001	-8.521337e+001	4.486706e+001	-7.831122e+001	1.300890e+002	-9.923754e-002	-3.142730e+001
390912500	-9.513956e-002	-3.224462e+001	-8.463546e+001	-1.361242e+002	-7.359248e+001	1.235173e+002	-1.057014e-001	-3.142603e+001
390925000	-8.577736e-002	-3.225403e+001	-7.343688e+001	1.128619e+002	-7.263265e+001	6.373285e+001	-9.189859e-002	-3.149403e+001
390937500	-9.321399e-002	-3.230138e+001	-7.736995e+001	1.166367e+002	-7.935162e+001	1.297137e+002	-9.255606e-002	-3.156421e+001
390950000	-7.972225e-002	-3.229517e+001	-7.500524e+001	3.543192e+001	-7.308042e+001	6.529501e+001	-9.167145e-002	-3.153722e+001
390962500	-9.477291e-002	-3.228723e+001	-7.894977e+001	6.184841e+001	-7.354280e+001	9.154319e+001	-9.455350e-002	-3.150035e+001
390975000	-8.320171e-002	-3.227134e+001	-7.514350e+001	4.184868e+001	-7.000239e+001	6.502502e+001	-7.985772e-002	-3.148760e+001
390987500	-8.801802e-002	-3.231539e+001	-7.274267e+001	9.073625e+001	-7.271749e+001	8.864379e+001	-8.500937e-002	-3.146267e+001
391000000	-8.487544e-002	-3.230254e+001	-7.271533e+001	1.139875e+002	-7.340457e+001	8.204278e+001	-8.114368e-002	-3.149110e+001
391012500	-8.856374e-002	-3.221574e+001	-7.115276e+001	1.077433e+002	-7.928155e+001	5.419800e+001	-8.953260e-002	-3.143026e+001
391025000	-8.797791e-002	-3.228444e+001	-7.366671e+001	8.893763e+001	-8.478627e+001	4.555426e+001	-7.946424e-002	-3.145467e+001
391037500	-8.897871e-002	-3.219161e+001	-6.956970e+001	4.879917e+001	-6.866224e+001	7.815445e+001	-7.931631e-002	-3.143480e+001
391050000	-8.862137e-002	-3.225260e+001	-8.472780e+001	-5.198643e+001	-7.126108e+001	1.909932e+001	-8.969323e-002	-3.146126e+001
391062500	-8.982490e-002	-3.220978e+001	-7.309958e+001	8.190667e+001	-7.200706e+001	6.658522e+001	-8.063260e-002	-3.146652e+001
391075000	-8.615805e-002	-3.224749e+001	-7.608408e+001	3.163467e+001	-7.612924e+001	-5.631944e+000	-8.235705e-002	-3.140914e+001
391087500	-8.543766e-002	-3.229255e+001	-7.503669e+001	5.071444e+001	-7.108971e+001	4.555483e+001	-8.357870e-002	-3.148493e+001
391100000	-8.199863e-002	-3.229697e+001	-7.707994e+001	8.100177e+001	-7.305385e+001	8.090687e+001	-7.826676e-002	-3.146417e+001
391112500	-8.082491e-002	-3.229467e+001	-7.298176e+001	7.526578e+001	-7.055474e+001	7.862306e+000	-7.237105e-002	-3.150691e+001
391125000	-7.906310e-002	-3.219709e+001	-6.864326e+001	9.827050e+001	-7.902267e+001	8.450085e+001	-7.892648e-002	-3.158996e+001
391137500	-8.201797e-002	-3.223798e+001	-7.168421e+001	9.042468e+001	-8.281997e+001	1.183060e+001	-8.106016e-002	-3.152544e+001
391150000	-8.312385e-002	-3.231006e+001	-6.669066e+001	3.884546e+001	-6.697513e+001	4.366033e+001	-6.612475e-002	-3.153200e+001
391162500	-7.939756e-002	-3.229126e+001	-7.266993e+001	9.622265e+001	-7.380184e+001	5.905397e+001	-7.288493e-002	-3.149424e+001
391175000	-9.203887e-002	-3.226670e+001	-7.492762e+001	2.494563e+001	-6.981023e+001	8.983041e+001	-8.197477e-002	-3.150498e+001
391187500	-9.197910e-002	-3.232267e+001	-7.627676e+001	4.945790e+001	-7.135616e+001	5.745568e+001	-8.542851e-002	-3.149176e+001
391200000	-9.346804e-002	-3.223413e+001	-7.097754e+001	3.944661e+001	-7.249189e+001	9.301711e+001	-8.717097e-002	-3.150899e+001
391212500	-9.915440e-002	-3.228237e+001	-7.009092e+001	7.765702e+001	-7.790166e+001	5.604095e+001	-9.130385e-002	-3.152474e+001
391225000	-8.916361e-002	-3.224619e+001	-7.512373e+001	7.786846e+001	-7.834353e+001	9.737762e+001	-7.932676e-002	-3.145546e+001
391237500	-9.445274e-002	-3.229084e+001	-6.940767e+001	1.382055e+002	-7.251998e+001	1.428828e+001	-9.300110e-002	-3.152440e+001
391250000	-9.667277e-002	-3.222418e+001	-7.936420e+001	1.263542e+002	-8.511139e+001	-2.836149e+001	-8.750986e-002	-3.149239e+001
391262500	-8.939331e-002	-3.231099e+001	-7.445935e+001	1.005758e+002	-7.376580e+001	6.104936e+001	-8.298946e-002	-3.151527e+001
391275000	-9.629877e-002	-3.229093e+001	-7.781330e+001	-8.526860e+001	-7.891793e+001	7.115268e+001	-8.214366e-002	-3.151788e+001
391287500	-9.616591e-002	-3.228980e+001	-7.440300e+001	6.108857e+001	-8.044331e+001	8.960626e+001	-8.524163e-002	-3.151260e+001
391300000	-8.740671e-002	-3.237889e+001	-7.635300e+001	3.269653e+000	-7.798846e+001	5.473243e+001	-7.839286e-002	-3.152066e+001
391312500	-8.455736e-002	-3.232839e+001	-7.828663e+001	7.930737e+001	-7.404321e+001	3.506916e+001	-6.611783e-002	-3.151585e+001
391325000	-8.665587e-002	-3.232321e+001	-7.362493e+001	3.772112e+001	-7.615128e+001	7.287882e+001	-7.871197e-002	-3.153549e+001
391337500	-9.498361e-002	-3.239450e+001	-7.274617e+001	1.084330e+001	-7.852902e+001	1.164631e+002	-8.190935e-002	-3.151613e+001
391350000	-8.422881e-002	-3.238629e+001	-7.215009e+001	1.225435e+002	-7.589082e+001	7.144585e+001	-8.687780e-002	-3.154812e+001
391362500	-8.496540e-002	-3.239524e+001	-7.083295e+001	-2.020569e+000	-7.373726e+001	1.372241e+002	-8.592698e-002	-3.150455e+001
391375000	-8.920577e-002	-3.231007e+001	-8.167309e+001	1.673332e+002	-7.912984e+001	4.435668e+001	-8.928815e-002	-3.151295e+001
391387500	-8.773729e-002	-3.232442e+001	-7.234894e+001	-6.137234e+001	-7.514611e+001	-3.451938e+001	-8.624146e-002	-3.150337e+001
391400000	-9.118777e-002	-3.243660e+001	-7.517700e+001	1.524595e+001	-7.165315e+001	5.449595e+001	-1.014779e-001	-3.158719e+001
391412500	-8.028508e-002	-3.234816e+001	-7.849401e+001	3.618374e+001	-7.857783e+001	6.576418e+001	-8.557622e-002	-3.150592e+001
391425000	-7.736516e-002	-3.233286e+001	-7.190332e+001	6.348281e+001	-7.786889e+001	4.630102e+001	-8.366900e-002	-3.157455e+001
391437500	-8.558093e-002	-3.235037e+001	-8.771755e+001	1.362764e+002	-7.339494e+001	3.911207e+001	-8.064657e-002	-3.147722e+001
391450000	-8.492949e-002	-3.237477e+001	-8.484687e+001	1.048807e+002	-7.805864e+001	7.819607e+001	-7.972206e-002	-3.150156e+001
391462500	-9.051830e-002	-3.242205e+001	-7.521684e+001	6.935662e+001	-7.107243e+001	4.008442e+001	-8.161643e-002	-3.156398e+001
391475000	-9.586072e-002	-3.237812e+001	-6.962472e+001	1.706186e+001	-7.274034e+001	7.798373e+001	-7.851817e-002	-3.152624e+001
391487500	-8.808533e-002	-3.230017e+001	-6.571086e+001	2.156923e+001	-6.895626e+001	4.118534e+001	-8.481372e-002	-3.150588e+001
391500000	-8.243012e-002	-3.230472e+001	-8.420795e+001	-5.135470e+001	-6.963865e+001	4.335884e+001	-7.313658e-002	-3.154517e+001
391512500	-8.634576e-002	-3.236956e+001	-7.302394e+001	1.910623e+001	-7.113081e+001	1.483302e+001	-8.108367e-002	-3.153366e+001
391525000	-9.351252e-002	-3.240092e+001	-7.062294e+001	-3.388379e+000	-7.853441e+001	3.699465e+001	-8.628259e-002	-3.146422e+001
391537500	-8.895348e-002	-3.239887e+001	-7.964527e+001	3.190133e+001	-7.935858e+001	1.232398e+001	-8.312266e-002	-3.148266e+001
391550000	-1.000844e-001	-3.236523e+001	-7.520979e+001	3.823728e+001	-7.889346e+001	-2.197414e+001	-9.826988e-002	-3.156813e+001
391562500	-9.632609e-002	-3.231031e+001	-7.248672e+001	7.120384e+001	-7.435651e+001	3.108249e+001	-9.248757e-002	-3.158058e+001
391575000	-8.847990e-002	-3.238638e+001	-7.766283e+001	-8.180116e+000	-7.429892e+001	-1.034781e+002	-8.734126e-002	-3.154158e+001
391587500	-9.167477e-002	-3.243881e+001	-7.231569e+001	6.962070e+001	-7.311823e+001	2.893946e+001	-8.493957e-002	-3.151230e+001
391600000	-9.231893e-002	-3.238973e+001	-7.362672e+001	2.949649e+001	-7.221924e+001	5.372213e+001	-7.610137e-002	-3.157996e+001
391612500	-8.927924e-002	-3.240723e+001	-8.149256e+001	4.109525e+001	-7.596514e+001	4.159913e+001	-9.201405e-002	-3.151157e+001
391625000	-9.843234e-002	-3.241574e+001	-8.112103e+001	-6.993481e+001	-7.477382e+001	9.113146e+001	-8.699347e-002	-3.164074e+001
391637500	-8.871471e-002	-3.239013e+001	-6.918445e+001	3.422981e+001	-7.463897e+001	1.071900e+002	-7.392776e-002	-3.161895e+001
391650000	-7.701146e-002	-3.238767e+001	-7.503494e+001	4.549936e+001	-9.040873e+001	-9.542954e+001	-7.858475e-002	-3.156682e+001
391662500	-8.448786e-002	-3.236190e+001	-8.267388e+001	8.465543e+001	-7.778671e+001	1.320122e+002	-7.406234e-002	-3.158673e+001
391675000	-9.101668e-002	-3.238030e+001	-7.787848e+001	-5.080498e+001	-8.324945e+001	4.843262e+001	-7.719702e-002	-3.161874e+001
391687500	-9.724862e-002	-3.232421e+001	-8.333919e+001	3.237219e+000	-8.179243e+001	-3.052270e+001	-8.912931e-002	-3.157027e+001
391700000	-9.520182e-002	-3.234059e+001	-7.409116e+001	-1.903341e+001	-7.100123e+001	5.708985e+001	-8.129957e-002	-3.152879e+001
391712500	-8.704748e-002	-3.231491e+001	-8.334042e+001	9.081105e+000	-6.938069e+001	1.591873e+001	-8.004527e-002	-3.148075e+001
391725000	-9.845368e-002	-3.236457e+001	-7.495776e+001	6.557079e+001	-8.648770e+001	-1.199095e+001	-8.476450e-002	-3.151900e+001
391737500	-8.531664e-002	-3.233698e+001	-8.415169e+001	1.488979e+002	-9.056460e+001	9.714255e+001	-8.420880e-002	-3.154767e+001
391750000	-7.506985e-002	-3.238427e+001	-6.976204e+001	4.605745e+001	-8.112329e+001	1.065131e+002	-8.902323e-002	-3.156440e+001
391762500	-8.154945e-002	-3.238154e+001	-8.182680e+001	1.064720e+002	-7.259991e+001	5.961319e+001	-8.592154e-002	-3.161547e+001
391775000	-8.539914e-002	-3.237454e+001	-7.367825e+001	1.326515e+001	-7.925211e+001	3.085196e+001	-9.340527e-002	-3.158477e+001
391787500	-8.885880e-002	-3.244190e+001	-7.331841e+001	6.706809e+001	-8.304498e+001	-1.401057e+002	-8.422269e-002	-3.156385e+001
391800000	-8.129787e-002	-3.245033e+001	-7.250199e+001	-3.015400e+001	-7.665933e+001	-8.315678e+001	-9.222551e-002	-3.161677e+001
391812500	-9.053050e-002	-3.233302e+001	-7.213259e+001	-5.148774e+001	-7.693003e+001	-1.102259e+001	-9.240082e-002	-3.156759e+001
391825000	-8.490466e-002	-3.242893e+001	-7.636622e+001	4.049212e+001	-7.539329e+001	4.639505e+001	-8.257601e-002	-3.162146e+001
391837500	-7.856763e-002	-3.241682e+001	-8.010806e+001	1.265137e+002	-7.259935e+001	5.474712e+001	-8.650652e-002	-3.167434e+001
391850000	-7.671320e-002	-3.239391e+001	-7.864013e+001	4.759761e+001	-8.614152e+001	1.613504e+002	-7.674436e-002	-3.164127e+001
391862500	-8.019932e-002	-3.241955e+001	-7.925930e+001	9.535458e+001	-7.239575e+001	5.229224e+001	-9.150490e-002	-3.162381e+001
391875000	-8.149735e-002	-3.246749e+001	-7.229774e+001	6.191044e+001	-8.206138e+001	1.312638e+002	-8.519436e-002	-3.156815e+001
391887500	-8.974534e-002	-3.243982e+001	-7.798155e+001	5.791471e+001	-6.947275e+001	5.940022e+001	-8.505173e-002	-3.165192e+001
391900000	-9.081356e-002	-3.244868e+001	-7.535364e+001	1.557984e+002	-7.810500e+001	1.446594e+002	-8.084072e-002	-3.163141e+001
391912500	-9.732777e-002	-3.241254e+001	-8.241061e+001	-1.122763e+002	-7.549124e+001	9.312717e+001	-7.929997e-002	-3.169380e+001
