!Agilent Technologies,E5071C,MY46104547,A.08.12
!Date: Thu Feb 23 09:45:44 2017
!Data & Calibration Information:
!Freq	S11:SOLT2(ON)	S21:SOLT2(ON)	S12:SOLT2(ON)	S22:SOLT2(ON)
# Hz S RI R 50
769000000	1.782272e-001	-9.682638e-001	-5.946848e-004	-7.014215e-005	-5.054080e-004	-4.657194e-005	1.562264e-001	-9.714685e-001
769125000	1.777126e-001	-9.682431e-001	-5.706064e-004	4.177454e-005	-5.133834e-004	-2.961323e-005	1.564073e-001	-9.719381e-001
769250000	1.769756e-001	-9.687409e-001	-5.282996e-004	-3.059295e-005	-5.378855e-004	2.852049e-006	1.556985e-001	-9.716068e-001
769375000	1.768084e-001	-9.687890e-001	-5.342016e-004	2.527656e-006	-5.633756e-004	-1.755140e-005	1.548690e-001	-9.716948e-001
769500000	1.770756e-001	-9.681222e-001	-5.609051e-004	-4.056046e-005	-5.858093e-004	-5.670492e-005	1.545731e-001	-9.709413e-001
769625000	1.767883e-001	-9.686376e-001	-5.156634e-004	-4.131940e-006	-5.257920e-004	2.728053e-005	1.546231e-001	-9.712493e-001
769750000	1.763891e-001	-9.687227e-001	-5.663645e-004	-1.494121e-004	-4.996148e-004	5.162324e-005	1.547261e-001	-9.717425e-001
769875000	1.763230e-001	-9.686520e-001	-4.762730e-004	1.651489e-005	-4.939627e-004	9.816345e-006	1.539942e-001	-9.720550e-001
770000000	1.756908e-001	-9.695769e-001	-5.464948e-004	-6.689768e-005	-5.106550e-004	-8.018855e-005	1.539336e-001	-9.725052e-001
770125000	1.756130e-001	-9.694705e-001	-5.529353e-004	-5.462649e-005	-5.485349e-004	5.183513e-007	1.535582e-001	-9.713918e-001
770250000	1.747922e-001	-9.699092e-001	-4.839271e-004	-1.005810e-004	-5.398887e-004	-2.800936e-006	1.529704e-001	-9.718655e-001
770375000	1.740940e-001	-9.693951e-001	-5.531443e-004	2.034918e-005	-5.009789e-004	-7.670501e-006	1.523193e-001	-9.717993e-001
770500000	1.742165e-001	-9.704948e-001	-4.366015e-004	-4.019833e-005	-4.965024e-004	-5.255105e-005	1.520384e-001	-9.717333e-001
770625000	1.736700e-001	-9.707270e-001	-5.416683e-004	-2.911149e-005	-5.141470e-004	-9.187407e-005	1.518505e-001	-9.709478e-001
770750000	1.731918e-001	-9.693957e-001	-4.767879e-004	-6.089162e-006	-5.285585e-004	2.211420e-005	1.511907e-001	-9.717303e-001
770875000	1.730586e-001	-9.694999e-001	-5.111555e-004	-4.253259e-005	-5.053189e-004	7.923015e-005	1.510186e-001	-9.714239e-001
771000000	1.733628e-001	-9.698342e-001	-5.986435e-004	6.729704e-005	-4.888982e-004	7.700354e-006	1.508544e-001	-9.713058e-001
771125000	1.728692e-001	-9.705826e-001	-4.900518e-004	-2.992986e-005	-5.480827e-004	1.510557e-006	1.506305e-001	-9.708304e-001
771250000	1.725522e-001	-9.706818e-001	-6.333838e-004	8.193892e-005	-5.157656e-004	-5.260315e-006	1.512634e-001	-9.721403e-001
771375000	1.715524e-001	-9.711943e-001	-5.641978e-004	4.953593e-005	-5.053158e-004	-4.126198e-005	1.514665e-001	-9.721352e-001
771500000	1.715117e-001	-9.709761e-001	-5.320261e-004	-1.724546e-005	-4.701206e-004	-5.401600e-005	1.503569e-001	-9.722858e-001
771625000	1.710881e-001	-9.713927e-001	-5.241620e-004	4.863730e-005	-4.801013e-004	-3.720541e-005	1.496266e-001	-9.726148e-001
771750000	1.704614e-001	-9.719634e-001	-5.100149e-004	9.758076e-006	-4.792985e-004	3.528479e-006	1.495131e-001	-9.734358e-001
771875000	1.703524e-001	-9.712394e-001	-4.780561e-004	2.366985e-005	-4.792056e-004	-3.981455e-005	1.491533e-001	-9.733942e-001
772000000	1.695553e-001	-9.706929e-001	-4.418952e-004	-4.969287e-005	-4.740116e-004	-9.802526e-005	1.487608e-001	-9.727469e-001
772125000	1.694259e-001	-9.712975e-001	-5.675176e-004	3.528449e-005	-5.319319e-004	-5.438054e-005	1.484239e-001	-9.732230e-001
772250000	1.696374e-001	-9.718706e-001	-5.365259e-004	-8.626135e-005	-5.461020e-004	-3.127200e-005	1.484267e-001	-9.733774e-001
772375000	1.686102e-001	-9.715806e-001	-4.786571e-004	-8.235512e-005	-5.389684e-004	-5.032584e-005	1.475998e-001	-9.734881e-001
772500000	1.679037e-001	-9.718170e-001	-5.266731e-004	-4.260170e-005	-5.277511e-004	-5.799229e-006	1.470807e-001	-9.741070e-001
772625000	1.679753e-001	-9.722929e-001	-4.282181e-004	-1.167820e-005	-4.536795e-004	-4.964005e-006	1.471304e-001	-9.743715e-001
772750000	1.682212e-001	-9.726041e-001	-4.974033e-004	-1.800842e-005	-5.498669e-004	-3.369127e-005	1.465237e-001	-9.745589e-001
772875000	1.676617e-001	-9.727267e-001	-5.954113e-004	9.859810e-005	-5.012377e-004	5.720266e-005	1.462426e-001	-9.743989e-001
773000000	1.669754e-001	-9.726323e-001	-5.342849e-004	-4.507520e-005	-5.393973e-004	-9.363361e-005	1.459012e-001	-9.747433e-001
773125000	1.665694e-001	-9.721595e-001	-5.363687e-004	-5.047015e-005	-5.320573e-004	-6.839128e-005	1.455747e-001	-9.740815e-001
773250000	1.656675e-001	-9.729440e-001	-4.941982e-004	-2.899055e-006	-5.835282e-004	-2.406008e-005	1.446593e-001	-9.749790e-001
773375000	1.657261e-001	-9.721663e-001	-5.480114e-004	-5.198178e-005	-5.784149e-004	2.732820e-006	1.444984e-001	-9.739839e-001
773500000	1.656080e-001	-9.720323e-001	-4.996334e-004	-4.571986e-005	-4.787059e-004	-9.446168e-005	1.435287e-001	-9.746911e-001
773625000	1.646399e-001	-9.727107e-001	-4.759693e-004	-1.299118e-004	-5.321766e-004	-5.945751e-005	1.435400e-001	-9.749451e-001
773750000	1.646728e-001	-9.724515e-001	-6.115687e-004	-8.239577e-006	-5.261272e-004	-3.220547e-005	1.428043e-001	-9.742232e-001
773875000	1.644443e-001	-9.724356e-001	-5.309898e-004	2.001877e-005	-5.155336e-004	-1.511526e-005	1.423661e-001	-9.748808e-001
774000000	1.642068e-001	-9.722867e-001	-5.829128e-004	-4.025977e-005	-5.028465e-004	1.050642e-005	1.422099e-001	-9.746076e-001
774125000	1.640729e-001	-9.727832e-001	-5.464337e-004	4.323414e-005	-5.202098e-004	-1.872086e-005	1.426145e-001	-9.756083e-001
774250000	1.637036e-001	-9.734983e-001	-5.405382e-004	-3.521677e-005	-4.539743e-004	-5.150695e-005	1.418421e-001	-9.755238e-001
774375000	1.634484e-001	-9.734898e-001	-4.925052e-004	-3.356621e-005	-5.471179e-004	-1.739424e-006	1.417131e-001	-9.760489e-001
774500000	1.628266e-001	-9.735814e-001	-5.592365e-004	2.268923e-005	-5.326763e-004	-3.867196e-005	1.409701e-001	-9.761834e-001
774625000	1.625522e-001	-9.735318e-001	-5.942347e-004	-4.114341e-006	-5.160279e-004	-3.409080e-005	1.405721e-001	-9.767938e-001
774750000	1.619820e-001	-9.741870e-001	-5.481059e-004	-1.883881e-005	-5.472613e-004	-1.817337e-005	1.399476e-001	-9.753905e-001
774875000	1.619654e-001	-9.741132e-001	-5.206889e-004	8.120389e-006	-4.790469e-004	-6.061632e-005	1.396353e-001	-9.756711e-001
775000000	1.619254e-001	-9.747603e-001	-5.508789e-004	6.422481e-006	-5.412603e-004	1.858484e-005	1.392411e-001	-9.761004e-001
775125000	1.599742e-001	-9.744903e-001	-5.213989e-004	-4.538919e-005	-5.454451e-004	-9.684888e-006	1.381298e-001	-9.758278e-001
775250000	1.599204e-001	-9.749076e-001	-5.041885e-004	-6.908670e-005	-5.423331e-004	-1.214878e-005	1.381421e-001	-9.758432e-001
775375000	1.593581e-001	-9.740905e-001	-5.291668e-004	-9.851996e-005	-6.046598e-004	-3.050387e-005	1.371716e-001	-9.751881e-001
775500000	1.598725e-001	-9.751130e-001	-4.912233e-004	-1.339376e-004	-5.451019e-004	-2.325456e-007	1.374530e-001	-9.758309e-001
775625000	1.585908e-001	-9.755789e-001	-5.386404e-004	-8.314512e-005	-4.953165e-004	-1.131831e-004	1.379259e-001	-9.758156e-001
775750000	1.584165e-001	-9.750754e-001	-5.035368e-004	4.428832e-005	-5.472735e-004	-7.090486e-005	1.368951e-001	-9.767972e-001
775875000	1.578260e-001	-9.750824e-001	-6.242895e-004	2.110360e-005	-5.487770e-004	-1.596992e-005	1.364375e-001	-9.751402e-001
776000000	1.571656e-001	-9.744867e-001	-5.965095e-004	-4.410022e-005	-5.608235e-004	-6.608534e-006	1.359017e-001	-9.766656e-001
776125000	1.572156e-001	-9.756815e-001	-4.604300e-004	2.547449e-005	-4.986159e-004	-6.701730e-005	1.360176e-001	-9.767376e-001
776250000	1.569132e-001	-9.756307e-001	-5.885670e-004	4.995514e-006	-6.196232e-004	-7.404387e-005	1.351765e-001	-9.775030e-001
776375000	1.559350e-001	-9.752891e-001	-5.792396e-004	-1.342694e-004	-5.538974e-004	-6.439074e-005	1.350459e-001	-9.772298e-001
776500000	1.557592e-001	-9.757021e-001	-5.568317e-004	-4.684916e-005	-5.973799e-004	-1.887898e-005	1.340578e-001	-9.767541e-001
776625000	1.551389e-001	-9.763737e-001	-5.624944e-004	-6.115101e-006	-6.208232e-004	-9.317564e-005	1.330687e-001	-9.777940e-001
776750000	1.548543e-001	-9.764304e-001	-5.487723e-004	5.416474e-005	-5.511940e-004	-7.527715e-005	1.333837e-001	-9.768024e-001
776875000	1.541782e-001	-9.761769e-001	-5.901490e-004	-1.715116e-005	-5.130292e-004	-5.708569e-005	1.334211e-001	-9.776515e-001
777000000	1.535633e-001	-9.757913e-001	-5.117054e-004	-2.912279e-005	-5.996327e-004	-1.506471e-005	1.325433e-001	-9.772445e-001
777125000	1.538494e-001	-9.766045e-001	-5.799560e-004	1.482154e-005	-6.424625e-004	-9.409308e-006	1.320499e-001	-9.773890e-001
777250000	1.534416e-001	-9.757451e-001	-5.482416e-004	-1.094724e-005	-5.642195e-004	-9.945111e-005	1.316853e-001	-9.773067e-001
777375000	1.530573e-001	-9.760783e-001	-5.494294e-004	-1.200822e-004	-5.311899e-004	-5.095571e-005	1.316544e-001	-9.777772e-001
777500000	1.529396e-001	-9.766220e-001	-5.720303e-004	-5.946857e-005	-4.866019e-004	-1.115797e-005	1.312335e-001	-9.774035e-001
777625000	1.514506e-001	-9.770421e-001	-5.625375e-004	2.945080e-006	-6.015058e-004	5.782811e-006	1.297727e-001	-9.774720e-001
777750000	1.510453e-001	-9.761226e-001	-5.649650e-004	-8.950482e-005	-5.878312e-004	-4.221330e-005	1.296975e-001	-9.784926e-001
777875000	1.508677e-001	-9.760898e-001	-6.750552e-004	-4.558608e-005	-5.637173e-004	-2.455797e-005	1.290602e-001	-9.782494e-001
778000000	1.507122e-001	-9.769068e-001	-5.124018e-004	-4.450751e-005	-5.574608e-004	-9.210109e-005	1.291350e-001	-9.787131e-001
778125000	1.501586e-001	-9.762363e-001	-6.055973e-004	-2.695512e-005	-5.742850e-004	-4.305064e-005	1.288882e-001	-9.774328e-001
778250000	1.494408e-001	-9.765912e-001	-5.649339e-004	-5.299086e-005	-6.160615e-004	-6.054611e-005	1.281021e-001	-9.782419e-001
778375000	1.490635e-001	-9.768805e-001	-5.262418e-004	-2.574251e-005	-5.960373e-004	-7.807123e-005	1.275177e-001	-9.781053e-001
778500000	1.485031e-001	-9.769058e-001	-5.901139e-004	3.969731e-005	-4.852627e-004	-3.983993e-005	1.269889e-001	-9.782542e-001
778625000	1.479656e-001	-9.768932e-001	-6.380991e-004	-3.706588e-005	-5.510257e-004	-1.373871e-005	1.266162e-001	-9.787057e-001
778750000	1.479102e-001	-9.766678e-001	-5.138832e-004	-5.004764e-006	-5.938136e-004	-8.251393e-005	1.255134e-001	-9.782221e-001
778875000	1.473285e-001	-9.769973e-001	-5.032049e-004	-7.025140e-005	-5.137688e-004	-7.430420e-005	1.254291e-001	-9.778021e-001
779000000	1.466953e-001	-9.775126e-001	-5.782726e-004	-8.679601e-005	-5.801135e-004	-3.888963e-005	1.262114e-001	-9.778912e-001
779125000	1.461436e-001	-9.773378e-001	-5.831969e-004	-4.398085e-005	-5.650665e-004	-5.571270e-005	1.251623e-001	-9.784695e-001
779250000	1.455719e-001	-9.771290e-001	-5.254969e-004	-1.894583e-005	-5.635745e-004	-1.029627e-005	1.239589e-001	-9.783377e-001
779375000	1.456638e-001	-9.777489e-001	-6.093590e-004	-2.049951e-005	-5.775766e-004	-4.872675e-005	1.234714e-001	-9.784939e-001
779500000	1.453474e-001	-9.770427e-001	-6.091531e-004	-5.488704e-005	-7.044095e-004	1.749552e-005	1.243078e-001	-9.783746e-001
779625000	1.447164e-001	-9.771078e-001	-6.047251e-004	-6.273603e-005	-6.097799e-004	2.339737e-005	1.230940e-001	-9.781139e-001
779750000	1.438982e-001	-9.769936e-001	-6.458312e-004	4.645587e-006	-6.216799e-004	-2.630942e-006	1.222763e-001	-9.788253e-001
779875000	1.447722e-001	-9.779767e-001	-5.283708e-004	2.159789e-006	-5.600233e-004	-2.666860e-006	1.232655e-001	-9.794628e-001
780000000	1.432871e-001	-9.773384e-001	-6.379485e-004	-8.454713e-005	-6.206116e-004	-3.321518e-005	1.213301e-001	-9.788448e-001
780125000	1.431145e-001	-9.783449e-001	-5.501637e-004	-4.581342e-005	-5.047600e-004	-8.483573e-005	1.214248e-001	-9.792930e-001
780250000	1.424880e-001	-9.778741e-001	-5.779474e-004	-1.144357e-004	-5.253722e-004	-2.573876e-005	1.210314e-001	-9.786759e-001
780375000	1.419427e-001	-9.784232e-001	-6.140463e-004	-5.637832e-005	-5.585939e-004	-4.781018e-005	1.199418e-001	-9.783118e-001
780500000	1.409505e-001	-9.774772e-001	-6.444600e-004	-1.503148e-005	-5.918136e-004	-2.172062e-005	1.208924e-001	-9.790490e-001
780625000	1.418830e-001	-9.775535e-001	-5.712984e-004	-3.961753e-005	-6.432309e-004	-1.987721e-005	1.186465e-001	-9.792108e-001
780750000	1.404286e-001	-9.780104e-001	-5.883851e-004	1.646132e-005	-5.733850e-004	2.895065e-005	1.186426e-001	-9.794091e-001
780875000	1.403842e-001	-9.784669e-001	-6.504994e-004	2.483525e-005	-6.049604e-004	-2.393201e-005	1.180472e-001	-9.785396e-001
781000000	1.397613e-001	-9.783728e-001	-6.122602e-004	-8.229700e-005	-6.497533e-004	-8.412839e-006	1.183312e-001	-9.792196e-001
781125000	1.388380e-001	-9.781298e-001	-5.425889e-004	-5.802334e-005	-5.747915e-004	-2.020040e-005	1.185680e-001	-9.785876e-001
781250000	1.385947e-001	-9.784248e-001	-7.057340e-004	-4.305470e-006	-6.112205e-004	-4.644657e-005	1.165834e-001	-9.787503e-001
781375000	1.388130e-001	-9.788118e-001	-6.046233e-004	-2.032760e-005	-5.868203e-004	-1.031678e-005	1.158376e-001	-9.792367e-001
781500000	1.380283e-001	-9.782758e-001	-5.956889e-004	-1.119336e-004	-5.948881e-004	-7.874870e-006	1.159755e-001	-9.791505e-001
781625000	1.370782e-001	-9.790882e-001	-5.683850e-004	1.141307e-006	-5.900977e-004	-4.672979e-005	1.163504e-001	-9.798243e-001
781750000	1.366800e-001	-9.791062e-001	-6.252106e-004	1.785711e-005	-6.295596e-004	-5.908711e-005	1.144793e-001	-9.795561e-001
781875000	1.359201e-001	-9.785736e-001	-6.010157e-004	4.090215e-005	-5.950623e-004	-2.091009e-005	1.143745e-001	-9.793446e-001
782000000	1.359570e-001	-9.785759e-001	-6.452985e-004	-2.463781e-005	-6.625156e-004	-3.806996e-005	1.137795e-001	-9.795861e-001
782125000	1.353707e-001	-9.787916e-001	-5.943700e-004	-1.224654e-004	-6.187082e-004	-1.086902e-004	1.133600e-001	-9.801989e-001
782250000	1.348212e-001	-9.789777e-001	-6.164824e-004	-9.260166e-005	-6.264286e-004	-5.484617e-005	1.132922e-001	-9.793387e-001
782375000	1.338647e-001	-9.787543e-001	-6.025441e-004	-1.688311e-005	-6.084191e-004	1.276975e-005	1.115413e-001	-9.799145e-001
782500000	1.337508e-001	-9.784932e-001	-5.371572e-004	-9.699011e-006	-6.175401e-004	-2.187245e-005	1.130312e-001	-9.799226e-001
782625000	1.332647e-001	-9.790096e-001	-7.307997e-004	-2.366854e-005	-5.668652e-004	-2.761354e-005	1.125490e-001	-9.795980e-001
782750000	1.336888e-001	-9.793694e-001	-5.913653e-004	7.991630e-006	-5.806685e-004	1.296833e-005	1.117152e-001	-9.795804e-001
782875000	1.324820e-001	-9.794821e-001	-5.764946e-004	-1.290566e-004	-5.835043e-004	-1.503776e-005	1.111501e-001	-9.798243e-001
783000000	1.318260e-001	-9.790032e-001	-5.675260e-004	5.271626e-006	-6.126063e-004	1.261893e-005	1.103046e-001	-9.795624e-001
783125000	1.310716e-001	-9.785442e-001	-6.438153e-004	-1.067224e-004	-6.155795e-004	1.604049e-006	1.097865e-001	-9.799184e-001
783250000	1.306979e-001	-9.792463e-001	-6.140789e-004	-8.247958e-005	-6.889045e-004	-2.874566e-005	1.091656e-001	-9.805390e-001
783375000	1.312519e-001	-9.790698e-001	-7.439749e-004	3.090177e-005	-6.073269e-004	4.582582e-006	1.089245e-001	-9.798673e-001
783500000	1.301287e-001	-9.797115e-001	-7.332250e-004	-3.465272e-005	-6.272546e-004	3.358114e-005	1.078912e-001	-9.802780e-001
783625000	1.299023e-001	-9.798802e-001	-6.123812e-004	5.171918e-005	-6.561984e-004	-1.143751e-004	1.081443e-001	-9.792426e-001
783750000	1.289950e-001	-9.796571e-001	-6.136349e-004	-6.431256e-005	-6.393008e-004	-2.877216e-005	1.072455e-001	-9.804813e-001
783875000	1.285613e-001	-9.791701e-001	-6.317961e-004	3.091200e-005	-6.361839e-004	-5.765552e-005	1.059256e-001	-9.792140e-001
784000000	1.281585e-001	-9.796032e-001	-5.730909e-004	1.209545e-005	-5.902257e-004	-6.209106e-005	1.060944e-001	-9.803571e-001
784125000	1.280299e-001	-9.797444e-001	-6.245137e-004	-2.475775e-005	-6.192325e-004	-8.620309e-006	1.055987e-001	-9.798184e-001
784250000	1.270113e-001	-9.795314e-001	-6.263381e-004	-1.432298e-006	-7.035370e-004	-1.272509e-005	1.051869e-001	-9.802150e-001
784375000	1.263319e-001	-9.798047e-001	-5.854541e-004	6.906577e-005	-5.840228e-004	-5.226349e-005	1.045586e-001	-9.797322e-001
784500000	1.256682e-001	-9.795623e-001	-5.702575e-004	-2.831961e-005	-6.352498e-004	-7.317009e-005	1.041644e-001	-9.788789e-001
784625000	1.246670e-001	-9.801664e-001	-6.733939e-004	-3.379780e-005	-6.218956e-004	-6.035094e-005	1.045097e-001	-9.806178e-001
784750000	1.245796e-001	-9.792994e-001	-5.222115e-004	2.604974e-005	-5.803301e-004	2.614874e-005	1.034792e-001	-9.799747e-001
784875000	1.242711e-001	-9.791636e-001	-6.783150e-004	-2.869262e-005	-6.302392e-004	3.238002e-005	1.031171e-001	-9.792737e-001
785000000	1.240273e-001	-9.791053e-001	-6.673211e-004	-8.425093e-005	-6.052190e-004	-9.398043e-007	1.022277e-001	-9.799645e-001
785125000	1.233255e-001	-9.793215e-001	-6.122931e-004	7.777751e-006	-6.705266e-004	-1.258865e-005	1.019556e-001	-9.789192e-001
785250000	1.226049e-001	-9.793712e-001	-6.522604e-004	1.960236e-005	-6.015612e-004	5.388426e-005	1.011114e-001	-9.798588e-001
785375000	1.223222e-001	-9.799513e-001	-6.067769e-004	-4.252536e-005	-5.522012e-004	-6.151365e-005	1.013594e-001	-9.806875e-001
785500000	1.220649e-001	-9.795409e-001	-6.453978e-004	-3.523849e-005	-5.991094e-004	-9.238211e-006	9.948901e-002	-9.799465e-001
785625000	1.211724e-001	-9.793029e-001	-6.573494e-004	-3.864252e-005	-6.705338e-004	-4.798536e-005	9.910214e-002	-9.793072e-001
785750000	1.208417e-001	-9.792948e-001	-5.701678e-004	7.984914e-005	-6.055642e-004	-1.290621e-004	9.877783e-002	-9.788513e-001
785875000	1.203670e-001	-9.795672e-001	-6.303753e-004	1.151683e-005	-5.902315e-004	-2.549416e-005	9.897424e-002	-9.788854e-001
786000000	1.194622e-001	-9.797925e-001	-6.760338e-004	1.184419e-005	-6.868768e-004	-1.542179e-006	9.789503e-002	-9.798210e-001
786125000	1.195119e-001	-9.794659e-001	-6.484470e-004	2.245341e-006	-6.153831e-004	-6.004235e-005	9.807835e-002	-9.791784e-001
786250000	1.187041e-001	-9.799491e-001	-7.077594e-004	-4.206232e-005	-6.339788e-004	-6.172078e-005	9.787008e-002	-9.795099e-001
786375000	1.179423e-001	-9.787935e-001	-6.503898e-004	-4.297782e-005	-6.560422e-004	-6.742074e-005	9.802333e-002	-9.786769e-001
786500000	1.175617e-001	-9.794165e-001	-6.202895e-004	-1.275776e-004	-6.391141e-004	-5.363073e-005	9.631003e-002	-9.791924e-001
786625000	1.170134e-001	-9.794301e-001	-5.355926e-004	7.856233e-006	-6.907208e-004	-7.329739e-005	9.628090e-002	-9.786781e-001
786750000	1.165957e-001	-9.788780e-001	-6.661812e-004	-6.867208e-005	-6.433892e-004	-3.295992e-005	9.575363e-002	-9.801446e-001
786875000	1.156447e-001	-9.791240e-001	-7.145747e-004	-1.114150e-005	-7.255823e-004	-1.928582e-005	9.467514e-002	-9.801575e-001
787000000	1.158662e-001	-9.779712e-001	-6.421634e-004	9.854809e-005	-6.159098e-004	2.059119e-005	9.435211e-002	-9.805311e-001
787125000	1.152938e-001	-9.793132e-001	-6.033193e-004	5.138737e-005	-6.051296e-004	-3.257617e-005	9.450095e-002	-9.781309e-001
787250000	1.148941e-001	-9.789387e-001	-6.829105e-004	8.763840e-005	-7.077857e-004	-4.407419e-005	9.351454e-002	-9.803374e-001
787375000	1.144459e-001	-9.790834e-001	-6.340728e-004	7.666336e-005	-6.475409e-004	3.151654e-005	9.331500e-002	-9.796609e-001
787500000	1.135838e-001	-9.789039e-001	-6.431049e-004	1.984421e-006	-6.847063e-004	-3.251331e-006	9.257410e-002	-9.796659e-001
787625000	1.125193e-001	-9.787114e-001	-6.497259e-004	6.782946e-005	-6.413287e-004	4.349120e-006	9.173373e-002	-9.793180e-001
787750000	1.115366e-001	-9.789902e-001	-5.850138e-004	3.894323e-005	-7.135617e-004	-2.565417e-006	9.073363e-002	-9.798856e-001
787875000	1.109615e-001	-9.785867e-001	-5.447651e-004	-7.895395e-006	-5.776747e-004	2.388451e-005	9.005841e-002	-9.799970e-001
788000000	1.102898e-001	-9.779635e-001	-6.747420e-004	-1.870664e-005	-6.579127e-004	1.810645e-005	9.032907e-002	-9.800810e-001
788125000	1.105280e-001	-9.774282e-001	-6.557499e-004	7.216325e-005	-7.139810e-004	-1.428025e-005	8.951384e-002	-9.787939e-001
788250000	1.100512e-001	-9.778979e-001	-6.265880e-004	7.065854e-005	-6.413099e-004	-7.659653e-005	8.850836e-002	-9.787036e-001
