!Agilent Technologies,E5071C,MY46104547,A.08.12
!Date: Wed May 17 14:13:47 2017
!Data & Calibration Information:
!Freq	S11:SOLT2(ON)	S21:SOLT2(ON)	S12:SOLT2(ON)	S22:SOLT2(ON)
# Hz S dB R 50
465000000	-1.378810e+000	1.504531e+002	-1.674665e+001	5.814001e+001	-1.673181e+001	5.795600e+001	-1.007873e+000	1.592998e+002
465018750	-1.388865e+000	1.500680e+002	-1.666728e+001	5.779810e+001	-1.665076e+001	5.760405e+001	-1.016411e+000	1.590634e+002
465037500	-1.397076e+000	1.496841e+002	-1.658257e+001	5.745394e+001	-1.656601e+001	5.726704e+001	-1.024303e+000	1.588238e+002
465056250	-1.406881e+000	1.492943e+002	-1.649937e+001	5.712010e+001	-1.648395e+001	5.691367e+001	-1.032537e+000	1.585853e+002
465075000	-1.416838e+000	1.489030e+002	-1.641577e+001	5.677051e+001	-1.640201e+001	5.656919e+001	-1.040369e+000	1.583497e+002
465093750	-1.426579e+000	1.485185e+002	-1.633410e+001	5.642365e+001	-1.631772e+001	5.622613e+001	-1.048452e+000	1.581176e+002
465112500	-1.435454e+000	1.481301e+002	-1.625068e+001	5.606884e+001	-1.623406e+001	5.586787e+001	-1.056221e+000	1.578861e+002
465131250	-1.444137e+000	1.477417e+002	-1.616713e+001	5.571396e+001	-1.615107e+001	5.552709e+001	-1.064208e+000	1.576483e+002
465150000	-1.453324e+000	1.473417e+002	-1.608272e+001	5.537686e+001	-1.606669e+001	5.517328e+001	-1.071056e+000	1.574140e+002
465168750	-1.462140e+000	1.469488e+002	-1.599884e+001	5.501671e+001	-1.598284e+001	5.482064e+001	-1.078166e+000	1.571724e+002
465187500	-1.470680e+000	1.465402e+002	-1.591591e+001	5.465704e+001	-1.589962e+001	5.446924e+001	-1.084766e+000	1.569299e+002
465206250	-1.479466e+000	1.461327e+002	-1.583095e+001	5.430644e+001	-1.581639e+001	5.411329e+001	-1.092208e+000	1.566716e+002
465225000	-1.488685e+000	1.457188e+002	-1.574556e+001	5.394665e+001	-1.573221e+001	5.374436e+001	-1.099297e+000	1.564271e+002
465243750	-1.497537e+000	1.452956e+002	-1.566114e+001	5.358838e+001	-1.564779e+001	5.339715e+001	-1.107658e+000	1.561729e+002
465262500	-1.507776e+000	1.448740e+002	-1.557697e+001	5.323190e+001	-1.556324e+001	5.303403e+001	-1.116675e+000	1.559144e+002
465281250	-1.517235e+000	1.444557e+002	-1.549301e+001	5.286050e+001	-1.547886e+001	5.266539e+001	-1.126406e+000	1.556630e+002
465300000	-1.527920e+000	1.440246e+002	-1.540892e+001	5.249531e+001	-1.539544e+001	5.229813e+001	-1.134896e+000	1.554093e+002
465318750	-1.538140e+000	1.435967e+002	-1.532351e+001	5.213121e+001	-1.530837e+001	5.193854e+001	-1.143982e+000	1.551624e+002
465337500	-1.547833e+000	1.431647e+002	-1.523863e+001	5.176025e+001	-1.522491e+001	5.156703e+001	-1.153984e+000	1.549005e+002
465356250	-1.558403e+000	1.427319e+002	-1.515435e+001	5.139801e+001	-1.514018e+001	5.120830e+001	-1.163489e+000	1.546402e+002
465375000	-1.568933e+000	1.422896e+002	-1.506730e+001	5.103271e+001	-1.505498e+001	5.083463e+001	-1.173708e+000	1.543872e+002
465393750	-1.579903e+000	1.418498e+002	-1.498384e+001	5.067337e+001	-1.496939e+001	5.047233e+001	-1.184385e+000	1.541314e+002
465412500	-1.591250e+000	1.414052e+002	-1.489553e+001	5.031351e+001	-1.488225e+001	5.011206e+001	-1.193559e+000	1.538793e+002
465431250	-1.601997e+000	1.409609e+002	-1.480650e+001	4.994177e+001	-1.479410e+001	4.973558e+001	-1.203353e+000	1.536279e+002
465450000	-1.612716e+000	1.405052e+002	-1.471607e+001	4.955250e+001	-1.470315e+001	4.935593e+001	-1.213784e+000	1.533846e+002
465468750	-1.624442e+000	1.400558e+002	-1.462816e+001	4.915472e+001	-1.461380e+001	4.895287e+001	-1.222501e+000	1.531267e+002
465487500	-1.635622e+000	1.395919e+002	-1.453828e+001	4.875346e+001	-1.452564e+001	4.855205e+001	-1.229924e+000	1.528693e+002
465506250	-1.647243e+000	1.391273e+002	-1.445118e+001	4.835493e+001	-1.443761e+001	4.815833e+001	-1.239538e+000	1.526153e+002
465525000	-1.658634e+000	1.386565e+002	-1.436334e+001	4.794698e+001	-1.435155e+001	4.775473e+001	-1.248659e+000	1.523519e+002
465543750	-1.669918e+000	1.381816e+002	-1.427673e+001	4.754931e+001	-1.426292e+001	4.734566e+001	-1.256095e+000	1.520861e+002
465562500	-1.682127e+000	1.377028e+002	-1.418954e+001	4.714251e+001	-1.417617e+001	4.693125e+001	-1.263969e+000	1.518166e+002
465581250	-1.694547e+000	1.372249e+002	-1.410050e+001	4.671915e+001	-1.408861e+001	4.651852e+001	-1.272348e+000	1.515431e+002
465600000	-1.706842e+000	1.367369e+002	-1.401365e+001	4.630551e+001	-1.400233e+001	4.610849e+001	-1.282299e+000	1.512611e+002
465618750	-1.720786e+000	1.362480e+002	-1.392692e+001	4.587910e+001	-1.391574e+001	4.568050e+001	-1.290701e+000	1.509785e+002
465637500	-1.733997e+000	1.357557e+002	-1.384207e+001	4.546642e+001	-1.383147e+001	4.526237e+001	-1.299379e+000	1.507007e+002
465656250	-1.747378e+000	1.352606e+002	-1.375799e+001	4.505617e+001	-1.374502e+001	4.484822e+001	-1.309090e+000	1.504139e+002
465675000	-1.760718e+000	1.347651e+002	-1.367104e+001	4.464170e+001	-1.366031e+001	4.444377e+001	-1.320439e+000	1.501243e+002
465693750	-1.774571e+000	1.342590e+002	-1.358505e+001	4.423710e+001	-1.357454e+001	4.403456e+001	-1.329355e+000	1.498360e+002
465712500	-1.788741e+000	1.337489e+002	-1.349834e+001	4.383082e+001	-1.348772e+001	4.362521e+001	-1.340589e+000	1.495465e+002
465731250	-1.803392e+000	1.332386e+002	-1.341032e+001	4.343410e+001	-1.340074e+001	4.322184e+001	-1.352144e+000	1.492471e+002
465750000	-1.817847e+000	1.327256e+002	-1.332299e+001	4.301541e+001	-1.331244e+001	4.281245e+001	-1.364325e+000	1.489561e+002
465768750	-1.832729e+000	1.322035e+002	-1.323451e+001	4.260618e+001	-1.322336e+001	4.240467e+001	-1.375072e+000	1.486562e+002
465787500	-1.846270e+000	1.316818e+002	-1.314433e+001	4.220039e+001	-1.313488e+001	4.199557e+001	-1.388942e+000	1.483716e+002
465806250	-1.861396e+000	1.311547e+002	-1.305427e+001	4.178634e+001	-1.304325e+001	4.158278e+001	-1.400868e+000	1.480855e+002
465825000	-1.876404e+000	1.306242e+002	-1.295818e+001	4.136579e+001	-1.295056e+001	4.115043e+001	-1.414872e+000	1.477948e+002
465843750	-1.891710e+000	1.300889e+002	-1.286771e+001	4.091784e+001	-1.285886e+001	4.070812e+001	-1.425275e+000	1.475095e+002
465862500	-1.906577e+000	1.295448e+002	-1.277788e+001	4.046814e+001	-1.276799e+001	4.025732e+001	-1.435039e+000	1.472148e+002
465881250	-1.921850e+000	1.290048e+002	-1.268657e+001	4.002269e+001	-1.267895e+001	3.982297e+001	-1.447175e+000	1.469110e+002
465900000	-1.936029e+000	1.284593e+002	-1.259530e+001	3.958227e+001	-1.258698e+001	3.937749e+001	-1.458475e+000	1.466181e+002
465918750	-1.949342e+000	1.278969e+002	-1.250298e+001	3.913241e+001	-1.249503e+001	3.892967e+001	-1.470603e+000	1.463155e+002
465937500	-1.963133e+000	1.273289e+002	-1.240962e+001	3.867024e+001	-1.240282e+001	3.846301e+001	-1.479760e+000	1.460121e+002
465956250	-1.978585e+000	1.267445e+002	-1.231828e+001	3.819733e+001	-1.231030e+001	3.799570e+001	-1.490540e+000	1.456894e+002
465975000	-1.994387e+000	1.261526e+002	-1.222756e+001	3.772726e+001	-1.222002e+001	3.751957e+001	-1.501366e+000	1.453641e+002
465993750	-2.012333e+000	1.255553e+002	-1.213750e+001	3.724700e+001	-1.213007e+001	3.704160e+001	-1.514298e+000	1.450358e+002
466012500	-2.030119e+000	1.249541e+002	-1.204827e+001	3.676475e+001	-1.204266e+001	3.656730e+001	-1.528981e+000	1.447003e+002
466031250	-2.048802e+000	1.243507e+002	-1.195838e+001	3.629951e+001	-1.195161e+001	3.609600e+001	-1.543584e+000	1.443752e+002
466050000	-2.068741e+000	1.237486e+002	-1.186637e+001	3.582601e+001	-1.186125e+001	3.562193e+001	-1.557505e+000	1.440516e+002
466068750	-2.087564e+000	1.231391e+002	-1.177707e+001	3.534290e+001	-1.177049e+001	3.514241e+001	-1.572443e+000	1.437225e+002
466087500	-2.106030e+000	1.225266e+002	-1.168550e+001	3.486082e+001	-1.168063e+001	3.466489e+001	-1.587176e+000	1.433950e+002
466106250	-2.125868e+000	1.218981e+002	-1.159474e+001	3.437871e+001	-1.158983e+001	3.418299e+001	-1.603418e+000	1.430595e+002
466125000	-2.145806e+000	1.212591e+002	-1.150249e+001	3.389283e+001	-1.149813e+001	3.369062e+001	-1.618396e+000	1.427266e+002
466143750	-2.167629e+000	1.206188e+002	-1.140976e+001	3.339444e+001	-1.140576e+001	3.319766e+001	-1.634477e+000	1.424021e+002
466162500	-2.190210e+000	1.199705e+002	-1.131888e+001	3.288554e+001	-1.131472e+001	3.269275e+001	-1.648601e+000	1.420732e+002
466181250	-2.213735e+000	1.193201e+002	-1.122848e+001	3.237914e+001	-1.122456e+001	3.218577e+001	-1.663987e+000	1.417371e+002
466200000	-2.238865e+000	1.186664e+002	-1.113850e+001	3.187365e+001	-1.113560e+001	3.167724e+001	-1.679743e+000	1.413871e+002
466218750	-2.263813e+000	1.180076e+002	-1.104827e+001	3.136684e+001	-1.104563e+001	3.117608e+001	-1.696854e+000	1.410439e+002
466237500	-2.290926e+000	1.173488e+002	-1.095789e+001	3.086027e+001	-1.095628e+001	3.066989e+001	-1.713032e+000	1.406979e+002
466256250	-2.317302e+000	1.166846e+002	-1.086626e+001	3.035245e+001	-1.086383e+001	3.016825e+001	-1.730440e+000	1.403481e+002
466275000	-2.344675e+000	1.160217e+002	-1.077482e+001	2.983988e+001	-1.077199e+001	2.964949e+001	-1.748239e+000	1.400041e+002
466293750	-2.372165e+000	1.153527e+002	-1.068186e+001	2.932772e+001	-1.068051e+001	2.913454e+001	-1.766527e+000	1.396491e+002
466312500	-2.401858e+000	1.146792e+002	-1.058980e+001	2.880795e+001	-1.058841e+001	2.861523e+001	-1.785479e+000	1.393009e+002
466331250	-2.431955e+000	1.140107e+002	-1.049590e+001	2.827767e+001	-1.049539e+001	2.809494e+001	-1.803863e+000	1.389508e+002
466350000	-2.462358e+000	1.133450e+002	-1.040098e+001	2.774587e+001	-1.040149e+001	2.756192e+001	-1.822206e+000	1.386067e+002
466368750	-2.492045e+000	1.126744e+002	-1.030699e+001	2.719285e+001	-1.030727e+001	2.701595e+001	-1.840754e+000	1.382554e+002
466387500	-2.522143e+000	1.120055e+002	-1.021363e+001	2.663730e+001	-1.021307e+001	2.645517e+001	-1.858650e+000	1.379013e+002
466406250	-2.551090e+000	1.113311e+002	-1.011970e+001	2.606584e+001	-1.011999e+001	2.589213e+001	-1.876968e+000	1.375496e+002
466425000	-2.579681e+000	1.106549e+002	-1.002789e+001	2.548620e+001	-1.002850e+001	2.531454e+001	-1.894551e+000	1.371869e+002
466443750	-2.608212e+000	1.099665e+002	-9.936751e+000	2.491109e+001	-9.937625e+000	2.473534e+001	-1.911541e+000	1.368200e+002
466462500	-2.636891e+000	1.092710e+002	-9.846496e+000	2.433516e+001	-9.847635e+000	2.415686e+001	-1.929463e+000	1.364537e+002
466481250	-2.666330e+000	1.085645e+002	-9.755617e+000	2.375508e+001	-9.758038e+000	2.358194e+001	-1.946943e+000	1.360710e+002
466500000	-2.695916e+000	1.078584e+002	-9.665144e+000	2.316633e+001	-9.667254e+000	2.299921e+001	-1.965633e+000	1.356867e+002
466518750	-2.726631e+000	1.071368e+002	-9.574228e+000	2.257235e+001	-9.577059e+000	2.240607e+001	-1.984228e+000	1.352945e+002
466537500	-2.758149e+000	1.064214e+002	-9.485052e+000	2.197008e+001	-9.487056e+000	2.179607e+001	-2.003077e+000	1.349033e+002
466556250	-2.788627e+000	1.056947e+002	-9.396114e+000	2.136636e+001	-9.398803e+000	2.119476e+001	-2.023954e+000	1.345066e+002
466575000	-2.820202e+000	1.049767e+002	-9.308729e+000	2.075845e+001	-9.311333e+000	2.058897e+001	-2.044348e+000	1.341005e+002
466593750	-2.851688e+000	1.042421e+002	-9.221111e+000	2.016075e+001	-9.225433e+000	1.998344e+001	-2.065465e+000	1.336900e+002
466612500	-2.881909e+000	1.035142e+002	-9.133311e+000	1.955565e+001	-9.137290e+000	1.938907e+001	-2.087608e+000	1.332733e+002
466631250	-2.911211e+000	1.027699e+002	-9.044123e+000	1.894567e+001	-9.048783e+000	1.878088e+001	-2.110053e+000	1.328572e+002
466650000	-2.939900e+000	1.020049e+002	-8.956023e+000	1.833647e+001	-8.959582e+000	1.816489e+001	-2.134160e+000	1.324351e+002
466668750	-2.969554e+000	1.012280e+002	-8.867843e+000	1.771775e+001	-8.871812e+000	1.754690e+001	-2.158933e+000	1.320146e+002
466687500	-3.001394e+000	1.004491e+002	-8.778930e+000	1.709065e+001	-8.784008e+000	1.692316e+001	-2.185819e+000	1.315868e+002
466706250	-3.033476e+000	9.965268e+001	-8.689677e+000	1.645462e+001	-8.697458e+000	1.629088e+001	-2.212903e+000	1.311535e+002
466725000	-3.064700e+000	9.884499e+001	-8.601757e+000	1.581668e+001	-8.608681e+000	1.564734e+001	-2.240714e+000	1.307287e+002
466743750	-3.098288e+000	9.802276e+001	-8.514522e+000	1.517028e+001	-8.521785e+000	1.500237e+001	-2.268781e+000	1.302999e+002
466762500	-3.133253e+000	9.719780e+001	-8.427913e+000	1.452027e+001	-8.435592e+000	1.434936e+001	-2.296260e+000	1.298732e+002
466781250	-3.170040e+000	9.635799e+001	-8.340522e+000	1.386322e+001	-8.349282e+000	1.369511e+001	-2.326951e+000	1.294387e+002
466800000	-3.207332e+000	9.552092e+001	-8.255373e+000	1.319776e+001	-8.264050e+000	1.303052e+001	-2.357518e+000	1.290032e+002
466818750	-3.246272e+000	9.466882e+001	-8.169611e+000	1.252801e+001	-8.178581e+000	1.236122e+001	-2.389028e+000	1.285656e+002
466837500	-3.287417e+000	9.381615e+001	-8.085022e+000	1.185130e+001	-8.094298e+000	1.168757e+001	-2.421521e+000	1.281277e+002
466856250	-3.329841e+000	9.296154e+001	-8.001102e+000	1.116854e+001	-8.010976e+000	1.100194e+001	-2.453204e+000	1.276910e+002
466875000	-3.370720e+000	9.211770e+001	-7.918424e+000	1.048528e+001	-7.927870e+000	1.031951e+001	-2.487010e+000	1.272539e+002
466893750	-3.412993e+000	9.125660e+001	-7.836279e+000	9.796992e+000	-7.846542e+000	9.632467e+000	-2.521031e+000	1.268034e+002
466912500	-3.457461e+000	9.039541e+001	-7.753717e+000	9.102326e+000	-7.765088e+000	8.937485e+000	-2.556099e+000	1.263598e+002
466931250	-3.500302e+000	8.953279e+001	-7.672951e+000	8.401799e+000	-7.684185e+000	8.242806e+000	-2.591957e+000	1.259123e+002
466950000	-3.545500e+000	8.866042e+001	-7.592782e+000	7.698160e+000	-7.603850e+000	7.533928e+000	-2.629512e+000	1.254672e+002
466968750	-3.589859e+000	8.778480e+001	-7.513787e+000	6.983786e+000	-7.524611e+000	6.823782e+000	-2.668526e+000	1.250238e+002
466987500	-3.634803e+000	8.690780e+001	-7.435871e+000	6.265793e+000	-7.447070e+000	6.110800e+000	-2.708246e+000	1.245886e+002
467006250	-3.680881e+000	8.602002e+001	-7.358850e+000	5.548209e+000	-7.370595e+000	5.394382e+000	-2.748411e+000	1.241478e+002
467025000	-3.726714e+000	8.512567e+001	-7.282974e+000	4.834207e+000	-7.294803e+000	4.675984e+000	-2.788499e+000	1.237228e+002
467043750	-3.773242e+000	8.423567e+001	-7.208842e+000	4.106353e+000	-7.220782e+000	3.956433e+000	-2.828735e+000	1.232877e+002
467062500	-3.819982e+000	8.333751e+001	-7.135355e+000	3.385948e+000	-7.147230e+000	3.232127e+000	-2.869249e+000	1.228668e+002
467081250	-3.867001e+000	8.243310e+001	-7.063089e+000	2.667997e+000	-7.074724e+000	2.512974e+000	-2.908186e+000	1.224289e+002
467100000	-3.913346e+000	8.151903e+001	-6.990967e+000	1.951396e+000	-7.004379e+000	1.799229e+000	-2.948809e+000	1.219870e+002
467118750	-3.961381e+000	8.059639e+001	-6.919333e+000	1.231195e+000	-6.932062e+000	1.080549e+000	-2.988648e+000	1.215475e+002
467137500	-4.008250e+000	7.966361e+001	-6.848371e+000	5.098808e-001	-6.861328e+000	3.632102e-001	-3.031351e+000	1.210973e+002
467156250	-4.057012e+000	7.872539e+001	-6.777671e+000	-2.081679e-001	-6.790139e+000	-3.555541e-001	-3.074717e+000	1.206527e+002
467175000	-4.106361e+000	7.777535e+001	-6.707255e+000	-9.342391e-001	-6.721062e+000	-1.080369e+000	-3.118130e+000	1.201924e+002
467193750	-4.156515e+000	7.682744e+001	-6.637266e+000	-1.660614e+000	-6.650653e+000	-1.804465e+000	-3.164557e+000	1.197458e+002
467212500	-4.208423e+000	7.586856e+001	-6.568074e+000	-2.393143e+000	-6.580920e+000	-2.537599e+000	-3.210439e+000	1.192981e+002
467231250	-4.260145e+000	7.490266e+001	-6.499560e+000	-3.124417e+000	-6.513243e+000	-3.268281e+000	-3.258365e+000	1.188523e+002
467250000	-4.311009e+000	7.393829e+001	-6.431834e+000	-3.858639e+000	-6.446017e+000	-3.997457e+000	-3.307010e+000	1.184039e+002
467268750	-4.362860e+000	7.296413e+001	-6.363772e+000	-4.598539e+000	-6.378636e+000	-4.739261e+000	-3.356386e+000	1.179713e+002
467287500	-4.414439e+000	7.197742e+001	-6.297654e+000	-5.340085e+000	-6.312401e+000	-5.479418e+000	-3.404533e+000	1.175389e+002
467306250	-4.467755e+000	7.097962e+001	-6.232036e+000	-6.083537e+000	-6.246809e+000	-6.217669e+000	-3.453995e+000	1.171034e+002
467325000	-4.523579e+000	6.997983e+001	-6.166857e+000	-6.838234e+000	-6.182235e+000	-6.971774e+000	-3.504411e+000	1.166720e+002
467343750	-4.578439e+000	6.897494e+001	-6.104251e+000	-7.589646e+000	-6.119241e+000	-7.720977e+000	-3.554692e+000	1.162418e+002
467362500	-4.634807e+000	6.796696e+001	-6.041615e+000	-8.341849e+000	-6.057055e+000	-8.468855e+000	-3.605251e+000	1.158130e+002
467381250	-4.690981e+000	6.695494e+001	-5.980548e+000	-9.091963e+000	-5.995813e+000	-9.218361e+000	-3.655742e+000	1.153779e+002
467400000	-4.748247e+000	6.593802e+001	-5.919867e+000	-9.843305e+000	-5.936036e+000	-9.969904e+000	-3.706658e+000	1.149458e+002
467418750	-4.805659e+000	6.491872e+001	-5.860248e+000	-1.060038e+001	-5.876506e+000	-1.072036e+001	-3.759596e+000	1.145109e+002
467437500	-4.862886e+000	6.389730e+001	-5.802745e+000	-1.135129e+001	-5.819010e+000	-1.147017e+001	-3.812362e+000	1.140847e+002
467456250	-4.920623e+000	6.286333e+001	-5.745372e+000	-1.209467e+001	-5.762204e+000	-1.221697e+001	-3.865021e+000	1.136505e+002
467475000	-4.977479e+000	6.181966e+001	-5.688969e+000	-1.283957e+001	-5.705588e+000	-1.295370e+001	-3.919875e+000	1.132315e+002
467493750	-5.035540e+000	6.076914e+001	-5.632603e+000	-1.357737e+001	-5.649185e+000	-1.368824e+001	-3.973360e+000	1.128034e+002
467512500	-5.094103e+000	5.970385e+001	-5.576160e+000	-1.431573e+001	-5.592847e+000	-1.443282e+001	-4.026598e+000	1.123926e+002
467531250	-5.154726e+000	5.865260e+001	-5.520634e+000	-1.505925e+001	-5.537873e+000	-1.516664e+001	-4.080323e+000	1.119623e+002
467550000	-5.216553e+000	5.757682e+001	-5.465082e+000	-1.580134e+001	-5.482080e+000	-1.590653e+001	-4.132764e+000	1.115374e+002
467568750	-5.276674e+000	5.650145e+001	-5.410062e+000	-1.654264e+001	-5.427096e+000	-1.665194e+001	-4.186447e+000	1.111088e+002
467587500	-5.339341e+000	5.543239e+001	-5.356319e+000	-1.728944e+001	-5.373370e+000	-1.739502e+001	-4.240950e+000	1.106758e+002
467606250	-5.402577e+000	5.435711e+001	-5.302160e+000	-1.803282e+001	-5.319871e+000	-1.813783e+001	-4.296116e+000	1.102361e+002
467625000	-5.465811e+000	5.328153e+001	-5.248535e+000	-1.877966e+001	-5.266045e+000	-1.887745e+001	-4.353649e+000	1.098001e+002
467643750	-5.528426e+000	5.219937e+001	-5.196217e+000	-1.952848e+001	-5.213507e+000	-1.962455e+001	-4.411369e+000	1.093681e+002
467662500	-5.591854e+000	5.111913e+001	-5.144637e+000	-2.028298e+001	-5.163064e+000	-2.037440e+001	-4.468518e+000	1.089379e+002
467681250	-5.654372e+000	5.002580e+001	-5.094883e+000	-2.102585e+001	-5.112453e+000	-2.112098e+001	-4.525421e+000	1.085109e+002
467700000	-5.717325e+000	4.893400e+001	-5.044710e+000	-2.177372e+001	-5.062130e+000	-2.186653e+001	-4.583854e+000	1.080715e+002
467718750	-5.781904e+000	4.784084e+001	-4.995140e+000	-2.252149e+001	-5.013567e+000	-2.260932e+001	-4.642006e+000	1.076319e+002
467737500	-5.845334e+000	4.673705e+001	-4.946238e+000	-2.326796e+001	-4.965525e+000	-2.335897e+001	-4.700601e+000	1.072021e+002
467756250	-5.909812e+000	4.563252e+001	-4.899159e+000	-2.401709e+001	-4.917339e+000	-2.410130e+001	-4.760578e+000	1.067691e+002
467775000	-5.973193e+000	4.452681e+001	-4.852348e+000	-2.476259e+001	-4.870928e+000	-2.484582e+001	-4.820559e+000	1.063265e+002
467793750	-6.036646e+000	4.341095e+001	-4.805957e+000	-2.550338e+001	-4.825129e+000	-2.558390e+001	-4.880516e+000	1.058902e+002
467812500	-6.101500e+000	4.229660e+001	-4.760557e+000	-2.624378e+001	-4.779257e+000	-2.632427e+001	-4.941357e+000	1.054517e+002
467831250	-6.165915e+000	4.118997e+001	-4.715824e+000	-2.698208e+001	-4.734225e+000	-2.706164e+001	-5.004247e+000	1.050157e+002
467850000	-6.228065e+000	4.008358e+001	-4.671190e+000	-2.771776e+001	-4.688913e+000	-2.779029e+001	-5.066000e+000	1.045716e+002
467868750	-6.288106e+000	3.897192e+001	-4.626239e+000	-2.844830e+001	-4.645088e+000	-2.852188e+001	-5.128587e+000	1.041228e+002
467887500	-6.346996e+000	3.784130e+001	-4.581233e+000	-2.918106e+001	-4.599741e+000	-2.925260e+001	-5.194007e+000	1.036756e+002
467906250	-6.406833e+000	3.671209e+001	-4.537008e+000	-2.991456e+001	-4.555252e+000	-2.998637e+001	-5.258834e+000	1.032301e+002
