!Keysight Technologies,E5080A,MY55200989,A.11.70.00
!Date: Wednesday, December 19, 2018 13:11:43
!Correction: S11(Full 2 Port(1,2)) 
!S21(Full 2 Port(1,2)) 
!S12(Full 2 Port(1,2)) 
!S22(Full 2 Port(1,2)) 
!S2P File: Measurements: S11, S21, S12, S22:
# Hz S  RI   R 50
10000000 0.99701071 -0.071925089 6.895238e-007 1.0815821e-005 -1.3178711e-005 5.3257456e-005 0.99744236 -0.073880434
11243750 0.99584866 -0.079451554 -1.8711176e-005 5.5211244e-006 -6.6854293e-005 -4.9541533e-005 0.9967916 -0.082969271
12487500 0.9960404 -0.089599796 6.2264146e-005 3.4764827e-005 -3.6679699e-005 -6.7291054e-005 0.99525994 -0.092835635
13731250 0.99509197 -0.097413883 6.0202665e-006 4.7297617e-005 -8.7574183e-005 -2.1708842e-005 0.99470735 -0.1007999
14975000 0.99350762 -0.10723758 -3.3974353e-005 -2.6358962e-006 -4.9228649e-005 1.8788995e-005 0.99362862 -0.10906512
16218750 0.99251819 -0.11551147 -5.3697997e-005 3.4126286e-005 -8.2786304e-005 5.78658e-005 0.99273765 -0.11765446
17462500 0.99210215 -0.12488487 2.7038805e-005 -4.6366771e-005 6.6724017e-005 -2.6299736e-005 0.99075645 -0.12834616
18706250 0.99057829 -0.13336462 1.0402887e-005 -3.2135493e-005 -4.1359726e-006 -3.9907459e-006 0.9902696 -0.13693719
19950000 0.99027687 -0.14127573 4.1405634e-005 -1.8308934e-005 -3.1081134e-005 7.94468e-006 0.98940569 -0.14520459
21193750 0.98865288 -0.15071243 2.2743598e-005 1.2561114e-005 1.6139014e-005 2.9894052e-005 0.98782933 -0.15402201
22437500 0.98618019 -0.15935579 -2.5850019e-005 -7.5162852e-006 2.3456952e-005 -2.5035288e-005 0.98622924 -0.16324718
23681250 0.98557806 -0.16894811 -1.1252411e-005 0.00010258195 1.940147e-005 -8.386383e-005 0.98570049 -0.1725902
24925000 0.98326349 -0.17716204 1.6424823e-005 1.8481687e-005 2.0243069e-005 -4.9343245e-005 0.98392594 -0.1816311
26168750 0.98273432 -0.18472248 -5.807478e-005 -4.2416254e-005 2.7475749e-005 -3.859726e-005 0.98151833 -0.18977876
27412500 0.98180288 -0.19476901 7.9885125e-005 -9.6196718e-006 -1.2056134e-005 1.131327e-005 0.97971827 -0.19913507
28656250 0.97914976 -0.20377994 3.2310654e-005 1.4964683e-005 3.2466163e-005 1.8031766e-005 0.97864127 -0.20781703
29900000 0.97690213 -0.21241754 -5.6074492e-005 4.5674999e-005 4.7274312e-005 1.2432548e-005 0.97679752 -0.21648407
31143750 0.97521234 -0.2187299 -2.0324164e-006 2.8194518e-005 3.2452939e-005 6.5872355e-006 0.97360748 -0.22599283
32387500 0.97344911 -0.2286481 -4.3483586e-005 4.2901567e-005 6.0812425e-008 3.2152816e-006 0.97152913 -0.23447482
33631250 0.9712429 -0.23803765 -2.4196274e-007 4.3752076e-005 -1.1330933e-005 -2.1726395e-005 0.96827012 -0.24319798
34875000 0.96948737 -0.24668169 3.4212797e-005 -2.9719451e-005 2.600154e-005 -1.9135356e-005 0.96604878 -0.25276244
36118750 0.96623701 -0.25370246 2.5334482e-005 -2.8710681e-006 3.0751751e-005 -1.0927381e-005 0.96464652 -0.26078686
37362500 0.96532279 -0.26345655 3.5914996e-005 2.4628431e-005 4.2048353e-007 -1.5365022e-006 0.96190536 -0.27059358
38606250 0.9616124 -0.27138543 2.4890642e-005 1.2327456e-005 -3.4944755e-005 2.810604e-005 0.96069777 -0.27795276
39850000 0.95840108 -0.28121448 3.6585461e-005 7.9218071e-006 -3.1836069e-005 -3.226714e-005 0.95752889 -0.28790903
41093750 0.95693487 -0.29000801 4.2320014e-005 5.0003178e-005 -3.3488053e-005 -1.4987539e-005 0.95595729 -0.29633379
42337500 0.95401651 -0.2973721 -4.9770479e-006 2.3110013e-005 2.6360038e-005 3.2841301e-006 0.95220202 -0.30470917
43581250 0.95163089 -0.30497187 -2.225254e-005 -3.6744179e-005 5.3571748e-005 6.2193294e-006 0.94965243 -0.31306255
44825000 0.94948894 -0.31454277 2.3199422e-005 -4.2027612e-005 4.0651241e-005 5.8327923e-006 0.94705534 -0.32135773
46068750 0.94622904 -0.32274199 3.2332755e-005 1.2421509e-005 -9.3424643e-007 -2.2834445e-005 0.94322979 -0.33112535
47312500 0.9430266 -0.3307004 1.800965e-005 1.4546858e-005 -1.2206137e-005 1.5674259e-005 0.93963063 -0.33801636
48556250 0.93931633 -0.33856639 -1.7536961e-005 6.3767373e-005 5.9354679e-005 3.2096027e-006 0.93748254 -0.34707013
49800000 0.93748426 -0.34800702 -1.6751883e-005 -7.7047298e-006 -2.4966646e-005 -6.4256405e-006 0.93392599 -0.35559458
51043750 0.93423915 -0.35608506 -7.7324539e-006 2.5916259e-007 -2.5028054e-005 1.2692853e-005 0.93175793 -0.36428604
52287500 0.93167287 -0.36426955 7.4833762e-005 -1.2175736e-005 -1.9695299e-005 -1.905681e-005 0.92737055 -0.37264457
53531250 0.92779565 -0.37137282 -4.3503613e-005 1.9695584e-005 -9.6835402e-006 -5.3448371e-006 0.923841 -0.38150382
54775000 0.92447764 -0.38093734 3.0255855e-005 2.5596124e-005 -3.0000034e-005 3.2576289e-005 0.92091376 -0.38929757
56018750 0.92120367 -0.38804623 -1.3459818e-006 -4.455708e-005 -1.8583842e-005 5.0367867e-006 0.91769737 -0.39836466
57262500 0.91750664 -0.396947 1.1191803e-005 4.4737069e-005 -1.7976585e-005 2.4003877e-005 0.91293395 -0.40577134
58506250 0.91336244 -0.40484971 -4.72591e-006 3.3176595e-005 3.3394426e-005 -3.2270244e-005 0.9099983 -0.41395158
59750000 0.91041738 -0.41300187 -9.9006784e-006 7.5841704e-006 3.0397083e-005 1.5757405e-005 0.90615624 -0.42228469
60993750 0.90614486 -0.42138603 8.9720534e-006 3.4433939e-005 -5.029179e-005 6.4732603e-008 0.9025175 -0.43035766
62237500 0.90336937 -0.42837414 -2.3050185e-005 4.1648098e-005 7.9750153e-006 -2.8361119e-005 0.89793521 -0.43851975
63481250 0.89857423 -0.43703961 4.7993763e-005 -3.7137972e-005 1.4039661e-005 -1.9283673e-006 0.89350533 -0.44708124
64725000 0.89506757 -0.44439927 -6.8164504e-006 1.6390237e-005 1.589802e-005 4.3510358e-005 0.88979208 -0.45564476
65968750 0.89025378 -0.45270625 4.7209949e-005 1.8699504e-005 -3.7746381e-006 -1.5117997e-005 0.88557243 -0.46350875
67212500 0.88611364 -0.46075928 2.4692568e-005 5.2094445e-005 1.0715589e-005 1.5345297e-005 0.88137913 -0.47083011
68456250 0.88261992 -0.46827918 2.6961814e-005 2.8830238e-005 -1.0908961e-005 2.0064414e-005 0.87649238 -0.47888717
69700000 0.8783474 -0.47635102 3.9942366e-005 2.7801025e-005 -1.4798875e-005 5.1547984e-005 0.8722949 -0.4861607
70943750 0.87472826 -0.48408917 1.5634389e-005 2.0178333e-005 -1.0000945e-005 4.1247527e-005 0.86813551 -0.49455205
72187500 0.86930573 -0.49129066 -1.1956106e-005 2.1246449e-005 1.4661064e-005 -3.6834841e-005 0.86302418 -0.50242412
73431250 0.8653608 -0.49951792 1.8817069e-005 2.9583965e-005 2.4875448e-005 1.5150625e-005 0.85908914 -0.50962573
74675000 0.86114109 -0.50659114 -9.1943102e-006 2.8555263e-005 2.5787682e-005 3.4540768e-005 0.8538081 -0.51781017
75918750 0.85577178 -0.51411641 -7.501957e-006 4.897761e-005 2.4103278e-005 4.7828541e-007 0.84961081 -0.52550846
77162500 0.85155332 -0.52205694 1.6408296e-005 3.2475866e-005 1.4824857e-005 4.5398505e-005 0.84432453 -0.53368318
78406250 0.8477385 -0.52971268 3.8782902e-005 4.3531832e-005 -1.3112457e-006 3.9638555e-005 0.83951491 -0.54118556
79650000 0.84282106 -0.53698659 8.0497175e-006 6.1367595e-005 2.8027449e-005 2.1257965e-005 0.83450222 -0.54885668
80893750 0.83802831 -0.54339957 5.0194769e-005 2.8100072e-005 1.8435625e-005 3.8738981e-005 0.83032095 -0.55628461
82137500 0.83281702 -0.55162144 1.4153239e-005 4.6258378e-005 2.1204789e-005 2.5099271e-005 0.82438815 -0.56371725
83381250 0.827896 -0.55886215 6.6148015e-005 4.6048634e-005 3.436338e-005 4.1615698e-005 0.81909603 -0.57133353
84625000 0.82345134 -0.56674308 4.7534828e-005 1.8241658e-006 5.0015118e-005 5.2129129e-005 0.81449789 -0.57809019
85868750 0.81769812 -0.57366979 5.6716082e-005 2.8674591e-005 5.4406606e-005 6.3311047e-005 0.80895138 -0.58640838
87112500 0.81294662 -0.58022195 5.9522525e-005 7.0349088e-005 2.4198416e-005 5.8510112e-005 0.80371106 -0.59271055
88356250 0.80781627 -0.58791751 4.9569677e-005 6.7005203e-005 6.3702013e-005 3.8878861e-005 0.7984252 -0.60041094
89600000 0.80271763 -0.59467018 4.187744e-005 5.2676281e-005 3.4067001e-005 5.5056509e-005 0.79310954 -0.60772884
90843750 0.79766947 -0.60181975 5.5616987e-005 9.2058377e-005 6.8393711e-005 8.3117018e-005 0.7867884 -0.61436403
92087500 0.79136062 -0.60889429 8.7296867e-005 8.3109568e-005 6.8192654e-005 5.6159788e-005 0.78131765 -0.62170219
93331250 0.78633761 -0.61563003 7.1672504e-005 6.5243672e-005 4.6278041e-005 5.7472924e-005 0.7759558 -0.62872934
94575000 0.78061205 -0.62287033 7.1262999e-005 0.00010239324 8.0745289e-005 8.8165827e-005 0.77008456 -0.63596362
95818750 0.77544004 -0.62911141 6.2108491e-005 8.3444022e-005 4.6111407e-005 0.0001046258 0.76422995 -0.64274025
97062500 0.76973915 -0.63581753 0.00011437733 9.6736905e-005 8.7527107e-005 6.1056358e-005 0.75916338 -0.64942914
98306250 0.76396441 -0.642425 7.0833892e-005 0.00013428359 0.00013522357 0.00011329631 0.75261849 -0.65613037
99550000 0.75837636 -0.64967793 9.7062104e-005 0.00011370517 9.1231712e-005 0.00010990881 0.74617714 -0.66268134
100793750 0.75297123 -0.65594959 0.00014106277 0.0001274462 0.00011328269 0.00013195757 0.73984224 -0.66931885
102037500 0.7463578 -0.66284549 8.5127707e-005 0.00013088381 0.00014953384 0.00013402285 0.73429841 -0.67652553
103281250 0.74090421 -0.66899282 0.00012589472 0.00012286013 0.0001220948 0.00012440026 0.72787118 -0.68314832
104525000 0.73476201 -0.67559582 0.00014078883 0.0001232362 0.00015078078 0.00011735297 0.72178239 -0.68896788
105768750 0.72884947 -0.68212056 0.00013233467 0.00010349931 0.00015535818 0.00011816291 0.71550429 -0.6954276
107012500 0.72260028 -0.68855202 0.00015456359 0.00012802576 0.00016087214 0.00018999481 0.70922804 -0.70165247
108256250 0.71670425 -0.69504553 0.00019031881 0.00013369351 0.00016495129 0.00016623842 0.70307052 -0.70779145
109500000 0.70995945 -0.7011866 0.00014643228 0.00012572799 0.00019335275 0.00012971633 0.69626218 -0.7146042
110743750 0.70389253 -0.70735455 0.00020344247 0.00016574815 0.00021832259 0.00016972717 0.69015557 -0.72135973
111987500 0.69822574 -0.71343338 0.0002228216 0.00015437267 0.00018755616 0.00016537498 0.68373376 -0.72733372
113231250 0.69173819 -0.71954644 0.00021020067 0.00016316201 0.00020855236 0.00019827965 0.67682618 -0.73358536
114475000 0.68534136 -0.72547048 0.00023028138 0.00018947839 0.00024554553 0.00020708625 0.67038161 -0.73926812
115718750 0.67851841 -0.73134267 0.00023313098 0.00020278071 0.00024554625 0.00016745209 0.66325796 -0.7453593
116962500 0.67233855 -0.73746073 0.00025008677 0.00021545742 0.00023971351 0.00023021045 0.65697211 -0.75100636
118206250 0.6654495 -0.74336809 0.00028898398 0.00023715555 0.00030726273 0.00020035313 0.65008986 -0.75688565
119450000 0.65971065 -0.74939567 0.00029815658 0.00022356184 0.00026708821 0.00022886421 0.64327842 -0.7627629
120693750 0.65274614 -0.75469977 0.00030762533 0.00020891319 0.00031957106 0.00019832255 0.63625282 -0.76882577
121937500 0.64612222 -0.76016361 0.00033126783 0.00019805697 0.00033485272 0.00026502853 0.62879914 -0.77428156
123181250 0.63902378 -0.76609766 0.00036096221 0.00023686101 0.00034065486 0.00021430801 0.6223222 -0.77975553
124425000 0.63226378 -0.77132928 0.00040649829 0.0002479754 0.00034370943 0.00026546509 0.6151036 -0.78532743
125668750 0.62613648 -0.77700222 0.00037355744 0.00025815301 0.00034129282 0.0002242202 0.60737604 -0.79024911
126912500 0.61912668 -0.78240883 0.00040552256 0.00023916355 0.00040478876 0.00025344838 0.60077363 -0.7960605
128156250 0.6121642 -0.78750271 0.00040806571 0.00027974293 0.00044017978 0.00025748188 0.5933311 -0.80103397
129400000 0.60499161 -0.79276288 0.00047460274 0.00026007954 0.00047457419 0.00028285786 0.58553433 -0.80679137
130643750 0.59817266 -0.79782563 0.00046839187 0.00028791875 0.00050025218 0.0003357208 0.57873529 -0.81184018
131887500 0.59066254 -0.80362809 0.0005191965 0.00033290582 0.00051629671 0.00033154018 0.57096958 -0.81717235
133131250 0.58414751 -0.80820584 0.00053980888 0.0003018326 0.00052715506 0.00032093088 0.564125 -0.82180029
134375000 0.57650155 -0.81381881 0.00059330848 0.00035366387 0.00060232286 0.00030748453 0.55641174 -0.82677579
135618750 0.56992471 -0.81832874 0.00059035001 0.00032811132 0.00057824655 0.00034078897 0.5489226 -0.83216709
136862500 0.56196374 -0.8228389 0.0006269833 0.00036213553 0.00060976972 0.0003413072 0.54138803 -0.83650368
138106250 0.55543244 -0.82842308 0.00061914709 0.00035452718 0.00064692518 0.00034250465 0.53430086 -0.8420018
139350000 0.54823214 -0.83232349 0.00067697011 0.00037953132 0.00065695809 0.00034092317 0.52617693 -0.84606421
140593750 0.54072666 -0.83768857 0.00071936636 0.00035381643 0.00075509545 0.00041680809 0.51882356 -0.85136378
141837500 0.53221953 -0.8424381 0.0007407071 0.00041973262 0.00079383416 0.00038544621 0.51097548 -0.85569263
143081250 0.52560997 -0.84697258 0.00080133346 0.00037641521 0.00080965442 0.00037114884 0.5030663 -0.85981727
144325000 0.51801974 -0.85157335 0.00083804125 0.00040758579 0.00086693949 0.00037906977 0.49511144 -0.86492145
145568750 0.51036525 -0.85603076 0.00088372955 0.00037427328 0.00086387305 0.00041073209 0.4871521 -0.86825585
146812500 0.50331986 -0.85984302 0.00095747196 0.00042465262 0.00093484292 0.00040294664 0.47988111 -0.87220633
148056250 0.4949114 -0.86413866 0.00097768707 0.00042970199 0.00098330528 0.00044536919 0.4715701 -0.87701869
149300000 0.48770317 -0.86847448 0.0010072947 0.00047154672 0.0010203195 0.00042786353 0.46361029 -0.88135535
150543750 0.47895849 -0.8731705 0.0010729368 0.000466208 0.0010690287 0.00045007264 0.45668596 -0.88531637
151787500 0.47246051 -0.87673956 0.0011147987 0.00048337938 0.0011090332 0.00050555659 0.44802058 -0.88986498
153031250 0.46495706 -0.88194436 0.0011603821 0.00045549893 0.0011349098 0.00049115019 0.43968546 -0.89351535
154275000 0.45619851 -0.8852036 0.0012199087 0.0004629569 0.0011864174 0.00047045268 0.43219647 -0.8975665
155518750 0.44954842 -0.88868976 0.0012660222 0.00049631175 0.0012928356 0.0004762382 0.42323852 -0.90214849
156762500 0.44143933 -0.89216357 0.0012961214 0.0004902287 0.0013366432 0.0004712439 0.4149783 -0.90534973
158006250 0.43337893 -0.89720112 0.0013626493 0.00048354833 0.0013838578 0.00052821409 0.40734807 -0.90811408
159250000 0.42526424 -0.90037251 0.0014835995 0.00045567428 0.0014661943 0.00051379559 0.39743102 -0.91242087
160493750 0.41785866 -0.90440607 0.0014827462 0.00055124826 0.0015435334 0.00052371965 0.39102557 -0.91609257
161737500 0.40924734 -0.90717101 0.0015241356 0.00052294286 0.0015717314 0.00051655795 0.38249618 -0.9188689
162981250 0.40093493 -0.91132748 0.0016326269 0.00052431464 0.0016471237 0.00050759956 0.37472641 -0.92164975
164225000 0.39349931 -0.91391712 0.0016660948 0.00053379085 0.0016590098 0.00053374702 0.36623353 -0.9246797
165468750 0.38528836 -0.91799647 0.0017310871 0.00055249163 0.0017746417 0.00053092389 0.35783309 -0.92839205
166712500 0.3774575 -0.92096555 0.0018281306 0.0005337816 0.0018090387 0.00058771932 0.34982023 -0.93085045
167956250 0.36909282 -0.92357177 0.001938461 0.00056725793 0.0019090673 0.00057565724 0.34035185 -0.93434685
169200000 0.36059552 -0.92743021 0.0020157374 0.00056981627 0.0020445897 0.00052927673 0.33218151 -0.93662423
170443750 0.35174176 -0.93031383 0.0020337792 0.00055916474 0.0020742984 0.00053808762 0.32307735 -0.93989557
171687500 0.34495854 -0.93202478 0.0021087637 0.00053751667 0.002162131 0.00053901807 0.31520215 -0.94396597
172931250 0.33718416 -0.93703872 0.0022247271 0.00053132861 0.0022379542 0.00057942473 0.306555 -0.94482911
174175000 0.32861963 -0.93892634 0.0023249744 0.00055887958 0.0022830172 0.00056713948 0.29745188 -0.94725019
175418750 0.32095945 -0.94148958 0.0024382926 0.0005441634 0.0024053261 0.00057042128 0.28885663 -0.95125514
176662500 0.31176299 -0.94416463 0.0025216732 0.0005686254 0.0025473628 0.00058724877 0.28149238 -0.95441139
177906250 0.3032338 -0.94684041 0.002566796 0.00057480874 0.0025705965 0.0005450655 0.27243185 -0.9556644
179150000 0.29520762 -0.94973677 0.0026711146 0.00056109321 0.002650229 0.00051223108 0.26420188 -0.95753241
180393750 0.28716782 -0.95306623 0.0028197281 0.00052698684 0.0027955496 0.00051385263 0.25536871 -0.959786
181637500 0.27781022 -0.95412123 0.0028446221 0.00054658949 0.0028380253 0.00048336352 0.24655791 -0.96121716
182881250 0.27057439 -0.95612019 0.0029697947 0.00051535777 0.0030248917 0.00055496441 0.23817065 -0.96496058
184125000 0.26175991 -0.95791173 0.0030845462 0.00051003473 0.0031144677 0.00056576048 0.22882664 -0.9665159
185368750 0.2534301 -0.96078295 0.0032006053 0.00048218408 0.0031984749 0.00048658985 0.22012724 -0.96882719
186612500 0.24432276 -0.96212113 0.0033874614 0.0004967869 0.0033180432 0.00050864054 0.21125996 -0.96960944
187856250 0.23570547 -0.96538776 0.0034639065 0.00043723997 0.0034288587 0.00048441286 0.20200069 -0.97218138
189100000 0.22791685 -0.9674949 0.0036013762 0.00050438999 0.003544719 0.00045660386 0.19418794 -0.97418344
190343750 0.21842775 -0.96986181 0.0037436085 0.00040403337 0.0036959588 0.000431408 0.18523544 -0.97510594
191587500 0.21184133 -0.97135448 0.0037586729 0.00044693734 0.0037884244 0.00044055493 0.17605633 -0.97646672
192831250 0.20339374 -0.97257107 0.003871731 0.00041024 0.0039737388 0.00048074435 0.16841309 -0.9782815
194075000 0.19338624 -0.97440708 0.0040646181 0.00040026158 0.0040999027 0.00035274532 0.15894867 -0.98106331
195318750 0.18551004 -0.97576201 0.004176734 0.00035895137 0.0041841101 0.00040559031 0.1514014 -0.98048353
196562500 0.1769495 -0.97778773 0.0043800897 0.000294778 0.00433779 0.00034366621 0.14123411 -0.98299843
197806250 0.16885464 -0.97905111 0.0045040888 0.00036565325 0.0044719945 0.00030855322 0.13279526 -0.98334777
199050000 0.15952373 -0.97964936 0.0046536908 0.00024127195 0.0046135369 0.00026581177 0.1228178 -0.98500276
200293750 0.15097204 -0.98013598 0.0047712261 0.00023801484 0.0047899699 0.00030074266 0.11523233 -0.98556012
201537500 0.14258739 -0.98253959 0.0049557914 0.00022240639 0.0048780045 0.00018057969 0.10539877 -0.98643464
202781250 0.13340478 -0.98409998 0.005081119 0.00014604011 0.0050975303 0.0001867239 0.097394235 -0.98601878
204025000 0.12559889 -0.98398501 0.0052743149 0.00014211815 0.0052597569 0.00013325945 0.087976575 -0.9874177
205268750 0.11621872 -0.98567408 0.0053948592 8.5124484e-005 0.0054222397 8.9742374e-005 0.078844093 -0.98789638
206512500 0.10737184 -0.98735422 0.0055846279 2.1517013e-005 0.005555531 6.0442726e-005 0.069705479 -0.98943025
207756250 0.098366767 -0.9864834 0.0057379506 -2.0407846e-005 0.00573869 -5.5710381e-005 0.060750812 -0.99026382
209000000 0.090844624 -0.98960638 0.0060014948 -8.9290144e-005 0.0059164912 -7.3113537e-005 0.053068787 -0.99070764
210243750 0.081327729 -0.98913455 0.0061332383 -0.00017171477 0.0061335317 -0.00013246149 0.042995155 -0.99040979
211487500 0.073875815 -0.99087048 0.0063115605 -0.00019227994 0.0063243783 -0.00015758636 0.034336373 -0.99045151
212731250 0.06455113 -0.98979151 0.0064870832 -0.00021022187 0.0064106854 -0.00022595805 0.026050627 -0.99180275
213975000 0.055524588 -0.98997754 0.0066677034 -0.00028185028 0.006691067 -0.00031392992 0.016966818 -0.98972815
215218750 0.046907235 -0.9914102 0.0068395799 -0.00039919352 0.0068619857 -0.00036131428 0.0073119779 -0.99078029
216462500 0.038681991 -0.99068379 0.0070070345 -0.00047688794 0.0070829494 -0.00045710956 -0.00095394586 -0.98998606
217706250 0.029945724 -0.99018097 0.0072477176 -0.00055302016 0.0072627258 -0.00055134069 -0.0093499776 -0.98968124
218950000 0.020288464 -0.99190009 0.0074875583 -0.0006096774 0.0074451095 -0.00053855526 -0.017518671 -0.99020767
220193750 0.012528447 -0.99053055 0.0076592797 -0.0007045496 0.0076689264 -0.00069813005 -0.026805768 -0.98971403
221437500 0.00373618 -0.9909417 0.0079063354 -0.0007881124 0.0079071466 -0.00074403291 -0.036348589 -0.99062186
222681250 -0.0050460664 -0.99058676 0.0080706626 -0.00090115343 0.0080518434 -0.00085808733 -0.045837466 -0.98860085
223925000 -0.013020623 -0.99052656 0.00830469 -0.00099007459 0.0083272774 -0.00099295459 -0.054852366 -0.98890209
225168750 -0.022427456 -0.99001253 0.0085620321 -0.0011206262 0.0085744904 -0.0011404762 -0.063340195 -0.98732883
226412500 -0.030475717 -0.99033886 0.0088062491 -0.0011103288 0.0087960279 -0.0011851448 -0.071647547 -0.98626757
