# Hz S RI R 50
385000000	-0.398971470987866	-0.883643755892195	1.67401355590103E-03	-8.60931325462769E-04			1.66500526077977E-03	-8.28713314590581E-04	-0.41961890100127	-0.893562220163634
385125000	-0.400829756303537	-0.882940615279413	1.70185338584038E-03	-8.10051054337276E-04			1.7121695735825E-03	-8.10160016145181E-04	-0.421489333797089	-0.891657007905755
385250000	-0.401190509299123	-0.882965714166553	1.75501968685628E-03	-8.36805587303591E-04			1.81146794312416E-03	-8.01445591775068E-04	-0.419012525599754	-0.892658166566847
385375000	-0.400647194066169	-0.881063024796514	1.72588708538578E-03	-7.87495822442386E-04			1.7337086151315E-03	-8.90353863819997E-04	-0.422998614147483	-0.893664850210538
385500000	-0.401638657150584	-0.882999178602947	1.73497648366976E-03	-8.55517740541933E-04			1.76508488557915E-03	-9.27906091863518E-04	-0.425646483844054	-0.891220813700838
385625000	-0.401618904117562	-0.881259848369753	1.76257874552345E-03	-8.64182804239984E-04			1.71374414991346E-03	-9.1518691138559E-04	-0.42520696260599	-0.890877870744153
385750000	-0.402802549008538	-0.881061949711098	1.77442273608078E-03	-9.21633034689782E-04			1.70717398111421E-03	-9.63246061467517E-04	-0.424264162988855	-0.887935289168738
385875000	-0.402767749171088	-0.880364881759673	1.84545053053584E-03	-9.23706178001007E-04			1.72764858382653E-03	-9.41987769025078E-04	-0.424608550356218	-0.890843255948149
386000000	-0.404023287623782	-0.881680197978647	1.71310084146627E-03	-9.87386100698003E-04			1.72504494634773E-03	-9.50717754478098E-04	-0.426354247514418	-0.889064368725444
386125000	-0.406242408745928	-0.881124633339761	1.64874084450377E-03	-9.44412108928202E-04			1.75254402071752E-03	-9.12771402755869E-04	-0.428055242661194	-0.889069292411631
386250000	-0.404766537563523	-0.878559140088316	1.77190241639631E-03	-9.98924359587486E-04			1.65918334669048E-03	-9.3886033560509E-04	-0.426831535160609	-0.888628324924753
386375000	-0.407616302091887	-0.880741729744379	1.65896359416123E-03	-1.05011927239336E-03			1.69436831848934E-03	-1.02183921288818E-03	-0.42714938576622	-0.886670073512847
386500000	-0.406366481316477	-0.877412464252644	1.66117406521168E-03	-1.03065389456093E-03			1.57938748268627E-03	-1.02879039487342E-03	-0.426427437342928	-0.886155488766062
386625000	-0.40717967637469	-0.877664337006222	1.61781029440485E-03	-1.04706069695262E-03			1.6655724844679E-03	-1.00140153354018E-03	-0.427312392647506	-0.888223921031648
386750000	-0.407704247282992	-0.878823992348268	1.59438374588145E-03	-9.65482992966363E-04			1.62479353523144E-03	-9.04739724020152E-04	-0.427687230114582	-0.888055184554509
386875000	-0.408418443775453	-0.878193318356174	1.65293174678944E-03	-9.5840577024683E-04			1.63892161975115E-03	-9.96447965495246E-04	-0.429041110135364	-0.889051874731184
387000000	-0.410992335273493	-0.878478375153838	1.65752168071804E-03	-9.7306346881099E-04			1.58792994903505E-03	-1.02877087010847E-03	-0.43078955232316	-0.887273559800395
387125000	-0.410176407027205	-0.876401134466104	1.63480681055974E-03	-9.73576473421064E-04			1.63720154780979E-03	-1.04965155681812E-03	-0.430591109241072	-0.890320206163164
387250000	-0.410329852352768	-0.876790345571292	1.51093592934506E-03	-9.06028898629511E-04			1.56693042339095E-03	-9.59632130192231E-04	-0.433082798965768	-0.891005330413341
387375000	-0.410863598516667	-0.875718621902624	1.6190179982562E-03	-9.56050056396169E-04			1.59001331017322E-03	-9.71389454773862E-04	-0.435057479054011	-0.885934998631245
387500000	-0.412997657450389	-0.874902148685769	1.54781090820897E-03	-9.12819233687478E-04			1.53997499555556E-03	-9.72806274861197E-04	-0.431882894034652	-0.886897526498313
387625000	-0.413774428416145	-0.876775379045597	1.66335443574306E-03	-9.33424159915215E-04			1.6145410007513E-03	-1.0036097397024E-03	-0.433044596526538	-0.885836978858686
387750000	-0.41272393956609	-0.876231420936675	1.6400724591602E-03	-1.00868741689061E-03			1.61985628786769E-03	-1.04474674089571E-03	-0.435713388700235	-0.884060194196178
387875000	-0.41451332438583	-0.876012229238144	1.58572387829115E-03	-1.05366612190139E-03			1.56322344588395E-03	-9.86893785677959E-04	-0.436846140334375	-0.885489498693087
388000000	-0.414907404667301	-0.877272052069275	1.68557897847609E-03	-1.02528923516592E-03			1.56542974398869E-03	-9.90860432911405E-04	-0.436465479473301	-0.884291460128022
388125000	-0.417031127718788	-0.875880012476485	1.68587121494828E-03	-1.01285510176554E-03			1.63937393972814E-03	-1.08194874367693E-03	-0.436389522774381	-0.882907229431501
388250000	-0.417780560317371	-0.875344459835777	1.59605913031414E-03	-1.11255122001706E-03			1.67344657109755E-03	-1.07879812210615E-03	-0.436638596219272	-0.88321446267709
388375000	-0.418603476337483	-0.876218166799239	1.58825679862374E-03	-1.07376271895048E-03			1.65464164653175E-03	-1.10357535436883E-03	-0.438063841239536	-0.885219729945523
388500000	-0.418520724834844	-0.870448833608534	1.44473969275159E-03	-1.11423451023674E-03			1.49268062898504E-03	-1.08222211893163E-03	-0.438964926594158	-0.882804468870119
388625000	-0.417474208718737	-0.873268794110251	1.50615545017954E-03	-1.01033095513799E-03			1.53204470446031E-03	-1.06748412082027E-03	-0.438570246355009	-0.882451124215757
388750000	-0.418229647781434	-0.872407064187913	1.54281766857156E-03	-1.12821723245797E-03			1.54855785888097E-03	-1.10457066968625E-03	-0.442450686919519	-0.882744434102802
388875000	-0.420159827840864	-0.873821091843583	1.40974604294752E-03	-9.80666664690438E-04			1.57192664188474E-03	-1.08057798496906E-03	-0.441127798241109	-0.88262934377379
389000000	-0.420015275517045	-0.872427096685054	1.5049747638377E-03	-9.75592710174625E-04			1.45645237637212E-03	-1.04567349827021E-03	-0.439022376393601	-0.880578949861873
389125000	-0.421152714132145	-0.872827151466747	1.56015744449001E-03	-1.08003069957976E-03			1.51652336373589E-03	-1.07558905631189E-03	-0.441942922237479	-0.882777950670487
389250000	-0.420763356739098	-0.871751767551698	1.39154148487703E-03	-9.30018979685714E-04			1.45828062045433E-03	-1.02808122225603E-03	-0.441607435686001	-0.883420980316583
389375000	-0.421546612750404	-0.871840592901128	1.51884384920596E-03	-1.02917384257663E-03			1.52402899270637E-03	-1.01278559356301E-03	-0.443602106327964	-0.882045018284347
389500000	-0.423038375498615	-0.870869793432286	1.46840780799993E-03	-1.06596009413485E-03			1.52950305688577E-03	-1.0251091550297E-03	-0.445728892396991	-0.878912716641768
389625000	-0.424645923455238	-0.872913873908752	1.46290706410115E-03	-1.00615031286515E-03			1.48707272818544E-03	-1.07280911456877E-03	-0.445393907220958	-0.880188646807082
389750000	-0.424871317068095	-0.869779689781755	1.41831374747219E-03	-1.06215339035444E-03			1.39346126055175E-03	-1.00493711488114E-03	-0.445650214816533	-0.881752452279818
389875000	-0.426075597304597	-0.871584697230161	1.49543617406712E-03	-9.77769007573404E-04			1.46340023219462E-03	-1.07038441063575E-03	-0.44879571231394	-0.87880396545052
390000000	-0.426871335688047	-0.868472225828057	1.50843616418659E-03	-1.06220703920337E-03			1.45975660376756E-03	-9.93873220491696E-04	-0.448052495692556	-0.878997701947808
390125000	-0.427372452327765	-0.867760180738879	1.55021768495811E-03	-1.0001553192225E-03			1.50705755884745E-03	-1.05374204674468E-03	-0.449130121378036	-0.879811755585103
390250000	-0.428104979232737	-0.868872216005257	1.50367985045988E-03	-1.12412696793702E-03			1.4039123276061E-03	-1.17565161352526E-03	-0.449094725138986	-0.876850115568188
390375000	-0.426956524349438	-0.87118732258683	1.45608460653181E-03	-1.02473759441784E-03			1.43706312296087E-03	-1.0463822329191E-03	-0.451603856252728	-0.879720392606585
390500000	-0.42954652555829	-0.865966274742938	1.38002759774682E-03	-1.0411142044081E-03			1.49907194551501E-03	-1.11049065689364E-03	-0.450744225277859	-0.877806578398043
390625000	-0.430770494733192	-0.868456967006924	1.53906547949829E-03	-1.1211632025915E-03			1.42772829027799E-03	-1.14784957042361E-03	-0.450828600594506	-0.875867051854812
390750000	-0.431581709638174	-0.868625938415897	1.37901796839822E-03	-1.0614248828834E-03			1.42422707707997E-03	-1.04708113600261E-03	-0.453116581511537	-0.876451227447212
390875000	-0.431442814372651	-0.868631377367136	1.45629065001452E-03	-1.03929821799069E-03			1.36011041915007E-03	-1.06015704313912E-03	-0.453041086842183	-0.876868519626761
391000000	-0.430819608427494	-0.866064784500919	1.34540046333066E-03	-1.00880619823901E-03			1.39575586726376E-03	-9.85640807686279E-04	-0.453376353632951	-0.878101307989657
391125000	-0.432516889996779	-0.867083425064113	1.38034410284646E-03	-9.89314252212943E-04			1.45134045731363E-03	-1.02709396314811E-03	-0.455370786856239	-0.875647700938698
391250000	-0.432865367247305	-0.866504152811656	1.34310576993843E-03	-9.9555552016413E-04			1.44924201525855E-03	-1.06565729443862E-03	-0.454525542888135	-0.876913209238436
391375000	-0.43454104411537	-0.866428388082674	1.39536507385843E-03	-9.62330786496365E-04			1.43337986746111E-03	-9.57425261219585E-04	-0.45614903922505	-0.875237444856958
391500000	-0.43609353068454	-0.866155578315246	1.41177222116965E-03	-9.57812037127104E-04			1.34200307375958E-03	-1.06995326131608E-03	-0.459025311234371	-0.87538083535656
391625000	-0.435087084303249	-0.866923129983429	1.35767197016749E-03	-9.36715218980002E-04			1.45026475726562E-03	-1.00570588843753E-03	-0.459183479302701	-0.873378914776065
391750000	-0.435536050764808	-0.866003312130419	1.48262163554442E-03	-9.31741899363491E-04			1.43197347060357E-03	-9.75456223609235E-04	-0.459031628873453	-0.874984070990237
391875000	-0.439710478818047	-0.867852521889557	1.54321104286146E-03	-9.65390441248712E-04			1.48510745215964E-03	-9.89568746209532E-04	-0.458842789625442	-0.874235466893383
392000000	-0.439925944005	-0.864439015640969	1.45150937358041E-03	-9.08265245939067E-04			1.43112248928703E-03	-1.01671828652122E-03	-0.461876929799112	-0.876854118229932
392125000	-0.441220692388806	-0.865312025603861	1.41717669258303E-03	-9.95333486813592E-04			1.48628743591605E-03	-9.26387686126405E-04	-0.460969730945059	-0.873390469784559
392250000	-0.441259230373855	-0.863270565378666	1.45374256631513E-03	-1.01338010354904E-03			1.44500190319672E-03	-9.96092109992265E-04	-0.46315492702962	-0.871590998977214
392375000	-0.441393522186124	-0.862822056776554	1.40988810073229E-03	-1.0303909153558E-03			1.39710413537281E-03	-9.86081372571342E-04	-0.465218865892726	-0.870574010796366
392500000	-0.442880201716593	-0.862846353177452	1.48053863625072E-03	-1.06955319046734E-03			1.41683866261123E-03	-9.89780335259316E-04	-0.465940145205799	-0.872293417602825
392625000	-0.44389233517475	-0.861210587193677	1.50503318434964E-03	-1.06200103813443E-03			1.37763069739161E-03	-1.03837926928895E-03	-0.466809445313685	-0.870302600889874
392750000	-0.444582431466758	-0.857403816489453	1.45054960568453E-03	-1.06256722442103E-03			1.34551624297205E-03	-1.11969562076885E-03	-0.46729007391599	-0.867554078031356
392875000	-0.442854607046911	-0.857363686270489	1.38133959874877E-03	-9.71840607407726E-04			1.43470507582997E-03	-1.02778367379802E-03	-0.469295739360485	-0.868567791625404
393000000	-0.444639647510245	-0.858472875287298	1.34352092632961E-03	-1.0752768305168E-03			1.38498339378787E-03	-1.00565068150211E-03	-0.471104955249746	-0.865315064345407
393125000	-0.444433546103564	-0.856098546420837	1.36084751427307E-03	-1.02772007283598E-03			1.40706351549524E-03	-1.05458241825975E-03	-0.470408671571352	-0.857615961496617
393250000	-0.444585546971382	-0.855216966511994	1.19685193678228E-03	-1.05250051188647E-03			1.28940362710731E-03	-1.07380619754485E-03	-0.461854275695784	-0.857699009653527
393375000	-0.442430358151401	-0.851467186149007	1.33691243354867E-03	-9.90568866765457E-04			1.24737020530537E-03	-9.46884759210554E-04	-0.458184031244544	-0.861283450111459
393500000	-0.437371142170213	-0.853186773342274	1.3199126920983E-03	-9.24058038567625E-04			1.29237750620368E-03	-9.56253178858222E-04	-0.460659454254458	-0.868228952566378
393625000	-0.440687333586364	-0.858223200634109	1.29472673941882E-03	-9.04314302016967E-04			1.36151733358116E-03	-9.98818674816616E-04	-0.463116250252066	-0.870329499415894
393750000	-0.440153372245504	-0.861630676494667	1.3876647893964E-03	-1.00063555714048E-03			1.33233284893909E-03	-9.53255243672744E-04	-0.464989161280318	-0.870141668722619
393875000	-0.444315151453001	-0.861275914100508	1.41046191247952E-03	-9.33263454819771E-04			1.37793074346392E-03	-9.41191098489239E-04	-0.467055490093603	-0.869935575562103
394000000	-0.445401066807604	-0.861408100522693	1.42588330805902E-03	-8.95512841821102E-04			1.4127280599255E-03	-9.28323400923279E-04	-0.468064984267174	-0.872205430931798
394125000	-0.447132276452637	-0.861156879837291	1.35196094977386E-03	-8.96151953421361E-04			1.33910786216102E-03	-9.46283802731606E-04	-0.470909964626245	-0.869021882702222
394250000	-0.448513482625134	-0.861125083200661	1.36830033485586E-03	-9.72078303220396E-04			1.34391570264202E-03	-9.69536582380893E-04	-0.469702382300522	-0.87170464464208
394375000	-0.449005272167023	-0.861030140704985	1.37707401446229E-03	-9.14093657455086E-04			1.40031796680372E-03	-9.51362690485685E-04	-0.47184144761195	-0.867095895257278
394500000	-0.45118805134112	-0.862132639155173	1.42721152197545E-03	-9.18919957643704E-04			1.45556556029353E-03	-1.02073061053989E-03	-0.473368644748553	-0.86799528217848
394625000	-0.451614099421251	-0.859841250128768	1.47969118466882E-03	-9.42515184657751E-04			1.45698609734766E-03	-9.3362013524833E-04	-0.473474317173021	-0.86856695639261
394750000	-0.450831719625736	-0.858735700930946	1.42342648512093E-03	-9.30723308383248E-04			1.35115345711979E-03	-1.00860942895964E-03	-0.474967913217787	-0.867924836770663
394875000	-0.454409242629491	-0.857595512982384	1.34594093889579E-03	-9.19668314040865E-04			1.3968238439328E-03	-9.31851057760427E-04	-0.477628131164426	-0.868699956865485
395000000	-0.455227695924273	-0.858406767450545	1.40178087581398E-03	-9.48621912499376E-04			1.47207506444024E-03	-9.50613922389284E-04	-0.477251153517054	-0.867168924092507
395125000	-0.456414545388914	-0.856683279572976	1.38460873758748E-03	-9.07142871717492E-04			1.42162056608703E-03	-9.107231176201E-04	-0.477812292638432	-0.8650280517002
395250000	-0.457075040437467	-0.857207895994511	1.37676788665734E-03	-9.51702708166241E-04			1.42249608333959E-03	-9.16713830403338E-04	-0.478449398481918	-0.863231569443173
395375000	-0.457499547924672	-0.856842468240545	1.37049263124222E-03	-9.58215332221307E-04			1.37054047980932E-03	-9.29999873098797E-04	-0.478499233810486	-0.865626299743149
395500000	-0.45740660862472	-0.855402709457172	1.42207260797973E-03	-9.30780714699091E-04			1.4105426993469E-03	-9.15348455086956E-04	-0.48118571113496	-0.864518699620232
395625000	-0.459350274252394	-0.856669355235308	1.37901356059918E-03	-9.24489146654538E-04			1.40641003615894E-03	-9.50968078477612E-04	-0.479091799485618	-0.862201919749888
395750000	-0.458834159795121	-0.856096967094634	1.39130527215474E-03	-9.73470601022965E-04			1.42102214243727E-03	-1.01149643278635E-03	-0.483479182883194	-0.863796667992092
395875000	-0.459415963271342	-0.854097505847139	1.39153621489242E-03	-8.94455719308527E-04			1.35650197689076E-03	-9.30087188305376E-04	-0.482666587316401	-0.863833423346624
396000000	-0.459988228285088	-0.853754942104236	1.39101211667286E-03	-9.63324312845434E-04			1.39893266638512E-03	-9.95505823964117E-04	-0.485941251167673	-0.862382481585661
396125000	-0.463209046417016	-0.852891918891492	1.42381147776202E-03	-9.10259382667881E-04			1.45104586459684E-03	-1.01617538280568E-03	-0.483353356191378	-0.860009587930046
396250000	-0.462148815637523	-0.855385654933716	1.43667482764329E-03	-9.36559226876153E-04			1.45529835504032E-03	-8.48254370116516E-04	-0.486067124391147	-0.860451370423342
396375000	-0.466361645369103	-0.853390333366526	1.45557585517525E-03	-9.06770368837043E-04			1.41461366463183E-03	-9.78721184244042E-04	-0.488085308095132	-0.862500819996269
396500000	-0.465232719714733	-0.851732533758616	1.45078719291746E-03	-9.63348483426397E-04			1.46226477175857E-03	-9.76240392755729E-04	-0.488975087593246	-0.861465555822061
396625000	-0.466241530359119	-0.853843303527564	1.40723596160684E-03	-9.40460751901706E-04			1.44398593503674E-03	-9.42409999990929E-04	-0.489781846611096	-0.861085216919176
396750000	-0.467190419602666	-0.851759432896705	1.45083476437335E-03	-9.58903046489772E-04			1.44316892243895E-03	-1.0049097267829E-03	-0.489453252917859	-0.859919925762079
396875000	-0.467354049545104	-0.851082876540869	1.34312681448474E-03	-9.26968782786618E-04			1.42295058236435E-03	-9.56235733000045E-04	-0.490420630921581	-0.85972802026999
397000000	-0.466938595965835	-0.852095929600819	1.43112683269587E-03	-9.46654572278048E-04			1.44504690788335E-03	-9.5057824393626E-04	-0.491212870142984	-0.859770470238065
397125000	-0.46930725908229	-0.849393308815264	1.44127719939708E-03	-9.24545056819817E-04			1.48084035786474E-03	-9.32722147775371E-04	-0.491705309794117	-0.858751083336204
397250000	-0.470690550572727	-0.850697087522503	1.4407855954415E-03	-9.18839044878436E-04			1.39450157884198E-03	-9.41227079837885E-04	-0.491401231651924	-0.857777758891404
397375000	-0.470684455065455	-0.849568591271714	1.3759228000502E-03	-9.81513779877203E-04			1.50978980761866E-03	-9.26055302642364E-04	-0.493002529621914	-0.85768632789319
397500000	-0.470556010591649	-0.84801537221468	1.46886716161325E-03	-9.08434329817492E-04			1.44152219941283E-03	-1.03602544577153E-03	-0.496116890289533	-0.857829204653041
397625000	-0.472537109811991	-0.849714977511863	1.48868032882544E-03	-9.30341999136318E-04			1.44781810301342E-03	-9.6904197202951E-04	-0.49508627661183	-0.856185346547046
397750000	-0.471950864371161	-0.848112492084176	1.52479649162536E-03	-1.0216188701092E-03			1.48022819496514E-03	-9.62341219839173E-04	-0.496253262794909	-0.856840042600297
397875000	-0.473880515383363	-0.849197586446032	1.47722402960558E-03	-1.00026528563775E-03			1.50309550033434E-03	-9.55102329309539E-04	-0.498179191984005	-0.855720405187853
398000000	-0.47515149264177	-0.846782440668749	1.44234441086751E-03	-1.00673836107474E-03			1.57911522638372E-03	-9.21984872816296E-04	-0.498700922860564	-0.855087266452752
398125000	-0.477200460098958	-0.847240451576053	1.50011698270235E-03	-1.02804346143018E-03			1.46996650566042E-03	-1.03039623994847E-03	-0.498149307847445	-0.854798617372161
398250000	-0.476379088218372	-0.846930983290857	1.46453967740981E-03	-9.73862843528658E-04			1.48919441379839E-03	-9.90131785237716E-04	-0.499781540004203	-0.853536629158784
398375000	-0.477944676742873	-0.844236912831676	1.54606011693139E-03	-1.01875865042163E-03			1.45471761267808E-03	-9.16791624230459E-04	-0.499276436719443	-0.852022440658424
398500000	-0.47760041816867	-0.845485313059043	1.53681143497273E-03	-1.04522766196101E-03			1.52917681535905E-03	-1.00603767706208E-03	-0.502171223312202	-0.852995995763934
398625000	-0.477479997488684	-0.84529586692319	1.47608653775959E-03	-1.00830204562254E-03			1.45535634276921E-03	-1.03116737456458E-03	-0.504624287464409	-0.852998690720655
398750000	-0.480316812363368	-0.843704424423163	1.43380116636903E-03	-9.57819769229711E-04			1.47626999017236E-03	-1.01687865493934E-03	-0.503455347762166	-0.851858743074822
398875000	-0.479982447606076	-0.842671993437541	1.46462091280054E-03	-9.97129211248066E-04			1.48625710026252E-03	-1.07662011888103E-03	-0.505125042838802	-0.851156354657623
399000000	-0.480457950541557	-0.844540250097641	1.4650109919532E-03	-9.76141452813166E-04			1.60009152846631E-03	-1.02555797861815E-03	-0.503514532380534	-0.852253757260693
399125000	-0.481704222106081	-0.8432117691045	1.45480636811316E-03	-1.01992367422108E-03			1.48095691359531E-03	-1.01597705829504E-03	-0.50539678479702	-0.85056457648476
399250000	-0.483742663294894	-0.841327451151846	1.48479116961155E-03	-1.03012152439285E-03			1.44936351747549E-03	-1.05035798351602E-03	-0.504519514826248	-0.848715775614604
