!Agilent Technologies,E5071C,MY46104097,A.08.12
!Date: Wed Aug 16 11:23:37 2017
!Data & Calibration Information:
!Freq	S11:SOLT2(ON)	S21:SOLT2(ON)	S12:SOLT2(ON)	S22:SOLT2(ON)
# Hz S RI R 50
100000	1.004950e+000	9.576899e-003	-1.254825e-002	-6.917628e-003	5.206240e-004	5.125241e-003	9.796343e-001	2.751474e-003
1974938	9.998049e-001	8.217562e-003	8.691737e-004	-1.008060e-003	-1.605451e-003	2.291645e-003	1.017827e+000	-1.194106e-002
3849875	9.944476e-001	-1.302131e-002	1.318903e-003	-3.667390e-004	-9.535884e-003	-1.111499e-002	9.990848e-001	-1.628768e-002
5724813	1.002148e+000	-8.481369e-003	-2.410990e-003	6.215643e-003	-2.574660e-003	-1.589070e-003	9.920696e-001	3.760302e-003
7599750	1.002050e+000	-7.593749e-003	2.793768e-003	4.967199e-003	-3.843347e-003	-5.902244e-003	9.996232e-001	-1.859817e-002
9474688	1.001212e+000	-1.415821e-002	-2.579369e-004	1.111604e-003	-7.543131e-005	-1.430291e-004	9.943797e-001	-1.431972e-002
11349625	1.000952e+000	-1.913304e-002	2.013990e-004	2.290908e-004	-5.059309e-004	-2.542288e-005	9.948637e-001	-1.321532e-002
13224563	9.988086e-001	-1.113420e-002	-9.399635e-004	5.418362e-004	8.755951e-005	-3.808644e-004	1.008271e+000	-1.463992e-002
15099500	1.000151e+000	-1.808383e-002	-1.576122e-005	-5.263234e-004	1.429108e-004	-6.506721e-004	9.959377e-001	-1.328651e-002
16974438	9.917280e-001	-1.963258e-002	-8.440354e-004	4.938820e-005	-5.508429e-005	6.609241e-004	9.954754e-001	-2.108998e-002
18849375	1.001615e+000	-1.052165e-002	-8.851489e-004	6.257950e-004	1.031259e-003	1.736004e-004	1.001839e+000	-2.031199e-002
20724313	1.002834e+000	-2.232109e-002	3.214773e-004	-6.620992e-004	2.251183e-004	4.589763e-004	1.007714e+000	-1.555820e-002
22599250	1.000456e+000	-2.877893e-002	6.610926e-004	1.335687e-003	-9.019422e-004	1.289179e-003	9.999281e-001	-1.842712e-002
24474188	1.004628e+000	-2.649854e-002	3.768523e-004	-5.645501e-004	-2.156868e-004	4.884143e-004	1.000145e+000	-2.612781e-002
26349125	9.998324e-001	-2.470335e-002	-4.953329e-004	5.838429e-004	6.412208e-004	6.805111e-005	9.952741e-001	-2.935491e-002
28224063	9.987697e-001	-2.703010e-002	-4.251488e-004	-9.389877e-004	2.215266e-004	2.212824e-004	1.006401e+000	-2.431705e-002
30099000	9.969124e-001	-3.179166e-002	1.164429e-003	-1.101453e-003	5.647213e-004	1.466506e-004	9.980686e-001	-3.045317e-002
31973938	9.965912e-001	-3.442033e-002	-3.210594e-004	2.513139e-004	3.879676e-004	7.626735e-004	1.003899e+000	-3.527409e-002
33848875	1.008321e+000	-3.788215e-002	4.058971e-004	2.687998e-004	-1.930969e-004	2.012397e-004	9.952323e-001	-4.112056e-002
35723813	9.985278e-001	-3.034926e-002	-2.397702e-004	4.546309e-004	-2.258328e-004	-7.992200e-005	1.005096e+000	-4.164864e-002
37598750	9.978798e-001	-3.746018e-002	2.121277e-004	2.450067e-004	5.906003e-004	-3.883248e-004	1.000162e+000	-4.803823e-002
39473688	9.952703e-001	-3.665293e-002	-1.695985e-004	8.029984e-004	1.347029e-003	-3.184146e-004	9.971676e-001	-3.654915e-002
41348625	9.965602e-001	-4.138172e-002	-2.875399e-004	1.138604e-003	5.126083e-004	2.714295e-004	1.004127e+000	-3.814071e-002
43223563	9.901410e-001	-4.474721e-002	3.285286e-004	-4.410007e-004	-3.292763e-004	1.918538e-004	1.005275e+000	-4.071545e-002
45098500	9.928493e-001	-4.283495e-002	8.149319e-004	4.318386e-005	5.183414e-004	4.718839e-005	9.982211e-001	-5.069939e-002
46973438	9.969254e-001	-3.685513e-002	-4.310894e-004	1.589727e-004	-7.612872e-004	3.571392e-004	9.931472e-001	-4.822202e-002
48848375	9.963545e-001	-4.861097e-002	5.259523e-004	8.341333e-004	4.727905e-004	1.009781e-003	9.903653e-001	-4.870598e-002
50723313	9.954945e-001	-5.451628e-002	-9.346741e-004	-5.204331e-005	8.954135e-004	4.523596e-004	9.990764e-001	-5.273623e-002
52598250	9.994812e-001	-5.355922e-002	9.721543e-004	-4.071849e-005	-6.405783e-004	2.974788e-004	9.936492e-001	-4.762806e-002
54473188	9.927233e-001	-4.780206e-002	-3.887254e-004	1.056286e-003	-4.552239e-004	1.408765e-003	9.977401e-001	-5.898301e-002
56348125	9.925762e-001	-5.346397e-002	1.065221e-004	3.138961e-004	-1.222573e-004	3.156027e-004	1.004434e+000	-5.381583e-002
58223063	9.915883e-001	-5.929576e-002	-8.565445e-004	-2.136809e-005	-9.146402e-004	6.861614e-004	9.995385e-001	-5.258592e-002
60098000	9.958131e-001	-6.628748e-002	4.478602e-004	-9.734257e-004	9.493665e-004	-8.473227e-004	9.978604e-001	-5.849222e-002
61972938	9.943269e-001	-5.681274e-002	-7.961356e-005	1.771496e-004	6.959317e-005	7.569083e-004	9.986868e-001	-5.444916e-002
63847875	9.962279e-001	-7.006681e-002	-1.987922e-004	4.448856e-004	7.599922e-004	5.581408e-004	1.001085e+000	-6.717623e-002
65722813	9.999792e-001	-6.232280e-002	-1.811226e-004	-3.224140e-004	-6.493768e-004	9.647364e-006	9.984994e-001	-6.527141e-002
67597750	9.983024e-001	-6.307355e-002	5.215511e-004	-4.928365e-004	-2.475170e-004	-4.124608e-004	9.972720e-001	-6.640296e-002
69472688	9.966241e-001	-6.805921e-002	-4.576536e-005	-7.279195e-004	5.475451e-004	1.760057e-004	9.952331e-001	-7.168918e-002
71347625	1.003849e+000	-7.163550e-002	2.216763e-004	-7.230838e-004	-1.270019e-004	-7.268893e-004	9.949126e-001	-7.179368e-002
73222563	9.972164e-001	-6.980761e-002	6.196347e-004	-1.648397e-004	-8.628490e-004	-4.083801e-004	9.920092e-001	-6.927336e-002
75097500	9.932880e-001	-7.717269e-002	2.809549e-004	6.006979e-004	1.402094e-003	-5.187100e-004	9.975056e-001	-7.518100e-002
76972438	9.973034e-001	-6.881384e-002	1.357689e-004	2.710239e-005	-7.500314e-004	-5.280922e-005	9.976258e-001	-8.195867e-002
78847375	9.969334e-001	-7.733786e-002	3.226572e-004	3.585628e-005	-2.470690e-004	-2.182260e-004	9.939454e-001	-8.458993e-002
80722313	9.921539e-001	-7.802507e-002	4.358569e-005	5.982451e-004	-5.621569e-004	-5.671546e-004	9.963514e-001	-8.102311e-002
82597250	9.960008e-001	-8.197380e-002	-1.115580e-003	1.479929e-004	-4.598444e-004	-5.408481e-004	9.895173e-001	-8.088851e-002
84472188	9.965030e-001	-8.284570e-002	-1.007869e-004	7.209829e-004	3.382981e-004	-3.646966e-004	9.902725e-001	-9.028631e-002
86347125	9.954558e-001	-8.235658e-002	7.337819e-004	6.542030e-004	-9.037473e-004	-7.669403e-008	9.973115e-001	-8.849346e-002
88222063	9.960701e-001	-8.709561e-002	-7.654705e-004	4.066677e-005	2.412808e-004	-6.677298e-004	9.932677e-001	-8.617141e-002
90097000	1.000113e+000	-8.866811e-002	-1.414128e-005	5.366433e-004	-8.144038e-005	-6.985164e-005	9.988794e-001	-9.077065e-002
91971938	9.954210e-001	-9.114990e-002	5.755392e-004	9.376540e-004	-1.071739e-004	-1.673639e-004	9.932247e-001	-9.502470e-002
93846875	9.949115e-001	-9.432981e-002	-9.145289e-005	6.550656e-004	-5.859739e-005	-3.343339e-005	9.919064e-001	-9.192762e-002
95721813	9.966441e-001	-9.524518e-002	-4.789877e-004	6.327265e-004	-1.301142e-004	4.549094e-004	9.919893e-001	-9.502118e-002
97596750	9.866522e-001	-9.365038e-002	-1.732434e-004	-1.203879e-003	4.802297e-004	-7.204196e-005	9.918505e-001	-1.021869e-001
99471688	9.949150e-001	-9.336195e-002	-4.748178e-004	-1.125817e-004	8.717178e-004	-4.614223e-004	9.958783e-001	-1.039114e-001
101346625	9.951881e-001	-9.910278e-002	-5.732042e-004	1.029959e-003	1.784339e-004	-3.220088e-004	9.907455e-001	-1.035243e-001
103221563	9.927768e-001	-1.032350e-001	-5.590390e-004	8.896015e-004	-5.207385e-004	9.328113e-004	9.963272e-001	-1.079917e-001
105096500	9.906021e-001	-1.040794e-001	-6.225405e-004	-1.707076e-003	-4.167594e-004	2.415772e-004	9.934871e-001	-1.050547e-001
106971438	9.965017e-001	-1.065724e-001	4.273864e-004	2.086806e-004	-3.482716e-004	-4.832394e-004	9.953743e-001	-1.121319e-001
108846375	9.932708e-001	-1.051030e-001	-4.579342e-004	4.206935e-005	5.115736e-004	-1.739660e-003	9.944721e-001	-1.132685e-001
110721313	9.973343e-001	-1.052417e-001	3.870443e-004	7.405047e-004	3.233075e-004	6.149685e-004	9.926570e-001	-1.162075e-001
112596250	9.918458e-001	-1.109483e-001	1.897396e-003	2.141724e-004	-3.184253e-004	-3.573551e-005	9.908156e-001	-1.165086e-001
114471188	9.972488e-001	-1.095393e-001	-8.595524e-004	7.178222e-005	5.430871e-004	-7.247848e-005	9.938436e-001	-1.149070e-001
116346125	9.928559e-001	-1.082181e-001	-7.564732e-004	1.111632e-003	-1.041817e-003	-1.178452e-004	9.948064e-001	-1.210173e-001
118221063	9.933738e-001	-1.176254e-001	2.982463e-005	-3.623072e-005	1.983367e-004	-8.187129e-004	9.912143e-001	-1.219319e-001
120096000	9.891516e-001	-1.160227e-001	8.269820e-004	7.987087e-005	-2.908934e-004	3.202621e-004	9.856502e-001	-1.241705e-001
121970938	9.897009e-001	-1.165810e-001	-3.780217e-004	1.263886e-003	-1.727877e-004	2.488759e-004	9.930750e-001	-1.212991e-001
123845875	9.948084e-001	-1.167058e-001	-9.516007e-004	-5.589569e-004	2.573090e-004	-2.205939e-004	9.921615e-001	-1.273810e-001
125720813	9.876267e-001	-1.249036e-001	-5.936683e-004	2.811058e-004	2.454902e-004	2.462223e-004	9.909310e-001	-1.350219e-001
127595750	9.930456e-001	-1.219819e-001	1.034532e-003	8.048216e-004	6.337051e-005	2.325631e-005	9.914624e-001	-1.300276e-001
129470688	9.926900e-001	-1.285146e-001	-2.327193e-004	1.599285e-004	1.522168e-003	6.877836e-004	9.897869e-001	-1.301787e-001
131345625	9.863653e-001	-1.254901e-001	-1.011603e-004	-8.134354e-006	-5.612721e-004	2.662482e-004	9.910969e-001	-1.355991e-001
133220563	9.929142e-001	-1.341016e-001	-3.539736e-004	-9.542843e-004	-3.723893e-004	9.023093e-004	9.841514e-001	-1.340344e-001
135095500	9.914550e-001	-1.319447e-001	-4.153161e-004	-1.253984e-004	-1.013701e-003	2.094719e-004	9.895197e-001	-1.377219e-001
136970438	9.868079e-001	-1.351401e-001	1.258999e-004	-7.255110e-005	-5.635910e-004	7.859385e-005	9.878347e-001	-1.386528e-001
138845375	9.931864e-001	-1.388484e-001	8.578050e-004	-1.490922e-004	-1.330842e-003	-8.967311e-005	9.882125e-001	-1.388846e-001
140720313	9.952159e-001	-1.359189e-001	-7.529791e-004	-1.054511e-003	3.128368e-006	-5.716443e-004	9.889915e-001	-1.459147e-001
142595250	9.912460e-001	-1.388340e-001	2.463834e-004	-9.084748e-004	1.007314e-004	-1.357384e-003	9.910980e-001	-1.459756e-001
144470188	9.899994e-001	-1.418913e-001	1.208886e-003	-1.284162e-004	1.330342e-006	1.699366e-004	9.906698e-001	-1.515878e-001
146345125	9.891403e-001	-1.452658e-001	-1.119184e-004	1.217645e-004	-1.318433e-004	2.544980e-004	9.918455e-001	-1.481484e-001
148220063	9.893564e-001	-1.460874e-001	-1.574068e-004	6.721197e-004	-2.215093e-004	1.183055e-003	9.915419e-001	-1.521243e-001
150095000	9.913787e-001	-1.475975e-001	-4.421094e-004	3.436172e-004	6.872939e-005	-5.366212e-004	9.892921e-001	-1.592759e-001
151969938	9.846585e-001	-1.472322e-001	3.094372e-004	2.132187e-004	-7.963135e-004	-1.263617e-004	9.868063e-001	-1.462262e-001
153844875	9.845426e-001	-1.524329e-001	3.348953e-005	-6.339656e-004	-1.942897e-004	-3.273446e-004	9.897848e-001	-1.604692e-001
155719813	9.840242e-001	-1.580931e-001	-3.662270e-004	-9.065395e-005	1.974902e-004	3.973706e-005	9.852788e-001	-1.588101e-001
157594750	9.811232e-001	-1.523671e-001	-4.318027e-005	-3.553041e-004	6.720348e-004	3.203156e-004	9.763525e-001	-1.614956e-001
159469688	9.874645e-001	-1.494332e-001	-7.732534e-004	-4.284416e-004	-7.225878e-004	1.150965e-003	9.876677e-001	-1.585339e-001
161344625	9.819929e-001	-1.562667e-001	-6.903784e-004	-5.579595e-005	1.232769e-003	9.048625e-005	9.774857e-001	-1.641293e-001
163219563	9.840674e-001	-1.623880e-001	-1.083861e-003	-2.499662e-004	3.006975e-005	1.136450e-003	9.880954e-001	-1.639733e-001
165094500	9.815394e-001	-1.621029e-001	8.893778e-004	3.450752e-004	4.287396e-004	-3.441969e-005	9.823132e-001	-1.614932e-001
166969438	9.852743e-001	-1.682121e-001	1.097889e-003	9.064279e-004	1.675037e-003	2.966791e-005	9.827491e-001	-1.660597e-001
168844375	9.892979e-001	-1.570697e-001	-5.807246e-004	2.057744e-005	-6.382648e-004	8.886922e-004	9.877582e-001	-1.724859e-001
170719313	9.821877e-001	-1.694030e-001	-7.838852e-004	-2.596062e-005	-1.588395e-004	4.274469e-004	9.897668e-001	-1.704055e-001
172594250	9.845738e-001	-1.672907e-001	2.491289e-004	7.525140e-004	3.508068e-004	-1.070231e-004	9.852837e-001	-1.823302e-001
174469188	9.826483e-001	-1.703280e-001	-2.799613e-004	5.256563e-004	2.303566e-005	1.083894e-003	9.891860e-001	-1.781486e-001
176344125	9.751806e-001	-1.687540e-001	9.349944e-004	9.085108e-004	-2.540473e-004	3.768806e-004	9.922609e-001	-1.812306e-001
178219063	9.849380e-001	-1.680640e-001	3.349183e-004	4.409250e-005	2.765480e-004	1.099704e-003	9.842087e-001	-1.880230e-001
180094000	9.829614e-001	-1.751377e-001	2.644454e-004	-1.589101e-004	-7.564017e-004	-6.709615e-005	9.912745e-001	-1.786450e-001
181968938	9.756443e-001	-1.775130e-001	-6.461074e-004	6.461896e-004	-3.257511e-004	9.960502e-005	9.854095e-001	-1.918094e-001
183843875	9.835740e-001	-1.771778e-001	5.616338e-004	-5.216298e-005	-2.814742e-004	-7.295998e-004	9.757832e-001	-1.915830e-001
185718813	9.766244e-001	-1.856008e-001	-2.123898e-005	-4.728369e-004	-8.709446e-004	5.977967e-004	9.809135e-001	-1.847664e-001
187593750	9.835386e-001	-1.960656e-001	1.862022e-004	1.092549e-003	-2.402553e-004	-8.656697e-005	9.772608e-001	-1.895977e-001
189468688	9.888143e-001	-1.821197e-001	-2.559251e-004	6.436409e-004	-6.310212e-004	-2.382997e-004	9.801129e-001	-1.925692e-001
191343625	9.875699e-001	-1.879805e-001	8.880873e-004	-7.955483e-004	-7.721017e-004	-3.990929e-005	9.780091e-001	-1.915409e-001
193218563	9.785984e-001	-1.860052e-001	-3.247152e-004	1.386234e-003	-1.270308e-004	6.313169e-004	9.781498e-001	-2.012041e-001
195093500	9.814325e-001	-1.971062e-001	6.877367e-004	-6.838210e-004	-5.644437e-004	8.072730e-004	9.786002e-001	-1.932864e-001
196968438	9.794897e-001	-1.921056e-001	-5.182949e-004	3.706133e-004	-8.109331e-005	-4.533516e-004	9.682639e-001	-1.984972e-001
198843375	9.824872e-001	-1.949793e-001	-7.076492e-004	1.757063e-003	5.079131e-005	1.039235e-003	9.738176e-001	-1.938505e-001
200718313	9.756908e-001	-2.051984e-001	6.530751e-005	-6.774636e-004	-1.223262e-004	7.381561e-004	9.776881e-001	-2.078111e-001
202593250	9.765121e-001	-1.965505e-001	-2.028730e-004	2.007786e-004	1.286027e-003	-1.056856e-003	9.741688e-001	-2.064606e-001
204468188	9.794739e-001	-1.974746e-001	6.431559e-004	-4.561118e-004	2.461003e-004	6.555610e-004	9.794166e-001	-2.214850e-001
206343125	9.711856e-001	-1.982853e-001	1.261053e-004	3.830722e-004	4.681090e-004	3.786794e-004	9.803720e-001	-2.149217e-001
208218063	9.702095e-001	-1.981894e-001	-1.110231e-003	1.760081e-004	-3.272406e-004	-3.287242e-004	9.832686e-001	-2.187896e-001
210093000	9.752915e-001	-2.060478e-001	1.458426e-004	6.109090e-004	-3.066649e-004	-4.933482e-004	9.744302e-001	-2.144380e-001
211967938	9.791497e-001	-2.037898e-001	-5.917800e-004	-1.368856e-004	-9.304692e-004	-1.256947e-003	9.741531e-001	-2.120879e-001
213842875	9.783303e-001	-2.036520e-001	4.006014e-004	-4.145671e-005	-5.220422e-004	-3.315429e-004	9.792500e-001	-2.191663e-001
215717813	9.813741e-001	-2.088615e-001	4.624500e-005	-5.723772e-004	-3.562315e-004	1.416889e-003	9.697162e-001	-2.172494e-001
217592750	9.680892e-001	-2.123160e-001	-1.828310e-004	-2.527934e-004	-6.872581e-004	-4.078710e-004	9.700596e-001	-2.332621e-001
219467688	9.736607e-001	-2.051101e-001	-7.576452e-004	-7.367813e-004	-1.778560e-003	-1.460618e-005	9.720918e-001	-2.207845e-001
221342625	9.733600e-001	-2.112206e-001	-3.367324e-004	-1.323357e-003	-1.182042e-004	-8.007306e-004	9.742159e-001	-2.200768e-001
223217563	9.738627e-001	-2.171331e-001	-2.079839e-004	-8.498307e-004	-9.844050e-005	-5.646134e-004	9.686595e-001	-2.321851e-001
225092500	9.751243e-001	-2.180006e-001	-2.606120e-004	-3.386050e-004	-7.252763e-004	6.844004e-004	9.687165e-001	-2.258821e-001
226967438	9.764290e-001	-2.290263e-001	1.037064e-003	-5.673240e-004	-7.319355e-004	-2.952692e-004	9.681135e-001	-2.258395e-001
228842375	9.821720e-001	-2.221864e-001	2.793444e-004	-8.768524e-006	-1.167501e-003	4.946577e-004	9.718737e-001	-2.376515e-001
230717313	9.805704e-001	-2.256524e-001	6.443829e-004	1.045637e-004	-6.458877e-004	2.927198e-004	9.832218e-001	-2.364619e-001
232592250	9.701295e-001	-2.219259e-001	1.261397e-003	4.259892e-004	6.683111e-006	1.405193e-003	9.671044e-001	-2.389157e-001
234467188	9.846777e-001	-2.279375e-001	1.008289e-004	-4.261887e-004	-7.505859e-005	1.066391e-003	9.706178e-001	-2.457876e-001
236342125	9.656860e-001	-2.314502e-001	-8.427080e-004	-2.991955e-004	-7.947610e-004	-5.634583e-005	9.674057e-001	-2.357284e-001
238217063	9.693669e-001	-2.326404e-001	-1.368880e-004	4.340442e-004	-3.712799e-004	-6.911485e-005	9.693205e-001	-2.448089e-001
240092000	9.738601e-001	-2.258572e-001	-1.167611e-004	2.478631e-004	-6.654556e-004	-6.342067e-004	9.625500e-001	-2.442873e-001
241966938	9.684684e-001	-2.393230e-001	-9.908693e-004	2.709315e-004	-7.940540e-004	2.310055e-004	9.659963e-001	-2.378204e-001
243841875	9.710622e-001	-2.323005e-001	-5.662004e-004	-8.091466e-004	3.164248e-004	-1.993858e-004	9.644986e-001	-2.515661e-001
245716813	9.596659e-001	-2.401640e-001	-9.866946e-004	4.444710e-004	-2.080035e-004	-2.417238e-004	9.723227e-001	-2.434752e-001
247591750	9.668868e-001	-2.450767e-001	-1.204045e-003	4.229015e-004	-3.470385e-004	9.831446e-005	9.698371e-001	-2.466581e-001
249466688	9.694220e-001	-2.482706e-001	-2.106277e-004	-5.908677e-004	-3.092824e-004	3.143541e-005	9.710173e-001	-2.465750e-001
251341625	9.636150e-001	-2.405242e-001	-1.022691e-003	1.611141e-004	2.415438e-004	6.044827e-004	9.699543e-001	-2.534048e-001
253216563	9.725333e-001	-2.517494e-001	1.201512e-003	1.538003e-004	-5.177402e-004	-9.936176e-005	9.660795e-001	-2.641307e-001
255091500	9.735914e-001	-2.456847e-001	7.827105e-004	-9.551714e-004	1.931041e-004	-3.768023e-005	9.615719e-001	-2.518539e-001
256966438	9.593220e-001	-2.534365e-001	-2.998314e-004	1.106586e-003	5.134415e-004	-2.352946e-004	9.633847e-001	-2.644581e-001
258841375	9.637533e-001	-2.463909e-001	-3.146455e-004	-6.544952e-004	-1.202459e-003	7.391533e-005	9.614474e-001	-2.670793e-001
260716313	9.670314e-001	-2.510004e-001	-3.507436e-004	-5.879159e-005	-1.206400e-004	-4.287968e-004	9.583066e-001	-2.655283e-001
262591250	9.638553e-001	-2.609182e-001	-3.267053e-004	-1.264550e-004	5.455424e-004	6.390966e-004	9.646636e-001	-2.680812e-001
264466188	9.621606e-001	-2.514388e-001	-5.904234e-004	6.070597e-004	2.725241e-005	-3.492659e-005	9.631013e-001	-2.687478e-001
266341125	9.622060e-001	-2.542401e-001	-1.425361e-004	4.903507e-004	-1.413342e-004	-1.043978e-003	9.524140e-001	-2.712219e-001
268216063	9.624992e-001	-2.639187e-001	-4.171154e-006	-6.160949e-005	-3.505845e-004	-4.253876e-005	9.582880e-001	-2.686909e-001
270091000	9.549894e-001	-2.587508e-001	-1.111744e-003	-1.200178e-005	-5.614163e-004	4.481023e-004	9.551487e-001	-2.714952e-001
271965938	9.661016e-001	-2.620038e-001	-1.939914e-004	-9.972182e-004	-4.313438e-004	4.054646e-004	9.623275e-001	-2.738165e-001
273840875	9.587310e-001	-2.646199e-001	-2.643751e-004	7.732430e-004	-4.021841e-004	2.265062e-004	9.560158e-001	-2.752072e-001
275715813	9.577580e-001	-2.671034e-001	-1.060889e-003	-3.950339e-004	-9.232021e-004	-7.900197e-004	9.523717e-001	-2.776024e-001
277590750	9.641523e-001	-2.646668e-001	5.082531e-004	1.055866e-003	-6.507291e-004	-1.894031e-004	9.561970e-001	-2.828292e-001
279465688	9.608451e-001	-2.680014e-001	-9.817921e-004	-1.125924e-003	-6.388741e-004	3.786988e-004	9.561070e-001	-2.848871e-001
281340625	9.618855e-001	-2.728759e-001	-4.326521e-004	1.106745e-003	-8.871965e-004	3.036810e-005	9.530263e-001	-2.829379e-001
283215563	9.610194e-001	-2.761595e-001	-3.795568e-004	-2.464126e-004	-1.927822e-004	-2.722991e-004	9.569724e-001	-2.913757e-001
285090500	9.594868e-001	-2.781468e-001	5.869413e-004	-2.185438e-004	6.292116e-004	2.448288e-005	9.547054e-001	-2.885876e-001
286965438	9.586035e-001	-2.755673e-001	-9.611092e-004	2.644139e-005	-4.048139e-004	1.207838e-004	9.543890e-001	-2.889352e-001
288840375	9.553358e-001	-2.839052e-001	-4.571755e-005	1.331026e-003	-2.152293e-003	-4.452728e-005	9.512699e-001	-2.952183e-001
290715313	9.530084e-001	-2.845704e-001	-6.438795e-004	8.357711e-004	-1.454239e-003	-3.560901e-005	9.527265e-001	-2.942279e-001
292590250	9.575201e-001	-2.882662e-001	-5.927612e-005	3.632732e-004	-5.112344e-004	-1.110071e-004	9.558213e-001	-2.965843e-001
