!Agilent Technologies,E5070B,MY42401607,A.08.11
!Date: Tue Nov 01 11:03:55 2016
!Data & Calibration Information:
!Freq	S11:SOLT2(ON)	S31:SOLT2(ON)	S13:SOLT2(ON)	S33:SOLT2(ON)
# Hz S dB R 50
380000000	-1.911571e-001	-1.046091e+002	-5.660344e+001	-2.699136e+001	-5.656405e+001	-2.710222e+001	-2.125072e-001	-1.045399e+002
380156250	-1.935486e-001	-1.047072e+002	-5.663007e+001	-2.722722e+001	-5.664996e+001	-2.694984e+001	-2.156002e-001	-1.046305e+002
380312500	-1.882024e-001	-1.047352e+002	-5.698039e+001	-2.705553e+001	-5.696369e+001	-2.669523e+001	-2.119387e-001	-1.047052e+002
380468750	-1.961681e-001	-1.048135e+002	-5.698426e+001	-2.872541e+001	-5.678116e+001	-2.929245e+001	-2.130275e-001	-1.048232e+002
380625000	-1.912070e-001	-1.047457e+002	-5.669822e+001	-2.927417e+001	-5.666362e+001	-2.885574e+001	-2.169161e-001	-1.048228e+002
380781250	-1.992441e-001	-1.048988e+002	-5.684834e+001	-2.757546e+001	-5.686424e+001	-2.868387e+001	-2.323560e-001	-1.048276e+002
380937500	-1.953599e-001	-1.049817e+002	-5.687689e+001	-2.717049e+001	-5.667065e+001	-2.789234e+001	-2.227827e-001	-1.048352e+002
381093750	-1.867373e-001	-1.049951e+002	-5.688958e+001	-2.761635e+001	-5.674029e+001	-2.667794e+001	-2.047128e-001	-1.050520e+002
381250000	-1.904078e-001	-1.049611e+002	-5.705381e+001	-2.874324e+001	-5.724773e+001	-2.914330e+001	-2.303918e-001	-1.049658e+002
381406250	-1.815364e-001	-1.051098e+002	-5.685980e+001	-2.760381e+001	-5.695921e+001	-2.820543e+001	-2.181195e-001	-1.051373e+002
381562500	-1.919173e-001	-1.050970e+002	-5.713569e+001	-2.800813e+001	-5.681642e+001	-2.837940e+001	-2.313986e-001	-1.050528e+002
381718750	-1.967455e-001	-1.052168e+002	-5.694389e+001	-2.831150e+001	-5.677980e+001	-2.815824e+001	-2.190234e-001	-1.051929e+002
381875000	-1.904807e-001	-1.053006e+002	-5.669815e+001	-2.827473e+001	-5.664624e+001	-2.768533e+001	-2.348998e-001	-1.051658e+002
382031250	-1.862837e-001	-1.052890e+002	-5.690080e+001	-2.741302e+001	-5.656903e+001	-2.620069e+001	-2.210127e-001	-1.053464e+002
382187500	-1.962857e-001	-1.053622e+002	-5.683222e+001	-2.911580e+001	-5.698276e+001	-2.929096e+001	-2.170738e-001	-1.053321e+002
382343750	-1.989456e-001	-1.054941e+002	-5.685007e+001	-2.888409e+001	-5.680569e+001	-2.810597e+001	-2.192247e-001	-1.052673e+002
382500000	-1.985702e-001	-1.054606e+002	-5.685522e+001	-2.701162e+001	-5.686023e+001	-2.766077e+001	-2.210012e-001	-1.054331e+002
382656250	-1.820661e-001	-1.054566e+002	-5.675083e+001	-2.713885e+001	-5.672124e+001	-2.732478e+001	-2.244890e-001	-1.055515e+002
382812500	-1.772355e-001	-1.055010e+002	-5.656346e+001	-2.831036e+001	-5.650937e+001	-2.882878e+001	-2.088387e-001	-1.054773e+002
382968750	-1.930865e-001	-1.056819e+002	-5.680244e+001	-3.006109e+001	-5.667702e+001	-2.880255e+001	-2.134741e-001	-1.057206e+002
383125000	-1.906704e-001	-1.056842e+002	-5.684596e+001	-2.897086e+001	-5.666794e+001	-2.944216e+001	-2.144100e-001	-1.057411e+002
383281250	-1.935168e-001	-1.058427e+002	-5.673997e+001	-3.005011e+001	-5.680405e+001	-2.892872e+001	-2.288571e-001	-1.057602e+002
383437500	-1.930318e-001	-1.058589e+002	-5.695234e+001	-3.012230e+001	-5.669952e+001	-2.896524e+001	-2.199153e-001	-1.057505e+002
383593750	-1.964891e-001	-1.058045e+002	-5.665315e+001	-3.079579e+001	-5.672717e+001	-2.996936e+001	-2.356751e-001	-1.057156e+002
383750000	-1.802991e-001	-1.058195e+002	-5.672736e+001	-3.012048e+001	-5.657795e+001	-3.064641e+001	-2.246753e-001	-1.059134e+002
383906250	-2.008012e-001	-1.059711e+002	-5.669805e+001	-3.176962e+001	-5.691455e+001	-3.395383e+001	-2.108757e-001	-1.059365e+002
384062500	-1.973356e-001	-1.060274e+002	-5.667287e+001	-2.996339e+001	-5.670267e+001	-3.330379e+001	-2.252814e-001	-1.059516e+002
384218750	-1.932287e-001	-1.059703e+002	-5.672250e+001	-3.057891e+001	-5.656743e+001	-3.104312e+001	-2.272999e-001	-1.060303e+002
384375000	-1.849513e-001	-1.061262e+002	-5.705650e+001	-3.262817e+001	-5.690127e+001	-3.273365e+001	-2.200922e-001	-1.060538e+002
384531250	-1.989224e-001	-1.061848e+002	-5.664428e+001	-3.252851e+001	-5.678059e+001	-3.168088e+001	-2.240231e-001	-1.061322e+002
384687500	-1.786673e-001	-1.062210e+002	-5.688962e+001	-3.269464e+001	-5.698635e+001	-3.172157e+001	-2.119733e-001	-1.062109e+002
384843750	-1.987964e-001	-1.062748e+002	-5.701289e+001	-3.068938e+001	-5.684997e+001	-3.085308e+001	-2.302830e-001	-1.061964e+002
385000000	-1.898442e-001	-1.063307e+002	-5.700847e+001	-3.153407e+001	-5.677605e+001	-2.984730e+001	-2.266937e-001	-1.063238e+002
385156250	-1.944421e-001	-1.064105e+002	-5.675450e+001	-3.321857e+001	-5.675723e+001	-3.163588e+001	-2.269760e-001	-1.062920e+002
385312500	-1.950621e-001	-1.063780e+002	-5.656698e+001	-3.171340e+001	-5.688980e+001	-3.227418e+001	-2.265343e-001	-1.064015e+002
385468750	-1.916498e-001	-1.064995e+002	-5.700538e+001	-3.342710e+001	-5.705402e+001	-3.268572e+001	-2.223831e-001	-1.064879e+002
385625000	-1.961580e-001	-1.065661e+002	-5.713384e+001	-3.244060e+001	-5.741121e+001	-3.274449e+001	-2.187015e-001	-1.065392e+002
385781250	-1.868337e-001	-1.066183e+002	-5.742312e+001	-3.069674e+001	-5.700816e+001	-3.176948e+001	-2.204111e-001	-1.066371e+002
385937500	-1.879981e-001	-1.066373e+002	-5.689275e+001	-3.071741e+001	-5.715447e+001	-3.077489e+001	-2.225890e-001	-1.066431e+002
386093750	-1.992604e-001	-1.067099e+002	-5.699316e+001	-3.167774e+001	-5.671752e+001	-3.254590e+001	-2.308624e-001	-1.066704e+002
386250000	-2.070139e-001	-1.068172e+002	-5.685358e+001	-3.124086e+001	-5.680753e+001	-3.175002e+001	-2.331111e-001	-1.067370e+002
386406250	-1.978277e-001	-1.068263e+002	-5.705941e+001	-3.333275e+001	-5.706578e+001	-3.195789e+001	-2.215871e-001	-1.068435e+002
386562500	-1.927710e-001	-1.068254e+002	-5.689775e+001	-3.222424e+001	-5.699140e+001	-3.254550e+001	-2.289606e-001	-1.068614e+002
386718750	-2.016714e-001	-1.069812e+002	-5.738251e+001	-3.154140e+001	-5.719742e+001	-3.090429e+001	-2.358808e-001	-1.069555e+002
386875000	-1.837796e-001	-1.069877e+002	-5.708319e+001	-3.052887e+001	-5.716958e+001	-3.138396e+001	-2.401082e-001	-1.069172e+002
387031250	-2.020805e-001	-1.069804e+002	-5.718702e+001	-3.231191e+001	-5.712589e+001	-3.033896e+001	-2.283445e-001	-1.069855e+002
387187500	-1.869567e-001	-1.071900e+002	-5.693929e+001	-3.181685e+001	-5.688568e+001	-3.152489e+001	-2.423223e-001	-1.069964e+002
387343750	-1.887213e-001	-1.070957e+002	-5.704418e+001	-3.161977e+001	-5.659324e+001	-3.317692e+001	-2.268051e-001	-1.071598e+002
387500000	-1.930127e-001	-1.072736e+002	-5.702824e+001	-3.250413e+001	-5.692800e+001	-3.326648e+001	-2.434057e-001	-1.071387e+002
387656250	-1.897549e-001	-1.073173e+002	-5.687551e+001	-3.147097e+001	-5.677219e+001	-3.331118e+001	-2.376652e-001	-1.072093e+002
387812500	-2.073515e-001	-1.072776e+002	-5.709107e+001	-3.501577e+001	-5.685456e+001	-3.538658e+001	-2.356486e-001	-1.073146e+002
387968750	-1.959215e-001	-1.073930e+002	-5.708253e+001	-3.458342e+001	-5.717622e+001	-3.278067e+001	-2.319787e-001	-1.073066e+002
388125000	-1.957564e-001	-1.074552e+002	-5.737982e+001	-3.438087e+001	-5.735182e+001	-3.540962e+001	-2.307226e-001	-1.074381e+002
388281250	-1.975817e-001	-1.075094e+002	-5.746064e+001	-3.468053e+001	-5.733891e+001	-3.447782e+001	-2.504865e-001	-1.074344e+002
388437500	-1.940757e-001	-1.075842e+002	-5.734313e+001	-3.299872e+001	-5.743712e+001	-3.409010e+001	-2.308014e-001	-1.075497e+002
388593750	-2.094480e-001	-1.076260e+002	-5.759918e+001	-3.535362e+001	-5.754094e+001	-3.605206e+001	-2.458559e-001	-1.075764e+002
388750000	-2.037016e-001	-1.076429e+002	-5.741231e+001	-3.512705e+001	-5.743165e+001	-3.183116e+001	-2.531951e-001	-1.076600e+002
388906250	-2.008936e-001	-1.077097e+002	-5.768244e+001	-3.723532e+001	-5.731829e+001	-3.467820e+001	-2.485229e-001	-1.077792e+002
389062500	-2.043212e-001	-1.076927e+002	-5.745616e+001	-2.858693e+001	-5.721875e+001	-2.719772e+001	-2.509700e-001	-1.077556e+002
389218750	-1.998337e-001	-1.078335e+002	-5.718379e+001	-3.080047e+001	-5.723647e+001	-3.038435e+001	-2.457012e-001	-1.078460e+002
389375000	-2.069723e-001	-1.078783e+002	-5.735605e+001	-3.136677e+001	-5.717147e+001	-3.147715e+001	-2.599401e-001	-1.077884e+002
389531250	-2.052982e-001	-1.079263e+002	-5.716248e+001	-3.147191e+001	-5.716238e+001	-2.798534e+001	-2.473181e-001	-1.078229e+002
389687500	-2.057976e-001	-1.079317e+002	-5.703799e+001	-3.258625e+001	-5.692196e+001	-3.284339e+001	-2.607896e-001	-1.079004e+002
389843750	-2.103357e-001	-1.080610e+002	-5.737537e+001	-3.558194e+001	-5.758089e+001	-3.213149e+001	-2.545570e-001	-1.079925e+002
390000000	-2.095990e-001	-1.080505e+002	-5.689848e+001	-3.239739e+001	-5.743764e+001	-3.080854e+001	-2.576239e-001	-1.081063e+002
390156250	-2.150899e-001	-1.081321e+002	-5.711624e+001	-3.074225e+001	-5.724090e+001	-3.272808e+001	-2.502247e-001	-1.080871e+002
390312500	-2.070619e-001	-1.081999e+002	-5.727034e+001	-3.249103e+001	-5.715887e+001	-3.508056e+001	-2.374363e-001	-1.082279e+002
390468750	-2.082568e-001	-1.083284e+002	-5.783718e+001	-3.425518e+001	-5.795093e+001	-3.484300e+001	-2.488726e-001	-1.083307e+002
390625000	-3.331929e-001	-1.085754e+002	-5.856730e+001	-2.928360e+001	-5.851592e+001	-2.903808e+001	-2.866345e-001	-1.088421e+002
390781250	-2.228828e-001	-1.081557e+002	-5.715773e+001	-2.904687e+001	-5.691902e+001	-2.995053e+001	-2.437640e-001	-1.081892e+002
390937500	-2.200300e-001	-1.083777e+002	-5.753909e+001	-2.843203e+001	-5.785233e+001	-3.043825e+001	-2.551693e-001	-1.083931e+002
391093750	-2.261091e-001	-1.084336e+002	-5.752263e+001	-3.067869e+001	-5.712443e+001	-3.090587e+001	-2.430380e-001	-1.084744e+002
391250000	-2.176526e-001	-1.084127e+002	-5.769822e+001	-2.823559e+001	-5.726155e+001	-2.781089e+001	-2.672093e-001	-1.084832e+002
391406250	-2.319027e-001	-1.085329e+002	-5.756893e+001	-2.981834e+001	-5.772774e+001	-3.034320e+001	-2.693783e-001	-1.085269e+002
391562500	-2.281844e-001	-1.085220e+002	-5.785437e+001	-2.612965e+001	-5.763404e+001	-2.602218e+001	-2.628376e-001	-1.086381e+002
391718750	-2.217755e-001	-1.084890e+002	-5.663400e+001	-2.822047e+001	-5.653626e+001	-2.864542e+001	-2.715066e-001	-1.085812e+002
391875000	-2.204725e-001	-1.086011e+002	-5.685871e+001	-2.911520e+001	-5.666648e+001	-2.660316e+001	-2.721297e-001	-1.086729e+002
392031250	-2.379170e-001	-1.086245e+002	-5.676465e+001	-2.863599e+001	-5.684805e+001	-2.755868e+001	-2.710318e-001	-1.086662e+002
392187500	-2.083997e-001	-1.086478e+002	-5.600935e+001	-3.091869e+001	-5.617910e+001	-3.206957e+001	-2.634487e-001	-1.086930e+002
392343750	-2.089571e-001	-1.088132e+002	-5.680789e+001	-3.428771e+001	-5.625979e+001	-3.270249e+001	-2.373790e-001	-1.087970e+002
392500000	-2.257473e-001	-1.088702e+002	-5.689967e+001	-3.142114e+001	-5.662683e+001	-3.199321e+001	-2.774546e-001	-1.088715e+002
392656250	-1.987732e-001	-1.088738e+002	-5.663063e+001	-3.123761e+001	-5.710131e+001	-3.317544e+001	-2.752266e-001	-1.088323e+002
392812500	-2.029875e-001	-1.089575e+002	-5.666170e+001	-3.392742e+001	-5.682603e+001	-3.353669e+001	-2.556071e-001	-1.089104e+002
392968750	-2.336889e-001	-1.090759e+002	-5.712151e+001	-3.397313e+001	-5.708883e+001	-3.420638e+001	-2.715931e-001	-1.090033e+002
393125000	-2.192229e-001	-1.091065e+002	-5.726152e+001	-2.965854e+001	-5.737797e+001	-3.110441e+001	-2.549603e-001	-1.089965e+002
393281250	-2.346231e-001	-1.092308e+002	-5.726059e+001	-3.116572e+001	-5.726556e+001	-3.083917e+001	-2.516276e-001	-1.091276e+002
393437500	-2.122895e-001	-1.092673e+002	-5.723278e+001	-3.134502e+001	-5.732882e+001	-3.097036e+001	-2.622362e-001	-1.091209e+002
393593750	-2.187471e-001	-1.093808e+002	-5.736201e+001	-3.050189e+001	-5.751857e+001	-3.377988e+001	-2.639511e-001	-1.093012e+002
393750000	-2.539651e-001	-1.092829e+002	-5.783811e+001	-2.366823e+001	-5.794826e+001	-2.573189e+001	-2.789759e-001	-1.093891e+002
393906250	-2.606062e-001	-1.092377e+002	-5.705370e+001	-2.604473e+001	-5.734544e+001	-2.697869e+001	-2.710215e-001	-1.093327e+002
394062500	-2.577762e-001	-1.092160e+002	-5.728591e+001	-2.853138e+001	-5.727556e+001	-2.957818e+001	-2.939763e-001	-1.094927e+002
394218750	-2.714330e-001	-1.092342e+002	-5.664761e+001	-2.726965e+001	-5.651409e+001	-2.623564e+001	-2.877393e-001	-1.093936e+002
394375000	-2.411690e-001	-1.093432e+002	-5.650098e+001	-2.831437e+001	-5.627572e+001	-2.850159e+001	-2.641541e-001	-1.093950e+002
394531250	-2.274794e-001	-1.094196e+002	-5.600715e+001	-2.716478e+001	-5.617519e+001	-2.722242e+001	-2.839724e-001	-1.093702e+002
394687500	-2.181492e-001	-1.094643e+002	-5.613626e+001	-2.837692e+001	-5.596747e+001	-3.040417e+001	-2.636714e-001	-1.094553e+002
394843750	-2.040456e-001	-1.095261e+002	-5.659328e+001	-3.448993e+001	-5.637426e+001	-3.529487e+001	-2.579838e-001	-1.095543e+002
395000000	-2.143668e-001	-1.096237e+002	-5.622825e+001	-3.292089e+001	-5.638478e+001	-3.163497e+001	-2.761023e-001	-1.095947e+002
395156250	-2.146146e-001	-1.096503e+002	-5.639193e+001	-3.314742e+001	-5.632949e+001	-3.371818e+001	-2.623315e-001	-1.096912e+002
395312500	-2.116266e-001	-1.097783e+002	-5.652600e+001	-3.194766e+001	-5.620294e+001	-3.119405e+001	-2.470965e-001	-1.097096e+002
395468750	-2.333140e-001	-1.098665e+002	-5.635981e+001	-3.514236e+001	-5.627000e+001	-3.540840e+001	-2.573190e-001	-1.098764e+002
395625000	-2.306360e-001	-1.098585e+002	-5.694787e+001	-3.522490e+001	-5.702650e+001	-3.349622e+001	-2.600348e-001	-1.099242e+002
395781250	-2.238980e-001	-1.100264e+002	-5.651289e+001	-3.165177e+001	-5.680105e+001	-3.206060e+001	-2.556742e-001	-1.099464e+002
395937500	-2.306805e-001	-1.100696e+002	-5.674247e+001	-3.365567e+001	-5.692418e+001	-3.341818e+001	-2.668680e-001	-1.099871e+002
396093750	-2.305462e-001	-1.102539e+002	-5.664639e+001	-3.250201e+001	-5.678787e+001	-3.311922e+001	-2.559095e-001	-1.100317e+002
396250000	-2.643173e-001	-1.101775e+002	-5.724955e+001	-3.257723e+001	-5.725030e+001	-3.325586e+001	-2.744457e-001	-1.101474e+002
396406250	-2.617282e-001	-1.100730e+002	-5.640150e+001	-2.869303e+001	-5.655328e+001	-2.717941e+001	-2.887593e-001	-1.101698e+002
396562500	-2.464805e-001	-1.101353e+002	-5.618279e+001	-3.191891e+001	-5.626363e+001	-3.225443e+001	-3.027575e-001	-1.102051e+002
396718750	-2.692158e-001	-1.101043e+002	-5.689583e+001	-2.729671e+001	-5.698321e+001	-2.412869e+001	-3.008782e-001	-1.102236e+002
396875000	-2.401905e-001	-1.101096e+002	-5.633696e+001	-2.689367e+001	-5.644775e+001	-2.596899e+001	-3.037141e-001	-1.100815e+002
397031250	-2.239766e-001	-1.101922e+002	-5.636785e+001	-3.273826e+001	-5.641967e+001	-3.354808e+001	-2.806310e-001	-1.102306e+002
397187500	-2.230568e-001	-1.101910e+002	-5.616213e+001	-3.282954e+001	-5.603449e+001	-3.294486e+001	-2.939244e-001	-1.102462e+002
397343750	-2.373864e-001	-1.102947e+002	-5.601355e+001	-3.371169e+001	-5.554765e+001	-3.254836e+001	-2.733222e-001	-1.102931e+002
397500000	-2.252171e-001	-1.104527e+002	-5.622355e+001	-2.827418e+001	-5.605981e+001	-2.971999e+001	-2.714826e-001	-1.103917e+002
397656250	-2.237997e-001	-1.105716e+002	-5.585134e+001	-3.477106e+001	-5.574119e+001	-3.302237e+001	-2.681526e-001	-1.104168e+002
397812500	-2.232267e-001	-1.105732e+002	-5.663793e+001	-3.395223e+001	-5.658054e+001	-3.241673e+001	-2.743498e-001	-1.104304e+002
397968750	-2.193214e-001	-1.106346e+002	-5.591465e+001	-3.291245e+001	-5.576029e+001	-3.352444e+001	-2.656767e-001	-1.105075e+002
398125000	-2.301547e-001	-1.107637e+002	-5.631835e+001	-3.460455e+001	-5.610261e+001	-3.448987e+001	-2.584501e-001	-1.106706e+002
398281250	-2.361282e-001	-1.107464e+002	-5.579715e+001	-3.356374e+001	-5.607196e+001	-3.307441e+001	-2.691405e-001	-1.106938e+002
398437500	-2.308409e-001	-1.108563e+002	-5.575547e+001	-3.688189e+001	-5.581037e+001	-3.647708e+001	-2.779443e-001	-1.108212e+002
398593750	-2.328540e-001	-1.109503e+002	-5.623078e+001	-3.402398e+001	-5.612511e+001	-3.400315e+001	-2.656869e-001	-1.108017e+002
398750000	-2.560938e-001	-1.110089e+002	-5.609625e+001	-3.651725e+001	-5.588212e+001	-3.610864e+001	-2.624910e-001	-1.109299e+002
398906250	-2.848436e-001	-1.108630e+002	-5.640515e+001	-3.614634e+001	-5.638449e+001	-3.557272e+001	-2.889810e-001	-1.110256e+002
399062500	-2.332433e-001	-1.109443e+002	-5.615844e+001	-3.716642e+001	-5.594651e+001	-3.548554e+001	-2.795973e-001	-1.109849e+002
399218750	-2.554844e-001	-1.109654e+002	-5.612005e+001	-3.773903e+001	-5.609876e+001	-3.750756e+001	-2.813787e-001	-1.111009e+002
399375000	-2.268285e-001	-1.109622e+002	-5.613710e+001	-3.762571e+001	-5.561735e+001	-3.768939e+001	-2.970280e-001	-1.109242e+002
399531250	-2.274991e-001	-1.110094e+002	-5.614808e+001	-3.488214e+001	-5.593711e+001	-3.681039e+001	-2.757988e-001	-1.110135e+002
399687500	-2.231275e-001	-1.111126e+002	-5.646989e+001	-3.700732e+001	-5.604737e+001	-3.495870e+001	-2.751034e-001	-1.111536e+002
399843750	-2.179475e-001	-1.111824e+002	-5.601809e+001	-3.559389e+001	-5.603182e+001	-3.575268e+001	-2.678974e-001	-1.111567e+002
400000000	-2.201623e-001	-1.112552e+002	-5.599483e+001	-3.609128e+001	-5.608943e+001	-3.576397e+001	-2.672350e-001	-1.112337e+002
400156250	-2.244301e-001	-1.112876e+002	-5.592581e+001	-3.627175e+001	-5.585694e+001	-3.605606e+001	-2.727728e-001	-1.113119e+002
400312500	-2.313606e-001	-1.113916e+002	-5.592428e+001	-3.795028e+001	-5.593771e+001	-3.668303e+001	-2.573074e-001	-1.113924e+002
400468750	-2.318949e-001	-1.115057e+002	-5.606594e+001	-3.305179e+001	-5.613285e+001	-3.207432e+001	-2.838481e-001	-1.114386e+002
400625000	-2.342411e-001	-1.115761e+002	-5.575488e+001	-3.674443e+001	-5.572992e+001	-3.567761e+001	-2.610529e-001	-1.115460e+002
400781250	-2.381167e-001	-1.115237e+002	-5.588561e+001	-3.752844e+001	-5.597256e+001	-3.699526e+001	-2.685138e-001	-1.116332e+002
400937500	-2.176637e-001	-1.116309e+002	-5.587861e+001	-3.830352e+001	-5.557411e+001	-3.784329e+001	-2.679060e-001	-1.115820e+002
401093750	-2.394155e-001	-1.118093e+002	-5.583602e+001	-3.913682e+001	-5.613720e+001	-3.866524e+001	-2.791589e-001	-1.117978e+002
401250000	-2.506986e-001	-1.118041e+002	-5.572185e+001	-3.809321e+001	-5.592362e+001	-3.922186e+001	-2.729777e-001	-1.117904e+002
401406250	-2.577584e-001	-1.115691e+002	-5.608326e+001	-4.133953e+001	-5.574960e+001	-4.140349e+001	-2.859287e-001	-1.118926e+002
401562500	-2.326577e-001	-1.117843e+002	-5.611134e+001	-3.928795e+001	-5.599586e+001	-3.996400e+001	-3.074890e-001	-1.117791e+002
401718750	-2.425439e-001	-1.117684e+002	-5.591926e+001	-4.138624e+001	-5.594270e+001	-4.046160e+001	-2.857059e-001	-1.118196e+002
401875000	-2.376646e-001	-1.118216e+002	-5.622873e+001	-4.238301e+001	-5.642438e+001	-4.127847e+001	-2.988835e-001	-1.119062e+002
402031250	-2.257471e-001	-1.118959e+002	-5.644852e+001	-4.071300e+001	-5.662366e+001	-4.032247e+001	-2.799453e-001	-1.118411e+002
402187500	-2.184285e-001	-1.119963e+002	-5.616208e+001	-3.827825e+001	-5.644783e+001	-3.948296e+001	-2.841612e-001	-1.119120e+002
402343750	-2.212801e-001	-1.120241e+002	-5.644818e+001	-3.980993e+001	-5.638876e+001	-4.029698e+001	-2.716545e-001	-1.119430e+002
402500000	-2.225475e-001	-1.121148e+002	-5.609666e+001	-4.023174e+001	-5.607280e+001	-4.192973e+001	-2.734862e-001	-1.120168e+002
402656250	-2.167472e-001	-1.122394e+002	-5.632753e+001	-3.928861e+001	-5.614066e+001	-4.102868e+001	-2.601463e-001	-1.120762e+002
402812500	-2.179644e-001	-1.121581e+002	-5.597213e+001	-3.899993e+001	-5.606314e+001	-3.891927e+001	-2.563783e-001	-1.122201e+002
402968750	-2.205128e-001	-1.123298e+002	-5.610468e+001	-4.082084e+001	-5.620267e+001	-4.220508e+001	-2.623309e-001	-1.123512e+002
403125000	-2.207969e-001	-1.124457e+002	-5.597162e+001	-4.025546e+001	-5.600342e+001	-3.875630e+001	-2.460648e-001	-1.122787e+002
403281250	-2.171435e-001	-1.124773e+002	-5.584547e+001	-4.239616e+001	-5.583555e+001	-4.202620e+001	-2.536662e-001	-1.124099e+002
403437500	-2.260473e-001	-1.124075e+002	-5.593552e+001	-4.206718e+001	-5.623004e+001	-4.040349e+001	-2.581537e-001	-1.125165e+002
403593750	-2.190008e-001	-1.125129e+002	-5.619069e+001	-4.275942e+001	-5.600132e+001	-4.207294e+001	-2.695856e-001	-1.125516e+002
