!Keysight Technologies,E5080A,MY55200989,A.11.70.00
!Date: Tuesday, December 06, 2016 22:33:28
!Correction: S11(Full 2 Port(1,2)) 
!S21(Full 2 Port(1,2)) 
!S12(Full 2 Port(1,2)) 
!S22(Full 2 Port(1,2)) 
!S2P File: Measurements: S11, S21, S12, S22:
# Hz S  dB   R 50
867100000 -2.3196578 -32.590042 -56.691292 78.484123 -56.565517 81.712509 -1.963367 -43.590576
867101875 -2.3132401 -32.68021 -56.484612 79.355583 -56.717316 78.606476 -1.9625987 -43.659771
867103750 -2.3172171 -32.7593 -56.789391 77.790497 -56.849041 76.470886 -1.95798 -43.706261
867105625 -2.3151689 -32.816856 -56.981293 76.379707 -57.076279 75.550179 -1.9635459 -43.728519
867107500 -2.3130636 -32.869633 -57.726391 71.581688 -57.231598 73.091957 -1.9590063 -43.801872
867109375 -2.3144131 -32.983253 -58.076134 69.022026 -57.545593 69.811874 -1.9633837 -43.908115
867111250 -2.3164642 -33.066208 -58.260513 67.080879 -57.795105 66.990639 -1.9652448 -43.957413
867113125 -2.3162227 -33.156338 -58.730537 64.631554 -58.203514 66.351723 -1.9620157 -44.012135
867115000 -2.3175724 -33.200985 -58.609455 61.623184 -58.358524 60.930458 -1.9660161 -44.115292
867116875 -2.3244741 -33.33181 -58.664711 58.939903 -58.796593 57.758312 -1.9604249 -44.152782
867118750 -2.3189826 -33.394577 -58.934933 52.821503 -58.876133 52.337822 -1.964193 -44.238529
867120625 -2.3201115 -33.481853 -58.510979 50.531963 -58.67094 48.431274 -1.9589307 -44.320457
867122500 -2.324641 -33.553963 -58.562256 46.35659 -58.916428 44.477566 -1.9644397 -44.341827
867124375 -2.3257861 -33.665367 -58.747322 39.584812 -58.952549 40.095581 -1.9612914 -44.435425
867126250 -2.325346 -33.729366 -58.734573 35.47789 -58.474815 35.016235 -1.9626937 -44.506195
867128125 -2.3283715 -33.789948 -58.685684 30.216618 -58.819893 29.225178 -1.9658302 -44.5825
867130000 -2.3274515 -33.889946 -58.22517 25.145893 -57.849072 25.657442 -1.964774 -44.642952
867131875 -2.3245835 -33.965786 -57.780239 22.262737 -57.668041 23.378878 -1.9685578 -44.744904
867133750 -2.3251672 -34.038021 -57.514675 19.423695 -57.392052 17.911831 -1.9638022 -44.799763
867135625 -2.3291922 -34.134693 -57.225941 14.610601 -56.734482 15.223659 -1.9697611 -44.852951
867137500 -2.3343959 -34.23391 -56.30917 9.3558874 -56.548271 12.453129 -1.9705888 -44.95314
867139375 -2.3358226 -34.299412 -56.188377 6.8022838 -56.023323 9.9265985 -1.9643922 -45.021069
867141250 -2.3361139 -34.426064 -56.038399 5.4485188 -55.5821 5.3861957 -1.9705255 -45.072475
867143125 -2.3377519 -34.492569 -54.864479 1.6242762 -54.839485 2.2629633 -1.973205 -45.166054
867145000 -2.3374407 -34.569965 -54.36031 -1.4234809 -54.708801 -0.36190268 -1.9734111 -45.228085
867146875 -2.3423059 -34.649281 -53.655735 -2.8650615 -53.830479 -2.5649288 -1.973227 -45.314812
867148750 -2.3470049 -34.770054 -53.384529 -3.8438439 -53.411083 -2.8877664 -1.9754108 -45.389542
867150625 -2.3403814 -34.828667 -52.812832 -6.9462528 -52.712132 -4.6356902 -1.9747072 -45.431835
867152500 -2.3425803 -34.904037 -52.276726 -6.6379499 -52.432144 -7.637702 -1.9724892 -45.535324
867154375 -2.3506968 -35.000057 -51.679821 -9.076313 -51.663639 -8.3663273 -1.9752001 -45.600945
867156250 -2.3504546 -35.096725 -51.114403 -9.7967091 -51.10199 -9.8888597 -1.9768701 -45.665798
867158125 -2.3559406 -35.187809 -50.674492 -12.055902 -50.627186 -10.23258 -1.9759008 -45.748329
867160000 -2.3574755 -35.270046 -50.169899 -11.28774 -50.104805 -10.554417 -1.9814768 -45.80825
867161875 -2.3550973 -35.366325 -49.617138 -12.546721 -49.676235 -12.384581 -1.9816066 -45.898624
867163750 -2.361105 -35.488884 -49.067657 -13.395699 -49.084175 -13.99808 -1.9832838 -45.975998
867165625 -2.3624866 -35.579899 -48.612705 -15.05959 -48.664654 -14.602877 -1.9864087 -46.089417
867167500 -2.370168 -35.668919 -48.189117 -14.919877 -47.869503 -14.75863 -1.9864483 -46.151379
867169375 -2.3699932 -35.747242 -47.50098 -16.573181 -47.547672 -15.97466 -1.9889307 -46.223042
867171250 -2.3734107 -35.849216 -47.024036 -17.240295 -46.979992 -16.88537 -1.9911917 -46.296612
867173125 -2.3739662 -35.891926 -46.630905 -17.54254 -46.486286 -17.278034 -1.9949793 -46.393337
867175000 -2.384063 -36.035149 -46.021168 -17.779444 -46.122501 -17.624229 -1.9965632 -46.502365
867176875 -2.3836479 -36.16061 -45.623386 -18.904627 -45.614445 -18.185268 -1.9977939 -46.564777
867178750 -2.3910277 -36.239517 -45.079086 -19.449324 -45.138802 -19.259628 -2.003516 -46.654713
867180625 -2.3959579 -36.353897 -44.612629 -20.267923 -44.604546 -19.364845 -2.0031993 -46.682259
867182500 -2.3931773 -36.445976 -44.217037 -20.317148 -44.166733 -20.216934 -2.0076947 -46.759491
867184375 -2.3939118 -36.508499 -43.71505 -20.753164 -43.818665 -20.238874 -2.0081153 -46.879906
867186250 -2.4064167 -36.627949 -43.216728 -21.177837 -43.237541 -21.611828 -2.011734 -46.948383
867188125 -2.4108536 -36.746056 -42.858047 -21.822336 -42.780907 -22.361233 -2.0176783 -47.025833
867190000 -2.4125752 -36.828476 -42.380341 -22.163385 -42.338123 -22.881165 -2.0175838 -47.146336
867191875 -2.4214029 -36.919941 -41.96822 -22.518877 -41.952175 -22.874483 -2.0211911 -47.212597
867193750 -2.4287369 -37.018253 -41.441452 -23.566648 -41.482235 -23.282858 -2.0230083 -47.274685
867195625 -2.4295993 -37.128613 -41.003983 -24.197556 -40.979153 -23.710129 -2.0293791 -47.376835
867197500 -2.4400024 -37.20377 -40.571201 -24.505011 -40.531528 -24.818048 -2.0320737 -47.46999
867199375 -2.4437459 -37.34724 -40.148136 -25.065722 -40.114269 -24.5399 -2.0366805 -47.525887
867201250 -2.4542208 -37.405609 -39.713593 -25.583483 -39.69471 -25.752041 -2.0399044 -47.662529
867203125 -2.4537916 -37.520248 -39.297039 -26.236073 -39.277668 -25.97748 -2.048043 -47.683311
867205000 -2.4628117 -37.623596 -38.859852 -26.78137 -38.84116 -26.681952 -2.0487654 -47.80534
867206875 -2.4730234 -37.729683 -38.422359 -27.243914 -38.441124 -27.440775 -2.0524065 -47.871696
867208750 -2.48227 -37.794361 -38.03278 -28.057512 -38.011356 -28.069841 -2.0615146 -47.949078
867210625 -2.4876735 -37.91494 -37.573318 -28.733654 -37.627594 -28.594925 -2.0625477 -48.07373
867212500 -2.49318 -38.027493 -37.152073 -29.780222 -37.140942 -29.219372 -2.0726314 -48.120953
867214375 -2.5065064 -38.119198 -36.757053 -30.032309 -36.752934 -30.178915 -2.083005 -48.243526
867216250 -2.518836 -38.230381 -36.30357 -30.77368 -36.359711 -30.789608 -2.0862992 -48.298077
867218125 -2.5301044 -38.341057 -35.960514 -31.639936 -35.89986 -31.734343 -2.0920551 -48.33963
867220000 -2.5363519 -38.432079 -35.516811 -32.637405 -35.537537 -32.506908 -2.1016994 -48.505882
867221875 -2.5469704 -38.498177 -35.139797 -33.360321 -35.160679 -33.159218 -2.1070266 -48.527328
867223750 -2.5640583 -38.586926 -34.73204 -34.034134 -34.750553 -34.05022 -2.1211774 -48.606743
867225625 -2.5697923 -38.662102 -34.30349 -35.24461 -34.338459 -35.013809 -2.1262908 -48.648602
867227500 -2.5874431 -38.755768 -33.945061 -36.187771 -33.987663 -36.045788 -2.131597 -48.730335
867229375 -2.6036241 -38.84901 -33.567883 -37.011547 -33.559948 -37.01403 -2.139441 -48.836941
867231250 -2.6047964 -38.945091 -33.157646 -37.214066 -33.159855 -37.987534 -2.1518738 -48.895782
867233125 -2.6265378 -38.966125 -32.78915 -39.10006 -32.831657 -38.842403 -2.161685 -48.985146
867235000 -2.6414185 -39.033882 -32.450188 -41.098103 -32.41824 -40.781216 -2.169342 -49.025246
867236875 -2.6519892 -39.077755 -32.033077 -41.154057 -32.000179 -41.722633 -2.1821589 -49.098396
867238750 -2.6686413 -39.182911 -31.686789 -42.573547 -31.656147 -42.625134 -2.1938579 -49.158543
867240625 -2.6814694 -39.211899 -31.293947 -43.603497 -31.33732 -44.060249 -2.2044864 -49.2075
867242500 -2.7000935 -39.310349 -31.013069 -45.289398 -30.908625 -45.227371 -2.2115297 -49.2346
867244375 -2.7124498 -39.310364 -30.630793 -45.872044 -30.590845 -45.985897 -2.2229617 -49.284554
867246250 -2.7283261 -39.353924 -30.315365 -47.399818 -30.300152 -47.837917 -2.2297068 -49.333942
867248125 -2.7488101 -39.398472 -29.960062 -49.199539 -29.96991 -49.206253 -2.2474689 -49.387024
867250000 -2.7619553 -39.414391 -29.620293 -50.395924 -29.702461 -50.398499 -2.256125 -49.416794
867251875 -2.7774489 -39.422157 -29.324343 -51.665287 -29.288916 -51.918995 -2.2703245 -49.433689
867253750 -2.7848363 -39.453613 -28.999922 -53.515648 -28.985031 -53.247044 -2.282125 -49.433643
867255625 -2.8040097 -39.43161 -28.68799 -55.213524 -28.681198 -54.492184 -2.2906377 -49.438828
867257500 -2.8160954 -39.398712 -28.351564 -56.206703 -28.389784 -56.232082 -2.3009024 -49.482895
867259375 -2.8339629 -39.445724 -28.086176 -57.96595 -28.125765 -57.766232 -2.3110697 -49.453133
867261250 -2.8475928 -39.422497 -27.752634 -59.782303 -27.831518 -59.393303 -2.3213618 -49.498486
867263125 -2.8526547 -39.400242 -27.505217 -61.423931 -27.544273 -61.058113 -2.3305447 -49.477898
867265000 -2.8672147 -39.396397 -27.314014 -63.008934 -27.29748 -62.801662 -2.3436208 -49.45517
867266875 -2.8768933 -39.35004 -26.97543 -64.503632 -26.978516 -64.741196 -2.3454227 -49.429531
867268750 -2.8845437 -39.303387 -26.775803 -66.247093 -26.757788 -66.556252 -2.3547392 -49.402897
867270625 -2.8958571 -39.261559 -26.498888 -68.576202 -26.441719 -68.427406 -2.364471 -49.386501
867272500 -2.8979402 -39.213192 -26.310728 -69.733162 -26.340221 -69.658218 -2.3696439 -49.355572
867274375 -2.9113431 -39.149639 -26.074144 -71.522186 -26.034431 -71.558029 -2.3723876 -49.337795
867276250 -2.9110241 -39.118233 -25.900513 -73.607193 -25.88022 -73.40432 -2.3773363 -49.286564
867278125 -2.913691 -39.07663 -25.710712 -74.95504 -25.684914 -75.240753 -2.3768218 -49.232494
867280000 -2.9163115 -39.013916 -25.515139 -76.841606 -25.491362 -76.99556 -2.3789063 -49.226532
867281875 -2.9142323 -38.964573 -25.330837 -78.944267 -25.3578 -78.751076 -2.3729484 -49.167953
867283750 -2.9094808 -38.915539 -25.163448 -80.622505 -25.149065 -80.525681 -2.3791969 -49.138214
867285625 -2.907836 -38.847977 -24.98464 -82.699898 -25.018759 -82.317451 -2.3760533 -49.055145
867287500 -2.9057329 -38.792027 -24.877728 -84.069977 -24.899603 -83.611771 -2.3698635 -49.043957
867289375 -2.8945448 -38.751411 -24.774834 -85.982025 -24.737059 -85.645775 -2.3630199 -49.031017
867291250 -2.893558 -38.718605 -24.667086 -87.455376 -24.638029 -87.627205 -2.3590231 -48.981991
867293125 -2.8858318 -38.688541 -24.531363 -89.441406 -24.496927 -89.286217 -2.3485534 -48.971714
867295000 -2.8777335 -38.698517 -24.406666 -91.106308 -24.428379 -91.002831 -2.3475566 -48.951157
867296875 -2.865232 -38.642704 -24.331686 -92.535149 -24.335621 -92.527802 -2.337085 -48.952034
867298750 -2.8577535 -38.628441 -24.20907 -94.158951 -24.201914 -94.122223 -2.3248756 -48.950279
867300625 -2.8493316 -38.649921 -24.183519 -95.874969 -24.158833 -95.628624 -2.3082778 -48.941555
867302500 -2.830668 -38.609802 -24.109257 -97.308662 -24.091923 -97.28373 -2.3048661 -48.978821
867304375 -2.817049 -38.615265 -24.025871 -98.76329 -24.041126 -98.836365 -2.295013 -48.945091
867306250 -2.8055913 -38.66946 -23.967882 -100.34917 -23.994501 -100.0918 -2.2840371 -49.000404
867308125 -2.7883372 -38.685944 -23.939287 -101.68004 -23.949909 -101.4645 -2.2743816 -48.993454
867310000 -2.7793751 -38.717793 -23.904482 -103.0562 -23.885571 -102.89181 -2.2623568 -49.07299
867311875 -2.7635491 -38.728668 -23.866926 -104.2617 -23.850269 -104.34099 -2.2436831 -49.110722
867313750 -2.7507067 -38.813705 -23.843842 -105.57314 -23.807133 -105.62601 -2.2352104 -49.161201
867315625 -2.7419939 -38.840199 -23.830297 -106.74751 -23.749735 -106.84283 -2.221298 -49.189629
867317500 -2.7257173 -38.946667 -23.77099 -107.96357 -23.762436 -107.94626 -2.2119381 -49.274082
867319375 -2.7165298 -38.939842 -23.719801 -109.25184 -23.71991 -109.26755 -2.2062469 -49.316105
867321250 -2.6996915 -39.057213 -23.694372 -110.4371 -23.698895 -110.27994 -2.1898248 -49.35355
867323125 -2.6913083 -39.112083 -23.646513 -111.41448 -23.682957 -111.2632 -2.1810057 -49.429657
867325000 -2.6766386 -39.167179 -23.674145 -112.33401 -23.625599 -112.45586 -2.1698246 -49.497681
867326875 -2.6740224 -39.26704 -23.685347 -113.3939 -23.641577 -113.38896 -2.1609032 -49.556812
867328750 -2.6591148 -39.325073 -23.642101 -114.34801 -23.60799 -114.60645 -2.1536851 -49.629776
867330625 -2.6476452 -39.406841 -23.629251 -115.47549 -23.617073 -115.54327 -2.1410937 -49.725086
867332500 -2.6348546 -39.529045 -23.616507 -116.31251 -23.582132 -116.28831 -2.135632 -49.829597
867334375 -2.6230159 -39.638542 -23.593546 -117.10533 -23.577143 -116.95023 -2.1282549 -49.906517
867336250 -2.6197894 -39.697876 -23.612801 -117.87091 -23.556391 -117.74123 -2.1172161 -49.94651
867338125 -2.6057086 -39.781963 -23.548151 -118.74691 -23.538122 -118.53486 -2.1075406 -50.069321
867340000 -2.5965271 -39.921951 -23.532349 -119.45482 -23.564518 -119.36465 -2.1021874 -50.131538
867341875 -2.5896015 -39.967419 -23.560156 -120.28074 -23.5273 -120.18467 -2.0943346 -50.219486
867343750 -2.5795403 -40.110504 -23.523872 -121.1547 -23.502256 -120.97373 -2.0863507 -50.298164
867345625 -2.5670674 -40.224953 -23.518942 -121.83418 -23.511536 -121.55288 -2.0834107 -50.42963
867347500 -2.5671003 -40.338306 -23.477604 -122.32681 -23.479412 -122.36868 -2.0757198 -50.561359
867349375 -2.5620944 -40.418465 -23.498665 -122.98921 -23.482082 -123.01128 -2.0660467 -50.593597
867351250 -2.5501239 -40.568573 -23.480612 -123.54321 -23.493309 -123.57674 -2.0666234 -50.711521
867353125 -2.5405552 -40.671291 -23.420383 -124.24081 -23.444883 -124.26606 -2.0537853 -50.830173
867355000 -2.5415316 -40.761372 -23.418501 -124.90963 -23.415405 -124.8805 -2.0470743 -50.87812
867356875 -2.5291946 -40.878262 -23.42289 -125.55302 -23.426254 -125.26768 -2.0458126 -50.993282
867358750 -2.521812 -41.027164 -23.417845 -125.97996 -23.385969 -126.02415 -2.0441921 -51.118114
867360625 -2.5179541 -41.145634 -23.388384 -126.62833 -23.375156 -126.47056 -2.0340588 -51.201077
867362500 -2.5152709 -41.229076 -23.406326 -126.96568 -23.395491 -127.011 -2.0306127 -51.280178
867364375 -2.5059326 -41.343395 -23.3764 -127.71275 -23.306105 -127.6589 -2.0202734 -51.384659
867366250 -2.5067747 -41.439514 -23.329231 -128.09583 -23.31638 -128.11926 -2.016958 -51.516228
867368125 -2.4982517 -41.587719 -23.294916 -128.63573 -23.297766 -128.528 -2.0193763 -51.604511
867370000 -2.4985998 -41.715748 -23.287273 -129.05077 -23.265017 -128.8719 -2.0162446 -51.697739
867371875 -2.4906306 -41.832546 -23.271755 -129.66696 -23.253042 -129.42104 -2.0094738 -51.796974
867373750 -2.4869604 -41.941418 -23.243876 -130.12862 -23.238218 -130.12881 -2.0046465 -51.912403
867375625 -2.4797697 -42.060238 -23.233034 -130.29808 -23.213385 -130.25371 -2.0013871 -52.030148
867377500 -2.474663 -42.152164 -23.22121 -130.838 -23.209599 -130.52716 -1.9983195 -52.098991
867379375 -2.4781845 -42.264973 -23.169197 -131.28645 -23.16646 -131.10573 -1.9987268 -52.215706
867381250 -2.4734201 -42.450256 -23.13929 -131.50905 -23.131182 -131.67827 -1.9909054 -52.334743
867383125 -2.4618635 -42.568768 -23.129969 -131.98282 -23.104813 -132.09645 -1.9849718 -52.411064
867385000 -2.4665658 -42.632332 -23.116262 -132.28702 -23.0905 -132.36908 -1.9862401 -52.530411
867386875 -2.4584429 -42.807598 -23.086033 -132.75 -23.08942 -132.80547 -1.9776267 -52.642391
867388750 -2.4538586 -42.873131 -23.046526 -132.93599 -23.033581 -132.89767 -1.978381 -52.772697
867390625 -2.4531682 -43.014061 -23.005987 -133.51808 -23.026756 -133.31674 -1.9750465 -52.828629
867392500 -2.4557114 -43.148613 -22.990688 -133.83044 -22.982088 -133.56595 -1.9776801 -52.919609
867394375 -2.4468772 -43.300861 -22.961279 -134.28329 -22.973965 -133.92979 -1.9761251 -53.01186
867396250 -2.4458463 -43.379292 -22.921749 -134.37032 -22.930496 -134.53493 -1.97182 -53.149048
867398125 -2.4435523 -43.529045 -22.892986 -134.71715 -22.89817 -134.76913 -1.9713014 -53.272659
867400000 -2.4449899 -43.628803 -22.864223 -135.09207 -22.845869 -135.03133 -1.9636651 -53.36927
867401875 -2.4416213 -43.759098 -22.834436 -135.28358 -22.830584 -135.29091 -1.9631512 -53.493813
867403750 -2.4389913 -43.921112 -22.800528 -135.56268 -22.796438 -135.75345 -1.9645625 -53.5527
867405625 -2.4366519 -44.046108 -22.77808 -136.00645 -22.764547 -135.82864 -1.9598147 -53.6679
867407500 -2.4360194 -44.121204 -22.738022 -136.36194 -22.7537 -136.46205 -1.9589502 -53.781803
867409375 -2.432992 -44.23774 -22.716274 -136.62837 -22.689463 -136.53687 -1.9576368 -53.913227
867411250 -2.4269271 -44.39666 -22.689905 -136.9933 -22.652712 -136.80618 -1.9540414 -54.011875
867413125 -2.4253237 -44.50383 -22.662655 -137.23019 -22.648008 -137.06683 -1.9529248 -54.115673
867415000 -2.4222872 -44.658501 -22.582626 -137.3298 -22.604826 -137.30643 -1.9493856 -54.247799
867416875 -2.4225402 -44.796543 -22.561413 -137.58989 -22.513327 -137.65298 -1.9525701 -54.330051
867418750 -2.4241028 -44.916798 -22.494617 -138.00557 -22.504446 -137.63184 -1.9458861 -54.424522
867420625 -2.4226074 -45.04705 -22.488134 -138.20448 -22.46496 -138.17059 -1.9426126 -54.56842
867422500 -2.4199603 -45.153236 -22.429928 -138.66161 -22.422766 -138.25061 -1.9445126 -54.62635
867424375 -2.4156575 -45.284149 -22.405935 -138.90819 -22.402372 -138.74492 -1.9426768 -54.763481
867426250 -2.4204168 -45.411449 -22.379829 -139.10132 -22.361406 -139.03835 -1.9382559 -54.880981
867428125 -2.4159856 -45.557453 -22.322454 -139.27533 -22.332258 -139.20837 -1.9417529 -54.975269
867430000 -2.4162583 -45.674614 -22.289568 -139.46544 -22.274694 -139.25156 -1.9373314 -55.075806
867431875 -2.4135902 -45.824211 -22.247593 -139.70888 -22.254927 -139.75623 -1.9391448 -55.192234
867433750 -2.4112117 -45.910313 -22.191696 -140.09842 -22.195677 -139.79425 -1.9364619 -55.271454
867435625 -2.4132373 -46.065674 -22.18428 -140.16632 -22.147524 -140.00476 -1.9348767 -55.402088
867437500 -2.4132769 -46.193447 -22.111246 -140.604 -22.104065 -140.22385 -1.9366196 -55.523624
867439375 -2.4132984 -46.407776 -22.081013 -140.73505 -22.069357 -140.61771 -1.9352671 -55.62252
867441250 -2.4101458 -46.481594 -22.079899 -140.84149 -22.03693 -140.81863 -1.9356202 -55.751194
867443125 -2.4111519 -46.588921 -21.989269 -141.11867 -22.011555 -140.93063 -1.9303045 -55.844246
867445000 -2.4087961 -46.749424 -21.923159 -141.28493 -21.921818 -141.18343 -1.9306822 -55.959679
867446875 -2.4119096 -46.872807 -21.908545 -141.58714 -21.895149 -141.53116 -1.9327922 -56.08411
867448750 -2.4061577 -47.018425 -21.8318 -141.50154 -21.825165 -141.8429 -1.9312981 -56.200645
867450625 -2.4125903 -47.15807 -21.814896 -141.90634 -21.804861 -141.98203 -1.9297146 -56.310776
867452500 -2.4071069 -47.244976 -21.743826 -142.37152 -21.742096 -142.07947 -1.9281437 -56.404545
867454375 -2.406714 -47.406216 -21.701044 -142.53886 -21.698231 -142.21065 -1.9280113 -56.512455
867456250 -2.4077926 -47.533943 -21.692974 -142.60745 -21.652075 -142.50668 -1.9282527 -56.645515
867458125 -2.3987987 -47.687618 -21.632561 -142.85802 -21.617632 -142.84244 -1.9277546 -56.750496
867460000 -2.403975 -47.817329 -21.583742 -143.09575 -21.588539 -143.01288 -1.9234381 -56.858105
867461875 -2.4062228 -47.941265 -21.523045 -143.41919 -21.533049 -143.1028 -1.9263059 -56.995258
867463750 -2.4026411 -48.114666 -21.492294 -143.60571 -21.469875 -143.44138 -1.927431 -57.102409
867465625 -2.4028313 -48.221695 -21.440901 -143.67737 -21.434298 -143.56091 -1.9246452 -57.206169
867467500 -2.4063451 -48.385571 -21.398205 -143.8662 -21.385044 -143.78513 -1.9241339 -57.313381
867469375 -2.4036276 -48.494167 -21.307863 -144.04269 -21.327951 -143.79239 -1.9219192 -57.446182
867471250 -2.4062204 -48.688557 -21.289913 -144.24098 -21.292828 -144.13507 -1.921731 -57.566837
867473125 -2.4052522 -48.79837 -21.240355 -144.32397 -21.217173 -144.58116 -1.9202532 -57.691277
867475000 -2.4088554 -48.912041 -21.192066 -144.67337 -21.21113 -144.57637 -1.924405 -57.800335
867476875 -2.4071226 -49.069195 -21.151608 -144.78383 -21.12793 -144.8181 -1.9251281 -57.911644
867478750 -2.4095073 -49.181221 -21.100191 -145.06279 -21.064821 -144.99345 -1.9232634 -58.03941
867480625 -2.4032292 -49.308006 -21.060787 -145.16167 -21.056185 -145.2719 -1.921405 -58.157219
