!Keysight Technologies,E5080A,MY55200989,A.11.70.00
!Date: Tuesday, January 30, 2018 08:36:45
!Correction: S11(Full 2 Port(1,2)) 
!S21(Full 2 Port(1,2)) 
!S12(Full 2 Port(1,2)) 
!S22(Full 2 Port(1,2)) 
!S2P File: Measurements: S11, S21, S12, S22:
# Hz S  dB   R 50
1005000000 -0.55037814 -159.51715 -40.678215 -70.004913 -40.491592 -70.157028 -0.41437319 -167.14442
1005312500 -0.55415279 -159.56834 -40.543106 -69.960815 -40.595467 -70.760658 -0.41360307 -167.21425
1005625000 -0.55525571 -159.60112 -40.433743 -71.307091 -40.774105 -70.027672 -0.41500241 -167.34828
1005937500 -0.55952692 -159.64311 -40.698719 -69.034889 -40.581135 -69.62677 -0.41801858 -167.41731
1006250000 -0.55084008 -159.69302 -40.737511 -69.61377 -40.547417 -69.789307 -0.41101435 -167.50587
1006562500 -0.54011399 -159.77971 -40.777359 -70.063469 -40.63327 -71.031998 -0.41745844 -167.62044
1006875000 -0.54066443 -159.85909 -40.555847 -68.438629 -40.610981 -69.046181 -0.41514051 -167.71944
1007187500 -0.54150826 -159.92564 -40.607563 -69.375992 -40.530781 -69.779312 -0.41687462 -167.86507
1007500000 -0.5351491 -160.02199 -40.327339 -69.949478 -40.469742 -69.964661 -0.42082462 -167.99675
1007812500 -0.53180605 -160.10838 -40.687576 -70.286888 -40.536007 -70.120949 -0.42106235 -168.09486
1008125000 -0.52922934 -160.18018 -40.711662 -70.343262 -40.713711 -70.149117 -0.42186561 -168.24216
1008437500 -0.53089237 -160.28203 -40.652771 -70.454453 -40.654186 -70.349892 -0.42755878 -168.40602
1008750000 -0.52943456 -160.40016 -40.655441 -70.584251 -40.639549 -70.715858 -0.43673837 -168.49036
1009062500 -0.52734733 -160.47171 -40.728146 -71.038162 -40.746258 -70.952576 -0.44533247 -168.58893
1009375000 -0.52466887 -160.58698 -40.712212 -71.266304 -40.733032 -70.965172 -0.45568553 -168.66595
1009687500 -0.52715826 -160.6752 -40.708363 -71.486107 -40.721764 -71.388222 -0.46368855 -168.77515
1010000000 -0.52421802 -160.77185 -40.767921 -71.589478 -40.744644 -71.662483 -0.4699699 -168.8591
1010312500 -0.52663296 -160.90517 -40.752541 -72.062592 -40.77187 -71.996033 -0.47594002 -168.94914
1010625000 -0.5260762 -161.04178 -40.809418 -72.018394 -40.841267 -72.260246 -0.47937912 -168.97504
1010937500 -0.52750117 -161.12761 -40.812054 -71.825645 -40.820736 -72.038437 -0.48377013 -169.12137
1011250000 -0.5294773 -161.23679 -40.851433 -72.945 -40.828457 -72.904999 -0.49190584 -169.20221
1011562500 -0.53118408 -161.35333 -41.004601 -72.790161 -40.993782 -72.87133 -0.49743542 -169.27498
1011875000 -0.53500807 -161.39589 -41.059811 -72.42691 -40.992287 -72.651459 -0.50968665 -169.37761
1012187500 -0.53150213 -161.51511 -41.119961 -72.757339 -41.083279 -72.947105 -0.51930112 -169.43092
1012500000 -0.53004146 -161.62273 -41.084923 -72.310257 -41.063927 -72.459541 -0.52028471 -169.53166
1012812500 -0.53209174 -161.75862 -41.169983 -72.841782 -41.156017 -72.538956 -0.52759349 -169.56812
1013125000 -0.53118956 -161.80861 -41.140999 -71.967468 -41.185768 -72.426247 -0.53966099 -169.62845
1013437500 -0.53724134 -161.91295 -41.133835 -72.205132 -41.20118 -72.095329 -0.54804265 -169.5817
1013750000 -0.53667706 -161.99785 -41.217621 -72.093185 -41.281071 -72.551888 -0.54998523 -169.64107
1014062500 -0.53972572 -162.08669 -41.311104 -72.154427 -41.311893 -71.946739 -0.55057555 -169.64323
1014375000 -0.54025716 -162.18707 -41.314632 -71.578049 -41.257507 -71.578896 -0.55192024 -169.68001
1014687500 -0.54396611 -162.29652 -41.219765 -71.758247 -41.24078 -71.890587 -0.54716343 -169.765
1015000000 -0.5446623 -162.42726 -41.119205 -71.667397 -41.155598 -71.855553 -0.54368258 -169.84172
1015312500 -0.54758739 -162.53064 -41.22686 -72.420685 -41.224205 -72.532242 -0.54621178 -169.90706
1015625000 -0.54936093 -162.59151 -41.194138 -72.600838 -41.226036 -72.208122 -0.54055369 -169.95607
1015937500 -0.55493581 -162.72504 -41.219631 -73.274849 -41.244263 -73.116638 -0.54183292 -170.03404
1016250000 -0.55577868 -162.77834 -41.350327 -73.147034 -41.428871 -73.28215 -0.55026704 -170.10036
1016562500 -0.55816269 -162.8204 -41.394382 -72.549217 -41.389843 -72.515472 -0.55107158 -170.15793
1016875000 -0.56009793 -162.992 -41.429134 -73.151222 -41.449646 -72.921974 -0.55376452 -170.20586
1017187500 -0.56625319 -163.08977 -41.444153 -72.428871 -41.450832 -72.610649 -0.54281664 -170.17268
1017500000 -0.56671309 -163.13142 -41.484913 -72.246353 -41.486671 -72.484673 -0.53360683 -170.24174
1017812500 -0.57488823 -163.2166 -41.412277 -72.523567 -41.42762 -72.583885 -0.52714801 -170.34048
1018125000 -0.57385123 -163.32622 -41.496948 -72.522583 -41.541859 -72.271667 -0.51838493 -170.40738
1018437500 -0.57683837 -163.38646 -41.5228 -71.947884 -41.531044 -72.439125 -0.51703519 -170.53455
1018750000 -0.58192402 -163.50433 -41.549454 -71.563416 -41.529785 -71.420471 -0.51816964 -170.58621
1019062500 -0.59331214 -163.58185 -41.542751 -71.660027 -41.593224 -71.80632 -0.51029211 -170.71225
1019375000 -0.60559064 -163.68109 -41.433414 -72.173027 -41.44437 -72.232246 -0.51550764 -170.75905
1019687500 -0.61143637 -163.71512 -41.480259 -72.190872 -41.502563 -72.079865 -0.51196802 -170.78401
1020000000 -0.61484993 -163.70784 -41.446491 -71.885612 -41.489933 -72.033867 -0.505014 -170.86734
1020312500 -0.60506958 -163.76439 -41.451588 -72.379982 -41.424229 -72.086189 -0.50455093 -170.95079
1020625000 -0.60112524 -163.81465 -41.458237 -72.437607 -41.519936 -72.054146 -0.49917108 -171.02292
1020937500 -0.59156245 -163.83817 -41.360947 -72.526443 -41.429256 -72.363365 -0.49383247 -171.08969
1021250000 -0.59435588 -163.89693 -41.463428 -72.912102 -41.447765 -73.077568 -0.48734725 -171.14795
1021562500 -0.58937675 -163.9697 -41.425442 -72.523781 -41.405746 -72.491699 -0.48034731 -171.21831
1021875000 -0.58251625 -163.99043 -41.471996 -73.368629 -41.455437 -73.436584 -0.46717587 -171.30917
1022187500 -0.57398188 -164.11131 -41.461273 -74.165962 -41.493362 -73.834663 -0.45856389 -171.40749
1022500000 -0.57380557 -164.20634 -41.524273 -73.973991 -41.538338 -73.179581 -0.4479689 -171.52567
1022812500 -0.57171059 -164.31831 -41.598232 -73.643303 -41.544579 -73.498993 -0.44406596 -171.66809
1023125000 -0.57277375 -164.39813 -41.597336 -74.159088 -41.615788 -73.771744 -0.43516752 -171.77773
1023437500 -0.56727171 -164.51736 -41.691227 -73.94931 -41.649822 -73.805046 -0.4359116 -171.92543
1023750000 -0.56727797 -164.62369 -41.708462 -74.231529 -41.688416 -74.338715 -0.43121994 -172.0359
1024062500 -0.56452 -164.70242 -41.757633 -74.396538 -41.764961 -73.98951 -0.43142992 -172.15103
1024375000 -0.56696916 -164.81845 -41.698219 -73.787254 -41.718571 -73.793518 -0.43287799 -172.26466
1024687500 -0.5641101 -164.92612 -41.718498 -73.874794 -41.747658 -73.861717 -0.42948818 -172.38606
1025000000 -0.56419975 -165.03688 -41.761677 -73.547318 -41.756294 -74.06205 -0.42617697 -172.48997
1025312500 -0.56045812 -165.09892 -41.692905 -73.705315 -41.656677 -73.763321 -0.42453203 -172.60408
1025625000 -0.55536538 -165.17484 -41.681572 -73.967697 -41.687557 -74.247818 -0.4198553 -172.77527
1025937500 -0.560036 -165.29005 -41.769272 -74.725655 -41.773006 -74.714775 -0.42060101 -172.86385
1026250000 -0.5548774 -165.42363 -41.762833 -74.626274 -41.780865 -74.629311 -0.41727486 -173.01419
1026562500 -0.5552181 -165.5125 -41.866566 -74.882111 -41.851044 -75.05423 -0.41620186 -173.1465
1026875000 -0.55806077 -165.64346 -41.834263 -75.409012 -41.851757 -75.259628 -0.4211536 -173.29158
1027187500 -0.55645931 -165.75536 -41.966167 -75.633812 -41.918243 -75.260124 -0.42015707 -173.3831
1027500000 -0.55123603 -165.85555 -42.002983 -75.071587 -41.991512 -75.259377 -0.42028499 -173.52655
1027812500 -0.54816759 -165.95769 -41.989258 -75.524208 -41.958897 -75.215187 -0.41062495 -173.63663
1028125000 -0.5472036 -166.09164 -42.03101 -75.700874 -42.013592 -75.879662 -0.41134647 -173.75276
1028437500 -0.55186188 -166.20784 -42.088749 -75.023048 -42.093342 -75.515732 -0.41018063 -173.9254
1028750000 -0.54784191 -166.34641 -42.220531 -75.631981 -42.221634 -75.223854 -0.4100756 -174.01392
1029062500 -0.55136108 -166.40376 -42.26601 -75.215546 -42.284409 -75.06292 -0.4165929 -174.15363
1029375000 -0.56126481 -166.56567 -42.368366 -74.336731 -42.327263 -74.333885 -0.41745436 -174.28368
1029687500 -0.56107479 -166.68095 -42.182686 -74.10952 -42.168991 -74.181808 -0.4204191 -174.34946
1030000000 -0.5599668 -166.75131 -42.230518 -74.46933 -42.210892 -74.590096 -0.41851825 -174.46855
1030312500 -0.56506193 -166.87823 -42.277946 -74.135155 -42.235027 -74.267792 -0.42201653 -174.59015
1030625000 -0.56317842 -166.94713 -42.220387 -73.506729 -42.228104 -74.208664 -0.42174122 -174.68524
1030937500 -0.56521952 -167.07068 -42.095875 -73.507423 -42.128761 -73.79261 -0.42583048 -174.81262
1031250000 -0.57000279 -167.20461 -42.0714 -73.950302 -42.033752 -73.913162 -0.42634484 -174.9362
1031562500 -0.57470882 -167.26003 -42.06723 -74.490746 -42.042496 -74.567184 -0.42755556 -175.01974
1031875000 -0.57576543 -167.3512 -42.041332 -74.486946 -42.041653 -74.420593 -0.4294706 -175.16418
1032187500 -0.58051848 -167.48752 -41.98259 -75.480621 -42.013798 -75.217506 -0.42747247 -175.29039
1032500000 -0.5740785 -167.51653 -42.039745 -76.159706 -42.127003 -75.981148 -0.43284151 -175.3891
1032812500 -0.57923889 -167.65858 -42.127773 -75.834091 -42.11499 -76.11116 -0.43144763 -175.50711
1033125000 -0.58732736 -167.7457 -42.1045 -76.166855 -42.144878 -76.18531 -0.43025538 -175.62033
1033437500 -0.59145659 -167.85747 -42.193359 -77.432922 -42.125599 -77.121506 -0.43324998 -175.74225
1033750000 -0.59566265 -167.91679 -42.171276 -77.383293 -42.243889 -77.735374 -0.43369645 -175.86575
1034062500 -0.60308641 -167.98103 -42.340981 -77.266731 -42.249039 -77.45565 -0.43829226 -175.95787
1034375000 -0.60209936 -168.03047 -42.357883 -77.406616 -42.386261 -77.765839 -0.44673693 -176.05699
1034687500 -0.60166502 -168.10251 -42.460068 -77.377678 -42.474804 -77.505707 -0.44359937 -176.13214
1035000000 -0.59690225 -168.17992 -42.521282 -77.647667 -42.565357 -77.547951 -0.44313338 -176.21364
1035312500 -0.5951075 -168.29776 -42.53912 -77.0942 -42.559666 -76.924355 -0.44328457 -176.33897
1035625000 -0.59358168 -168.43164 -42.538498 -76.988152 -42.56926 -76.79277 -0.44220296 -176.44377
1035937500 -0.59623235 -168.49715 -42.559933 -77.283043 -42.515484 -77.499008 -0.44350693 -176.5392
1036250000 -0.59330571 -168.62422 -42.593548 -77.569534 -42.644398 -77.696571 -0.44527721 -176.65703
1036562500 -0.59192342 -168.72217 -42.668224 -77.435532 -42.672821 -77.366264 -0.4454135 -176.74615
1036875000 -0.59315151 -168.82413 -42.744068 -78.245842 -42.708694 -77.529236 -0.44841433 -176.85313
1037187500 -0.58975112 -168.85611 -42.721901 -77.5205 -42.723049 -77.381485 -0.44642633 -176.97769
1037500000 -0.59077543 -168.98335 -42.663361 -77.710648 -42.671696 -77.502296 -0.44924298 -177.07896
1037812500 -0.59106427 -169.08797 -42.657497 -77.866394 -42.662724 -78.199905 -0.44394416 -177.17686
1038125000 -0.59066248 -169.23624 -42.75795 -78.471619 -42.731499 -78.419411 -0.44599217 -177.3092
1038437500 -0.59250909 -169.29596 -42.854317 -78.929985 -42.810616 -79.070404 -0.44305819 -177.4082
1038750000 -0.5912655 -169.40608 -42.847527 -79.266014 -42.934029 -79.368683 -0.44497108 -177.52518
1039062500 -0.59707826 -169.50276 -43.036682 -79.043404 -43.039024 -79.302399 -0.44303283 -177.7048
1039375000 -0.59556854 -169.62703 -43.117733 -78.970039 -43.161022 -78.591942 -0.44547725 -177.79381
1039687500 -0.59616041 -169.71136 -43.229427 -78.816788 -43.261005 -78.051247 -0.44834244 -177.92006
1040000000 -0.59995925 -169.79541 -43.270279 -77.879021 -43.207813 -77.872353 -0.44721964 -178.01346
1040312500 -0.59570736 -169.89758 -43.213627 -77.830826 -43.162838 -78.220665 -0.45158663 -178.10751
1040625000 -0.59394908 -169.99913 -43.165066 -77.545639 -43.12582 -77.86319 -0.45407981 -178.25107
1040937500 -0.59574038 -170.10695 -43.359215 -78.060699 -43.338608 -78.191147 -0.4541406 -178.33038
1041250000 -0.59269249 -170.20549 -43.299953 -77.316002 -43.316315 -77.304131 -0.45230418 -178.41158
1041562500 -0.59394783 -170.33147 -43.213734 -77.301208 -43.223007 -77.293335 -0.45031959 -178.53668
1041875000 -0.59194177 -170.36284 -43.200546 -77.903702 -43.197113 -77.827454 -0.45149383 -178.64169
1042187500 -0.58743328 -170.47269 -43.26862 -77.519783 -43.258984 -77.724297 -0.45131722 -178.77649
1042500000 -0.59041345 -170.58894 -43.321972 -77.939072 -43.217125 -78.060661 -0.44823349 -178.88051
1042812500 -0.58724493 -170.70221 -43.333057 -78.263863 -43.36829 -77.966545 -0.4552691 -178.97482
1043125000 -0.58749974 -170.8318 -43.364872 -77.675285 -43.400654 -78.28653 -0.45132235 -179.10872
1043437500 -0.58651334 -170.94949 -43.430328 -78.148659 -43.410191 -77.838058 -0.45434007 -179.23416
1043750000 -0.59137982 -171.06946 -43.485596 -79.008324 -43.456642 -78.452309 -0.44940355 -179.35995
1044062500 -0.59326714 -171.19719 -43.549229 -78.675468 -43.492493 -78.658127 -0.45135161 -179.49266
1044375000 -0.59534407 -171.25 -43.585224 -78.605667 -43.652046 -78.62455 -0.45566303 -179.62369
1044687500 -0.59976327 -171.34369 -43.668995 -78.49279 -43.672894 -78.222534 -0.45900121 -179.72354
1045000000 -0.59900051 -171.43668 -43.677753 -78.34346 -43.711952 -78.802887 -0.45516291 -179.84402
1045312500 -0.59976608 -171.54445 -43.74921 -78.068298 -43.660919 -78.349281 -0.46030909 -179.95844
1045625000 -0.59713978 -171.67708 -43.724724 -78.279831 -43.6642 -78.23307 -0.45925122 179.94188
1045937500 -0.59697849 -171.75511 -43.838707 -77.551224 -43.845867 -77.812149 -0.45947886 179.79875
1046250000 -0.59246188 -171.85594 -43.751297 -77.767632 -43.746563 -77.200409 -0.46036547 179.69737
1046562500 -0.59244394 -172.01575 -43.633022 -77.162262 -43.683468 -77.222931 -0.45613995 179.58965
1046875000 -0.59413832 -172.13277 -43.739326 -78.187714 -43.753307 -77.747284 -0.45589554 179.49057
1047187500 -0.60030103 -172.25801 -43.778397 -77.836533 -43.714142 -77.861908 -0.45379612 179.41132
1047500000 -0.6072064 -172.3681 -43.688992 -77.856613 -43.715279 -77.953629 -0.45689356 179.2756
1047812500 -0.61322886 -172.46568 -43.714962 -77.931931 -43.68198 -77.889 -0.45161906 179.17004
1048125000 -0.615058 -172.56107 -43.702511 -78.199135 -43.669422 -78.458412 -0.45232734 179.04111
1048437500 -0.61546654 -172.6543 -43.650093 -79.121735 -43.656448 -79.760986 -0.45137808 178.90138
1048750000 -0.61725855 -172.68839 -43.733696 -79.906975 -43.775959 -80.108955 -0.45152006 178.77191
1049062500 -0.61552036 -172.76334 -43.931759 -81.359055 -43.857784 -80.542076 -0.44795251 178.65445
1049375000 -0.61705226 -172.85495 -43.927326 -81.563843 -43.981163 -81.262863 -0.44599217 178.51117
1049687500 -0.61309749 -172.93285 -44.103176 -81.678444 -44.149578 -81.990654 -0.44480142 178.36037
1050000000 -0.60692328 -173.02867 -44.256645 -81.582275 -44.288734 -81.603935 -0.447579 178.24016
1050312500 -0.60548478 -173.14342 -44.371235 -81.32135 -44.339405 -81.034439 -0.44823703 178.11296
1050625000 -0.60238677 -173.25203 -44.486965 -80.564964 -44.439213 -80.773254 -0.44951886 177.97523
1050937500 -0.59750921 -173.39082 -44.566753 -80.784096 -44.551537 -80.221771 -0.4508687 177.84218
1051250000 -0.59255624 -173.49516 -44.645321 -79.861855 -44.655373 -80.399666 -0.44818875 177.69167
1051562500 -0.59359854 -173.64919 -44.684742 -79.568687 -44.647457 -80.192505 -0.45303828 177.5446
1051875000 -0.59035474 -173.78841 -44.653507 -80.660599 -44.665455 -80.352661 -0.45514658 177.41226
1052187500 -0.5915457 -173.91959 -44.891731 -79.140007 -44.816811 -79.123871 -0.45517942 177.2614
1052500000 -0.59350926 -174.01859 -44.727718 -78.806267 -44.77343 -78.833725 -0.45798203 177.12354
1052812500 -0.59591401 -174.16469 -44.709255 -79.070526 -44.670925 -78.569801 -0.4615863 176.96939
1053125000 -0.59484208 -174.30827 -44.724392 -79.521637 -44.688606 -79.269608 -0.46060225 176.84531
1053437500 -0.60055155 -174.41161 -44.721436 -79.223236 -44.844292 -79.756187 -0.46766791 176.73018
1053750000 -0.60274476 -174.54208 -44.833065 -80.300499 -44.882938 -79.52108 -0.47261667 176.5647
1054062500 -0.60726911 -174.65939 -44.860935 -79.601486 -44.937408 -79.575157 -0.47503525 176.43452
1054375000 -0.61229974 -174.76996 -44.917831 -79.462234 -44.926987 -79.603317 -0.48312876 176.31128
1054687500 -0.61157328 -174.87778 -44.991688 -79.464737 -44.890053 -80.000648 -0.48731309 176.17198
1055000000 -0.61738795 -174.9857 -44.96505 -80.7771 -44.969925 -80.829994 -0.49446028 176.0722
1055312500 -0.62136942 -175.07402 -45.116661 -80.605431 -45.162975 -80.440323 -0.50079465 175.94968
1055625000 -0.62576336 -175.20874 -45.279465 -80.1017 -45.293919 -80.443199 -0.50181901 175.83771
1055937500 -0.62739629 -175.30025 -45.372929 -81.039688 -45.25182 -80.234749 -0.50634712 175.6965
1056250000 -0.62880635 -175.38841 -45.367626 -78.72039 -45.351067 -79.091423 -0.51365763 175.58736
1056562500 -0.62915599 -175.47546 -45.357929 -79.508537 -45.417782 -79.411011 -0.51984853 175.48277
1056875000 -0.62765539 -175.60301 -45.45961 -78.824356 -45.423653 -78.487083 -0.52525139 175.39552
1057187500 -0.62825394 -175.70653 -45.331417 -78.134315 -45.346596 -78.633194 -0.52460897 175.2896
1057500000 -0.62517041 -175.78508 -45.47374 -77.808105 -45.398605 -77.671799 -0.51633972 175.18018
1057812500 -0.62489301 -175.88235 -45.195148 -78.136719 -45.260715 -78.026489 -0.51959652 175.09221
1058125000 -0.62504315 -175.99324 -45.421589 -79.505531 -45.381878 -79.41832 -0.52114385 174.94748
1058437500 -0.62962735 -176.13354 -45.321503 -77.846382 -45.294193 -78.374977 -0.52405316 174.82918
1058750000 -0.62671351 -176.23351 -45.29871 -79.319664 -45.323189 -79.48381 -0.52535802 174.74185
1059062500 -0.62601757 -176.36589 -45.314308 -80.328087 -45.38446 -80.926819 -0.52389276 174.63387
1059375000 -0.62755799 -176.47697 -45.438877 -80.889053 -45.401539 -80.585312 -0.52119523 174.53673
1059687500 -0.62562287 -176.56931 -45.554077 -81.271599 -45.555298 -81.206886 -0.51978332 174.42892
1060000000 -0.62304974 -176.70108 -45.598915 -80.900726 -45.603168 -81.643181 -0.51469266 174.27831
1060312500 -0.62037575 -176.8353 -45.734524 -81.456673 -45.68866 -81.428543 -0.51547045 174.12807
1060625000 -0.62355769 -176.961 -45.749275 -82.003151 -45.75359 -81.853867 -0.51533931 173.99724
1060937500 -0.62321371 -177.10674 -46.011986 -82.743782 -45.952259 -83.298744 -0.51421314 173.83803
1061250000 -0.63003135 -177.25092 -46.076031 -82.101807 -46.103558 -82.002998 -0.51681292 173.70193
1061562500 -0.63465232 -177.37581 -46.237411 -82.174797 -46.220879 -81.946144 -0.5183627 173.54404
1061875000 -0.63963556 -177.49232 -46.148563 -82.131851 -46.240242 -82.581154 -0.52350903 173.40623
1062187500 -0.64623052 -177.58986 -46.472954 -82.533386 -46.454781 -82.631615 -0.52692091 173.25754
1062500000 -0.65225911 -177.71121 -46.518322 -81.835571 -46.474846 -81.8349 -0.53438842 173.1396
1062812500 -0.65601325 -177.78848 -46.707344 -81.184944 -46.646793 -81.004662 -0.5340541 173.0296
1063125000 -0.6582064 -177.88518 -46.681686 -80.29055 -46.649139 -80.81926 -0.53335321 172.9035
1063437500 -0.65552914 -177.96156 -46.684132 -81.606888 -46.66795 -81.432426 -0.53373957 172.78748
1063750000 -0.65288222 -178.04529 -46.851982 -81.114067 -46.824303 -80.948822 -0.53016835 172.63763
1064062500 -0.64887047 -178.14558 -46.900333 -81.663635 -46.906322 -80.760384 -0.53473228 172.49503
1064375000 -0.64258462 -178.24438 -46.922047 -80.476547 -46.932983 -80.876511 -0.53401542 172.40004
1064687500 -0.63925856 -178.34181 -46.884377 -81.15036 -46.880775 -80.977669 -0.53631586 172.26706
1065000000 -0.63681519 -178.45714 -46.960327 -81.926872 -47.080952 -81.06665 -0.53417122 172.12059
1065312500 -0.633012 -178.57372 -47.030609 -82.05909 -46.985714 -81.737129 -0.53472644 171.992
1065625000 -0.63532609 -178.7155 -47.151863 -82.635452 -47.20977 -82.155548 -0.53684407 171.87198
1065937500 -0.63124454 -178.89565 -47.309296 -82.400085 -47.254539 -81.938049 -0.53574628 171.72734
1066250000 -0.63340193 -179.01508 -47.59531 -83.690224 -47.6194 -83.342102 -0.53512478 171.57425
