!Agilent Technologies,E5071C,MY46104097,A.08.12
!Date: Wed Aug 16 11:23:26 2017
!Data & Calibration Information:
!Freq	S11:SOLT2(ON)	S21:SOLT2(ON)	S12:SOLT2(ON)	S22:SOLT2(ON)
# Hz S RI R 50
769000000	6.237453e-001	-7.381749e-001	-3.354012e-003	8.166221e-004	-2.271828e-003	1.848529e-003	6.164665e-001	-7.500739e-001
769125000	6.235361e-001	-7.385278e-001	-1.984256e-003	1.469493e-003	-3.736279e-003	5.496387e-004	6.183702e-001	-7.492680e-001
769250000	6.210182e-001	-7.370503e-001	-2.589543e-003	1.669440e-003	-2.007585e-003	1.441398e-003	6.154752e-001	-7.441819e-001
769375000	6.188116e-001	-7.335551e-001	-2.599377e-003	1.661844e-003	-2.723661e-003	1.407775e-003	6.153875e-001	-7.484822e-001
769500000	6.263509e-001	-7.357137e-001	-3.182425e-003	1.386244e-003	-2.471222e-003	1.404641e-003	6.108783e-001	-7.473422e-001
769625000	6.207367e-001	-7.353542e-001	-3.006452e-003	6.021543e-004	-3.199270e-003	1.376023e-003	6.116163e-001	-7.525481e-001
769750000	6.215028e-001	-7.348918e-001	-2.299340e-003	1.047480e-003	-2.243791e-003	1.571640e-003	6.190634e-001	-7.522789e-001
769875000	6.292659e-001	-7.438512e-001	-3.006467e-003	2.117585e-003	-2.229246e-003	1.751212e-003	6.093644e-001	-7.492342e-001
770000000	6.240168e-001	-7.366868e-001	-2.371032e-003	1.520653e-003	-3.555166e-003	1.960527e-003	6.122773e-001	-7.507658e-001
770125000	6.237019e-001	-7.334262e-001	-1.851755e-003	1.011757e-003	-3.082044e-003	3.946377e-004	6.075409e-001	-7.472788e-001
770250000	6.257801e-001	-7.276814e-001	-2.859571e-003	6.655397e-004	-2.599093e-003	1.061337e-003	6.191503e-001	-7.454363e-001
770375000	6.213796e-001	-7.293988e-001	-2.876499e-003	1.359579e-003	-3.095216e-003	1.368164e-003	6.117775e-001	-7.496320e-001
770500000	6.217582e-001	-7.404352e-001	-3.066682e-003	9.524411e-004	-3.366211e-003	1.487096e-003	6.123647e-001	-7.601761e-001
770625000	6.246235e-001	-7.372336e-001	-2.481848e-003	1.076366e-003	-2.867198e-003	6.548486e-004	6.133890e-001	-7.487021e-001
770750000	6.226186e-001	-7.443800e-001	-3.034982e-003	3.422271e-004	-1.586735e-003	2.892360e-004	6.169134e-001	-7.464372e-001
770875000	6.257236e-001	-7.329081e-001	-2.368349e-003	1.134858e-003	-2.471379e-003	1.102020e-003	6.129361e-001	-7.504618e-001
771000000	6.172035e-001	-7.437444e-001	-1.766378e-003	1.281170e-003	-2.704491e-003	2.159173e-003	6.101467e-001	-7.555933e-001
771125000	6.214979e-001	-7.409004e-001	-1.914636e-003	2.050322e-003	-2.194859e-003	1.654298e-003	6.124225e-001	-7.498432e-001
771250000	6.236852e-001	-7.414755e-001	-2.567155e-003	1.442184e-003	-2.988604e-003	8.984091e-004	6.110921e-001	-7.561681e-001
771375000	6.176743e-001	-7.387208e-001	-2.674056e-003	1.178398e-003	-2.855308e-003	8.082070e-004	6.107167e-001	-7.537941e-001
771500000	6.267907e-001	-7.356399e-001	-2.923046e-003	8.454300e-004	-2.930945e-003	1.975818e-003	6.070864e-001	-7.597285e-001
771625000	6.198585e-001	-7.395243e-001	-2.813753e-003	6.513393e-004	-2.494393e-003	4.578201e-004	6.073025e-001	-7.519230e-001
771750000	6.204416e-001	-7.442992e-001	-3.095999e-003	1.043471e-003	-3.677078e-003	1.063582e-003	6.040512e-001	-7.519650e-001
771875000	6.159541e-001	-7.490505e-001	-3.203890e-003	1.441801e-003	-2.498569e-003	1.264898e-004	6.099455e-001	-7.563536e-001
772000000	6.270393e-001	-7.451656e-001	-2.948047e-003	1.014453e-003	-3.159132e-003	1.144289e-003	6.086608e-001	-7.578993e-001
772125000	6.184778e-001	-7.405047e-001	-1.847633e-003	1.932530e-003	-2.919900e-003	1.593002e-003	6.041848e-001	-7.553241e-001
772250000	6.133524e-001	-7.484336e-001	-3.227069e-003	1.048023e-003	-3.278548e-003	1.454497e-003	6.089521e-001	-7.578657e-001
772375000	6.209537e-001	-7.416247e-001	-1.522339e-003	5.772402e-004	-1.461499e-003	5.013335e-004	6.088375e-001	-7.535142e-001
772500000	6.156584e-001	-7.407801e-001	-3.017151e-003	1.124122e-003	-3.392184e-003	-2.198976e-004	6.140410e-001	-7.439154e-001
772625000	6.173403e-001	-7.422203e-001	-2.320640e-003	1.588831e-003	-3.407650e-003	1.823993e-003	6.031401e-001	-7.556014e-001
772750000	6.193743e-001	-7.401088e-001	-3.043770e-003	6.304100e-004	-2.596642e-003	1.845197e-003	6.116372e-001	-7.553770e-001
772875000	6.171476e-001	-7.473966e-001	-1.979701e-003	1.464901e-003	-2.023350e-003	4.803956e-004	6.011985e-001	-7.543739e-001
773000000	6.240284e-001	-7.439975e-001	-2.345237e-003	1.212668e-003	-2.497019e-003	1.671850e-003	6.040024e-001	-7.603855e-001
773125000	6.155435e-001	-7.403727e-001	-2.691090e-003	4.815657e-004	-2.919978e-003	1.860615e-003	6.068775e-001	-7.666375e-001
773250000	6.230562e-001	-7.464376e-001	-3.616129e-003	1.479513e-003	-2.619690e-003	1.678532e-003	6.017357e-001	-7.556246e-001
773375000	6.226829e-001	-7.440816e-001	-1.817451e-003	2.012006e-004	-2.145722e-003	1.244649e-003	6.075428e-001	-7.604091e-001
773500000	6.184718e-001	-7.405415e-001	-2.070319e-003	1.647293e-003	-2.865932e-003	1.371301e-003	6.117374e-001	-7.531851e-001
773625000	6.175155e-001	-7.486547e-001	-2.795646e-003	1.511800e-003	-2.447414e-003	9.779827e-004	6.124329e-001	-7.685731e-001
773750000	6.149909e-001	-7.447977e-001	-2.484447e-003	1.152617e-003	-3.084714e-003	1.749846e-003	6.087576e-001	-7.562314e-001
773875000	6.146223e-001	-7.378166e-001	-2.578958e-003	1.406356e-003	-3.012067e-003	2.346066e-003	6.044713e-001	-7.548588e-001
774000000	6.259341e-001	-7.438164e-001	-2.380156e-003	3.021871e-004	-3.032524e-003	1.621690e-003	6.042925e-001	-7.596346e-001
774125000	6.186891e-001	-7.472984e-001	-2.623233e-003	9.888022e-004	-2.864511e-003	3.809782e-004	5.959630e-001	-7.618499e-001
774250000	6.159880e-001	-7.471689e-001	-2.562494e-003	2.394926e-003	-2.280923e-003	1.022674e-003	6.052055e-001	-7.671753e-001
774375000	6.164883e-001	-7.470981e-001	-3.032917e-003	1.488361e-003	-3.858720e-003	1.603190e-003	6.073519e-001	-7.559175e-001
774500000	6.178792e-001	-7.313128e-001	-2.722056e-003	1.607169e-003	-2.337788e-003	5.242780e-004	6.043175e-001	-7.619364e-001
774625000	6.124740e-001	-7.488875e-001	-2.288373e-003	1.679613e-003	-1.792038e-003	2.374705e-003	6.049100e-001	-7.610473e-001
774750000	6.154772e-001	-7.394444e-001	-3.249675e-003	1.859249e-003	-2.613726e-003	-6.759289e-006	5.960242e-001	-7.586249e-001
774875000	6.148566e-001	-7.505140e-001	-2.726775e-003	1.165017e-003	-2.669961e-003	1.615476e-003	6.024333e-001	-7.581773e-001
775000000	6.199535e-001	-7.544659e-001	-2.628656e-003	1.766562e-003	-1.766055e-003	2.075689e-003	6.038101e-001	-7.586296e-001
775125000	6.100172e-001	-7.480159e-001	-3.115132e-003	-6.225739e-005	-2.422268e-003	1.493000e-003	6.076030e-001	-7.611889e-001
775250000	6.028835e-001	-7.484425e-001	-2.258048e-003	1.933122e-003	-2.341615e-003	5.851954e-004	6.039100e-001	-7.701407e-001
775375000	6.148222e-001	-7.495100e-001	-4.067537e-003	6.138695e-004	-3.907733e-003	1.192657e-003	6.053083e-001	-7.551813e-001
775500000	6.082831e-001	-7.522145e-001	-3.284546e-003	1.946844e-003	-2.499125e-003	1.458477e-003	6.057246e-001	-7.626842e-001
775625000	6.156566e-001	-7.512128e-001	-2.913961e-003	7.789244e-004	-2.984682e-003	1.341287e-003	6.068548e-001	-7.654827e-001
775750000	6.081806e-001	-7.431861e-001	-2.245755e-003	3.668257e-004	-1.530065e-003	2.041882e-003	5.951616e-001	-7.583409e-001
775875000	6.093300e-001	-7.533348e-001	-2.111013e-003	1.035379e-003	-3.299119e-003	1.667904e-003	5.965011e-001	-7.613443e-001
776000000	6.071460e-001	-7.508594e-001	-2.988355e-003	-3.237946e-004	-1.791452e-003	1.770580e-003	5.945042e-001	-7.653076e-001
776125000	6.088966e-001	-7.549235e-001	-1.451453e-003	2.119208e-003	-2.952826e-003	1.864430e-003	5.942742e-001	-7.686530e-001
776250000	6.140626e-001	-7.479124e-001	-2.095267e-003	9.196301e-004	-2.303545e-003	3.265634e-004	6.017166e-001	-7.622577e-001
776375000	6.070166e-001	-7.473597e-001	-1.750076e-003	1.170234e-003	-2.649566e-003	5.433659e-004	5.996267e-001	-7.667203e-001
776500000	6.061788e-001	-7.437302e-001	-3.802093e-003	1.151048e-003	-1.622024e-003	1.706563e-003	5.970245e-001	-7.614891e-001
776625000	6.060038e-001	-7.523295e-001	-2.704575e-003	5.945202e-004	-2.604920e-003	1.302763e-003	6.003912e-001	-7.686026e-001
776750000	6.110193e-001	-7.506390e-001	-3.802434e-003	6.287657e-004	-2.906258e-003	1.939914e-003	5.988739e-001	-7.698619e-001
776875000	6.097763e-001	-7.581936e-001	-2.643738e-003	4.667982e-004	-2.513680e-003	1.964691e-003	5.903807e-001	-7.568160e-001
777000000	6.076020e-001	-7.497662e-001	-2.824154e-003	1.377242e-003	-3.001164e-003	8.489711e-004	6.024566e-001	-7.741311e-001
777125000	6.030383e-001	-7.549006e-001	-1.692542e-003	2.164482e-003	-2.327730e-003	8.765959e-004	6.010399e-001	-7.655713e-001
777250000	6.030590e-001	-7.494755e-001	-2.747689e-003	1.842348e-003	-2.589731e-003	2.029351e-003	5.906113e-001	-7.622231e-001
777375000	6.103729e-001	-7.558586e-001	-1.544842e-003	1.981218e-004	-2.614802e-003	1.056628e-003	6.015358e-001	-7.623440e-001
777500000	6.039900e-001	-7.559217e-001	-3.603382e-003	4.884625e-004	-2.716770e-003	1.842042e-004	6.029204e-001	-7.702627e-001
777625000	6.015451e-001	-7.538861e-001	-2.751453e-003	1.398802e-003	-2.974569e-003	1.273364e-003	5.948793e-001	-7.755845e-001
777750000	6.067633e-001	-7.580103e-001	-3.017875e-003	1.073271e-003	-3.099219e-003	1.846186e-003	5.946268e-001	-7.641853e-001
777875000	6.098078e-001	-7.529702e-001	-2.758717e-003	4.685368e-004	-2.440837e-003	9.428189e-004	5.951266e-001	-7.702759e-001
778000000	6.092571e-001	-7.560125e-001	-2.998999e-003	1.305508e-003	-2.673787e-003	2.993416e-004	5.906481e-001	-7.721463e-001
778125000	6.077219e-001	-7.444377e-001	-2.755012e-003	1.177831e-003	-2.346219e-003	9.328668e-004	5.957627e-001	-7.694991e-001
778250000	6.138529e-001	-7.569720e-001	-1.883630e-003	2.221655e-003	-3.645693e-003	4.125745e-004	5.939720e-001	-7.770422e-001
778375000	6.030350e-001	-7.587135e-001	-2.575294e-003	2.619227e-004	-2.981397e-003	1.554753e-003	5.942731e-001	-7.677430e-001
778500000	6.004037e-001	-7.502037e-001	-3.357223e-003	4.116296e-004	-3.189712e-003	1.964238e-003	5.903057e-001	-7.590846e-001
778625000	5.984924e-001	-7.565744e-001	-3.543513e-003	1.374425e-003	-3.203183e-003	1.125637e-003	5.850357e-001	-7.573784e-001
778750000	6.009346e-001	-7.548215e-001	-2.701778e-003	1.142792e-003	-2.861788e-003	1.728130e-003	5.925542e-001	-7.676905e-001
778875000	6.040985e-001	-7.472340e-001	-2.210478e-003	1.795447e-003	-2.693597e-003	1.964193e-003	5.919336e-001	-7.745472e-001
779000000	5.936342e-001	-7.498063e-001	-3.102877e-003	1.044403e-003	-3.414036e-003	1.964589e-003	5.829508e-001	-7.658027e-001
779125000	5.944678e-001	-7.556330e-001	-2.932627e-003	8.730055e-004	-3.182491e-003	4.068683e-004	5.924758e-001	-7.712723e-001
779250000	6.039993e-001	-7.571533e-001	-2.131597e-003	1.723333e-003	-2.098417e-003	1.914579e-004	5.918096e-001	-7.756230e-001
779375000	6.000320e-001	-7.574842e-001	-2.875265e-003	2.143914e-003	-3.691669e-003	1.743237e-003	5.921559e-001	-7.702104e-001
779500000	5.989608e-001	-7.535190e-001	-2.535199e-003	9.193614e-004	-2.065041e-003	1.799015e-003	5.907437e-001	-7.736727e-001
779625000	6.003204e-001	-7.569080e-001	-2.383926e-003	5.550266e-004	-2.734585e-003	2.295665e-003	5.908856e-001	-7.657039e-001
779750000	6.004314e-001	-7.565195e-001	-2.978610e-003	2.461979e-003	-3.052179e-003	2.273333e-003	5.861631e-001	-7.712808e-001
779875000	5.931646e-001	-7.610414e-001	-2.125611e-003	1.641436e-003	-2.557633e-003	1.523634e-003	5.872689e-001	-7.708190e-001
780000000	5.996396e-001	-7.480854e-001	-3.961975e-003	9.476851e-004	-3.185102e-003	1.636131e-003	5.891619e-001	-7.691694e-001
780125000	5.955004e-001	-7.553216e-001	-2.668771e-003	1.575657e-003	-2.768442e-003	1.366490e-003	5.835540e-001	-7.732515e-001
780250000	5.939934e-001	-7.642626e-001	-2.075781e-003	9.114990e-004	-3.273524e-003	1.668300e-003	5.919293e-001	-7.632012e-001
780375000	6.035315e-001	-7.528373e-001	-3.883099e-003	9.451991e-004	-2.802315e-003	1.451282e-003	5.815039e-001	-7.723356e-001
780500000	5.976220e-001	-7.593583e-001	-3.903474e-003	6.590574e-004	-2.306076e-003	1.143864e-003	5.831242e-001	-7.753558e-001
780625000	5.955104e-001	-7.608620e-001	-2.835023e-003	1.223143e-003	-3.359546e-003	5.980683e-004	5.874403e-001	-7.791952e-001
780750000	5.941020e-001	-7.546962e-001	-3.332107e-003	3.721374e-004	-1.970093e-003	9.258052e-004	5.805974e-001	-7.680835e-001
780875000	6.016396e-001	-7.566725e-001	-3.522784e-003	9.762920e-004	-3.051466e-003	3.720330e-004	5.926957e-001	-7.709232e-001
781000000	5.925704e-001	-7.597875e-001	-2.514524e-003	2.089411e-003	-2.460145e-003	1.440643e-003	5.799995e-001	-7.664455e-001
781125000	5.971196e-001	-7.574217e-001	-2.060312e-003	8.180806e-004	-2.957825e-003	1.754926e-003	5.828470e-001	-7.724105e-001
781250000	5.973393e-001	-7.661833e-001	-2.195575e-003	1.859455e-003	-3.103809e-003	1.574699e-003	5.847059e-001	-7.712731e-001
781375000	5.874757e-001	-7.601372e-001	-2.991311e-003	1.004235e-003	-1.497014e-003	2.649217e-003	5.792324e-001	-7.712176e-001
781500000	6.030435e-001	-7.559026e-001	-2.644868e-003	1.960974e-003	-2.842020e-003	1.133809e-003	5.844060e-001	-7.709120e-001
781625000	5.965546e-001	-7.583485e-001	-3.969777e-003	1.331026e-003	-2.145555e-003	1.933985e-003	5.860022e-001	-7.755922e-001
781750000	5.989823e-001	-7.546585e-001	-4.006495e-003	1.157268e-003	-2.571699e-003	8.148673e-004	5.815007e-001	-7.612058e-001
781875000	5.864932e-001	-7.616381e-001	-1.894392e-003	1.138612e-003	-3.105782e-003	1.462475e-003	5.789666e-001	-7.756379e-001
782000000	5.954035e-001	-7.657925e-001	-2.539790e-003	1.278291e-003	-2.577364e-003	1.294725e-003	5.831926e-001	-7.746031e-001
782125000	5.885849e-001	-7.616823e-001	-2.643300e-003	7.100056e-004	-3.341469e-003	1.114798e-003	5.775407e-001	-7.716753e-001
782250000	5.890453e-001	-7.565407e-001	-3.407426e-003	1.222087e-003	-2.123889e-003	1.017023e-003	5.834800e-001	-7.785967e-001
782375000	5.982465e-001	-7.626197e-001	-2.583588e-003	1.867609e-003	-2.211821e-003	1.132432e-003	5.797995e-001	-7.792049e-001
782500000	5.904766e-001	-7.639006e-001	-3.736092e-003	1.279328e-003	-3.118341e-003	1.845360e-003	5.799407e-001	-7.739727e-001
782625000	5.857914e-001	-7.607089e-001	-3.116076e-003	1.519409e-003	-2.798910e-003	2.531120e-003	5.808182e-001	-7.732725e-001
782750000	5.879116e-001	-7.564952e-001	-4.427059e-003	9.970269e-004	-2.523496e-003	1.044253e-003	5.803574e-001	-7.710093e-001
782875000	5.958165e-001	-7.581917e-001	-2.739650e-003	9.891524e-004	-3.073685e-003	1.705193e-003	5.771787e-001	-7.672679e-001
783000000	5.982688e-001	-7.626757e-001	-3.433393e-003	7.739056e-004	-2.252680e-003	1.860077e-003	5.770276e-001	-7.713039e-001
783125000	5.895098e-001	-7.634582e-001	-3.323133e-003	1.578962e-003	-2.554886e-003	1.997427e-003	5.855787e-001	-7.833113e-001
783250000	5.857819e-001	-7.573291e-001	-3.357108e-003	1.402126e-003	-2.412363e-003	1.421445e-003	5.915302e-001	-7.731862e-001
783375000	5.897592e-001	-7.590052e-001	-3.332973e-003	3.392290e-004	-3.064654e-003	1.699901e-003	5.795131e-001	-7.844273e-001
783500000	5.929546e-001	-7.614816e-001	-2.905813e-003	7.424584e-004	-3.776203e-003	1.753480e-003	5.793009e-001	-7.714768e-001
783625000	5.874336e-001	-7.576244e-001	-3.097236e-003	1.792971e-003	-3.010835e-003	4.208878e-004	5.730235e-001	-7.697825e-001
783750000	5.876732e-001	-7.649388e-001	-3.220298e-003	1.124743e-003	-3.338600e-003	1.529126e-003	5.783223e-001	-7.755150e-001
783875000	5.869602e-001	-7.534786e-001	-3.151348e-003	6.698380e-004	-2.670205e-003	9.819027e-004	5.710446e-001	-7.756558e-001
784000000	5.885047e-001	-7.606935e-001	-2.164155e-003	1.299175e-003	-2.789597e-003	1.013559e-003	5.760712e-001	-7.763840e-001
784125000	5.862402e-001	-7.653811e-001	-3.468251e-003	1.398483e-003	-2.950325e-003	1.005338e-003	5.772389e-001	-7.758268e-001
784250000	5.886462e-001	-7.712258e-001	-2.749939e-003	1.821139e-004	-3.023991e-003	1.613524e-003	5.731497e-001	-7.814412e-001
784375000	5.795038e-001	-7.639151e-001	-3.456997e-003	8.635365e-004	-3.140219e-003	1.447011e-003	5.756420e-001	-7.830158e-001
784500000	5.868354e-001	-7.648088e-001	-2.859303e-003	1.652365e-003	-2.560219e-003	1.343330e-003	5.763909e-001	-7.748335e-001
784625000	5.875451e-001	-7.665379e-001	-2.537516e-003	1.499341e-003	-2.648261e-003	3.174105e-003	5.728353e-001	-7.822632e-001
784750000	5.785759e-001	-7.591108e-001	-3.324921e-003	1.317208e-003	-3.603019e-003	5.161284e-004	5.732778e-001	-7.817992e-001
784875000	5.841548e-001	-7.658990e-001	-2.963287e-003	1.722534e-003	-3.441115e-003	2.222624e-003	5.777587e-001	-7.784348e-001
785000000	5.833498e-001	-7.687920e-001	-2.382644e-003	1.877142e-003	-3.882763e-003	1.847958e-003	5.846901e-001	-7.870424e-001
785125000	5.749605e-001	-7.659616e-001	-3.375678e-003	1.194905e-003	-3.027229e-003	1.738961e-003	5.771714e-001	-7.776843e-001
785250000	5.788640e-001	-7.607580e-001	-3.527542e-003	2.468990e-003	-2.400426e-003	1.197696e-003	5.658513e-001	-7.717420e-001
785375000	5.856316e-001	-7.658820e-001	-2.208770e-003	1.278335e-003	-3.349721e-003	6.946681e-004	5.673773e-001	-7.782708e-001
785500000	5.807754e-001	-7.648910e-001	-2.463948e-003	1.976259e-003	-3.504994e-003	1.076521e-003	5.735996e-001	-7.893559e-001
785625000	5.773205e-001	-7.647740e-001	-3.616361e-003	1.733963e-003	-3.864509e-003	1.561276e-003	5.744095e-001	-7.744739e-001
785750000	5.827780e-001	-7.566275e-001	-2.202517e-003	1.470036e-003	-2.224597e-003	1.591245e-003	5.672055e-001	-7.718042e-001
785875000	5.902832e-001	-7.635499e-001	-2.929580e-003	2.516512e-003	-3.053444e-003	1.904137e-003	5.654355e-001	-7.773756e-001
786000000	5.832438e-001	-7.698341e-001	-2.467609e-003	1.098727e-003	-2.571942e-003	2.799882e-003	5.684587e-001	-7.796878e-001
786125000	5.837595e-001	-7.599678e-001	-2.472873e-003	1.502905e-003	-3.042473e-003	1.571726e-003	5.710020e-001	-7.755404e-001
786250000	5.730569e-001	-7.717154e-001	-3.363078e-003	1.714573e-003	-2.755169e-003	2.089579e-003	5.602031e-001	-7.772944e-001
786375000	5.765954e-001	-7.566497e-001	-2.874815e-003	1.874902e-003	-3.087653e-003	2.072043e-003	5.705502e-001	-7.818558e-001
786500000	5.834612e-001	-7.678939e-001	-2.685971e-003	1.635240e-003	-2.482892e-003	1.317488e-003	5.745473e-001	-7.761039e-001
786625000	5.785124e-001	-7.633667e-001	-2.940710e-003	9.035098e-004	-2.690456e-003	2.176179e-003	5.682532e-001	-7.752522e-001
786750000	5.766185e-001	-7.688529e-001	-2.438111e-003	7.395682e-004	-4.845922e-003	2.581974e-003	5.723830e-001	-7.881454e-001
786875000	5.730477e-001	-7.686057e-001	-2.938939e-003	8.158465e-004	-2.798229e-003	1.698102e-003	5.636336e-001	-7.859546e-001
787000000	5.768336e-001	-7.675550e-001	-2.721424e-003	1.306022e-003	-1.996960e-003	1.759811e-003	5.615340e-001	-7.799629e-001
787125000	5.798541e-001	-7.589961e-001	-3.257253e-003	1.499401e-003	-2.772047e-003	1.658531e-003	5.603964e-001	-7.778857e-001
787250000	5.778127e-001	-7.666053e-001	-5.045239e-003	4.262170e-004	-2.244880e-003	1.992381e-003	5.643133e-001	-7.810661e-001
787375000	5.706907e-001	-7.673956e-001	-2.337344e-003	1.284198e-003	-3.641486e-003	1.516548e-003	5.658724e-001	-7.803350e-001
787500000	5.763076e-001	-7.590283e-001	-2.792426e-003	2.330482e-003	-2.559440e-003	1.444402e-003	5.602716e-001	-7.724321e-001
787625000	5.741228e-001	-7.679891e-001	-2.559019e-003	1.522043e-003	-2.790019e-003	1.502101e-003	5.631237e-001	-7.776383e-001
787750000	5.687553e-001	-7.626644e-001	-3.118809e-003	1.366964e-003	-2.521263e-003	2.378881e-003	5.589956e-001	-7.804601e-001
787875000	5.654264e-001	-7.664965e-001	-3.096383e-003	7.957057e-004	-2.776432e-003	5.330919e-004	5.627426e-001	-7.860723e-001
788000000	5.712179e-001	-7.699012e-001	-3.070394e-003	1.260570e-003	-2.627217e-003	1.370178e-003	5.637317e-001	-7.809210e-001
788125000	5.703963e-001	-7.665690e-001	-4.420323e-003	1.639870e-003	-2.371062e-003	1.355126e-003	5.596697e-001	-7.750511e-001
788250000	5.754033e-001	-7.650924e-001	-2.716690e-003	6.532986e-004	-2.611204e-003	2.752038e-003	5.504041e-001	-7.764916e-001
788375000	5.631712e-001	-7.667854e-001	-2.524245e-003	1.297457e-003	-3.237076e-003	1.500888e-003	5.604596e-001	-7.815297e-001
788500000	5.637972e-001	-7.707203e-001	-2.414829e-003	1.554952e-003	-3.926800e-003	1.062078e-003	5.750352e-001	-7.841134e-001
