!Agilent Technologies,E5070B,MY42401607,A.08.11
!Date: Tue Nov 01 11:06:32 2016
!Data & Calibration Information:
!Freq	S11:SOLT2(ON)	S31:SOLT2(ON)	S13:SOLT2(ON)	S33:SOLT2(ON)
# Hz S dB R 50
10000000	-9.438225e-003	-2.761596e+000	-7.897978e+001	1.023141e+002	-7.751663e+001	9.512266e+001	5.614792e-003	-2.771433e+000
10618750	-1.737722e-002	-2.965042e+000	-8.418725e+001	4.572218e+000	-7.965667e+001	-2.885987e+000	-1.189602e-002	-2.947441e+000
11237500	4.749076e-003	-3.091687e+000	-8.896698e+001	-4.592308e+001	-9.423666e+001	4.929509e+000	-1.279074e-002	-3.084935e+000
11856250	-1.222908e-002	-3.325307e+000	-8.090693e+001	8.425269e+001	-8.114335e+001	9.470434e+001	-5.155533e-003	-3.249092e+000
12475000	-1.555561e-002	-3.404882e+000	-6.345512e+001	-1.644216e+001	-6.372309e+001	-1.157527e+001	-1.203674e-002	-3.387519e+000
13093750	-8.768559e-004	-3.596687e+000	-8.016547e+001	1.029805e+002	-8.318967e+001	9.288812e+001	-1.836078e-002	-3.575936e+000
13712500	-8.055937e-003	-3.741973e+000	-7.936312e+001	1.068128e+002	-7.903582e+001	9.872882e+001	-8.325179e-003	-3.729089e+000
14331250	-1.251676e-002	-3.919924e+000	-8.485440e+001	7.676721e+001	-8.278692e+001	1.099505e+002	-5.212754e-003	-3.924882e+000
14950000	3.100190e-004	-4.127138e+000	-7.490686e+001	7.556348e+001	-7.419480e+001	8.909312e+001	-1.577385e-002	-4.094656e+000
15568750	-1.055010e-002	-4.253266e+000	-8.145470e+001	1.280679e+002	-7.823015e+001	1.309878e+002	-1.145960e-002	-4.236371e+000
16187500	-1.302287e-002	-4.462961e+000	-7.829215e+001	1.051904e+002	-7.970187e+001	1.327411e+002	-1.135823e-002	-4.333176e+000
16806250	-1.640981e-002	-4.626226e+000	-8.412423e+001	1.553709e+002	-8.018894e+001	1.446502e+002	-3.854128e-003	-4.636395e+000
17425000	-1.643389e-002	-4.804966e+000	-8.202200e+001	7.024568e+001	-8.217781e+001	1.011894e+002	-1.486540e-002	-4.765465e+000
18043750	-1.837681e-002	-4.968175e+000	-7.476713e+001	-7.063690e+001	-7.337490e+001	-7.215641e+001	-1.640997e-002	-4.932142e+000
18662500	-1.307369e-002	-5.181255e+000	-7.552402e+001	7.622146e+001	-7.723061e+001	5.255026e+001	-2.315877e-002	-5.050442e+000
19281250	-1.260329e-002	-5.310857e+000	-8.188287e+001	7.864682e+001	-7.802650e+001	7.744935e+001	-1.104787e-002	-5.268887e+000
19900000	-1.358034e-002	-5.471832e+000	-8.069816e+001	7.216387e+001	-8.067869e+001	8.116903e+001	-3.001393e-003	-5.479102e+000
20518750	-3.757629e-002	-5.702725e+000	-8.006954e+001	6.269378e+001	-7.979300e+001	8.711165e+001	9.664210e-005	-5.625127e+000
21137500	1.707279e-003	-5.796362e+000	-7.665879e+001	9.149293e+001	-7.681742e+001	7.877209e+001	-2.435893e-002	-5.741217e+000
21756250	7.292458e-003	-5.850642e+000	-8.271975e+001	9.811274e+001	-8.030445e+001	1.009200e+002	-1.721069e-002	-5.934203e+000
22375000	-1.681444e-002	-6.140430e+000	-8.158160e+001	7.851954e+001	-7.557876e+001	8.913556e+001	-1.236989e-002	-6.066898e+000
22993750	-2.701352e-002	-6.366477e+000	-7.945776e+001	9.562538e+001	-7.939864e+001	6.594535e+001	-5.852297e-003	-6.212581e+000
23612500	-9.074005e-003	-6.445279e+000	-7.737826e+001	6.789318e+001	-7.476944e+001	7.441316e+001	-1.484507e-002	-6.474873e+000
24231250	-2.376512e-002	-6.783375e+000	-7.996678e+001	8.966340e+001	-8.101987e+001	9.863886e+001	-1.078873e-002	-6.610233e+000
24850000	-1.468209e-002	-6.841014e+000	-8.428695e+001	1.623770e+002	-8.241797e+001	1.149007e+002	-2.928928e-002	-6.831327e+000
25468750	-1.252343e-002	-7.042089e+000	-7.884010e+001	9.643069e+001	-8.177655e+001	8.895604e+001	-7.612552e-003	-6.909398e+000
26087500	-1.962562e-002	-7.332235e+000	-7.804506e+001	9.172470e+001	-8.011483e+001	3.818639e+001	-4.067750e-003	-7.146605e+000
26706250	-1.895612e-002	-7.363861e+000	-7.782616e+001	9.847666e+001	-7.651387e+001	1.056531e+002	-1.653348e-004	-7.279669e+000
27325000	-7.220896e-003	-7.542712e+000	-7.806750e+001	7.237418e+001	-7.832220e+001	7.911029e+001	-2.621818e-002	-7.484562e+000
27943750	-9.297159e-003	-7.691354e+000	-7.904108e+001	9.911884e+001	-8.896103e+001	6.316001e+001	-3.173068e-002	-7.645057e+000
28562500	-2.120948e-002	-7.832927e+000	-7.607020e+001	8.126699e+001	-7.798861e+001	7.253218e+001	-4.946240e-003	-7.809014e+000
29181250	-1.018547e-002	-7.963499e+000	-7.813867e+001	1.107623e+002	-7.938621e+001	1.041838e+002	-1.288154e-002	-7.973957e+000
29800000	-1.204412e-002	-8.268597e+000	-8.285399e+001	5.829781e+001	-8.121267e+001	9.847029e+001	-2.894528e-002	-8.091833e+000
30418750	-1.029603e-002	-8.347082e+000	-7.857005e+001	9.203143e+001	-7.535328e+001	7.099876e+001	-9.132420e-003	-8.303534e+000
31037500	2.420181e-003	-8.536529e+000	-7.401396e+001	6.768822e+001	-7.819975e+001	6.804028e+001	-1.667390e-002	-8.564326e+000
31656250	-1.191700e-002	-8.563740e+000	-8.017563e+001	1.128445e+002	-7.854507e+001	9.788603e+001	-4.460367e-003	-8.558966e+000
32275000	8.749770e-004	-8.835676e+000	-7.764036e+001	7.449328e+001	-7.615478e+001	7.564533e+001	-1.231779e-002	-8.756206e+000
32893750	-1.704363e-002	-8.906035e+000	-8.140052e+001	6.546897e+001	-7.779253e+001	6.548821e+001	-6.793112e-003	-8.901481e+000
33512500	-4.711087e-003	-9.221621e+000	-7.634689e+001	7.892904e+001	-7.542097e+001	6.453538e+001	-2.113296e-002	-9.166913e+000
34131250	-4.006247e-003	-9.356310e+000	-7.790011e+001	8.656058e+001	-7.599332e+001	6.628956e+001	-3.905954e-003	-9.287384e+000
34750000	-1.552198e-002	-9.674596e+000	-8.087562e+001	7.862225e+001	-7.912937e+001	5.601069e+001	-9.156483e-003	-9.462758e+000
35368750	-2.069305e-002	-9.645719e+000	-7.771602e+001	8.126201e+001	-7.872719e+001	6.873370e+001	-4.169265e-003	-9.647926e+000
35987500	-1.851164e-002	-9.874217e+000	-7.957015e+001	8.390262e+001	-8.153388e+001	8.032613e+001	-2.792296e-002	-9.761936e+000
36606250	-2.018159e-003	-1.016174e+001	-7.673922e+001	8.821777e+001	-7.773313e+001	8.777921e+001	-2.860330e-002	-1.002005e+001
37225000	2.792886e-002	-1.019061e+001	-7.762907e+001	1.133895e+002	-8.203926e+001	9.788055e+001	-2.250478e-002	-1.010342e+001
37843750	-1.429911e-002	-1.044482e+001	-7.476615e+001	7.079014e+001	-7.981993e+001	6.233710e+001	-8.779546e-003	-1.034352e+001
38462500	-1.820510e-002	-1.049865e+001	-7.473084e+001	1.091755e+002	-7.423210e+001	1.024120e+002	-3.579384e-002	-1.052257e+001
39081250	-1.586463e-002	-1.067834e+001	-7.942410e+001	1.071303e+002	-7.833004e+001	9.288079e+001	-1.556291e-002	-1.054774e+001
39700000	-7.158293e-003	-1.092770e+001	-7.687870e+001	8.080637e+001	-7.331790e+001	6.727989e+001	-2.074054e-002	-1.089028e+001
40318750	-1.682758e-002	-1.106350e+001	-9.284333e+001	-1.101897e+002	-8.951866e+001	-1.728506e+002	-1.246545e-002	-1.102384e+001
40937500	-2.591824e-002	-1.121139e+001	-7.391137e+001	7.290877e+001	-7.337539e+001	8.252858e+001	-1.173665e-002	-1.119009e+001
41556250	-3.633807e-002	-1.140012e+001	-7.067548e+001	1.885295e+001	-7.154006e+001	2.869930e+001	-1.830620e-002	-1.127981e+001
42175000	-3.340658e-002	-1.160592e+001	-7.626797e+001	6.177812e+001	-7.770505e+001	8.004457e+001	-2.566970e-002	-1.161469e+001
42793750	-1.584116e-002	-1.181052e+001	-7.185800e+001	8.054839e+001	-7.184872e+001	8.799836e+001	-2.124981e-002	-1.163220e+001
43412500	-3.980676e-002	-1.187892e+001	-7.338233e+001	9.694322e+001	-7.294854e+001	9.166411e+001	-7.681501e-003	-1.183139e+001
44031250	-2.660635e-002	-1.204402e+001	-7.425962e+001	9.410839e+001	-7.569841e+001	1.038555e+002	-9.683685e-003	-1.203136e+001
44650000	-2.956657e-002	-1.228699e+001	-7.326784e+001	4.644816e+001	-7.536432e+001	5.572001e+001	-2.825449e-002	-1.218660e+001
45268750	-3.490250e-002	-1.237989e+001	-7.261659e+001	6.947402e+001	-7.183058e+001	7.590994e+001	-2.066209e-002	-1.246047e+001
45887500	-1.788295e-002	-1.260076e+001	-7.022757e+001	8.109590e+001	-7.128384e+001	7.837654e+001	-1.268910e-002	-1.261657e+001
46506250	-8.695602e-003	-1.280175e+001	-7.248906e+001	7.652000e+001	-7.173780e+001	7.931938e+001	-2.650751e-002	-1.261888e+001
47125000	2.332501e-003	-1.290053e+001	-7.667244e+001	8.121927e+001	-7.378801e+001	5.959561e+001	-1.350112e-002	-1.284347e+001
47743750	-2.927461e-002	-1.309220e+001	-7.925350e+001	4.773078e+001	-7.859636e+001	7.515117e+001	-1.966613e-002	-1.301877e+001
48362500	-1.685570e-002	-1.321183e+001	-7.193685e+001	8.748634e+001	-7.244729e+001	7.005654e+001	4.410744e-003	-1.323255e+001
48981250	-6.407727e-003	-1.341284e+001	-7.668829e+001	7.175807e+001	-7.751310e+001	7.781923e+001	-2.496152e-002	-1.336271e+001
49600000	-1.631671e-002	-1.357532e+001	-7.672871e+001	1.141717e+002	-7.410589e+001	8.695939e+001	-1.693102e-002	-1.357000e+001
50218750	7.620440e-003	-1.368176e+001	-7.361057e+001	6.053573e+001	-7.451637e+001	7.024908e+001	-3.074649e-002	-1.362966e+001
50837500	-5.551373e-003	-1.387118e+001	-7.139544e+001	1.279029e+002	-7.231152e+001	1.219570e+002	-2.307657e-002	-1.378479e+001
51456250	1.338543e-002	-1.401887e+001	-7.246231e+001	8.048958e+001	-7.455784e+001	6.217238e+001	-2.778229e-002	-1.402247e+001
52075000	-1.711000e-002	-1.420941e+001	-7.814545e+001	6.385580e+001	-7.574923e+001	5.594853e+001	-4.875144e-002	-1.411248e+001
52693750	-1.476850e-002	-1.450967e+001	-7.689619e+001	6.913482e+001	-7.563503e+001	8.160758e+001	-2.017475e-002	-1.427826e+001
53312500	-3.411147e-002	-1.463812e+001	-7.152352e+001	3.291665e+001	-7.217219e+001	4.218723e+001	-1.796166e-003	-1.456782e+001
53931250	-5.324131e-003	-1.465366e+001	-7.510532e+001	8.610003e+001	-7.578738e+001	8.035916e+001	-3.750649e-002	-1.473228e+001
54550000	-1.766348e-002	-1.499460e+001	-7.380784e+001	9.002700e+001	-7.688616e+001	7.441971e+001	-2.215464e-002	-1.485191e+001
55168750	-1.707939e-002	-1.510000e+001	-7.536154e+001	6.949195e+001	-7.593713e+001	8.436767e+001	-1.797733e-002	-1.504169e+001
55787500	-1.985943e-002	-1.524357e+001	-7.210934e+001	6.909524e+001	-7.413298e+001	5.208303e+001	-2.519081e-002	-1.517702e+001
56406250	-1.250139e-002	-1.542633e+001	-7.460601e+001	6.893469e+001	-7.414991e+001	7.170630e+001	-9.075678e-003	-1.540509e+001
57025000	-1.454566e-002	-1.567149e+001	-7.373431e+001	6.820322e+001	-7.435706e+001	6.023200e+001	-2.885455e-002	-1.555199e+001
57643750	-1.273857e-002	-1.574336e+001	-7.275317e+001	6.655638e+001	-7.211991e+001	7.146211e+001	-1.819532e-002	-1.567551e+001
58262500	-1.464073e-002	-1.594237e+001	-7.281967e+001	7.839109e+001	-7.102429e+001	8.205527e+001	5.434356e-003	-1.582167e+001
58881250	-1.154977e-002	-1.610357e+001	-7.250373e+001	8.399009e+001	-7.269564e+001	6.706618e+001	-3.135737e-002	-1.603300e+001
59500000	-3.873706e-003	-1.618037e+001	-7.213388e+001	5.902874e+001	-7.307625e+001	5.562182e+001	-1.872224e-002	-1.615872e+001
60118750	-1.477492e-002	-1.636534e+001	-7.035748e+001	7.549640e+001	-7.218610e+001	7.850389e+001	-1.481027e-002	-1.648051e+001
60737500	-2.298041e-002	-1.667855e+001	-7.302921e+001	7.810417e+001	-7.157645e+001	7.814996e+001	-1.342857e-002	-1.655166e+001
61356250	-1.346257e-002	-1.676695e+001	-7.515667e+001	5.732004e+001	-7.241247e+001	8.010740e+001	-1.937096e-002	-1.672109e+001
61975000	-3.368772e-002	-1.700098e+001	-7.329507e+001	7.362374e+001	-7.053584e+001	8.154560e+001	-1.673313e-002	-1.689986e+001
62593750	-3.071849e-002	-1.711615e+001	-7.193312e+001	9.030632e+001	-7.262913e+001	9.028911e+001	-7.151456e-003	-1.706774e+001
63212500	-3.558617e-002	-1.728171e+001	-7.378552e+001	7.700328e+001	-7.366715e+001	8.999916e+001	-2.538253e-002	-1.714245e+001
63831250	-2.719125e-002	-1.745294e+001	-7.181374e+001	6.482077e+001	-7.227768e+001	6.200394e+001	-2.327041e-002	-1.724852e+001
64450000	-2.992831e-002	-1.753512e+001	-7.069826e+001	6.369912e+001	-7.194209e+001	5.191872e+001	-6.440910e-003	-1.744887e+001
65068750	-3.730803e-002	-1.777163e+001	-7.255357e+001	8.091589e+001	-7.191134e+001	7.928625e+001	-2.908201e-002	-1.777419e+001
65687500	-1.098933e-002	-1.799442e+001	-7.256583e+001	6.248732e+001	-7.173748e+001	7.081305e+001	-1.884289e-002	-1.793194e+001
66306250	-2.340622e-002	-1.811315e+001	-7.306013e+001	6.067821e+001	-7.140417e+001	6.639927e+001	-3.838214e-002	-1.812964e+001
66925000	-2.390923e-002	-1.833866e+001	-7.107217e+001	6.442509e+001	-7.138921e+001	7.328385e+001	-1.413077e-002	-1.822115e+001
67543750	4.078162e-003	-1.862453e+001	-7.321505e+001	6.660644e+001	-7.201953e+001	6.695425e+001	-3.069129e-002	-1.832288e+001
68162500	-4.855065e-002	-1.858861e+001	-7.302049e+001	7.485180e+001	-7.163030e+001	7.720339e+001	-1.705631e-002	-1.859534e+001
68781250	-1.933674e-002	-1.876862e+001	-7.220922e+001	5.802708e+001	-7.134909e+001	5.760501e+001	-3.915016e-002	-1.872667e+001
69400000	-1.740854e-002	-1.898032e+001	-7.205082e+001	7.769123e+001	-7.241139e+001	7.442499e+001	-2.827554e-002	-1.889072e+001
70018750	-1.959619e-002	-1.911118e+001	-7.118917e+001	7.601600e+001	-7.008213e+001	7.516047e+001	-2.628774e-002	-1.913862e+001
70637500	-2.723189e-002	-1.934902e+001	-7.164843e+001	7.540447e+001	-7.001000e+001	8.060588e+001	-1.591933e-002	-1.926322e+001
71256250	-2.410349e-002	-1.955630e+001	-7.023664e+001	5.600391e+001	-6.972693e+001	6.730779e+001	-2.344769e-002	-1.939381e+001
71875000	-1.805178e-002	-1.970138e+001	-7.144736e+001	7.517714e+001	-7.271052e+001	7.690758e+001	-2.483970e-002	-1.954083e+001
72493750	-2.839624e-002	-1.978076e+001	-6.751062e+001	7.082570e+001	-6.780482e+001	6.944839e+001	-1.741888e-002	-1.967285e+001
73112500	-2.858381e-002	-2.000344e+001	-7.260237e+001	5.451469e+001	-7.575640e+001	6.483544e+001	-2.713143e-002	-1.990843e+001
73731250	-4.069524e-002	-2.015835e+001	-6.684390e+001	8.296760e+001	-6.788855e+001	8.033135e+001	-3.555103e-002	-2.014659e+001
74350000	-2.312678e-002	-2.030490e+001	-7.064057e+001	7.873645e+001	-7.167884e+001	7.586302e+001	-1.798317e-002	-2.024042e+001
74968750	-3.100932e-002	-2.054459e+001	-7.153703e+001	7.228181e+001	-7.097834e+001	7.034203e+001	-1.815852e-002	-2.039322e+001
75587500	-2.637830e-002	-2.074232e+001	-6.895101e+001	7.182699e+001	-6.914210e+001	6.445763e+001	-1.895747e-002	-2.059658e+001
76206250	-5.031817e-002	-2.090453e+001	-7.077123e+001	8.383686e+001	-7.083128e+001	7.929481e+001	-3.270449e-002	-2.077478e+001
76825000	-4.021459e-002	-2.096364e+001	-7.515584e+001	3.813270e+001	-7.325320e+001	2.895950e+001	-3.211776e-002	-2.091333e+001
77443750	-2.875556e-002	-2.115813e+001	-7.060870e+001	7.053249e+001	-7.191943e+001	7.105795e+001	-1.243272e-002	-2.111229e+001
78062500	-2.161048e-002	-2.138420e+001	-7.202243e+001	6.686330e+001	-7.144730e+001	6.737893e+001	-2.041707e-002	-2.125203e+001
78681250	-2.213982e-002	-2.154005e+001	-7.243381e+001	6.292441e+001	-7.116446e+001	6.123065e+001	-1.826161e-002	-2.138316e+001
79300000	-2.036911e-002	-2.166078e+001	-7.022194e+001	5.383685e+001	-7.023220e+001	5.013630e+001	-2.637576e-002	-2.159655e+001
79918750	-1.241551e-002	-2.179384e+001	-7.072543e+001	7.395602e+001	-6.853786e+001	6.298258e+001	-2.103887e-002	-2.176504e+001
80537500	-4.282496e-002	-2.200022e+001	-7.146828e+001	6.789238e+001	-7.128811e+001	6.871920e+001	-3.941006e-002	-2.192067e+001
81156250	-1.764250e-002	-2.215024e+001	-6.962020e+001	7.570388e+001	-6.832972e+001	6.578971e+001	-2.965309e-002	-2.207286e+001
81775000	-2.317447e-002	-2.228931e+001	-6.852187e+001	6.610822e+001	-7.001028e+001	6.890889e+001	-2.213372e-002	-2.222464e+001
82393750	-3.035408e-002	-2.252762e+001	-6.990419e+001	6.482376e+001	-7.088748e+001	6.625787e+001	-3.459685e-002	-2.242672e+001
83012500	-1.813558e-002	-2.263835e+001	-7.050307e+001	6.381766e+001	-7.076182e+001	6.729578e+001	-1.523317e-002	-2.254529e+001
83631250	-3.043840e-002	-2.289636e+001	-6.998858e+001	6.142554e+001	-6.965836e+001	7.073199e+001	-1.434935e-002	-2.273986e+001
84250000	-2.815459e-002	-2.297372e+001	-6.856889e+001	7.649771e+001	-6.898230e+001	8.046550e+001	-2.083505e-002	-2.287508e+001
84868750	-3.139332e-002	-2.323197e+001	-6.951099e+001	6.431349e+001	-6.978301e+001	6.953054e+001	-2.722813e-002	-2.306151e+001
85487500	-3.091271e-002	-2.338656e+001	-6.788837e+001	6.591454e+001	-6.957751e+001	5.792520e+001	-3.722262e-002	-2.319105e+001
86106250	-2.682370e-002	-2.349720e+001	-7.044525e+001	6.372337e+001	-7.015895e+001	6.179301e+001	-2.421190e-002	-2.340550e+001
86725000	-1.060091e-002	-2.364670e+001	-7.225645e+001	5.272419e+001	-7.224150e+001	6.363370e+001	-3.616998e-002	-2.352979e+001
87343750	-2.970984e-002	-2.382676e+001	-7.033820e+001	6.032056e+001	-6.942125e+001	6.067455e+001	-2.674936e-002	-2.377155e+001
87962500	-3.837397e-002	-2.399864e+001	-7.018260e+001	6.649566e+001	-7.026766e+001	6.345987e+001	-3.458050e-002	-2.392581e+001
88581250	-3.302594e-002	-2.422323e+001	-7.006370e+001	7.117550e+001	-7.016268e+001	7.765363e+001	-2.581860e-002	-2.409337e+001
89200000	-3.859573e-002	-2.445655e+001	-7.007092e+001	5.871781e+001	-6.813612e+001	6.254467e+001	-9.628329e-003	-2.429000e+001
89818750	-2.681103e-002	-2.450353e+001	-7.064238e+001	6.408714e+001	-7.128529e+001	6.365784e+001	-3.010830e-002	-2.444320e+001
90437500	-1.954850e-002	-2.467553e+001	-6.844344e+001	7.455678e+001	-6.930640e+001	6.677730e+001	-3.336912e-002	-2.459824e+001
91056250	-2.525645e-002	-2.486064e+001	-7.019878e+001	6.819132e+001	-6.907407e+001	6.731745e+001	-1.991687e-002	-2.476169e+001
91675000	-2.767783e-002	-2.507057e+001	-6.901231e+001	6.796757e+001	-6.907532e+001	7.269694e+001	-2.355898e-002	-2.492067e+001
92293750	-2.148730e-002	-2.522943e+001	-6.899549e+001	6.869923e+001	-6.986067e+001	6.027833e+001	-2.484519e-002	-2.507177e+001
92912500	-1.533685e-002	-2.541814e+001	-6.885458e+001	6.601998e+001	-6.805698e+001	6.434740e+001	-2.995527e-002	-2.524883e+001
93531250	-3.067651e-002	-2.555475e+001	-6.946675e+001	5.982032e+001	-6.950869e+001	7.040019e+001	-3.327125e-002	-2.544924e+001
94150000	-2.481607e-002	-2.571935e+001	-6.971275e+001	6.554190e+001	-6.960611e+001	6.860762e+001	-2.562899e-002	-2.563728e+001
94768750	-3.352673e-002	-2.591099e+001	-6.856525e+001	5.583145e+001	-6.882355e+001	6.798918e+001	-3.824074e-002	-2.580958e+001
95387500	-2.996209e-002	-2.610797e+001	-6.909892e+001	6.673767e+001	-6.838266e+001	6.280092e+001	-2.975023e-002	-2.600408e+001
96006250	-3.842504e-002	-2.622030e+001	-6.847764e+001	6.250193e+001	-6.956524e+001	6.105648e+001	-2.210009e-002	-2.612032e+001
96625000	-2.844063e-002	-2.640920e+001	-6.890135e+001	5.994999e+001	-6.914764e+001	5.869068e+001	-2.034508e-002	-2.627646e+001
97243750	-3.848961e-002	-2.655559e+001	-6.831383e+001	5.883060e+001	-6.913616e+001	6.295450e+001	-2.909539e-002	-2.643388e+001
97862500	-3.248503e-002	-2.680800e+001	-6.808142e+001	6.304882e+001	-6.918354e+001	6.230164e+001	-3.141608e-002	-2.663286e+001
98481250	-2.340701e-002	-2.691113e+001	-6.897291e+001	6.886053e+001	-6.870111e+001	6.376221e+001	-3.004868e-002	-2.679443e+001
99100000	-3.603279e-002	-2.706050e+001	-6.808220e+001	5.195809e+001	-6.736299e+001	5.370251e+001	-3.387149e-002	-2.691452e+001
99718750	-3.789030e-002	-2.722061e+001	-7.361104e+001	7.367038e+001	-7.261288e+001	8.528186e+001	-3.243515e-002	-2.712524e+001
100337500	-4.753653e-002	-2.738462e+001	-6.917681e+001	5.194881e+001	-6.949525e+001	5.039501e+001	-4.086476e-002	-2.723109e+001
100956250	-4.514578e-002	-2.752053e+001	-7.083674e+001	5.030654e+001	-7.028763e+001	5.220462e+001	-3.235657e-002	-2.742893e+001
101575000	-3.433059e-002	-2.776568e+001	-6.789669e+001	5.937513e+001	-6.718926e+001	6.064577e+001	-2.577245e-002	-2.760691e+001
102193750	-6.621365e-002	-2.791646e+001	-6.571370e+001	3.881656e+001	-6.579859e+001	4.047764e+001	-3.231599e-002	-2.779849e+001
102812500	-3.741968e-002	-2.808300e+001	-6.874122e+001	5.192515e+001	-6.841436e+001	5.232823e+001	-2.649660e-002	-2.790075e+001
103431250	-3.699261e-002	-2.825608e+001	-6.816220e+001	7.449881e+001	-6.793095e+001	7.372235e+001	-2.383458e-002	-2.814035e+001
104050000	-4.662345e-002	-2.837814e+001	-6.859237e+001	5.646190e+001	-6.885013e+001	5.279109e+001	-2.866157e-002	-2.829185e+001
104668750	-4.139065e-002	-2.856033e+001	-6.772342e+001	6.902419e+001	-6.761004e+001	6.941267e+001	-2.024222e-002	-2.845874e+001
105287500	-2.518892e-002	-2.872921e+001	-6.705869e+001	5.751795e+001	-6.700841e+001	5.559115e+001	-4.186342e-002	-2.862616e+001
