!Agilent Technologies,E5071C,MY46104547,A.08.12
!Date: Wed May 17 14:18:40 2017
!Data & Calibration Information:
!Freq	S11:SOLT2(ON)	S21:SOLT2(ON)	S12:SOLT2(ON)	S22:SOLT2(ON)
# Hz S dB R 50
494000000	-7.277553e-001	1.644553e+002	-4.697642e+001	-1.304093e+002	-4.696121e+001	-1.302128e+002	-6.716803e-001	1.617887e+002
494018750	-7.271382e-001	1.641819e+002	-4.646099e+001	-1.303294e+002	-4.644079e+001	-1.302918e+002	-6.726929e-001	1.615486e+002
494037500	-7.269090e-001	1.639135e+002	-4.599192e+001	-1.309134e+002	-4.598039e+001	-1.307523e+002	-6.744023e-001	1.613065e+002
494056250	-7.271321e-001	1.636440e+002	-4.551320e+001	-1.309046e+002	-4.545955e+001	-1.308676e+002	-6.757570e-001	1.610680e+002
494075000	-7.279844e-001	1.633730e+002	-4.499898e+001	-1.309658e+002	-4.498408e+001	-1.309815e+002	-6.774943e-001	1.608203e+002
494093750	-7.286002e-001	1.631044e+002	-4.450142e+001	-1.309155e+002	-4.449919e+001	-1.311757e+002	-6.793226e-001	1.605784e+002
494112500	-7.300057e-001	1.628357e+002	-4.400966e+001	-1.310224e+002	-4.399955e+001	-1.308844e+002	-6.809494e-001	1.603292e+002
494131250	-7.313986e-001	1.625651e+002	-4.353925e+001	-1.313268e+002	-4.353121e+001	-1.312045e+002	-6.821142e-001	1.600839e+002
494150000	-7.332452e-001	1.622980e+002	-4.305844e+001	-1.313534e+002	-4.302284e+001	-1.313082e+002	-6.845190e-001	1.598318e+002
494168750	-7.351205e-001	1.620259e+002	-4.258707e+001	-1.316333e+002	-4.255950e+001	-1.315749e+002	-6.869781e-001	1.595725e+002
494187500	-7.371255e-001	1.617531e+002	-4.209719e+001	-1.315951e+002	-4.209311e+001	-1.315847e+002	-6.884503e-001	1.593229e+002
494206250	-7.405608e-001	1.614806e+002	-4.161586e+001	-1.319421e+002	-4.163089e+001	-1.318507e+002	-6.917823e-001	1.590652e+002
494225000	-7.433911e-001	1.612124e+002	-4.117851e+001	-1.320113e+002	-4.117233e+001	-1.319383e+002	-6.944801e-001	1.588043e+002
494243750	-7.459770e-001	1.609364e+002	-4.069627e+001	-1.322073e+002	-4.070301e+001	-1.322818e+002	-6.973489e-001	1.585468e+002
494262500	-7.490232e-001	1.606672e+002	-4.024122e+001	-1.324685e+002	-4.024690e+001	-1.325229e+002	-6.997306e-001	1.582839e+002
494281250	-7.521458e-001	1.603865e+002	-3.978405e+001	-1.326450e+002	-3.977639e+001	-1.325736e+002	-7.027014e-001	1.580153e+002
494300000	-7.558586e-001	1.601072e+002	-3.932970e+001	-1.329662e+002	-3.933663e+001	-1.329215e+002	-7.060264e-001	1.577476e+002
494318750	-7.592032e-001	1.598284e+002	-3.889347e+001	-1.330538e+002	-3.888404e+001	-1.331262e+002	-7.097224e-001	1.574758e+002
494337500	-7.626998e-001	1.595442e+002	-3.844545e+001	-1.334428e+002	-3.844193e+001	-1.333862e+002	-7.120884e-001	1.572043e+002
494356250	-7.671756e-001	1.592572e+002	-3.801267e+001	-1.336576e+002	-3.800335e+001	-1.335996e+002	-7.165245e-001	1.569291e+002
494375000	-7.718632e-001	1.589718e+002	-3.758713e+001	-1.339937e+002	-3.757055e+001	-1.339301e+002	-7.199671e-001	1.566511e+002
494393750	-7.765125e-001	1.586808e+002	-3.713316e+001	-1.342432e+002	-3.712470e+001	-1.341598e+002	-7.240303e-001	1.563737e+002
494412500	-7.812935e-001	1.583956e+002	-3.671825e+001	-1.345610e+002	-3.669903e+001	-1.344543e+002	-7.279111e-001	1.560939e+002
494431250	-7.858203e-001	1.581068e+002	-3.628326e+001	-1.349214e+002	-3.627425e+001	-1.348311e+002	-7.329936e-001	1.558101e+002
494450000	-7.908486e-001	1.578113e+002	-3.585504e+001	-1.352120e+002	-3.585226e+001	-1.351487e+002	-7.374689e-001	1.555254e+002
494468750	-7.954410e-001	1.575157e+002	-3.543989e+001	-1.355573e+002	-3.542441e+001	-1.355201e+002	-7.414836e-001	1.552364e+002
494487500	-8.009420e-001	1.572119e+002	-3.501425e+001	-1.358923e+002	-3.499777e+001	-1.358337e+002	-7.460629e-001	1.549426e+002
494506250	-8.059962e-001	1.569073e+002	-3.459043e+001	-1.362701e+002	-3.458832e+001	-1.362017e+002	-7.507143e-001	1.546471e+002
494525000	-8.108541e-001	1.565965e+002	-3.417292e+001	-1.366004e+002	-3.416086e+001	-1.365760e+002	-7.554676e-001	1.543505e+002
494543750	-8.172732e-001	1.562799e+002	-3.374971e+001	-1.370492e+002	-3.373770e+001	-1.369517e+002	-7.602419e-001	1.540480e+002
494562500	-8.231446e-001	1.559671e+002	-3.332693e+001	-1.374108e+002	-3.332363e+001	-1.373359e+002	-7.659957e-001	1.537408e+002
494581250	-8.296401e-001	1.556427e+002	-3.291556e+001	-1.378206e+002	-3.290365e+001	-1.377120e+002	-7.708438e-001	1.534278e+002
494600000	-8.364270e-001	1.553165e+002	-3.249684e+001	-1.382372e+002	-3.248796e+001	-1.381989e+002	-7.765745e-001	1.531114e+002
494618750	-8.434482e-001	1.549902e+002	-3.208960e+001	-1.386605e+002	-3.207078e+001	-1.386490e+002	-7.831591e-001	1.527953e+002
494637500	-8.509145e-001	1.546534e+002	-3.166578e+001	-1.391722e+002	-3.166063e+001	-1.390711e+002	-7.890932e-001	1.524688e+002
494656250	-8.591710e-001	1.543147e+002	-3.126281e+001	-1.396599e+002	-3.124709e+001	-1.395849e+002	-7.964151e-001	1.521420e+002
494675000	-8.669776e-001	1.539753e+002	-3.084448e+001	-1.401294e+002	-3.083216e+001	-1.400356e+002	-8.030243e-001	1.518082e+002
494693750	-8.759461e-001	1.536282e+002	-3.043540e+001	-1.406858e+002	-3.042795e+001	-1.405910e+002	-8.099496e-001	1.514708e+002
494712500	-8.845474e-001	1.532751e+002	-3.002549e+001	-1.411176e+002	-3.001620e+001	-1.410572e+002	-8.179166e-001	1.511284e+002
494731250	-8.938928e-001	1.529134e+002	-2.962191e+001	-1.416769e+002	-2.960992e+001	-1.416073e+002	-8.254421e-001	1.507805e+002
494750000	-9.033178e-001	1.525522e+002	-2.920771e+001	-1.422166e+002	-2.919682e+001	-1.421779e+002	-8.336694e-001	1.504269e+002
494768750	-9.137043e-001	1.521814e+002	-2.879367e+001	-1.427640e+002	-2.877949e+001	-1.426824e+002	-8.422116e-001	1.500633e+002
494787500	-9.240852e-001	1.518014e+002	-2.838478e+001	-1.433328e+002	-2.837074e+001	-1.432775e+002	-8.520088e-001	1.496951e+002
494806250	-9.353068e-001	1.514174e+002	-2.796797e+001	-1.438513e+002	-2.795607e+001	-1.438237e+002	-8.605434e-001	1.493214e+002
494825000	-9.473208e-001	1.510220e+002	-2.755644e+001	-1.445056e+002	-2.754288e+001	-1.444253e+002	-8.710782e-001	1.489375e+002
494843750	-9.599658e-001	1.506193e+002	-2.714222e+001	-1.451116e+002	-2.712926e+001	-1.450695e+002	-8.821413e-001	1.485523e+002
494862500	-9.734302e-001	1.502119e+002	-2.672477e+001	-1.457733e+002	-2.671104e+001	-1.457070e+002	-8.943349e-001	1.481554e+002
494881250	-9.882238e-001	1.497903e+002	-2.630849e+001	-1.464309e+002	-2.629457e+001	-1.463887e+002	-9.069772e-001	1.477531e+002
494900000	-1.003744e+000	1.493673e+002	-2.589396e+001	-1.471101e+002	-2.587708e+001	-1.470517e+002	-9.207698e-001	1.473426e+002
494918750	-1.020146e+000	1.489301e+002	-2.547146e+001	-1.478228e+002	-2.546110e+001	-1.477682e+002	-9.345297e-001	1.469295e+002
494937500	-1.037923e+000	1.484849e+002	-2.504953e+001	-1.485213e+002	-2.504105e+001	-1.484809e+002	-9.497307e-001	1.465026e+002
494956250	-1.057359e+000	1.480297e+002	-2.462856e+001	-1.492874e+002	-2.461289e+001	-1.492458e+002	-9.655594e-001	1.460641e+002
494975000	-1.077811e+000	1.475605e+002	-2.419692e+001	-1.500697e+002	-2.418563e+001	-1.500425e+002	-9.829497e-001	1.456161e+002
494993750	-1.100206e+000	1.470833e+002	-2.376918e+001	-1.509257e+002	-2.375703e+001	-1.508854e+002	-1.001671e+000	1.451565e+002
495012500	-1.125300e+000	1.465972e+002	-2.333556e+001	-1.517828e+002	-2.332701e+001	-1.517475e+002	-1.022608e+000	1.446896e+002
495031250	-1.152120e+000	1.460974e+002	-2.290467e+001	-1.527041e+002	-2.289350e+001	-1.526637e+002	-1.044643e+000	1.442106e+002
495050000	-1.181229e+000	1.455911e+002	-2.247119e+001	-1.536649e+002	-2.245664e+001	-1.536450e+002	-1.068441e+000	1.437242e+002
495068750	-1.213779e+000	1.450705e+002	-2.203590e+001	-1.546876e+002	-2.202134e+001	-1.546364e+002	-1.095275e+000	1.432265e+002
495087500	-1.248764e+000	1.445454e+002	-2.159758e+001	-1.557616e+002	-2.158668e+001	-1.557390e+002	-1.124028e+000	1.427136e+002
495106250	-1.288351e+000	1.440264e+002	-2.116817e+001	-1.568968e+002	-2.115696e+001	-1.568745e+002	-1.155489e+000	1.421999e+002
495125000	-1.328106e+000	1.435042e+002	-2.074441e+001	-1.580706e+002	-2.073103e+001	-1.580315e+002	-1.189330e+000	1.416745e+002
495143750	-1.370195e+000	1.429854e+002	-2.032465e+001	-1.592300e+002	-2.031168e+001	-1.592208e+002	-1.226020e+000	1.411425e+002
495162500	-1.411902e+000	1.424479e+002	-1.990233e+001	-1.603762e+002	-1.988958e+001	-1.603687e+002	-1.264551e+000	1.406035e+002
495181250	-1.456031e+000	1.418885e+002	-1.947187e+001	-1.615445e+002	-1.945999e+001	-1.615219e+002	-1.306059e+000	1.400478e+002
495200000	-1.503866e+000	1.413058e+002	-1.902951e+001	-1.627577e+002	-1.901733e+001	-1.627451e+002	-1.352361e+000	1.394740e+002
495218750	-1.557731e+000	1.406933e+002	-1.858239e+001	-1.640525e+002	-1.856996e+001	-1.640467e+002	-1.402720e+000	1.388908e+002
495237500	-1.617709e+000	1.400701e+002	-1.813223e+001	-1.654387e+002	-1.812229e+001	-1.654245e+002	-1.457941e+000	1.382990e+002
495256250	-1.685195e+000	1.394384e+002	-1.768314e+001	-1.669112e+002	-1.766999e+001	-1.669030e+002	-1.518675e+000	1.377046e+002
495275000	-1.758277e+000	1.387986e+002	-1.723284e+001	-1.684754e+002	-1.722059e+001	-1.684701e+002	-1.585512e+000	1.371012e+002
495293750	-1.839986e+000	1.381583e+002	-1.678356e+001	-1.701198e+002	-1.677299e+001	-1.701234e+002	-1.657941e+000	1.365012e+002
495312500	-1.929183e+000	1.375266e+002	-1.633759e+001	-1.718498e+002	-1.632636e+001	-1.718464e+002	-1.736680e+000	1.358994e+002
495331250	-2.026252e+000	1.368904e+002	-1.589240e+001	-1.736559e+002	-1.588269e+001	-1.736541e+002	-1.822597e+000	1.352980e+002
495350000	-2.132705e+000	1.362671e+002	-1.545093e+001	-1.755611e+002	-1.544203e+001	-1.755662e+002	-1.917225e+000	1.347008e+002
495368750	-2.248986e+000	1.356608e+002	-1.501308e+001	-1.775538e+002	-1.500351e+001	-1.775483e+002	-2.018699e+000	1.341158e+002
495387500	-2.375215e+000	1.350775e+002	-1.458000e+001	-1.796341e+002	-1.457027e+001	-1.796455e+002	-2.131572e+000	1.335530e+002
495406250	-2.511913e+000	1.345233e+002	-1.415356e+001	1.781740e+002	-1.414453e+001	1.781646e+002	-2.251117e+000	1.330210e+002
495425000	-2.660415e+000	1.340062e+002	-1.373522e+001	1.759096e+002	-1.372638e+001	1.759053e+002	-2.382214e+000	1.325147e+002
495443750	-2.819646e+000	1.335481e+002	-1.332301e+001	1.735430e+002	-1.331451e+001	1.735363e+002	-2.523080e+000	1.320607e+002
495462500	-2.991074e+000	1.331422e+002	-1.292000e+001	1.710882e+002	-1.291120e+001	1.710832e+002	-2.673765e+000	1.316502e+002
495481250	-3.174215e+000	1.328215e+002	-1.252605e+001	1.685437e+002	-1.251923e+001	1.685275e+002	-2.834377e+000	1.313211e+002
495500000	-3.368744e+000	1.325920e+002	-1.214458e+001	1.658878e+002	-1.213866e+001	1.658857e+002	-3.004790e+000	1.310652e+002
495518750	-3.574340e+000	1.324762e+002	-1.177481e+001	1.631533e+002	-1.176785e+001	1.631432e+002	-3.183919e+000	1.309071e+002
495537500	-3.788189e+000	1.324951e+002	-1.142031e+001	1.603158e+002	-1.141450e+001	1.603128e+002	-3.369668e+000	1.308587e+002
495556250	-4.008449e+000	1.326759e+002	-1.108315e+001	1.573935e+002	-1.107695e+001	1.573892e+002	-3.560999e+000	1.309512e+002
495575000	-4.232555e+000	1.330206e+002	-1.076244e+001	1.543938e+002	-1.075740e+001	1.543950e+002	-3.755126e+000	1.311794e+002
495593750	-4.454056e+000	1.335552e+002	-1.046335e+001	1.513399e+002	-1.045717e+001	1.513313e+002	-3.948636e+000	1.315622e+002
495612500	-4.669516e+000	1.342851e+002	-1.018432e+001	1.482248e+002	-1.017888e+001	1.482181e+002	-4.136299e+000	1.321052e+002
495631250	-4.874425e+000	1.352103e+002	-9.926029e+000	1.450689e+002	-9.920925e+000	1.450586e+002	-4.314167e+000	1.328069e+002
495650000	-5.058530e+000	1.363402e+002	-9.689979e+000	1.418759e+002	-9.685932e+000	1.418754e+002	-4.476469e+000	1.336674e+002
495668750	-5.218646e+000	1.376349e+002	-9.477426e+000	1.386705e+002	-9.473274e+000	1.386615e+002	-4.621053e+000	1.346801e+002
495687500	-5.347925e+000	1.390704e+002	-9.288150e+000	1.354642e+002	-9.283955e+000	1.354584e+002	-4.739556e+000	1.357947e+002
495706250	-5.442550e+000	1.406057e+002	-9.121845e+000	1.322662e+002	-9.117805e+000	1.322683e+002	-4.832165e+000	1.370057e+002
495725000	-5.498398e+000	1.421904e+002	-8.978438e+000	1.291125e+002	-8.974150e+000	1.291076e+002	-4.894523e+000	1.382685e+002
495743750	-5.517965e+000	1.437752e+002	-8.855345e+000	1.259949e+002	-8.851669e+000	1.259914e+002	-4.927227e+000	1.395429e+002
495762500	-5.501212e+000	1.453172e+002	-8.753129e+000	1.229350e+002	-8.749565e+000	1.229349e+002	-4.929113e+000	1.407898e+002
495781250	-5.451959e+000	1.467569e+002	-8.668751e+000	1.199427e+002	-8.665266e+000	1.199384e+002	-4.904837e+000	1.419843e+002
495800000	-5.375530e+000	1.480953e+002	-8.601760e+000	1.170231e+002	-8.598211e+000	1.170212e+002	-4.856217e+000	1.430768e+002
495818750	-5.275516e+000	1.492741e+002	-8.549968e+000	1.141837e+002	-8.547064e+000	1.141846e+002	-4.786906e+000	1.440715e+002
495837500	-5.156297e+000	1.502977e+002	-8.512454e+000	1.114368e+002	-8.509726e+000	1.114348e+002	-4.701879e+000	1.449418e+002
495856250	-5.027132e+000	1.511704e+002	-8.486151e+000	1.087721e+002	-8.483464e+000	1.087761e+002	-4.604078e+000	1.456920e+002
495875000	-4.888911e+000	1.518767e+002	-8.468859e+000	1.062042e+002	-8.466306e+000	1.062065e+002	-4.498879e+000	1.463145e+002
495893750	-4.745635e+000	1.524395e+002	-8.461189e+000	1.037192e+002	-8.459033e+000	1.037232e+002	-4.386605e+000	1.468114e+002
495912500	-4.601170e+000	1.528579e+002	-8.460752e+000	1.013189e+002	-8.458493e+000	1.013276e+002	-4.273554e+000	1.471902e+002
495931250	-4.458834e+000	1.531558e+002	-8.466649e+000	9.900902e+001	-8.464237e+000	9.901606e+001	-4.158632e+000	1.474625e+002
495950000	-4.319157e+000	1.533340e+002	-8.478277e+000	9.678054e+001	-8.476422e+000	9.678861e+001	-4.045631e+000	1.476392e+002
495968750	-4.184623e+000	1.534083e+002	-8.494926e+000	9.463561e+001	-8.492241e+000	9.464411e+001	-3.934800e+000	1.477249e+002
495987500	-4.055763e+000	1.534026e+002	-8.515164e+000	9.256618e+001	-8.513368e+000	9.257578e+001	-3.827613e+000	1.477361e+002
496006250	-3.933920e+000	1.533062e+002	-8.537992e+000	9.058168e+001	-8.535557e+000	9.059771e+001	-3.725260e+000	1.476713e+002
496025000	-3.817049e+000	1.531565e+002	-8.563043e+000	8.867206e+001	-8.561502e+000	8.868674e+001	-3.626536e+000	1.475429e+002
496043750	-3.707980e+000	1.529342e+002	-8.589119e+000	8.683282e+001	-8.587396e+000	8.684693e+001	-3.534546e+000	1.473643e+002
496062500	-3.606326e+000	1.526756e+002	-8.615486e+000	8.506702e+001	-8.613612e+000	8.507883e+001	-3.448863e+000	1.471399e+002
496081250	-3.512097e+000	1.523712e+002	-8.641725e+000	8.336067e+001	-8.640414e+000	8.337732e+001	-3.365991e+000	1.468711e+002
496100000	-3.422384e+000	1.520343e+002	-8.668288e+000	8.171666e+001	-8.666312e+000	8.173477e+001	-3.290870e+000	1.465620e+002
496118750	-3.340209e+000	1.516625e+002	-8.693169e+000	8.013667e+001	-8.691156e+000	8.014715e+001	-3.219345e+000	1.462328e+002
496137500	-3.263356e+000	1.512719e+002	-8.717641e+000	7.861025e+001	-8.715625e+000	7.862642e+001	-3.153298e+000	1.458772e+002
496156250	-3.193023e+000	1.508586e+002	-8.739747e+000	7.713343e+001	-8.737625e+000	7.714702e+001	-3.092719e+000	1.454927e+002
496175000	-3.127426e+000	1.504190e+002	-8.761633e+000	7.570666e+001	-8.759268e+000	7.572114e+001	-3.036469e+000	1.450988e+002
496193750	-3.066493e+000	1.499700e+002	-8.781489e+000	7.432213e+001	-8.778155e+000	7.433729e+001	-2.984506e+000	1.446827e+002
496212500	-3.010875e+000	1.495052e+002	-8.798501e+000	7.298617e+001	-8.795944e+000	7.299877e+001	-2.936595e+000	1.442583e+002
496231250	-2.960188e+000	1.490334e+002	-8.814702e+000	7.168462e+001	-8.811737e+000	7.169809e+001	-2.893099e+000	1.438162e+002
496250000	-2.913473e+000	1.485517e+002	-8.827483e+000	7.042355e+001	-8.825867e+000	7.044104e+001	-2.852345e+000	1.433639e+002
496268750	-2.871006e+000	1.480657e+002	-8.839531e+000	6.919283e+001	-8.836797e+000	6.921053e+001	-2.816711e+000	1.429176e+002
496287500	-2.832616e+000	1.475683e+002	-8.849275e+000	6.799991e+001	-8.846480e+000	6.802179e+001	-2.783442e+000	1.424515e+002
496306250	-2.796782e+000	1.470717e+002	-8.855909e+000	6.684549e+001	-8.852316e+000	6.686508e+001	-2.754090e+000	1.419804e+002
496325000	-2.765523e+000	1.465694e+002	-8.860151e+000	6.571724e+001	-8.857687e+000	6.573938e+001	-2.727343e+000	1.415079e+002
496343750	-2.737717e+000	1.460689e+002	-8.862229e+000	6.461668e+001	-8.859007e+000	6.463730e+001	-2.704211e+000	1.410324e+002
496362500	-2.711175e+000	1.455627e+002	-8.861618e+000	6.354725e+001	-8.858283e+000	6.356828e+001	-2.683044e+000	1.405556e+002
496381250	-2.689009e+000	1.450559e+002	-8.858251e+000	6.249869e+001	-8.855477e+000	6.251950e+001	-2.664486e+000	1.400786e+002
496400000	-2.668617e+000	1.445562e+002	-8.852752e+000	6.147364e+001	-8.850333e+000	6.149138e+001	-2.648938e+000	1.396039e+002
496418750	-2.650468e+000	1.440551e+002	-8.846039e+000	6.047479e+001	-8.842588e+000	6.049632e+001	-2.635332e+000	1.391317e+002
496437500	-2.633796e+000	1.435516e+002	-8.834641e+000	5.950246e+001	-8.831434e+000	5.951997e+001	-2.622949e+000	1.386492e+002
496456250	-2.619103e+000	1.430429e+002	-8.820540e+000	5.853964e+001	-8.816254e+000	5.856701e+001	-2.612213e+000	1.381703e+002
496475000	-2.607143e+000	1.425406e+002	-8.803071e+000	5.759465e+001	-8.798802e+000	5.761404e+001	-2.603594e+000	1.376964e+002
496493750	-2.596855e+000	1.420345e+002	-8.783211e+000	5.665712e+001	-8.779041e+000	5.667903e+001	-2.595976e+000	1.372214e+002
496512500	-2.588705e+000	1.415286e+002	-8.760878e+000	5.573343e+001	-8.756109e+000	5.575770e+001	-2.590014e+000	1.367466e+002
496531250	-2.581164e+000	1.410308e+002	-8.736208e+000	5.481738e+001	-8.732215e+000	5.484364e+001	-2.584235e+000	1.362724e+002
496550000	-2.576028e+000	1.405314e+002	-8.709078e+000	5.391639e+001	-8.704513e+000	5.393700e+001	-2.580106e+000	1.357976e+002
496568750	-2.570989e+000	1.400309e+002	-8.681347e+000	5.301864e+001	-8.676483e+000	5.303614e+001	-2.576125e+000	1.353257e+002
496587500	-2.567016e+000	1.395328e+002	-8.652013e+000	5.212753e+001	-8.647650e+000	5.215078e+001	-2.572996e+000	1.348449e+002
496606250	-2.563087e+000	1.390328e+002	-8.620477e+000	5.125498e+001	-8.614093e+000	5.127427e+001	-2.570868e+000	1.343688e+002
496625000	-2.560699e+000	1.385260e+002	-8.585547e+000	5.038393e+001	-8.579902e+000	5.040752e+001	-2.567758e+000	1.338822e+002
496643750	-2.559403e+000	1.380132e+002	-8.548212e+000	4.952167e+001	-8.542954e+000	4.953522e+001	-2.566830e+000	1.333861e+002
496662500	-2.559555e+000	1.374950e+002	-8.509954e+000	4.865417e+001	-8.503543e+000	4.867259e+001	-2.566006e+000	1.328755e+002
496681250	-2.560496e+000	1.369743e+002	-8.470135e+000	4.778717e+001	-8.464123e+000	4.780806e+001	-2.566608e+000	1.323694e+002
496700000	-2.563929e+000	1.364567e+002	-8.429145e+000	4.692023e+001	-8.423675e+000	4.694252e+001	-2.568538e+000	1.318528e+002
496718750	-2.567252e+000	1.359303e+002	-8.388509e+000	4.606460e+001	-8.381744e+000	4.608139e+001	-2.572403e+000	1.313324e+002
496737500	-2.572927e+000	1.354017e+002	-8.347232e+000	4.520586e+001	-8.340983e+000	4.522654e+001	-2.576740e+000	1.308099e+002
496756250	-2.579665e+000	1.348752e+002	-8.304270e+000	4.435629e+001	-8.297541e+000	4.437405e+001	-2.582732e+000	1.302867e+002
496775000	-2.586790e+000	1.343419e+002	-8.261161e+000	4.351471e+001	-8.254226e+000	4.352505e+001	-2.589877e+000	1.297553e+002
496793750	-2.595705e+000	1.338076e+002	-8.217472e+000	4.267007e+001	-8.210064e+000	4.268927e+001	-2.598936e+000	1.292190e+002
496812500	-2.605302e+000	1.332702e+002	-8.171934e+000	4.183705e+001	-8.165601e+000	4.185490e+001	-2.608003e+000	1.286774e+002
496831250	-2.616245e+000	1.327312e+002	-8.126462e+000	4.100881e+001	-8.119811e+000	4.102538e+001	-2.619884e+000	1.281371e+002
496850000	-2.628082e+000	1.321913e+002	-8.079366e+000	4.018877e+001	-8.072709e+000	4.020562e+001	-2.631352e+000	1.275955e+002
496868750	-2.640560e+000	1.316471e+002	-8.032110e+000	3.937273e+001	-8.024558e+000	3.938439e+001	-2.643978e+000	1.270471e+002
496887500	-2.654913e+000	1.311011e+002	-7.983244e+000	3.856203e+001	-7.975881e+000	3.857303e+001	-2.657706e+000	1.264981e+002
496906250	-2.668850e+000	1.305568e+002	-7.933793e+000	3.775324e+001	-7.925756e+000	3.776901e+001	-2.672750e+000	1.259374e+002
