# Hz  S  RI  R  50
! ADVANTEST Corporation R3860A
! Date: Mon Jul 03 19:38:44 2006
1.0000000000e+007  1.000719e+000 -4.567004e-002  1.512032e-005  5.367550e-005 -1.382385e-005  2.667139e-005  1.000669e+000 -4.456550e-002
1.1868750000e+007  9.989669e-001 -5.205612e-002  3.298028e-005  8.364685e-005 -1.058186e-005  1.241923e-004  9.985325e-001 -5.284311e-002
1.3737500000e+007  9.983509e-001 -6.057875e-002 -6.658740e-006  8.598110e-005 -4.517983e-005  6.192843e-005  9.978604e-001 -6.091856e-002
1.5606250000e+007  9.978333e-001 -6.800787e-002  2.889396e-006  8.571120e-005  2.109226e-005  7.785791e-005  9.972261e-001 -6.883592e-002
1.7475000000e+007  9.973227e-001 -7.651974e-002  6.637372e-006  2.242390e-004  1.574085e-005  2.643804e-004  9.964665e-001 -7.697425e-002
1.9343750000e+007  9.960797e-001 -8.517820e-002 -4.907733e-005  5.145671e-005 -5.696233e-005 -5.132189e-006  9.953949e-001 -8.593339e-002
2.1212500000e+007  9.958749e-001 -9.230594e-002  2.028433e-005  1.037419e-004 -3.338091e-006  1.277439e-004  9.947800e-001 -9.312268e-002
2.3081250000e+007  9.944748e-001 -1.007827e-001  1.954971e-005  9.629397e-005  4.956782e-005  9.746497e-005  9.936125e-001 -1.011453e-001
2.4950000000e+007  9.937523e-001 -1.078569e-001  1.015440e-004  9.498389e-005  5.958232e-005  8.276945e-005  9.925918e-001 -1.091970e-001
2.6818750000e+007  9.934186e-001 -1.172540e-001  4.269029e-005 -7.312759e-005  1.771268e-005 -7.500434e-005  9.914479e-001 -1.174082e-001
2.8687500000e+007  9.916551e-001 -1.244693e-001  1.333656e-004  5.031164e-005  1.151140e-004  8.425937e-005  9.903803e-001 -1.251439e-001
3.0556250000e+007  9.912934e-001 -1.324226e-001 -6.920238e-006  8.820435e-005 -9.956863e-005  7.019523e-005  9.889846e-001 -1.324085e-001
3.2425000000e+007  9.906754e-001 -1.406968e-001  3.770606e-005  1.419678e-004  2.398185e-005  1.229981e-004  9.884599e-001 -1.408271e-001
3.4293750000e+007  9.891330e-001 -1.486762e-001  2.250328e-005  1.620769e-004  2.610329e-005  1.084455e-004  9.874908e-001 -1.491316e-001
3.6162500000e+007  9.871016e-001 -1.580888e-001  2.972113e-006  1.278919e-004  3.304477e-005  1.501331e-004  9.855921e-001 -1.574100e-001
3.8031250000e+007  9.856330e-001 -1.650845e-001  2.397126e-005  2.351030e-004  6.608418e-005  2.133895e-004  9.841858e-001 -1.655543e-001
3.9900000000e+007  9.847606e-001 -1.733537e-001 -6.368613e-006  1.311605e-004 -7.947774e-006  1.187506e-004  9.826307e-001 -1.731682e-001
4.1768750000e+007  9.832720e-001 -1.809959e-001  2.801636e-006  1.145373e-004  1.346816e-005  1.228720e-004  9.817415e-001 -1.808743e-001
4.3637500000e+007  9.811002e-001 -1.900423e-001 -2.602277e-006  1.732620e-004 -1.582416e-005  1.763735e-004  9.790598e-001 -1.884135e-001
4.5506250000e+007  9.792824e-001 -1.970558e-001 -6.381429e-007  2.565844e-004  2.281880e-005  2.820378e-004  9.775633e-001 -1.962833e-001
4.7375000000e+007  9.783301e-001 -2.050931e-001  5.293785e-005  9.353895e-005  8.145275e-005  4.328010e-005  9.757786e-001 -2.042370e-001
4.9243750000e+007  9.764012e-001 -2.135695e-001  8.533640e-006  1.602758e-004  2.722051e-006  1.487951e-004  9.748132e-001 -2.129096e-001
5.1112500000e+007  9.740960e-001 -2.209887e-001 -6.760551e-006  2.978645e-004 -2.106050e-005  2.764543e-004  9.718085e-001 -2.209029e-001
5.2981250000e+007  9.723001e-001 -2.294452e-001  2.848327e-005  2.634765e-004  4.652932e-005  2.941661e-004  9.703165e-001 -2.283831e-001
5.4850000000e+007  9.703075e-001 -2.362152e-001  1.395060e-004  1.478878e-004  1.583432e-004  2.089315e-004  9.684752e-001 -2.359485e-001
5.6718750000e+007  9.680777e-001 -2.450125e-001  1.127383e-004  2.427397e-004  9.657432e-005  2.133311e-004  9.666541e-001 -2.445403e-001
5.8587500000e+007  9.661560e-001 -2.522542e-001  8.964193e-005  1.224147e-004  7.891958e-005  1.505830e-004  9.649804e-001 -2.517729e-001
6.0456250000e+007  9.639698e-001 -2.604335e-001  1.211114e-004  1.942140e-004  1.499135e-004  1.572590e-004  9.617811e-001 -2.591104e-001
6.2325000000e+007  9.617546e-001 -2.684316e-001  3.933874e-005  2.114733e-004  7.072186e-005  2.323893e-004  9.608510e-001 -2.680781e-001
6.4193750000e+007  9.591972e-001 -2.749653e-001  1.282339e-004  3.314017e-004  1.429350e-004  3.344407e-004  9.579147e-001 -2.743109e-001
6.6062500000e+007  9.565195e-001 -2.823518e-001  1.156569e-004  2.361113e-004  9.367541e-005  2.379058e-004  9.561368e-001 -2.821328e-001
6.7931250000e+007  9.544535e-001 -2.903753e-001  3.421862e-005  2.070891e-004  2.312169e-005  2.160299e-004  9.527504e-001 -2.900013e-001
6.9800000000e+007  9.522902e-001 -2.981063e-001  7.599006e-005  2.252338e-004  7.474629e-005  2.170266e-004  9.508999e-001 -2.983059e-001
7.1668750000e+007  9.498559e-001 -3.058039e-001  8.197995e-005  2.717309e-004  9.376217e-005  2.809097e-004  9.483935e-001 -3.062253e-001
7.3537500000e+007  9.470271e-001 -3.132588e-001  9.839603e-005  2.099157e-004  1.198950e-004  2.277044e-004  9.454102e-001 -3.133465e-001
7.5406250000e+007  9.442855e-001 -3.207165e-001  8.148749e-005  2.577442e-004  5.130440e-005  2.938833e-004  9.429231e-001 -3.210739e-001
7.7275000000e+007  9.423283e-001 -3.291115e-001  1.320853e-004  3.523225e-004  1.289293e-004  3.523260e-004  9.406125e-001 -3.291837e-001
7.9143750000e+007  9.390251e-001 -3.362708e-001  1.594852e-004  2.897999e-004  1.762797e-004  2.951079e-004  9.369426e-001 -3.367544e-001
8.1012500000e+007  9.367235e-001 -3.444825e-001  1.337323e-004  2.564453e-004  9.944407e-005  2.605412e-004  9.347543e-001 -3.448159e-001
8.2881250000e+007  9.324452e-001 -3.514831e-001  4.612324e-004  2.723247e-004  4.510680e-004  2.697106e-004  9.312612e-001 -3.513165e-001
8.4750000000e+007  9.305244e-001 -3.583761e-001  1.288234e-004  3.246322e-004  1.616871e-004  3.101053e-004  9.288725e-001 -3.590683e-001
8.6618750000e+007  9.278811e-001 -3.659041e-001  1.230222e-004  2.876371e-004  1.467393e-004  2.657906e-004  9.252959e-001 -3.664390e-001
8.8487500000e+007  9.245200e-001 -3.736805e-001  1.422918e-004  3.356001e-004  1.189677e-004  3.121935e-004  9.219195e-001 -3.745185e-001
9.0356250000e+007  9.215065e-001 -3.813843e-001  2.114402e-004  2.904376e-004  2.366371e-004  3.114941e-004  9.190955e-001 -3.820542e-001
9.2225000000e+007  9.174446e-001 -3.877504e-001  1.573251e-004  3.762177e-004  1.835751e-004  3.879382e-004  9.158799e-001 -3.881087e-001
9.4093750000e+007  9.159474e-001 -3.945479e-001  1.840456e-004  3.442661e-004  1.481935e-004  3.455285e-004  9.136645e-001 -3.954092e-001
9.5962500000e+007  9.120846e-001 -4.023954e-001  1.185926e-004  3.638183e-004  1.401063e-004  3.902186e-004  9.101377e-001 -4.033189e-001
9.7831250000e+007  9.091821e-001 -4.103598e-001  1.193024e-004  3.459007e-004  1.753407e-004  3.234230e-004  9.066005e-001 -4.107000e-001
9.9700000000e+007  9.045565e-001 -4.170139e-001  2.132528e-004  2.718630e-004  2.021200e-004  2.573762e-004  9.022972e-001 -4.175428e-001
1.0156875000e+008  9.017522e-001 -4.245536e-001  1.716427e-004  2.905133e-004  1.516668e-004  2.876933e-004  8.998446e-001 -4.239978e-001
1.0343750000e+008  8.987625e-001 -4.321034e-001  1.345463e-004  3.318050e-004  1.742617e-004  3.125076e-004  8.961079e-001 -4.315594e-001
1.0530625000e+008  8.950622e-001 -4.390552e-001  1.520472e-004  3.012033e-004  1.551997e-004  3.030094e-004  8.931608e-001 -4.389597e-001
1.0717500000e+008  8.910056e-001 -4.464056e-001  1.611455e-004  3.999339e-004  1.633651e-004  3.958743e-004  8.888578e-001 -4.461889e-001
1.0904375000e+008  8.871805e-001 -4.534917e-001  1.647111e-004  3.776356e-004  1.578614e-004  3.534429e-004  8.844671e-001 -4.531601e-001
1.1091250000e+008  8.836877e-001 -4.607352e-001  1.949664e-004  4.048684e-004  2.234149e-004  3.843951e-004  8.813930e-001 -4.603021e-001
1.1278125000e+008  8.800436e-001 -4.679688e-001  2.164094e-004  3.874143e-004  1.927201e-004  3.879279e-004  8.781396e-001 -4.677362e-001
1.1465000000e+008  8.759720e-001 -4.750895e-001  1.827181e-004  3.512840e-004  2.006988e-004  3.297307e-004  8.727937e-001 -4.744304e-001
1.1651875000e+008  8.711744e-001 -4.822580e-001  2.847954e-004  4.965229e-004  3.038855e-004  5.090119e-004  8.682573e-001 -4.817768e-001
1.1838750000e+008  8.672262e-001 -4.881670e-001  2.142578e-004  3.143942e-004  1.967711e-004  3.104072e-004  8.651564e-001 -4.879490e-001
1.2025625000e+008  8.640186e-001 -4.947806e-001  2.134811e-004  3.050846e-004  2.320421e-004  3.110209e-004  8.611700e-001 -4.941311e-001
1.2212500000e+008  8.596351e-001 -5.028324e-001  4.606683e-005  3.126493e-004  6.133374e-005  3.732768e-004  8.562371e-001 -5.019171e-001
1.2399375000e+008  8.556763e-001 -5.089069e-001  2.157042e-004  4.187073e-004  1.882892e-004  4.402225e-004  8.533484e-001 -5.081955e-001
1.2586250000e+008  8.514475e-001 -5.157013e-001  1.905046e-004  3.666203e-004  2.109372e-004  3.793224e-004  8.486152e-001 -5.152855e-001
1.2773125000e+008  8.462753e-001 -5.227560e-001  2.330821e-004  3.956906e-004  2.167932e-004  3.829986e-004  8.441700e-001 -5.222872e-001
1.2960000000e+008  8.423769e-001 -5.290244e-001  2.629994e-004  3.215963e-004  2.666219e-004  3.451735e-004  8.409925e-001 -5.280339e-001
1.3146875000e+008  8.387583e-001 -5.349312e-001  2.433649e-004  3.550542e-004  2.467094e-004  3.475120e-004  8.363268e-001 -5.340731e-001
1.3333750000e+008  8.348870e-001 -5.424393e-001  2.877380e-004  3.631837e-004  2.567415e-004  3.900789e-004  8.319477e-001 -5.420579e-001
1.3520625000e+008  8.292426e-001 -5.492623e-001  2.913900e-004  3.888529e-004  2.889305e-004  3.574405e-004  8.273740e-001 -5.489814e-001
1.3707500000e+008  8.255339e-001 -5.548803e-001  3.126342e-004  3.078738e-004  2.471223e-004  2.968057e-004  8.223560e-001 -5.540640e-001
1.3894375000e+008  8.209473e-001 -5.614865e-001  2.711668e-004  3.767862e-004  2.614264e-004  4.060973e-004  8.189578e-001 -5.617682e-001
1.4081250000e+008  8.159510e-001 -5.684850e-001  2.911642e-004  4.237253e-004  3.032964e-004  4.032872e-004  8.140545e-001 -5.686299e-001
1.4268125000e+008  8.111491e-001 -5.754631e-001  3.286557e-004  3.361212e-004  3.335830e-004  4.050317e-004  8.091314e-001 -5.743040e-001
1.4455000000e+008  8.062977e-001 -5.823182e-001  2.586938e-004  3.937076e-004  2.796097e-004  3.952922e-004  8.034847e-001 -5.820371e-001
1.4641875000e+008  8.024961e-001 -5.872577e-001  3.089468e-004  4.213697e-004  3.044331e-004  4.416114e-004  7.998524e-001 -5.868617e-001
1.4828750000e+008  7.971165e-001 -5.936858e-001  3.002152e-004  4.120822e-004  3.097091e-004  4.316441e-004  7.942376e-001 -5.945973e-001
1.5015625000e+008  7.925465e-001 -6.004301e-001  3.535353e-004  4.589083e-004  3.779070e-004  4.523470e-004  7.900974e-001 -6.009977e-001
1.5202500000e+008  7.881132e-001 -6.066120e-001  3.529540e-004  5.245563e-004  3.488910e-004  4.965483e-004  7.855742e-001 -6.059963e-001
1.5389375000e+008  7.803845e-001 -6.139061e-001  3.435881e-004  4.691214e-004  3.851411e-004  4.662181e-004  7.785826e-001 -6.137215e-001
1.5576250000e+008  7.776280e-001 -6.182817e-001  4.286689e-004  4.611327e-004  4.182941e-004  4.598203e-004  7.747195e-001 -6.187582e-001
1.5763125000e+008  7.721376e-001 -6.233349e-001  3.823172e-004  3.625533e-004  3.133306e-004  3.882893e-004  7.696797e-001 -6.240613e-001
1.5950000000e+008  7.668821e-001 -6.313341e-001  3.953329e-004  4.176479e-004  4.317485e-004  4.204887e-004  7.644274e-001 -6.317686e-001
1.6136875000e+008  7.620125e-001 -6.369432e-001  3.259310e-004  4.279883e-004  3.147002e-004  4.371027e-004  7.590020e-001 -6.373035e-001
1.6323750000e+008  7.560033e-001 -6.407118e-001  4.598785e-004  3.728806e-004  4.730354e-004  3.685767e-004  7.519135e-001 -6.413552e-001
1.6510625000e+008  7.517440e-001 -6.485117e-001  3.541324e-004  4.401218e-004  3.807019e-004  4.391773e-004  7.492709e-001 -6.489378e-001
1.6697500000e+008  7.467592e-001 -6.540884e-001  3.844640e-004  4.055331e-004  4.031143e-004  4.026622e-004  7.436433e-001 -6.548492e-001
1.6884375000e+008  7.406644e-001 -6.608868e-001  3.892147e-004  4.231490e-004  4.034309e-004  4.345888e-004  7.381675e-001 -6.616196e-001
1.7071250000e+008  7.359580e-001 -6.662744e-001  4.229156e-004  3.684370e-004  4.435449e-004  3.747136e-004  7.324158e-001 -6.674712e-001
1.7258125000e+008  7.304704e-001 -6.712244e-001  3.520799e-004  3.871779e-004  3.840112e-004  3.958147e-004  7.266669e-001 -6.721832e-001
1.7445000000e+008  7.264187e-001 -6.774266e-001  4.138961e-004  4.274716e-004  4.403734e-004  4.449862e-004  7.217093e-001 -6.786028e-001
1.7631875000e+008  7.206375e-001 -6.831705e-001  4.174293e-004  4.469140e-004  4.109938e-004  4.431735e-004  7.160391e-001 -6.845278e-001
1.7818750000e+008  7.147137e-001 -6.893225e-001  4.381872e-004  4.266594e-004  4.384300e-004  4.416593e-004  7.097238e-001 -6.903027e-001
1.8005625000e+008  7.084060e-001 -6.954055e-001  4.468818e-004  4.560498e-004  4.640392e-004  4.492151e-004  7.041023e-001 -6.965702e-001
1.8192500000e+008  7.025212e-001 -7.002394e-001  4.433694e-004  4.794383e-004  4.259851e-004  4.263886e-004  6.978391e-001 -7.007461e-001
1.8379375000e+008  6.977803e-001 -7.064301e-001  4.751461e-004  4.419386e-004  4.762684e-004  4.097203e-004  6.928248e-001 -7.069592e-001
1.8566250000e+008  6.918465e-001 -7.116278e-001  4.562849e-004  5.082866e-004  4.695063e-004  4.526835e-004  6.871631e-001 -7.115499e-001
1.8753125000e+008  6.854242e-001 -7.172720e-001  4.759645e-004  5.319772e-004  4.780293e-004  4.933389e-004  6.805136e-001 -7.175659e-001
1.8940000000e+008  6.796677e-001 -7.224107e-001  5.220029e-004  5.172360e-004  5.133179e-004  5.037493e-004  6.747538e-001 -7.229950e-001
1.9126875000e+008  6.738788e-001 -7.258146e-001  5.166134e-004  4.539613e-004  5.126443e-004  4.663788e-004  6.689286e-001 -7.261964e-001
1.9313750000e+008  6.667078e-001 -7.338132e-001  5.972249e-004  4.735082e-004  5.797278e-004  4.797875e-004  6.627697e-001 -7.330150e-001
1.9500625000e+008  6.618022e-001 -7.380536e-001  5.748861e-004  4.588547e-004  5.974306e-004  4.789555e-004  6.578572e-001 -7.377263e-001
1.9687500000e+008  6.568663e-001 -7.422237e-001  4.378556e-004  3.902060e-004  4.744500e-004  3.479242e-004  6.522347e-001 -7.424958e-001
1.9874375000e+008  6.492856e-001 -7.490698e-001  5.878910e-004  4.593845e-004  6.072411e-004  4.535933e-004  6.450430e-001 -7.484652e-001
2.0061250000e+008  6.443338e-001 -7.528083e-001  5.465813e-004  4.542418e-004  5.638240e-004  4.532824e-004  6.403958e-001 -7.523503e-001
2.0248125000e+008  6.388165e-001 -7.569799e-001  5.345214e-004  3.499275e-004  5.383298e-004  3.431128e-004  6.343843e-001 -7.568355e-001
2.0435000000e+008  6.314937e-001 -7.628985e-001  6.073253e-004  4.672939e-004  6.170155e-004  4.511895e-004  6.271802e-001 -7.628809e-001
2.0621875000e+008  6.258283e-001 -7.685068e-001  5.339709e-004  3.841612e-004  5.463727e-004  3.820901e-004  6.217831e-001 -7.678171e-001
2.0808750000e+008  6.181827e-001 -7.727352e-001  5.823690e-004  5.168934e-004  6.047308e-004  5.154447e-004  6.144398e-001 -7.730564e-001
2.0995625000e+008  6.137538e-001 -7.776791e-001  5.503386e-004  4.254969e-004  5.588348e-004  4.422210e-004  6.094816e-001 -7.772133e-001
2.1182500000e+008  6.070862e-001 -7.824675e-001  6.015454e-004  4.465246e-004  6.188426e-004  4.488516e-004  6.030954e-001 -7.821403e-001
2.1369375000e+008  6.005490e-001 -7.877535e-001  6.316648e-004  4.220608e-004  6.307057e-004  4.331128e-004  5.962269e-001 -7.874499e-001
2.1556250000e+008  5.932597e-001 -7.922321e-001  6.430090e-004  4.581070e-004  6.421219e-004  4.681057e-004  5.895377e-001 -7.921022e-001
2.1743125000e+008  5.871156e-001 -7.965316e-001  6.197566e-004  4.799792e-004  6.166932e-004  4.367270e-004  5.826191e-001 -7.957850e-001
2.1930000000e+008  5.799764e-001 -8.012379e-001  5.729058e-004  3.958298e-004  6.116893e-004  4.110267e-004  5.764543e-001 -8.010365e-001
2.2116875000e+008  5.741956e-001 -8.058690e-001  6.357114e-004  4.638926e-004  6.564894e-004  4.787368e-004  5.702251e-001 -8.059074e-001
2.2303750000e+008  5.670934e-001 -8.091619e-001  5.932574e-004  4.167402e-004  6.052070e-004  4.309821e-004  5.638981e-001 -8.092332e-001
2.2490625000e+008  5.600290e-001 -8.141015e-001  7.261313e-004  4.526672e-004  7.068840e-004  4.632412e-004  5.566447e-001 -8.144847e-001
2.2677500000e+008  5.538573e-001 -8.172271e-001  6.487936e-004  4.565370e-004  6.449049e-004  4.781036e-004  5.507607e-001 -8.177237e-001
2.2864375000e+008  5.489225e-001 -8.215051e-001  6.760395e-004  4.525810e-004  6.721868e-004  4.534049e-004  5.451119e-001 -8.215600e-001
2.3051250000e+008  5.398473e-001 -8.255955e-001  6.520115e-004  5.348484e-004  6.446185e-004  5.273067e-004  5.366839e-001 -8.266788e-001
2.3238125000e+008  5.345865e-001 -8.304003e-001  7.933474e-004  4.716473e-004  7.961745e-004  5.063294e-004  5.316817e-001 -8.304961e-001
2.3425000000e+008  5.287821e-001 -8.338409e-001  7.567006e-004  4.486773e-004  7.770626e-004  4.229640e-004  5.256701e-001 -8.335932e-001
2.3611875000e+008  5.214255e-001 -8.378194e-001  7.765837e-004  3.502431e-004  7.708881e-004  3.557259e-004  5.180306e-001 -8.381312e-001
2.3798750000e+008  5.152929e-001 -8.424822e-001  7.284543e-004  4.216923e-004  7.539386e-004  4.193796e-004  5.119776e-001 -8.426644e-001
2.3985625000e+008  5.087239e-001 -8.455681e-001  7.648761e-004  3.630818e-004  7.488554e-004  3.600952e-004  5.052169e-001 -8.464434e-001
2.4172500000e+008  5.019142e-001 -8.505261e-001  7.228620e-004  4.324942e-004  7.380595e-004  3.965639e-004  4.981143e-001 -8.505146e-001
2.4359375000e+008  4.949424e-001 -8.541371e-001  7.798705e-004  4.039644e-004  7.726552e-004  3.802963e-004  4.909841e-001 -8.548362e-001
2.4546250000e+008  4.883386e-001 -8.572379e-001  7.710367e-004  3.847391e-004  7.488373e-004  4.079206e-004  4.846333e-001 -8.581556e-001
2.4733125000e+008  4.813017e-001 -8.617586e-001  7.457077e-004  4.082992e-004  7.102620e-004  4.299534e-004  4.773584e-001 -8.627339e-001
2.4920000000e+008  4.739769e-001 -8.660867e-001  8.329356e-004  4.094434e-004  8.028279e-004  4.201871e-004  4.702434e-001 -8.660760e-001
2.5106875000e+008  4.672620e-001 -8.699464e-001  7.984557e-004  3.998613e-004  8.349062e-004  3.888039e-004  4.628777e-001 -8.702255e-001
2.5293750000e+008  4.595359e-001 -8.729687e-001  8.206253e-004  3.707121e-004  8.212262e-004  3.845976e-004  4.550358e-001 -8.727980e-001
2.5480625000e+008  4.522806e-001 -8.766073e-001  8.475609e-004  3.887430e-004  8.514561e-004  4.180205e-004  4.482121e-001 -8.764365e-001
2.5667500000e+008  4.458172e-001 -8.801852e-001  8.094187e-004  3.569266e-004  8.288791e-004  3.683477e-004  4.411833e-001 -8.795874e-001
2.5854375000e+008  4.373344e-001 -8.817033e-001  8.508011e-004  3.213850e-004  8.557373e-004  3.435118e-004  4.327286e-001 -8.823242e-001
2.6041250000e+008  4.315601e-001 -8.872336e-001  8.241411e-004  3.681288e-004  8.379775e-004  3.705069e-004  4.271790e-001 -8.861227e-001
2.6228125000e+008  4.240045e-001 -8.893058e-001  8.946002e-004  4.315837e-004  9.110874e-004  4.149148e-004  4.197363e-001 -8.887432e-001
2.6415000000e+008  4.177226e-001 -8.898876e-001  8.120338e-004  4.302720e-004  8.225317e-004  4.339840e-004  4.114856e-001 -8.898910e-001
2.6601875000e+008  4.105572e-001 -8.960792e-001  8.217664e-004  4.347814e-004  8.289984e-004  4.510906e-004  4.056929e-001 -8.952132e-001
2.6788750000e+008  4.040728e-001 -8.983932e-001  9.325946e-004  3.880282e-004  9.016406e-004  3.698933e-004  3.998315e-001 -8.980612e-001
2.6975625000e+008  3.962989e-001 -9.018822e-001  8.851792e-004  3.615136e-004  9.052866e-004  3.973502e-004  3.917325e-001 -9.010133e-001
2.7162500000e+008  3.896566e-001 -9.046354e-001  9.029993e-004  3.849177e-004  8.944074e-004  3.908800e-004  3.851028e-001 -9.035223e-001
2.7349375000e+008  3.835788e-001 -9.076446e-001  9.286194e-004  3.439515e-004  9.046013e-004  3.548177e-004  3.790680e-001 -9.068227e-001
2.7536250000e+008  3.756922e-001 -9.103236e-001  9.370502e-004  3.703717e-004  9.488330e-004  3.517868e-004  3.705049e-001 -9.097084e-001
2.7723125000e+008  3.677218e-001 -9.142157e-001  9.484953e-004  3.733806e-004  9.509466e-004  3.704728e-004  3.636845e-001 -9.132447e-001
