!Keysight Technologies,E5080A,MY55200989,A.11.70.00
!Date: Friday, June 15, 2018 10:24:53
!Correction: S11(Full 2 Port(1,2)) 
!S21(Full 2 Port(1,2)) 
!S12(Full 2 Port(1,2)) 
!S22(Full 2 Port(1,2)) 
!S2P File: Measurements: S11, S21, S12, S22:
# Hz S  dB   R 50
10000000 -0.00012681939 -2.8144794 -89.375763 39.692719 -87.311081 46.250153 0.00017224316 -2.8333306
10618750 0.0037332962 -2.9955037 -88.574516 73.765877 -82.480667 91.850609 -0.0069620279 -3.0663824
11237500 -0.0014271575 -3.1785283 -91.113945 -35.25116 -93.764488 -23.786045 -0.0064858808 -3.2197013
11856250 0.0033978829 -3.340076 -81.027077 -146.73267 -80.122841 -150.19554 0.0003469158 -3.3775921
12475000 7.1262257e-005 -3.4874749 -77.997658 84.947548 -77.007042 94.514481 -0.0040408974 -3.5195501
13093750 -0.0072369967 -3.6711926 -80.328651 45.570267 -78.421677 39.191887 0.00055083953 -3.6978648
13712500 0.0024311238 -3.8678555 -82.79007 144.42714 -87.863998 138.65901 -0.00378702 -3.8970532
14331250 -0.0050477358 -4.0034361 -91.430794 -40.452774 -91.910362 -5.8506413 -0.0059238453 -4.0915046
14950000 -0.0048650983 -4.2539659 -82.753464 70.449593 -84.14003 74.22654 -0.0087155374 -4.2238102
15568750 -0.0055095325 -4.4423432 -83.33165 69.208656 -84.769318 52.407921 -0.0027594185 -4.435833
16187500 -0.0015687334 -4.5583072 -76.861656 75.11068 -77.763947 78.72345 -0.0024375822 -4.6294694
16806250 -0.0014808028 -4.7230101 -77.239189 84.914276 -77.682823 99.484955 -0.0056625023 -4.7956877
17425000 -0.0048615974 -4.9179997 -81.783707 69.130196 -81.914146 57.099998 -0.0056102271 -4.9871593
18043750 -0.015343635 -5.0947447 -78.92952 -150.6414 -78.094704 -134.90337 -0.0085519478 -5.1312108
18662500 -0.010752601 -5.2389688 -73.328461 -21.753813 -73.453018 -16.639366 -0.010381923 -5.2581859
19281250 -0.01021181 -5.4483452 -80.075218 15.597214 -81.842545 4.5673037 -0.010725847 -5.4693284
19900000 0.0023171625 -5.5853915 -79.377563 104.36848 -79.956322 100.64295 -0.010051204 -5.6396103
20518750 -0.0082196072 -5.7891903 -75.322578 36.252415 -76.208916 34.161316 -0.010222334 -5.831995
21137500 -0.0069113928 -5.9747171 -79.912918 39.924026 -79.714989 46.881687 -0.0033643951 -6.0187645
21756250 -0.0049008126 -6.1422858 -75.159752 101.64772 -73.3862 99.960716 -0.005166247 -6.1591425
22375000 -0.0071645505 -6.3221135 -72.998329 64.59449 -73.357437 64.639931 -0.0046758112 -6.3530874
22993750 -0.0051082475 -6.4819574 -79.866425 81.988129 -81.812538 97.013901 -0.0057498519 -6.4875374
23612500 -0.010961238 -6.6584067 -76.780212 88.638496 -75.966141 85.889076 -0.0031285661 -6.6646485
24231250 -0.0064239991 -6.7998958 -75.332962 66.420105 -76.594856 73.325279 -0.0088437982 -6.880723
24850000 -0.010555174 -6.9712 -84.509903 60.142891 -80.826057 84.768013 -0.00621197 -7.0588999
25468750 -0.008817751 -7.14644 -77.227501 88.602699 -77.125862 85.391525 0.00095212046 -7.2472878
26087500 -0.0076570944 -7.3934393 -78.068039 60.48901 -78.995018 67.513985 -0.0057695936 -7.4159174
26706250 -0.0035491271 -7.5054507 -77.811584 93.305466 -78.957954 96.473175 -0.0061513823 -7.5785508
27325000 -0.0085899727 -7.7110395 -85.779083 83.554237 -86.16761 113.67863 -0.0069363224 -7.753396
27943750 -0.0042505185 -7.8200245 -75.651932 99.477219 -76.537834 101.54685 -0.0089028804 -7.8670454
28562500 -0.00821767 -8.0468836 -74.674706 72.164017 -75.069992 71.841797 -0.0049476596 -8.0708742
29181250 -0.014341759 -8.2044992 -74.87854 75.09108 -75.296303 82.58847 -0.01040886 -8.2466354
29800000 -0.013484658 -8.411272 -74.863434 91.145668 -73.633446 92.084885 -0.0082488563 -8.4399662
30418750 -0.0066174385 -8.56987 -78.054718 74.635002 -77.753807 74.866913 -0.011032534 -8.6038055
31037500 -0.0091429409 -8.7416639 -78.845306 104.34238 -77.140793 95.697762 -0.0093516763 -8.8004036
31656250 -0.010420359 -8.9328671 -80.078217 75.32975 -79.492668 72.672989 -0.0062147873 -8.9556417
32275000 -0.0012280365 -9.098115 -76.486229 73.865082 -77.177391 76.819832 -0.0059033106 -9.1406946
32893750 -0.0067155422 -9.2399263 -78.248184 75.862083 -78.753166 79.310715 -0.0045595998 -9.3092031
33512500 -0.0089364769 -9.4192276 -78.102501 90.16404 -78.338066 86.214836 -0.0085132113 -9.5395479
34131250 -0.0063394033 -9.6348686 -78.450958 105.77168 -78.552673 101.58776 -0.011258264 -9.6454344
34750000 -0.0081508579 -9.7551022 -74.506561 83.340996 -75.332794 85.589966 -0.0096035404 -9.868084
35368750 -0.009805792 -9.9610453 -75.094116 74.041283 -74.886505 71.040237 -0.0037931714 -9.9976892
35987500 -0.008461101 -10.142243 -77.342018 95.457146 -75.583015 89.677292 -0.0046341424 -10.183433
36606250 -0.014242635 -10.288265 -70.382538 49.657028 -70.522293 46.213802 -0.011306148 -10.342834
37225000 -0.0092736641 -10.439303 -76.278908 67.930664 -76.723511 75.895164 -0.0092414804 -10.510347
37843750 -0.016658856 -10.633924 -76.28492 67.503944 -75.918236 67.772499 -0.0054788911 -10.759811
38462500 -0.012394015 -10.844926 -73.358604 85.686409 -72.505501 92.050278 -0.0097841974 -10.867646
39081250 -0.0056456239 -10.993467 -75.123192 86.265549 -74.127281 86.529533 -0.012329889 -11.03982
39700000 -0.0073792073 -11.175137 -74.720001 85.216324 -74.180351 85.89183 -0.011239226 -11.235325
40318750 -0.012456614 -11.367568 -74.0495 90.629539 -74.565628 86.504898 -0.011589597 -11.434114
40937500 -0.0093541276 -11.515316 -71.469711 78.757225 -71.176331 78.866028 -0.013925671 -11.570124
41556250 -0.0078585483 -11.714379 -73.324905 69.954102 -72.530571 68.847778 -0.016310645 -11.759131
42175000 -0.01163199 -11.925866 -76.476242 75.613968 -75.700348 80.415741 -0.002600617 -11.945771
42793750 -0.01047063 -12.043994 -71.234032 78.789246 -71.491989 76.395538 -0.0077704606 -12.087822
43412500 -0.012597619 -12.201998 -71.416985 52.752121 -71.371353 49.593258 -0.013565149 -12.258576
44031250 -0.011300653 -12.384768 -74.111153 67.066368 -74.670876 64.615036 -0.014331657 -12.477619
44650000 -0.014423732 -12.531521 -68.975853 85.360779 -68.939697 86.529663 -0.013852001 -12.615306
45268750 -0.014121132 -12.777997 -72.50251 64.842262 -72.455727 62.459156 -0.0091614341 -12.823949
45887500 -0.018852554 -12.893652 -75.55439 84.156105 -75.791252 82.952248 -0.0098783029 -12.952483
46506250 -0.017922025 -13.037429 -73.508911 95.037331 -73.219353 95.425682 -0.024990635 -13.115681
47125000 -0.011769848 -13.263797 -72.460197 79.267601 -72.461472 77.253532 -0.0065669869 -13.329155
47743750 -0.0097696716 -13.452368 -70.802406 56.902855 -70.043472 56.107677 -0.011963686 -13.535255
48362500 -0.012660477 -13.567925 -73.27597 76.282875 -73.6334 78.102859 -0.0091915065 -13.654787
48981250 -0.01497016 -13.752576 -73.616531 71.517754 -72.955521 70.365692 -0.011010562 -13.855342
49600000 -0.01428747 -13.951741 -73.287994 67.572006 -73.133652 64.115402 -0.018265964 -14.070069
50218750 -0.016806267 -14.094208 -72.386467 71.228226 -72.087051 67.695808 -0.014220021 -14.183193
50837500 -0.013198342 -14.29584 -74.939919 73.086723 -75.463432 73.261032 -0.011491261 -14.364902
51456250 -0.015898859 -14.48354 -72.588089 56.953453 -72.227341 57.125172 -0.0080656884 -14.548401
52075000 -0.014777879 -14.638111 -81.487259 59.356552 -82.039063 39.272461 -0.01586525 -14.721203
52693750 -0.016049629 -14.819361 -71.616997 80.171303 -71.241875 81.799889 -0.010429147 -14.881796
53312500 -0.015867904 -14.980992 -69.687378 68.154633 -70.291153 69.473961 -0.011237576 -15.073028
53931250 -0.0155455 -15.180176 -71.930649 76.560844 -71.940025 72.488716 -0.01387361 -15.282413
54550000 -0.016572466 -15.294547 -86.944962 36.241432 -85.966438 27.024315 -0.012929184 -15.346177
55168750 -0.017797727 -15.486424 -72.333496 79.277542 -71.899887 81.279327 -0.012833849 -15.557198
55787500 -0.011157559 -15.651521 -74.518379 70.605995 -74.135262 70.182259 -0.011898643 -15.746581
56406250 -0.016647512 -15.818089 -69.440773 72.351524 -69.370132 75.10231 -0.011828687 -15.939312
57025000 -0.010404499 -16.006268 -72.976196 68.199532 -72.700813 69.329132 -0.013221031 -16.101549
57643750 -0.012948529 -16.170956 -71.452957 78.98336 -72.252586 74.957565 -0.014024748 -16.285856
58262500 -0.0098539088 -16.361038 -74.334747 66.432404 -74.194099 68.85627 -0.013835786 -16.446711
58881250 -0.013664429 -16.570536 -71.041153 86.461655 -71.23391 88.24276 -0.0070662773 -16.608997
59500000 -0.013172202 -16.701664 -70.220802 67.531189 -70.333794 66.372604 -0.0094523877 -16.813786
60118750 -0.017099885 -16.872971 -69.308876 70.244431 -69.258636 71.937492 -0.015973559 -16.98826
60737500 -0.010936234 -17.090967 -72.404411 66.260544 -72.239883 65.273956 -0.013476428 -17.148226
61356250 -0.014178004 -17.23094 -70.273994 68.123375 -70.058929 69.223946 -0.010409163 -17.367956
61975000 -0.01358889 -17.427307 -72.094292 60.61327 -72.240685 63.7463 -0.015968891 -17.534683
62593750 -0.017155278 -17.591972 -68.389099 71.575859 -68.535782 72.276886 -0.02661695 -17.709982
63212500 -0.02163123 -17.755995 -74.728531 67.902733 -75.119553 70.199257 -0.021755833 -17.855429
63831250 -0.019577073 -17.942089 -69.318192 82.263397 -69.174484 82.889923 -0.022435887 -18.010178
64450000 -0.018419039 -18.078262 -71.64476 63.935276 -71.764488 64.480766 -0.015451402 -18.177372
65068750 -0.019102013 -18.250702 -71.605202 42.005436 -71.296982 46.563007 -0.016721981 -18.391523
65687500 -0.014690707 -18.435617 -68.859894 76.228127 -69.035416 76.8517 -0.019350976 -18.560886
66306250 -0.018214619 -18.614292 -69.26268 70.102379 -69.188835 69.632469 -0.017707741 -18.725767
66925000 -0.017787348 -18.815977 -69.701332 68.075378 -69.401855 68.978561 -0.01684146 -18.899946
67543750 -0.019807005 -18.979496 -69.819138 70.160797 -70.199631 70.764999 -0.01689803 -19.082136
68162500 -0.016275631 -19.187269 -69.975777 67.629929 -70.175781 69.910812 -0.023856116 -19.266335
68781250 -0.020203447 -19.326035 -70.709702 66.720009 -71.111176 67.867439 -0.017762432 -19.378069
69400000 -0.01901209 -19.522497 -69.762169 77.702644 -70.006935 78.131096 -0.019653151 -19.590206
70018750 -0.022073364 -19.683258 -70.88916 72.526558 -70.946175 74.039467 -0.0170861 -19.782152
70637500 -0.01952707 -19.871054 -71.511917 71.374496 -71.451965 71.626808 -0.021265591 -19.959181
71256250 -0.021804217 -20.036442 -68.992867 61.165409 -69.078697 65.068054 -0.018931149 -20.135555
71875000 -0.024356948 -20.226534 -67.406319 51.796345 -67.271461 52.810223 -0.024394935 -20.316694
72493750 -0.025592253 -20.344629 -68.752068 38.968021 -68.824089 37.067665 -0.028047582 -20.441965
73112500 -0.021384241 -20.545519 -69.792473 72.188797 -69.752098 72.586578 -0.021286402 -20.624859
73731250 -0.021276968 -20.741175 -68.369667 66.316902 -68.259888 65.681374 -0.024352552 -20.844158
74350000 -0.020803947 -20.903631 -68.046478 63.836807 -67.918068 64.726135 -0.02131002 -20.988354
74968750 -0.024296613 -21.061026 -67.906548 51.821125 -67.744911 50.764145 -0.025559537 -21.173635
75587500 -0.029661588 -21.289392 -71.308624 100.68661 -71.398117 101.00475 -0.027469881 -21.386459
76206250 -0.025087392 -21.319769 -68.709648 63.134548 -68.729134 62.544598 -0.024052154 -21.458906
76825000 -0.02208025 -21.543282 -71.226547 63.804932 -70.77446 65.83535 -0.019478437 -21.657032
77443750 -0.022846431 -21.775 -69.870346 70.544662 -69.874741 72.359459 -0.020628193 -21.88118
78062500 -0.024619829 -21.926447 -68.306808 66.122337 -68.244911 66.765274 -0.021646738 -22.043352
78681250 -0.028115734 -22.140848 -68.248177 47.286404 -68.004852 48.148533 -0.026030673 -22.2535
79300000 -0.027872093 -22.341797 -71.405945 79.612076 -71.394188 79.335716 -0.028082849 -22.429632
79918750 -0.022021521 -22.405922 -67.609375 68.288803 -67.625633 66.378059 -0.02547466 -22.525389
80537500 -0.022777129 -22.626863 -67.443909 72.029404 -67.268265 73.074486 -0.027174499 -22.715935
81156250 -0.023994884 -22.760088 -67.832634 69.112183 -67.793915 68.77195 -0.025155772 -22.890116
81775000 -0.025429567 -22.925455 -68.098183 64.353821 -68.221848 63.527004 -0.024416575 -23.037239
82393750 -0.025468228 -23.119131 -67.82589 69.173714 -67.910004 69.361832 -0.026544996 -23.210749
83012500 -0.032506872 -23.346279 -67.784966 57.076908 -68.048981 57.98119 -0.031727582 -23.480196
83631250 -0.021708965 -23.437466 -68.489822 67.901558 -68.398392 67.465408 -0.025289323 -23.559471
84250000 -0.023143228 -23.60009 -68.906891 66.592979 -69.068039 63.522366 -0.018296568 -23.729145
84868750 -0.019956993 -23.825567 -67.520477 66.562462 -67.70034 67.67083 -0.018305305 -23.95458
85487500 -0.024415255 -23.985403 -68.203529 66.156029 -68.313026 67.193367 -0.023584725 -24.101236
86106250 -0.023378637 -24.197744 -67.712471 63.883362 -67.945313 64.175247 -0.022841971 -24.291994
86725000 -0.023625549 -24.334032 -67.05024 62.716061 -67.157578 62.686806 -0.024059322 -24.487907
87343750 -0.022098184 -24.500799 -68.177277 69.959259 -68.306931 69.598389 -0.017849844 -24.628136
87962500 -0.024147378 -24.665115 -68.717079 68.932686 -68.910141 66.949432 -0.023223221 -24.838652
88581250 -0.023027305 -24.879179 -67.329552 63.482567 -67.21727 62.081501 -0.019424774 -25.003628
89200000 -0.027032968 -25.070736 -69.01889 66.109924 -69.051964 67.019958 -0.026364479 -25.200726
89818750 -0.026196504 -25.217941 -66.922096 63.989975 -67.043007 62.431366 -0.027707461 -25.353214
90437500 -0.027862791 -25.37471 -67.316444 51.71426 -67.560295 53.358887 -0.024273494 -25.523483
91056250 -0.027451718 -25.547823 -67.763969 63.888783 -67.529549 63.568169 -0.025734883 -25.691614
91675000 -0.024984563 -25.730156 -67.98156 61.57119 -67.996201 61.492363 -0.022162296 -25.851919
92293750 -0.02456552 -25.898746 -66.829369 66.740448 -66.906059 68.038925 -0.026278364 -26.022917
92912500 -0.024395054 -26.091963 -66.770912 61.923302 -66.955345 60.658276 -0.022507571 -26.210493
93531250 -0.023065357 -26.26149 -68.231781 58.500256 -68.70433 60.31926 -0.021868395 -26.396955
94150000 -0.027335012 -26.427605 -68.165909 70.233963 -68.218498 71.256134 -0.024741296 -26.574648
94768750 -0.028650722 -26.603096 -66.830307 62.480083 -66.682022 63.02581 -0.025194395 -26.737621
95387500 -0.024898615 -26.780916 -67.381775 58.69635 -67.195313 57.849495 -0.025146957 -26.914936
96006250 -0.026512258 -26.964109 -67.665916 60.702728 -67.402542 60.436996 -0.025602974 -27.091204
96625000 -0.026404126 -27.118801 -66.88295 63.437016 -66.856293 63.969345 -0.023493895 -27.266867
97243750 -0.029151779 -27.329039 -65.785522 60.318455 -65.658623 60.081017 -0.025192685 -27.453747
97862500 -0.037420809 -27.529823 -66.960869 50.690819 -66.979591 52.201241 -0.032486267 -27.678679
98481250 -0.032542236 -27.659319 -66.731705 64.670227 -66.510712 64.243546 -0.037133925 -27.790388
99100000 -0.031959362 -27.820448 -66.882759 60.336712 -66.929214 60.404617 -0.032383237 -27.97105
99718750 -0.031804241 -27.987804 -66.641808 56.135555 -66.673622 57.522305 -0.030485585 -28.137003
100337500 -0.033103682 -28.166885 -67.251579 54.413422 -67.125702 53.462463 -0.031052828 -28.315481
100956250 -0.035536386 -28.344646 -66.823654 59.722527 -66.753242 60.089172 -0.035343278 -28.4828
101575000 -0.050103173 -28.587328 -64.419884 40.722813 -64.438576 41.300304 -0.042688049 -28.703777
102193750 -0.033025663 -28.650749 -67.308334 67.732452 -67.022423 66.833107 -0.032156855 -28.792076
102812500 -0.028235713 -28.833611 -66.615456 60.570732 -66.325241 60.960438 -0.02733854 -28.988293
103431250 -0.029307196 -29.036489 -66.731918 60.670357 -66.923386 59.37265 -0.027630435 -29.184343
104050000 -0.026932398 -29.227873 -66.983673 57.35553 -67.277214 58.739594 -0.029736094 -29.38834
104668750 -0.035242479 -29.410286 -65.905708 59.65522 -66.063118 59.480621 -0.033864975 -29.580976
105287500 -0.058264751 -29.49822 -65.913765 39.826553 -65.907845 39.407642 -0.056100231 -29.696892
105906250 -0.035517823 -29.665684 -69.904694 39.900749 -70.151085 39.750782 -0.034383539 -29.830254
106525000 -0.031123633 -29.874306 -67.804756 61.837002 -67.475494 60.703239 -0.031083005 -30.055786
107143750 -0.032212045 -30.09646 -66.195465 57.583084 -66.091286 57.277279 -0.032801788 -30.27943
107762500 -0.036334399 -30.262749 -65.920776 57.714321 -66.127434 56.73024 -0.040918034 -30.422407
108381250 -0.038572416 -30.467134 -66.992165 53.081989 -67.02066 54.51606 -0.038355865 -30.609684
109000000 -0.074653462 -30.481201 -69.509796 33.748085 -69.278778 33.524101 -0.071276471 -30.673622
109618750 -0.039636016 -30.70277 -66.25235 56.617802 -66.224289 57.570114 -0.037888724 -30.858942
110237500 -0.034723129 -30.884329 -67.053925 60.69268 -66.645218 59.846172 -0.032056276 -31.06036
110856250 -0.032471992 -31.093987 -66.390816 59.21236 -66.467659 60.888966 -0.031738762 -31.249071
111475000 -0.034632444 -31.284098 -65.682098 59.191628 -65.761154 58.242779 -0.030416125 -31.443541
112093750 -0.038597666 -31.482546 -66.859314 44.851501 -66.782211 45.704803 -0.036003906 -31.660109
112712500 -0.050793506 -31.55422 -66.406639 56.968777 -66.383095 56.741447 -0.050700106 -31.726479
113331250 -0.038496204 -31.774242 -65.888748 61.38623 -66.080467 59.997959 -0.035235733 -31.949682
113950000 -0.034599971 -31.935871 -65.325554 58.867939 -65.416924 58.916565 -0.032399308 -32.109745
114568750 -0.035383344 -32.13179 -66.212402 54.981907 -66.177292 54.225048 -0.032645602 -32.297279
115187500 -0.034112789 -32.322414 -65.542595 58.889244 -65.509544 58.94331 -0.034634627 -32.486073
115806250 -0.03740919 -32.532356 -65.371109 48.985394 -65.236252 47.840702 -0.035656065 -32.720963
116425000 -0.047890995 -32.635365 -66.499657 56.811363 -66.313293 57.254868 -0.049399067 -32.769627
117043750 -0.041285478 -32.812016 -66.304329 54.957699 -66.168427 55.130764 -0.038973413 -32.936878
117662500 -0.038566712 -32.99873 -66.255943 51.670944 -65.916061 52.340679 -0.039941151 -33.11356
118281250 -0.03654075 -33.16354 -66.405678 51.796661 -66.396255 50.619362 -0.036590256 -33.296082
118900000 -0.035141565 -33.329845 -66.607773 53.738682 -66.575256 55.59412 -0.032947242 -33.492077
119518750 -0.037010081 -33.516396 -65.468605 56.610718 -65.261971 56.66246 -0.036015049 -33.674091
120137500 -0.033977408 -33.691189 -66.756401 54.76952 -66.721016 53.254074 -0.036175929 -33.844765
120756250 -0.034361959 -33.8582 -65.66655 52.467537 -65.614395 52.529751 -0.036650956 -34.029682
121375000 -0.033782873 -34.047962 -65.197235 55.979374 -65.307892 56.061077 -0.033289477 -34.204243
121993750 -0.035655309 -34.232063 -65.096489 52.16663 -65.149567 51.238132 -0.034310635 -34.388958
122612500 -0.03587487 -34.398403 -66.317886 51.328869 -66.235512 49.924206 -0.034737863 -34.567757
123231250 -0.036296118 -34.582741 -65.727089 55.347824 -65.77803 54.357162 -0.035315152 -34.751858
123850000 -0.036159158 -34.755966 -65.091301 53.599491 -65.15509 52.621559 -0.034087662 -34.940166
124468750 -0.036933634 -34.924347 -65.491264 50.332844 -65.489029 50.195183 -0.034715801 -35.119522
125087500 -0.040551465 -35.128502 -66.614761 58.718781 -66.666328 57.718117 -0.04316378 -35.341347
125706250 -0.042050544 -35.259651 -64.409973 49.256371 -64.380043 48.670578 -0.041509762 -35.448147
126325000 -0.041937068 -35.412033 -65.783379 42.261425 -65.850433 42.24725 -0.041589849 -35.590057
126943750 -0.041148152 -35.631424 -66.334373 55.247948 -66.189751 55.041374 -0.038916461 -35.806217
127562500 -0.042175028 -35.771065 -65.612083 59.683315 -65.531334 60.932549 -0.043036819 -35.972221
128181250 -0.04223768 -35.951088 -64.130981 51.864426 -63.975365 52.007668 -0.041103341 -36.122181
128800000 -0.038743969 -36.116325 -64.333832 50.673725 -64.304398 51.073925 -0.038463276 -36.314137
129418750 -0.03953363 -36.320423 -65.682823 54.318695 -65.656097 54.03661 -0.035715159 -36.507469
130037500 -0.037001558 -36.477436 -64.272667 50.344559 -64.319305 49.779465 -0.03865939 -36.702778
130656250 -0.040933367 -36.676598 -64.808586 51.413582 -64.755333 51.24699 -0.041396581 -36.886963
131275000 -0.050949808 -36.812904 -64.24395 51.673145 -64.536682 51.1548 -0.051583309 -37.023094
131893750 -0.040369827 -36.976768 -64.468437 56.403507 -64.556511 54.995884 -0.04277195 -37.176216
132512500 -0.040749323 -37.172218 -64.229584 47.723961 -64.344215 47.899342 -0.038601648 -37.359768
