!Agilent Technologies,E5070B,MY42401647,A.08.11
!Date: Tue Sep 11 14:23:07 2018
!Data & Calibration Information:
!Freq	S11:SOLT2(ON)	S21:SOLT2(ON)	S12:SOLT2(ON)	S22:SOLT2(ON)
# Hz S RI R 50
1290000000	-7.046001e-001	6.429067e-001	-8.018271e-004	-1.332633e-003	-8.899663e-004	-1.328369e-003	-7.032167e-001	6.437944e-001
1290312500	-7.012918e-001	6.416066e-001	-7.925434e-004	-1.325175e-003	-8.283375e-004	-1.336758e-003	-7.030360e-001	6.439962e-001
1290625000	-7.038460e-001	6.443949e-001	-8.507271e-004	-1.365418e-003	-8.732240e-004	-1.344105e-003	-7.025508e-001	6.451008e-001
1290937500	-7.028890e-001	6.453011e-001	-8.541522e-004	-1.337600e-003	-9.024719e-004	-1.324104e-003	-7.019510e-001	6.455787e-001
1291250000	-6.866513e-001	6.577393e-001	-9.242765e-004	-1.327175e-003	-9.288051e-004	-1.320471e-003	-7.007373e-001	6.471386e-001
1291562500	-7.022490e-001	6.468715e-001	-8.701804e-004	-1.351158e-003	-9.353777e-004	-1.329243e-003	-7.005936e-001	6.473074e-001
1291875000	-7.013186e-001	6.474932e-001	-9.090860e-004	-1.332226e-003	-9.462517e-004	-1.335897e-003	-6.995200e-001	6.478918e-001
1292187500	-6.848742e-001	6.594920e-001	-1.001989e-003	-1.239621e-003	-9.881335e-004	-1.274422e-003	-6.987826e-001	6.491826e-001
1292500000	-6.996956e-001	6.490915e-001	-9.202020e-004	-1.290490e-003	-9.846150e-004	-1.264606e-003	-6.985830e-001	6.496712e-001
1292812500	-6.987294e-001	6.494279e-001	-9.511902e-004	-1.266399e-003	-1.024044e-003	-1.267297e-003	-6.972948e-001	6.500199e-001
1293125000	-6.851236e-001	6.639761e-001	-9.747520e-004	-1.228121e-003	-1.016821e-003	-1.235395e-003	-6.960197e-001	6.511942e-001
1293437500	-6.981117e-001	6.506770e-001	-9.724088e-004	-1.248938e-003	-1.029286e-003	-1.214997e-003	-6.964392e-001	6.506627e-001
1293750000	-6.962559e-001	6.509388e-001	-1.004163e-003	-1.217833e-003	-1.062703e-003	-1.219390e-003	-6.958536e-001	6.514520e-001
1294062500	-6.964010e-001	6.511841e-001	-1.006069e-003	-1.141307e-003	-1.048745e-003	-1.121932e-003	-6.954402e-001	6.526967e-001
1294375000	-6.967540e-001	6.520380e-001	-9.279640e-004	-1.159501e-003	-1.020096e-003	-1.129411e-003	-6.966299e-001	6.556458e-001
1294687500	-6.952460e-001	6.533620e-001	-9.761718e-004	-1.192148e-003	-1.029325e-003	-1.168634e-003	-6.940526e-001	6.537968e-001
1295000000	-6.944974e-001	6.539778e-001	-9.988345e-004	-1.181086e-003	-1.067741e-003	-1.150460e-003	-6.931682e-001	6.550794e-001
1295312500	-6.953598e-001	6.543681e-001	-9.654239e-004	-1.170763e-003	-1.068583e-003	-1.139830e-003	-6.943712e-001	6.578764e-001
1295625000	-6.937453e-001	6.550556e-001	-1.026076e-003	-1.151358e-003	-1.072381e-003	-1.117214e-003	-6.910367e-001	6.561933e-001
1295937500	-6.928886e-001	6.559858e-001	-1.012742e-003	-1.127743e-003	-1.067989e-003	-1.154996e-003	-6.908754e-001	6.569813e-001
1296250000	-6.940739e-001	6.565521e-001	-1.024708e-003	-1.114805e-003	-1.111854e-003	-1.070643e-003	-6.918135e-001	6.597889e-001
1296562500	-7.053591e-001	6.459313e-001	-1.009816e-003	-1.108692e-003	-1.070215e-003	-1.072463e-003	-6.893330e-001	6.577808e-001
1296875000	-6.908967e-001	6.587167e-001	-1.034972e-003	-1.089563e-003	-1.071738e-003	-1.055388e-003	-6.890962e-001	6.587423e-001
1297187500	-6.899481e-001	6.591690e-001	-1.010499e-003	-1.039232e-003	-1.102241e-003	-1.019185e-003	-6.881107e-001	6.588160e-001
1297500000	-7.035829e-001	6.482578e-001	-1.033216e-003	-1.063188e-003	-1.084784e-003	-1.062899e-003	-6.873309e-001	6.599590e-001
1297812500	-6.887812e-001	6.607573e-001	-1.058472e-003	-1.038145e-003	-1.116885e-003	-1.000835e-003	-6.873109e-001	6.605295e-001
1298125000	-6.851158e-001	6.590738e-001	-1.077154e-003	-1.013557e-003	-1.082832e-003	-1.000933e-003	-6.859007e-001	6.609248e-001
1298437500	-7.011578e-001	6.505365e-001	-1.040790e-003	-1.010737e-003	-1.096275e-003	-9.904904e-004	-6.839894e-001	6.598762e-001
1298750000	-6.862539e-001	6.628030e-001	-1.034466e-003	-9.744617e-004	-1.094527e-003	-9.818001e-004	-6.849892e-001	6.624449e-001
1299062500	-6.825892e-001	6.609887e-001	-1.036814e-003	-9.684139e-004	-1.107232e-003	-9.282087e-004	-6.840484e-001	6.633898e-001
1299375000	-6.848585e-001	6.639347e-001	-1.047877e-003	-9.773471e-004	-1.094026e-003	-9.471297e-004	-6.834011e-001	6.637547e-001
1299687500	-6.843077e-001	6.647659e-001	-1.073676e-003	-9.524517e-004	-1.114670e-003	-9.260597e-004	-6.830144e-001	6.646236e-001
1300000000	-6.680711e-001	6.757099e-001	-1.067324e-003	-9.127791e-004	-1.109781e-003	-9.426228e-004	-6.818882e-001	6.654732e-001
1300312500	-6.701311e-001	6.793112e-001	-1.059413e-003	-9.335833e-004	-1.104194e-003	-9.229920e-004	-6.816255e-001	6.657158e-001
1300625000	-6.792599e-001	6.645916e-001	-1.078063e-003	-9.046225e-004	-1.080434e-003	-8.857980e-004	-6.806490e-001	6.664840e-001
1300937500	-6.822337e-001	6.670827e-001	-1.034006e-003	-9.388821e-004	-1.089009e-003	-8.881961e-004	-6.798401e-001	6.677895e-001
1301250000	-6.678768e-001	6.813066e-001	-1.053094e-003	-8.979334e-004	-1.085579e-003	-8.863950e-004	-6.794738e-001	6.678016e-001
1301562500	-6.771412e-001	6.663039e-001	-1.042704e-003	-9.364998e-004	-1.060666e-003	-9.090721e-004	-6.786489e-001	6.685746e-001
1301875000	-6.945556e-001	6.574795e-001	-1.032463e-003	-9.344915e-004	-1.087793e-003	-8.723414e-004	-6.778075e-001	6.689994e-001
1302187500	-6.787415e-001	6.699680e-001	-1.018451e-003	-8.828812e-004	-1.062834e-003	-8.613699e-004	-6.775181e-001	6.702393e-001
1302500000	-6.750591e-001	6.682189e-001	-1.052512e-003	-8.775135e-004	-1.068052e-003	-8.700398e-004	-6.766173e-001	6.708311e-001
1302812500	-6.911964e-001	6.598658e-001	-9.926537e-004	-9.091049e-004	-1.055689e-003	-8.879240e-004	-6.757179e-001	6.711138e-001
1303125000	-6.769312e-001	6.720113e-001	-1.031203e-003	-8.926396e-004	-1.054164e-003	-8.738306e-004	-6.741082e-001	6.693680e-001
1303437500	-6.763671e-001	6.724853e-001	-1.027195e-003	-8.722744e-004	-1.059581e-003	-8.619364e-004	-6.747677e-001	6.724804e-001
1303750000	-6.895774e-001	6.623586e-001	-1.019431e-003	-9.036551e-004	-1.078223e-003	-8.587986e-004	-6.742790e-001	6.734719e-001
1304062500	-6.747653e-001	6.740095e-001	-1.004324e-003	-8.669553e-004	-1.053506e-003	-8.258763e-004	-6.718618e-001	6.711730e-001
1304375000	-6.743040e-001	6.749202e-001	-1.001859e-003	-8.558114e-004	-1.036560e-003	-8.478676e-004	-6.726698e-001	6.744960e-001
1304687500	-6.737194e-001	6.754840e-001	-1.018627e-003	-8.672638e-004	-1.030645e-003	-8.556354e-004	-6.719218e-001	6.755565e-001
1305000000	-6.729838e-001	6.760790e-001	-1.016352e-003	-8.295356e-004	-1.037688e-003	-8.360538e-004	-6.702254e-001	6.732810e-001
1305312500	-6.718559e-001	6.765415e-001	-1.001615e-003	-8.871412e-004	-1.066136e-003	-8.503360e-004	-6.725178e-001	6.787819e-001
1305625000	-6.713144e-001	6.773141e-001	-9.991309e-004	-8.563696e-004	-1.061640e-003	-8.339806e-004	-6.702723e-001	6.776822e-001
1305937500	-6.708975e-001	6.783953e-001	-1.009615e-003	-8.301724e-004	-1.028628e-003	-8.463986e-004	-6.693612e-001	6.782114e-001
1306250000	-6.574024e-001	6.914493e-001	-1.041273e-003	-8.343746e-004	-1.058128e-003	-8.286806e-004	-6.700777e-001	6.815477e-001
1306562500	-6.691517e-001	6.798053e-001	-1.008843e-003	-8.553738e-004	-1.063044e-003	-8.366736e-004	-6.677267e-001	6.800113e-001
1306875000	-6.680956e-001	6.807514e-001	-9.750341e-004	-8.251256e-004	-1.053370e-003	-8.278309e-004	-6.665802e-001	6.807597e-001
1307187500	-6.551233e-001	6.933834e-001	-1.020218e-003	-8.403315e-004	-1.055722e-003	-8.060648e-004	-6.682198e-001	6.834903e-001
1307500000	-6.669270e-001	6.821964e-001	-1.042813e-003	-8.410613e-004	-1.091629e-003	-8.299054e-004	-6.652601e-001	6.825485e-001
1307812500	-6.675962e-001	6.829787e-001	-9.942300e-004	-8.360628e-004	-1.061566e-003	-8.054188e-004	-6.638204e-001	6.837420e-001
1308125000	-6.529115e-001	6.959791e-001	-1.039987e-003	-8.248102e-004	-1.038604e-003	-7.846813e-004	-6.634624e-001	6.835884e-001
1308437500	-6.613680e-001	6.820616e-001	-1.034350e-003	-8.291352e-004	-1.052000e-003	-8.283774e-004	-6.625293e-001	6.845771e-001
1308750000	-6.651127e-001	6.852391e-001	-9.879127e-004	-8.376719e-004	-1.080481e-003	-8.048609e-004	-6.614410e-001	6.853813e-001
1309062500	-6.499553e-001	6.981146e-001	-1.012862e-003	-8.305866e-004	-1.051507e-003	-7.984115e-004	-6.608263e-001	6.853435e-001
1309375000	-6.588894e-001	6.836723e-001	-1.033104e-003	-7.863800e-004	-1.087302e-003	-8.103121e-004	-6.602235e-001	6.863680e-001
1309687500	-6.759982e-001	6.761933e-001	-1.016566e-003	-8.620953e-004	-1.075854e-003	-8.038010e-004	-6.589593e-001	6.870066e-001
1310000000	-6.597150e-001	6.879093e-001	-1.037200e-003	-8.280785e-004	-1.098785e-003	-7.826985e-004	-6.584127e-001	6.875487e-001
1310312500	-6.563285e-001	6.855641e-001	-1.056223e-003	-8.072451e-004	-1.084784e-003	-7.978407e-004	-6.573957e-001	6.879418e-001
1310625000	-6.718364e-001	6.785594e-001	-1.037364e-003	-8.806039e-004	-1.125053e-003	-8.184819e-004	-6.566032e-001	6.885544e-001
1310937500	-6.575354e-001	6.897257e-001	-1.047413e-003	-8.229615e-004	-1.080426e-003	-7.774355e-004	-6.544794e-001	6.866843e-001
1311250000	-6.568605e-001	6.901628e-001	-1.064443e-003	-8.211801e-004	-1.123014e-003	-7.886809e-004	-6.551610e-001	6.897262e-001
1311562500	-6.697002e-001	6.802562e-001	-1.076982e-003	-8.276218e-004	-1.111553e-003	-7.936223e-004	-6.541520e-001	6.905503e-001
1311875000	-6.551308e-001	6.910041e-001	-1.068622e-003	-7.955704e-004	-1.129873e-003	-7.589897e-004	-6.519189e-001	6.887565e-001
1312187500	-6.543761e-001	6.915815e-001	-1.086117e-003	-7.769991e-004	-1.140088e-003	-7.575310e-004	-6.527940e-001	6.914016e-001
1312500000	-6.528192e-001	6.916488e-001	-1.097569e-003	-8.056300e-004	-1.133596e-003	-7.578790e-004	-6.523649e-001	6.922282e-001
1312812500	-6.523832e-001	6.922431e-001	-1.115579e-003	-7.592279e-004	-1.127158e-003	-7.557266e-004	-6.499783e-001	6.897351e-001
1313125000	-6.517412e-001	6.928240e-001	-1.061215e-003	-7.467983e-004	-1.116540e-003	-7.471840e-004	-6.523795e-001	6.950288e-001
1313437500	-6.512714e-001	6.934454e-001	-1.049145e-003	-7.778571e-004	-1.150866e-003	-7.578970e-004	-6.496235e-001	6.933837e-001
1313750000	-6.504255e-001	6.939781e-001	-1.110755e-003	-7.726750e-004	-1.151375e-003	-7.369282e-004	-6.489887e-001	6.938398e-001
1314062500	-6.378174e-001	7.057020e-001	-1.122830e-003	-7.284414e-004	-1.174902e-003	-7.398949e-004	-6.498941e-001	6.968473e-001
1314375000	-6.496246e-001	6.951224e-001	-1.127553e-003	-7.256476e-004	-1.154223e-003	-6.992229e-004	-6.475864e-001	6.952974e-001
1314687500	-6.487887e-001	6.956524e-001	-1.135428e-003	-7.363760e-004	-1.162090e-003	-7.153195e-004	-6.463063e-001	6.964114e-001
1315000000	-6.359824e-001	7.075346e-001	-1.143415e-003	-6.702608e-004	-1.150773e-003	-7.056907e-004	-6.482799e-001	6.984212e-001
1315312500	-6.479343e-001	6.965173e-001	-1.168740e-003	-7.246258e-004	-1.180964e-003	-6.844205e-004	-6.457816e-001	6.968797e-001
1315625000	-6.493557e-001	6.976410e-001	-1.147776e-003	-6.981717e-004	-1.173644e-003	-6.526563e-004	-6.445652e-001	6.980016e-001
1315937500	-6.339646e-001	7.100860e-001	-1.156784e-003	-6.823773e-004	-1.164520e-003	-6.997850e-004	-6.443501e-001	6.982115e-001
1316250000	-6.427528e-001	6.966433e-001	-1.160662e-003	-6.663927e-004	-1.192647e-003	-6.639481e-004	-6.437268e-001	6.988780e-001
1316562500	-6.468534e-001	6.998265e-001	-1.142294e-003	-6.860363e-004	-1.215209e-003	-6.215899e-004	-6.428026e-001	7.001366e-001
1316875000	-6.321970e-001	7.127307e-001	-1.163760e-003	-6.161765e-004	-1.154301e-003	-6.139180e-004	-6.425088e-001	7.006828e-001
1317187500	-6.407959e-001	6.986871e-001	-1.137128e-003	-6.178340e-004	-1.188823e-003	-6.055576e-004	-6.418736e-001	7.010156e-001
1317500000	-6.586643e-001	6.927448e-001	-1.124621e-003	-6.704828e-004	-1.168597e-003	-6.184089e-004	-6.414081e-001	7.019621e-001
1317812500	-6.423286e-001	7.035785e-001	-1.173443e-003	-6.321634e-004	-1.207808e-003	-5.737511e-004	-6.390373e-001	7.008208e-001
1318125000	-6.384355e-001	7.014772e-001	-1.189189e-003	-5.927397e-004	-1.210307e-003	-5.964974e-004	-6.396991e-001	7.040390e-001
1318437500	-6.543376e-001	6.950963e-001	-1.146595e-003	-5.829806e-004	-1.212699e-003	-5.353680e-004	-6.385720e-001	7.043939e-001
1318750000	-6.398182e-001	7.059388e-001	-1.144041e-003	-5.636210e-004	-1.172069e-003	-5.270501e-004	-6.365768e-001	7.032523e-001
1319062500	-6.393668e-001	7.061612e-001	-1.138551e-003	-5.787628e-004	-1.198739e-003	-5.393969e-004	-6.370598e-001	7.059028e-001
1319375000	-6.518596e-001	6.971008e-001	-1.182270e-003	-5.918155e-004	-1.175728e-003	-5.107046e-004	-6.358710e-001	7.069683e-001
1319687500	-6.373605e-001	7.080481e-001	-1.175322e-003	-5.503572e-004	-1.184553e-003	-5.117603e-004	-6.340004e-001	7.052095e-001
1320000000	-6.361076e-001	7.085309e-001	-1.162125e-003	-5.444567e-004	-1.201206e-003	-5.377689e-004	-6.343304e-001	7.082931e-001
1320312500	-6.491556e-001	6.994477e-001	-1.201693e-003	-5.505775e-004	-1.181885e-003	-4.720297e-004	-6.330610e-001	7.089444e-001
1320625000	-6.349593e-001	7.098470e-001	-1.127306e-003	-5.255368e-004	-1.185149e-003	-5.184109e-004	-6.310265e-001	7.070964e-001
1320937500	-6.340046e-001	7.102388e-001	-1.192075e-003	-4.912564e-004	-1.215448e-003	-4.763559e-004	-6.327043e-001	7.122292e-001
1321250000	-6.330053e-001	7.112281e-001	-1.197824e-003	-4.557605e-004	-1.218315e-003	-4.383882e-004	-6.303823e-001	7.109340e-001
1321562500	-6.322364e-001	7.122158e-001	-1.136348e-003	-4.948397e-004	-1.195239e-003	-4.370330e-004	-6.286576e-001	7.092963e-001
1321875000	-6.306100e-001	7.130294e-001	-1.192860e-003	-4.940531e-004	-1.216468e-003	-4.803560e-004	-6.300027e-001	7.142559e-001
1322187500	-6.298801e-001	7.133891e-001	-1.233759e-003	-4.243733e-004	-1.275135e-003	-3.935603e-004	-6.275487e-001	7.128352e-001
1322500000	-6.290442e-001	7.132706e-001	-1.211519e-003	-3.744177e-004	-1.236270e-003	-3.420250e-004	-6.263054e-001	7.130447e-001
1322812500	-6.153602e-001	7.251625e-001	-1.194147e-003	-3.372778e-004	-1.202968e-003	-3.191024e-004	-6.271913e-001	7.156462e-001
1323125000	-6.273007e-001	7.147656e-001	-1.156156e-003	-3.794664e-004	-1.195781e-003	-3.368358e-004	-6.254351e-001	7.142760e-001
1323437500	-6.263415e-001	7.153846e-001	-1.213857e-003	-3.408535e-004	-1.241295e-003	-3.313038e-004	-6.236096e-001	7.152136e-001
1323750000	-6.123836e-001	7.266425e-001	-1.209759e-003	-2.539719e-004	-1.221365e-003	-2.307998e-004	-6.244910e-001	7.174514e-001
1324062500	-6.214780e-001	7.128859e-001	-1.172321e-003	-2.401998e-004	-1.194934e-003	-2.320230e-004	-6.220450e-001	7.156026e-001
1324375000	-6.258265e-001	7.165054e-001	-1.184639e-003	-2.810342e-004	-1.206755e-003	-1.973419e-004	-6.205722e-001	7.165240e-001
1324687500	-6.105410e-001	7.284505e-001	-1.247895e-003	-1.890223e-004	-1.247605e-003	-1.376336e-004	-6.202346e-001	7.166097e-001
1325000000	-6.191544e-001	7.149618e-001	-1.179074e-003	-8.065330e-005	-1.180706e-003	-6.152136e-005	-6.198816e-001	7.170539e-001
1325312500	-6.368814e-001	7.094306e-001	-1.114478e-003	-1.123604e-004	-1.143242e-003	-4.182496e-005	-6.190067e-001	7.176216e-001
1325625000	-6.207818e-001	7.195877e-001	-1.055409e-003	-9.006471e-005	-1.059414e-003	-5.642369e-005	-6.184437e-001	7.181219e-001
1325937500	-6.165417e-001	7.164087e-001	-1.048919e-003	-1.416520e-004	-1.063707e-003	-1.041979e-004	-6.176209e-001	7.186538e-001
1326250000	-6.320219e-001	7.112370e-001	-1.171066e-003	-1.460804e-005	-1.153656e-003	5.258392e-005	-6.166033e-001	7.187756e-001
1326562500	-6.183544e-001	7.203843e-001	-1.071586e-003	6.724392e-005	-1.046413e-003	1.365350e-004	-6.147779e-001	7.171752e-001
1326875000	-6.176750e-001	7.206982e-001	-8.920119e-004	9.910391e-005	-9.193897e-004	1.551020e-004	-6.156640e-001	7.197727e-001
1327187500	-6.305188e-001	7.124831e-001	-9.024257e-004	3.920778e-005	-9.001135e-004	6.850253e-005	-6.152548e-001	7.207861e-001
1327500000	-6.164536e-001	7.218672e-001	-8.899262e-004	5.551892e-005	-9.335423e-004	8.805166e-005	-6.131023e-001	7.191514e-001
1327812500	-6.156778e-001	7.222710e-001	-8.744110e-004	1.648089e-004	-8.626981e-004	1.509685e-004	-6.133027e-001	7.216828e-001
1328125000	-6.284561e-001	7.145996e-001	-7.264661e-004	1.843003e-004	-7.095623e-004	2.266501e-004	-6.125673e-001	7.223184e-001
1328437500	-6.140462e-001	7.233023e-001	-6.941375e-004	1.042417e-004	-7.060909e-004	1.205474e-004	-6.107526e-001	7.201237e-001
1328750000	-6.131124e-001	7.239792e-001	-7.016680e-004	1.464968e-004	-6.925461e-004	1.589249e-004	-6.128636e-001	7.253022e-001
1329062500	-6.125959e-001	7.244032e-001	-6.089647e-004	2.098167e-004	-6.201576e-004	2.407195e-004	-6.113316e-001	7.238391e-001
1329375000	-6.115424e-001	7.255329e-001	-5.134210e-004	1.814154e-004	-5.603451e-004	1.760069e-004	-6.089061e-001	7.226488e-001
1329687500	-6.110376e-001	7.257463e-001	-4.225186e-004	1.437906e-004	-4.295437e-004	1.545925e-004	-6.106261e-001	7.278181e-001
1330000000	-6.104131e-001	7.261406e-001	-4.390918e-004	4.929763e-005	-4.178997e-004	6.380242e-005	-6.085503e-001	7.261554e-001
1330312500	-6.100091e-001	7.268346e-001	-4.589104e-004	1.356350e-004	-4.492577e-004	1.369074e-004	-6.075171e-001	7.269759e-001
1330625000	-5.961279e-001	7.374933e-001	-2.413152e-004	2.090554e-004	-2.640196e-004	1.783168e-004	-6.083696e-001	7.298070e-001
1330937500	-6.084363e-001	7.281540e-001	-1.838355e-004	3.818088e-005	-1.625262e-004	5.785703e-005	-6.062861e-001	7.281673e-001
1331250000	-6.078345e-001	7.288472e-001	-1.839036e-004	-1.757134e-005	-1.678556e-004	-3.154652e-005	-6.046962e-001	7.295059e-001
1331562500	-5.940444e-001	7.395405e-001	-2.041286e-004	-4.559174e-005	-2.259224e-004	-4.751993e-005	-6.057857e-001	7.315168e-001
1331875000	-6.063807e-001	7.301329e-001	-1.361604e-004	1.329373e-005	-1.574758e-004	2.382528e-005	-6.036611e-001	7.301931e-001
1332187500	-6.079666e-001	7.312911e-001	-1.886067e-006	-6.395796e-005	1.198523e-006	-5.286319e-005	-6.021083e-001	7.307459e-001
1332500000	-5.917588e-001	7.423990e-001	7.330888e-005	-2.859318e-004	5.301601e-005	-2.908291e-004	-6.022879e-001	7.313412e-001
1332812500	-6.007880e-001	7.293412e-001	-1.281561e-004	-3.055782e-004	-1.235436e-004	-2.765282e-004	-6.014398e-001	7.322692e-001
1333125000	-6.189411e-001	7.250963e-001	-3.313741e-005	-2.389112e-004	-5.864849e-005	-2.162645e-004	-6.007542e-001	7.327438e-001
1333437500	-5.891728e-001	7.442842e-001	1.732612e-006	-2.689421e-004	-1.210156e-005	-2.904474e-004	-5.996488e-001	7.329456e-001
1333750000	-5.982589e-001	7.311439e-001	8.640894e-005	-3.859254e-004	4.404404e-005	-3.912974e-004	-5.987753e-001	7.334141e-001
1334062500	-6.167281e-001	7.267031e-001	1.325582e-006	-5.075514e-004	-3.132415e-005	-5.452088e-004	-5.978928e-001	7.341862e-001
1334375000	-6.005059e-001	7.361308e-001	-1.062954e-004	-4.746748e-004	-1.456373e-004	-4.681513e-004	-5.964244e-001	7.324762e-001
1334687500	-5.993226e-001	7.363740e-001	-2.644215e-005	-3.631363e-004	-3.386446e-005	-3.642539e-004	-5.969878e-001	7.354265e-001
1335000000	-6.123312e-001	7.289932e-001	6.161683e-005	-5.344420e-004	4.210714e-005	-5.422140e-004	-5.958496e-001	7.362632e-001
1335312500	-5.984653e-001	7.383167e-001	1.319042e-005	-5.980575e-004	-4.074781e-005	-6.376922e-004	-5.946386e-001	7.346731e-001
1335625000	-5.972036e-001	7.381189e-001	-1.093008e-004	-5.964813e-004	-1.077262e-004	-6.269927e-004	-5.945721e-001	7.376001e-001
1335937500	-6.104125e-001	7.309969e-001	-1.002979e-004	-6.000412e-004	-1.248714e-004	-5.678320e-004	-5.936884e-001	7.381097e-001
1336250000	-5.953319e-001	7.394896e-001	2.362225e-005	-5.362148e-004	4.463849e-006	-5.795994e-004	-5.920436e-001	7.364275e-001
1336562500	-5.943621e-001	7.401944e-001	3.900941e-005	-7.827962e-004	3.366556e-006	-8.090754e-004	-5.924717e-001	7.397552e-001
1336875000	-6.074519e-001	7.327925e-001	-2.325215e-004	-7.451599e-004	-2.713798e-004	-7.877519e-004	-5.916356e-001	7.402363e-001
1337187500	-5.928315e-001	7.414949e-001	-1.861154e-004	-5.634739e-004	-2.081526e-004	-5.651553e-004	-5.897679e-001	7.383929e-001
1337500000	-5.923355e-001	7.418599e-001	-2.677626e-005	-5.490479e-004	-3.112767e-005	-5.911392e-004	-5.911709e-001	7.442168e-001
