!Agilent Technologies,E5070B,MY42401647,A.08.11
!Date: Tue Sep 11 14:23:31 2018
!Data & Calibration Information:
!Freq	S11:SOLT2(ON)	S21:SOLT2(ON)	S12:SOLT2(ON)	S22:SOLT2(ON)
# Hz S RI R 50
1000000	1.000408e+000	1.835808e-002	1.218052e-005	-7.063710e-007	9.152077e-006	-1.912251e-005	9.996423e-001	-3.227315e-003
2874375	9.996555e-001	-9.549575e-003	-1.278911e-005	2.704205e-005	-7.355837e-006	-8.674208e-006	1.000251e+000	-1.002696e-002
4748750	1.000128e+000	-1.619420e-002	1.117210e-005	1.443249e-004	4.844420e-006	1.062298e-004	9.997182e-001	-1.533017e-002
6623125	9.989456e-001	-2.238422e-002	-2.723532e-005	8.706782e-006	-6.150595e-006	1.277709e-005	9.995710e-001	-2.181849e-002
8497500	9.985588e-001	-2.817190e-002	-2.650861e-004	3.285114e-004	-2.289382e-004	3.469935e-004	9.993398e-001	-2.789809e-002
10371875	9.991386e-001	-3.447532e-002	3.257470e-006	-3.239399e-005	-1.729040e-005	-1.282708e-005	9.991892e-001	-3.501813e-002
12246250	9.984325e-001	-4.115161e-002	-5.709988e-007	-1.581845e-005	-5.171486e-006	5.929827e-006	9.991332e-001	-4.142234e-002
14120625	9.989031e-001	-4.760970e-002	-1.964120e-005	1.415728e-004	-8.974914e-006	9.588398e-005	9.988719e-001	-4.737861e-002
15995000	9.981075e-001	-5.363553e-002	-7.840851e-005	9.857404e-005	-6.801506e-005	8.889092e-005	9.980239e-001	-5.275308e-002
17869375	9.978029e-001	-6.031332e-002	1.650718e-005	-2.103763e-005	2.419718e-005	-7.284501e-006	9.975356e-001	-5.922851e-002
19743750	9.971664e-001	-6.660502e-002	-4.534913e-006	6.528933e-005	1.089465e-005	8.298971e-005	9.971236e-001	-6.561885e-002
21618125	9.968068e-001	-7.312896e-002	8.537989e-005	7.178256e-005	7.312266e-005	5.059115e-005	9.966992e-001	-7.165835e-002
23492500	9.964582e-001	-7.873877e-002	-8.917457e-005	1.129906e-004	-9.626215e-005	9.939357e-005	9.961224e-001	-7.788955e-002
25366875	9.953882e-001	-8.500978e-002	9.406062e-005	1.459308e-004	9.956570e-005	1.502624e-004	9.957648e-001	-8.408211e-002
27241250	9.952070e-001	-9.159400e-002	1.558777e-005	8.859265e-005	2.971406e-005	9.438499e-005	9.954545e-001	-9.009222e-002
29115625	9.946846e-001	-9.810692e-002	8.104063e-005	1.340071e-004	6.919517e-005	1.353604e-004	9.944504e-001	-9.694095e-002
30990000	9.934944e-001	-1.043408e-001	-4.245492e-006	3.844570e-005	-6.271407e-006	5.379278e-006	9.937805e-001	-1.029334e-001
32864375	9.926207e-001	-1.100089e-001	-8.506373e-005	9.375421e-005	-7.700702e-005	7.833726e-005	9.925888e-001	-1.083870e-001
34738750	9.915590e-001	-1.165902e-001	-1.396373e-005	1.882658e-004	-2.323401e-005	1.758600e-004	9.925581e-001	-1.146174e-001
36613125	9.908987e-001	-1.229151e-001	7.654846e-005	8.220674e-005	1.171266e-004	5.430519e-005	9.913288e-001	-1.211457e-001
38487500	9.905887e-001	-1.284774e-001	3.840873e-005	3.820194e-004	2.878755e-005	3.579256e-004	9.901135e-001	-1.276792e-001
40361875	9.895111e-001	-1.349919e-001	1.024784e-004	4.498726e-005	1.091037e-004	3.720500e-005	9.896109e-001	-1.332665e-001
42236250	9.883019e-001	-1.408261e-001	-1.466879e-004	3.762818e-004	-1.120928e-004	4.045105e-004	9.885437e-001	-1.393956e-001
44110625	9.878100e-001	-1.470876e-001	9.448194e-006	1.566483e-004	-1.371396e-005	1.575686e-004	9.878519e-001	-1.456239e-001
45985000	9.864208e-001	-1.536637e-001	4.862187e-005	1.920145e-004	4.023399e-005	1.890280e-004	9.866690e-001	-1.517988e-001
47859375	9.853919e-001	-1.590758e-001	-4.992343e-005	3.516963e-004	-5.244127e-005	3.929242e-004	9.857073e-001	-1.578147e-001
49733750	9.845985e-001	-1.655942e-001	-6.492505e-005	3.002970e-004	-5.708346e-005	2.995848e-004	9.848302e-001	-1.638888e-001
51608125	9.831938e-001	-1.719001e-001	4.464313e-005	1.661153e-004	1.743576e-005	1.754478e-004	9.837552e-001	-1.697998e-001
53482500	9.821072e-001	-1.784290e-001	8.802324e-005	7.469270e-005	1.164212e-004	5.247884e-005	9.826888e-001	-1.759430e-001
55356875	9.811552e-001	-1.841568e-001	1.780267e-004	2.751169e-004	1.979841e-004	2.528448e-004	9.818282e-001	-1.822135e-001
57231250	9.795597e-001	-1.904968e-001	1.122942e-004	2.755603e-004	1.144042e-004	2.683916e-004	9.804295e-001	-1.884395e-001
59105625	9.784914e-001	-1.967338e-001	8.643126e-005	1.970728e-004	8.958526e-005	2.322394e-004	9.793015e-001	-1.943737e-001
60980000	9.773269e-001	-2.028838e-001	9.818720e-005	2.448237e-004	1.181932e-004	2.389517e-004	9.780411e-001	-2.007631e-001
62854375	9.751143e-001	-2.092341e-001	6.231371e-006	2.996029e-004	-3.640416e-006	3.167377e-004	9.752035e-001	-2.064697e-001
64728750	9.742877e-001	-2.146289e-001	1.159315e-004	3.204596e-004	8.864500e-005	3.240563e-004	9.751690e-001	-2.126962e-001
66603125	9.729000e-001	-2.204692e-001	-6.019271e-005	4.334904e-004	-4.160951e-005	4.261376e-004	9.737838e-001	-2.187250e-001
68477500	9.713944e-001	-2.266215e-001	-1.204793e-004	2.875615e-004	-1.313490e-004	3.116152e-004	9.721443e-001	-2.245302e-001
70351875	9.702771e-001	-2.333517e-001	8.267284e-005	3.180476e-004	6.268805e-005	3.231730e-004	9.711069e-001	-2.309268e-001
72226250	9.688580e-001	-2.391082e-001	4.085374e-005	2.254231e-004	7.695685e-005	2.655030e-004	9.691342e-001	-2.368075e-001
74100625	9.669859e-001	-2.453053e-001	1.764911e-004	2.876508e-004	2.130928e-004	3.002448e-004	9.681182e-001	-2.429626e-001
75975000	9.656296e-001	-2.510567e-001	3.409361e-006	3.040460e-004	1.049943e-005	3.152909e-004	9.668799e-001	-2.497452e-001
77849375	9.638441e-001	-2.579382e-001	1.198072e-004	3.155389e-004	1.419670e-004	2.821303e-004	9.653875e-001	-2.564108e-001
79723750	9.623127e-001	-2.630378e-001	3.808601e-004	2.820323e-004	3.681330e-004	2.719371e-004	9.633931e-001	-2.616462e-001
81598125	9.606072e-001	-2.691286e-001	3.225961e-004	2.328796e-004	2.809001e-004	2.514842e-004	9.625822e-001	-2.678354e-001
83472500	9.590423e-001	-2.751227e-001	1.486524e-004	3.620449e-004	1.812898e-004	3.710643e-004	9.601625e-001	-2.738913e-001
85346875	9.566292e-001	-2.807964e-001	1.640868e-004	4.481111e-004	1.675134e-004	4.322021e-004	9.587780e-001	-2.793898e-001
87221250	9.551275e-001	-2.870390e-001	-9.021946e-005	3.748061e-004	-9.063406e-005	3.924797e-004	9.570436e-001	-2.855483e-001
89095625	9.532719e-001	-2.927955e-001	1.040867e-004	3.522569e-004	9.768337e-005	3.511728e-004	9.554958e-001	-2.915689e-001
90970000	9.511309e-001	-2.987620e-001	2.162771e-004	4.037565e-004	2.118262e-004	4.017455e-004	9.532625e-001	-2.971015e-001
92844375	9.496028e-001	-3.049861e-001	1.414669e-004	3.431144e-004	1.085049e-004	3.295106e-004	9.511623e-001	-3.034919e-001
94718750	9.472847e-001	-3.104093e-001	5.180888e-005	4.011138e-004	6.100531e-005	3.686102e-004	9.493504e-001	-3.091951e-001
96593125	9.455777e-001	-3.163952e-001	-3.361815e-004	4.097998e-004	-3.237182e-004	4.065893e-004	9.469209e-001	-3.152842e-001
98467500	9.432738e-001	-3.224577e-001	3.251997e-005	2.651158e-004	5.785683e-005	2.859423e-004	9.451065e-001	-3.209656e-001
100341875	9.412757e-001	-3.278638e-001	1.328806e-004	2.475369e-004	1.488882e-004	2.296582e-004	9.433970e-001	-3.267048e-001
102216250	9.394420e-001	-3.337818e-001	1.415478e-004	4.841487e-004	1.393635e-004	4.742118e-004	9.412494e-001	-3.324984e-001
104090625	9.371794e-001	-3.394651e-001	3.560668e-005	5.472033e-004	4.260496e-005	5.321616e-004	9.392646e-001	-3.381886e-001
105965000	9.348885e-001	-3.457577e-001	1.567203e-004	4.463014e-004	1.621676e-004	4.529459e-004	9.371201e-001	-3.443260e-001
107839375	9.327383e-001	-3.519924e-001	3.567744e-005	4.407297e-004	4.868572e-005	4.466801e-004	9.348224e-001	-3.502349e-001
109713750	9.297867e-001	-3.581473e-001	5.456624e-004	-2.965243e-006	5.363368e-004	-1.044276e-005	9.300326e-001	-3.557484e-001
111588125	9.280141e-001	-3.627578e-001	-2.261826e-004	4.823645e-004	-2.107063e-004	5.034013e-004	9.282522e-001	-3.599319e-001
113462500	9.252995e-001	-3.684386e-001	-9.105549e-005	6.283833e-004	-7.309771e-005	6.850039e-004	9.266191e-001	-3.657903e-001
115336875	9.234191e-001	-3.742708e-001	3.646821e-005	4.003062e-004	6.093072e-005	4.037464e-004	9.248636e-001	-3.714766e-001
117211250	9.216771e-001	-3.802669e-001	-6.212801e-005	3.249916e-004	-4.033968e-005	3.351074e-004	9.220290e-001	-3.775573e-001
119085625	9.192660e-001	-3.856822e-001	1.160952e-004	4.336729e-004	1.166279e-004	4.004678e-004	9.200897e-001	-3.834428e-001
120960000	9.170620e-001	-3.918745e-001	2.763147e-004	4.047766e-004	2.726235e-004	4.062858e-004	9.174607e-001	-3.893098e-001
122834375	9.146124e-001	-3.976708e-001	2.759807e-004	3.958522e-004	2.840888e-004	3.788188e-004	9.150358e-001	-3.947220e-001
124708750	9.118308e-001	-4.037907e-001	5.637955e-005	4.035880e-004	8.138973e-005	4.124552e-004	9.125546e-001	-4.009740e-001
126583125	9.087721e-001	-4.085686e-001	2.289053e-004	4.046834e-004	2.494359e-004	3.751035e-004	9.092885e-001	-4.057413e-001
128457500	9.063544e-001	-4.138106e-001	3.387612e-004	2.394997e-004	3.400190e-004	2.309837e-004	9.068338e-001	-4.115749e-001
130331875	9.039737e-001	-4.196339e-001	3.223831e-004	1.983112e-004	3.561390e-004	1.858207e-004	9.049505e-001	-4.168458e-001
132206250	9.015709e-001	-4.252222e-001	3.168620e-004	4.496966e-004	3.054753e-004	4.654504e-004	9.023279e-001	-4.228728e-001
134080625	8.986345e-001	-4.310229e-001	2.255594e-004	4.412599e-004	2.599052e-004	4.444784e-004	8.998049e-001	-4.281015e-001
135955000	8.960004e-001	-4.367176e-001	2.167893e-004	4.754836e-004	2.427665e-004	4.761945e-004	8.968557e-001	-4.337913e-001
137829375	8.934563e-001	-4.424093e-001	2.265398e-004	4.762514e-004	2.442081e-004	4.737370e-004	8.942105e-001	-4.397488e-001
139703750	8.900426e-001	-4.478417e-001	2.770480e-004	5.028694e-004	2.701007e-004	5.122526e-004	8.913150e-001	-4.452549e-001
141578125	8.869075e-001	-4.529420e-001	-2.518632e-005	6.918434e-004	8.030263e-008	6.911175e-004	8.877512e-001	-4.502303e-001
143452500	8.839126e-001	-4.579103e-001	1.019775e-004	2.555063e-004	1.502260e-004	2.603009e-004	8.853112e-001	-4.556719e-001
145326875	8.814284e-001	-4.629907e-001	9.364719e-005	3.265486e-004	1.060816e-004	3.464149e-004	8.829456e-001	-4.608121e-001
147201250	8.786670e-001	-4.689059e-001	1.856657e-004	4.310378e-004	1.950504e-004	4.621941e-004	8.800123e-001	-4.660609e-001
149075625	8.756021e-001	-4.745581e-001	3.074030e-004	4.444218e-004	3.106098e-004	4.553938e-004	8.769933e-001	-4.724623e-001
150950000	8.721629e-001	-4.797813e-001	1.704905e-004	6.360890e-004	1.920654e-004	6.598144e-004	8.739135e-001	-4.770995e-001
152824375	8.697930e-001	-4.853897e-001	2.603583e-004	4.737545e-004	2.857104e-004	4.601808e-004	8.711429e-001	-4.827268e-001
154698750	8.662867e-001	-4.909279e-001	2.268394e-004	5.051034e-004	2.311039e-004	4.836303e-004	8.679575e-001	-4.881885e-001
156573125	8.620196e-001	-4.968632e-001	2.697849e-004	3.473110e-004	2.944426e-004	3.072597e-004	8.632872e-001	-4.932482e-001
158447500	8.599772e-001	-5.014638e-001	3.978629e-004	4.948884e-004	4.244384e-004	4.789773e-004	8.612650e-001	-4.985867e-001
160321875	8.568718e-001	-5.062326e-001	2.402941e-004	8.226365e-004	2.822946e-004	8.034358e-004	8.579328e-001	-5.028269e-001
162196250	8.539172e-001	-5.114477e-001	6.006424e-004	7.934297e-004	6.216366e-004	7.391785e-004	8.554125e-001	-5.084268e-001
164070625	8.508219e-001	-5.170768e-001	3.487152e-004	6.767898e-004	3.636539e-004	6.585610e-004	8.524151e-001	-5.142573e-001
165945000	8.478174e-001	-5.223632e-001	3.694590e-004	5.486390e-004	4.028133e-004	5.161604e-004	8.489507e-001	-5.195466e-001
167819375	8.443627e-001	-5.274981e-001	3.201251e-004	5.069085e-004	2.946073e-004	4.861838e-004	8.452427e-001	-5.248290e-001
169693750	8.404695e-001	-5.331137e-001	2.590280e-004	5.966926e-004	2.715446e-004	5.757709e-004	8.419278e-001	-5.304331e-001
171568125	8.374469e-001	-5.384277e-001	3.742830e-004	5.319699e-004	4.171653e-004	5.494508e-004	8.383693e-001	-5.355714e-001
173442500	8.334941e-001	-5.429857e-001	-8.795931e-005	4.660258e-004	-1.004244e-004	4.665350e-004	8.350464e-001	-5.400991e-001
175316875	8.300170e-001	-5.473948e-001	1.504742e-004	3.741927e-004	1.627506e-004	3.909377e-004	8.322553e-001	-5.445647e-001
177191250	8.273059e-001	-5.527236e-001	6.775803e-004	6.384677e-004	6.843449e-004	6.619602e-004	8.289125e-001	-5.498526e-001
179065625	8.241361e-001	-5.581090e-001	3.830299e-004	5.427856e-004	3.953931e-004	5.099564e-004	8.256738e-001	-5.550188e-001
180940000	8.200942e-001	-5.631148e-001	3.984820e-004	6.548581e-004	4.022590e-004	6.303038e-004	8.221009e-001	-5.602937e-001
182814375	8.167277e-001	-5.684290e-001	3.734746e-004	4.135902e-004	3.756771e-004	4.018297e-004	8.178310e-001	-5.649312e-001
184688750	8.131663e-001	-5.734273e-001	2.699415e-004	5.886455e-004	2.634087e-004	5.991684e-004	8.145695e-001	-5.700624e-001
186563125	8.091358e-001	-5.782498e-001	7.460527e-004	6.544544e-004	7.811522e-004	6.463439e-004	8.110384e-001	-5.760792e-001
188437500	8.050591e-001	-5.830437e-001	5.913024e-004	1.110282e-003	5.890896e-004	1.111334e-003	8.066246e-001	-5.794951e-001
190311875	8.015151e-001	-5.861909e-001	4.102311e-004	1.381939e-004	4.206290e-004	1.341177e-004	8.034709e-001	-5.847966e-001
192186250	7.989587e-001	-5.922882e-001	5.975881e-004	6.912780e-004	5.782027e-004	6.971790e-004	8.013722e-001	-5.910466e-001
194060625	7.953498e-001	-5.968411e-001	3.095725e-004	4.509802e-004	3.018562e-004	4.495283e-004	7.970494e-001	-5.945961e-001
195935000	7.914026e-001	-6.022316e-001	5.353204e-004	7.000663e-004	5.275619e-004	6.939814e-004	7.950538e-001	-6.006079e-001
197809375	7.879889e-001	-6.072228e-001	4.130358e-004	4.945020e-004	4.119857e-004	4.758621e-004	7.910215e-001	-6.060364e-001
199683750	7.840042e-001	-6.123925e-001	3.320424e-004	4.116923e-004	3.058836e-004	3.944035e-004	7.870354e-001	-6.109759e-001
201558125	7.800734e-001	-6.170425e-001	4.437308e-004	5.882838e-004	4.717451e-004	5.817582e-004	7.831107e-001	-6.156990e-001
203432500	7.753940e-001	-6.227974e-001	3.943279e-004	6.581724e-004	4.180100e-004	6.463990e-004	7.779675e-001	-6.212244e-001
205306875	7.717787e-001	-6.257955e-001	7.311854e-004	4.378158e-004	7.108179e-004	4.113445e-004	7.752210e-001	-6.242836e-001
207181250	7.688038e-001	-6.308732e-001	5.808212e-004	7.717506e-004	5.567318e-004	7.596437e-004	7.719482e-001	-6.291876e-001
209055625	7.648088e-001	-6.355621e-001	4.090174e-004	6.132389e-004	4.144684e-004	6.071233e-004	7.679812e-001	-6.340577e-001
210930000	7.610368e-001	-6.404577e-001	4.760633e-004	7.275571e-004	4.956676e-004	7.374758e-004	7.642318e-001	-6.389695e-001
212804375	7.567865e-001	-6.451686e-001	4.734622e-004	5.469662e-004	4.445132e-004	5.505958e-004	7.599625e-001	-6.438347e-001
214678750	7.529672e-001	-6.499529e-001	5.086686e-004	6.496316e-004	5.196029e-004	6.307302e-004	7.561519e-001	-6.490287e-001
216553125	7.483485e-001	-6.545960e-001	5.870646e-004	6.801284e-004	5.834780e-004	6.802352e-004	7.513854e-001	-6.536045e-001
218427500	7.443540e-001	-6.594640e-001	6.233164e-004	5.222739e-004	5.917441e-004	5.196163e-004	7.475021e-001	-6.578401e-001
220301875	7.396647e-001	-6.627473e-001	3.508948e-004	1.121716e-003	3.547246e-004	1.089056e-003	7.428873e-001	-6.614991e-001
222176250	7.362790e-001	-6.667846e-001	5.123880e-004	9.346894e-004	4.789966e-004	9.300573e-004	7.400299e-001	-6.660779e-001
224050625	7.321528e-001	-6.720471e-001	4.995610e-004	6.071280e-004	4.739213e-004	6.207230e-004	7.358673e-001	-6.703216e-001
225925000	7.283092e-001	-6.764436e-001	5.272957e-004	6.157226e-004	4.966550e-004	5.889655e-004	7.320124e-001	-6.749142e-001
227799375	7.240106e-001	-6.813025e-001	5.034306e-004	6.402288e-004	4.949293e-004	6.334095e-004	7.272249e-001	-6.799169e-001
229673750	7.199843e-001	-6.858066e-001	5.548131e-004	5.938781e-004	5.417435e-004	5.828130e-004	7.237023e-001	-6.842412e-001
231548125	7.156928e-001	-6.905026e-001	5.880175e-004	6.435135e-004	5.964362e-004	6.208543e-004	7.188876e-001	-6.893451e-001
233422500	7.106616e-001	-6.946298e-001	5.004125e-004	7.163731e-004	5.350803e-004	6.950741e-004	7.144648e-001	-6.934212e-001
235296875	7.061057e-001	-6.981791e-001	4.440696e-004	6.597101e-004	4.376272e-004	6.622601e-004	7.094382e-001	-6.972716e-001
237171250	7.019815e-001	-7.020497e-001	1.019319e-003	4.257419e-004	1.015897e-003	4.250014e-004	7.060609e-001	-7.004532e-001
239045625	6.985269e-001	-7.066664e-001	4.626909e-004	7.268384e-004	4.778935e-004	7.223385e-004	7.025270e-001	-7.059257e-001
240920000	6.939680e-001	-7.112768e-001	6.482046e-004	6.334535e-004	6.515821e-004	5.766792e-004	6.979044e-001	-7.100772e-001
242794375	6.897033e-001	-7.157810e-001	6.085651e-004	6.499603e-004	6.230722e-004	6.662615e-004	6.936612e-001	-7.143910e-001
244668750	6.852438e-001	-7.200994e-001	6.482720e-004	6.234206e-004	6.497252e-004	6.030120e-004	6.895209e-001	-7.191539e-001
246543125	6.804930e-001	-7.239689e-001	6.536084e-004	6.740531e-004	6.636803e-004	6.445634e-004	6.848397e-001	-7.233538e-001
248417500	6.758472e-001	-7.284356e-001	6.800524e-004	5.847151e-004	6.647695e-004	5.555343e-004	6.799138e-001	-7.274838e-001
250291875	6.707091e-001	-7.328635e-001	6.939679e-004	5.997897e-004	7.027253e-004	5.856490e-004	6.744133e-001	-7.320698e-001
252166250	6.669743e-001	-7.348371e-001	4.727245e-004	9.050666e-004	4.617258e-004	9.007672e-004	6.707657e-001	-7.334377e-001
254040625	6.626003e-001	-7.394764e-001	6.828948e-004	4.750052e-004	6.792734e-004	4.859809e-004	6.674373e-001	-7.385752e-001
255915000	6.579921e-001	-7.441396e-001	5.787300e-004	6.296139e-004	5.606040e-004	5.787974e-004	6.622365e-001	-7.429278e-001
257789375	6.532352e-001	-7.476833e-001	8.036423e-004	5.080639e-004	7.977264e-004	5.111202e-004	6.580494e-001	-7.468433e-001
259663750	6.489192e-001	-7.515013e-001	6.442143e-004	5.224045e-004	6.511380e-004	5.425322e-004	6.537006e-001	-7.509492e-001
261538125	6.439790e-001	-7.558080e-001	7.332541e-004	5.834181e-004	7.240586e-004	5.712231e-004	6.486068e-001	-7.553274e-001
263412500	6.390396e-001	-7.597723e-001	6.942074e-004	5.017493e-004	6.979157e-004	5.243532e-004	6.430274e-001	-7.568358e-001
265286875	6.348408e-001	-7.641614e-001	7.398034e-004	6.238584e-004	7.285685e-004	6.243684e-004	6.376137e-001	-7.605892e-001
267161250	6.289634e-001	-7.664372e-001	3.986950e-004	7.702771e-004	4.076800e-004	7.652303e-004	6.325640e-001	-7.630174e-001
269035625	6.262346e-001	-7.706155e-001	9.198467e-004	8.699498e-004	9.587642e-004	8.459687e-004	6.292859e-001	-7.671147e-001
270910000	6.216672e-001	-7.751261e-001	8.067469e-004	6.297411e-004	8.375402e-004	6.376720e-004	6.246393e-001	-7.713218e-001
272784375	6.168328e-001	-7.792669e-001	7.276223e-004	6.245221e-004	7.351820e-004	5.974606e-004	6.195261e-001	-7.750271e-001
274658750	6.114992e-001	-7.828029e-001	7.118236e-004	7.028949e-004	7.439371e-004	6.937511e-004	6.153000e-001	-7.789739e-001
276533125	6.071018e-001	-7.863823e-001	7.987884e-004	6.194363e-004	8.108335e-004	6.296282e-004	6.102136e-001	-7.829593e-001
278407500	6.017783e-001	-7.902831e-001	6.935920e-004	5.692018e-004	7.253266e-004	5.624634e-004	6.050874e-001	-7.864130e-001
280281875	5.965478e-001	-7.941692e-001	7.468860e-004	6.552646e-004	8.017016e-004	6.537040e-004	6.000868e-001	-7.901486e-001
282156250	5.911683e-001	-7.966572e-001	7.465357e-004	8.096877e-004	7.526303e-004	7.916122e-004	5.943738e-001	-7.935402e-001
284030625	5.874227e-001	-7.994161e-001	5.495157e-004	3.820756e-004	5.642755e-004	3.837944e-004	5.905961e-001	-7.952552e-001
285905000	5.828484e-001	-8.037932e-001	7.623351e-004	7.220990e-004	8.157072e-004	7.137160e-004	5.860764e-001	-8.001390e-001
287779375	5.778143e-001	-8.076073e-001	8.340625e-004	6.163411e-004	8.414985e-004	6.419045e-004	5.813795e-001	-8.038818e-001
289653750	5.724521e-001	-8.111267e-001	7.426605e-004	6.270537e-004	7.632194e-004	6.087830e-004	5.761398e-001	-8.073530e-001
291528125	5.678361e-001	-8.145123e-001	8.803573e-004	5.741289e-004	8.956249e-004	5.667480e-004	5.716790e-001	-8.108849e-001
293402500	5.624237e-001	-8.180481e-001	8.175222e-004	5.599183e-004	8.709668e-004	5.341299e-004	5.665635e-001	-8.144316e-001
295276875	5.572410e-001	-8.216971e-001	7.191763e-004	6.432091e-004	7.859107e-004	6.083465e-004	5.609851e-001	-8.182260e-001
297151250	5.510300e-001	-8.249701e-001	8.159167e-004	6.309780e-004	8.168267e-004	5.961048e-004	5.548242e-001	-8.215248e-001
