!Agilent Technologies,E5070B,MY42401647,A.08.11
!Date: Wed Jan 24 15:42:49 2018
!Data & Calibration Information:
!Freq	S11:SOLT2(ON)	S21:SOLT2(ON)	S12:SOLT2(ON)	S22:SOLT2(ON)
# Hz S RI R 50
300000	1.002617e+000	-3.881804e-003	-6.009351e-005	3.486759e-005	-5.381795e-005	-2.704461e-005	1.003917e+000	5.651717e-004
2174813	9.999124e-001	-4.236517e-003	-6.890876e-005	4.801454e-005	-4.240360e-005	-7.684238e-007	9.984114e-001	-4.703555e-003
4049625	9.998863e-001	-8.445040e-003	-1.734851e-005	3.273267e-005	2.719980e-007	6.149951e-005	9.984797e-001	-7.578851e-003
5924438	1.000075e+000	-1.280440e-002	3.550196e-005	1.814988e-004	2.417382e-005	2.223676e-004	9.989110e-001	-1.076918e-002
7799250	9.990656e-001	-1.801222e-002	6.039803e-005	-2.540704e-005	-3.958123e-006	6.324029e-005	9.999149e-001	-1.569958e-002
9674063	9.995279e-001	-1.894794e-002	-5.274886e-006	-8.222841e-006	-1.570022e-005	2.842929e-005	9.993167e-001	-1.821418e-002
11548875	1.000029e+000	-2.467263e-002	1.638280e-004	2.096268e-004	1.568875e-004	2.164508e-004	9.987414e-001	-2.480351e-002
13423688	9.996629e-001	-2.871777e-002	3.741543e-005	1.583184e-004	1.193452e-005	1.763417e-004	9.991498e-001	-2.788369e-002
15298500	9.984694e-001	-3.107344e-002	-5.772802e-005	7.944655e-005	-1.403909e-004	5.854334e-005	9.997832e-001	-3.158392e-002
17173313	1.000076e+000	-3.525353e-002	1.053211e-004	5.439598e-005	5.776695e-005	1.002759e-004	9.982479e-001	-3.430993e-002
19048125	9.990222e-001	-3.864629e-002	-7.143137e-005	1.478136e-004	4.867137e-005	1.785396e-004	9.987970e-001	-3.791709e-002
20922938	9.984700e-001	-4.465804e-002	-7.491612e-005	1.425369e-004	-2.962712e-005	1.230856e-004	9.985868e-001	-4.228487e-002
22797750	9.992252e-001	-4.780676e-002	-3.185802e-005	2.072258e-004	-3.226567e-005	2.301094e-004	9.969278e-001	-4.654248e-002
24672563	9.971142e-001	-5.185638e-002	-5.050469e-005	1.246291e-004	-8.871558e-006	5.945222e-005	9.979489e-001	-4.905494e-002
26547375	9.987638e-001	-5.635910e-002	-4.811649e-005	1.283379e-004	-4.422408e-005	2.307865e-004	9.963721e-001	-5.278308e-002
28422188	9.968423e-001	-5.955289e-002	1.343632e-005	1.448217e-004	-2.016828e-005	1.992517e-004	9.952537e-001	-5.607914e-002
30297000	9.958467e-001	-6.317959e-002	8.214473e-005	2.301455e-004	2.924557e-005	1.948786e-004	9.987991e-001	-6.311482e-002
32171813	9.980367e-001	-6.638161e-002	-1.465547e-004	2.097555e-004	-1.007066e-004	2.207777e-004	9.957689e-001	-6.548918e-002
34046625	9.992892e-001	-7.032045e-002	1.129141e-005	1.414160e-004	9.159246e-005	2.345684e-004	9.985663e-001	-6.875517e-002
35921438	9.967462e-001	-7.593867e-002	1.694104e-005	1.938936e-004	9.476916e-005	1.863121e-004	9.954016e-001	-7.244711e-002
37796250	9.960071e-001	-7.710069e-002	8.448424e-005	3.000284e-004	4.055658e-005	2.387689e-004	9.972388e-001	-7.593016e-002
39671063	9.960047e-001	-8.283916e-002	-7.757019e-006	2.866953e-004	-1.037532e-005	1.957210e-004	9.938356e-001	-8.085662e-002
41545875	9.947478e-001	-8.808317e-002	2.488033e-005	2.955902e-004	4.876320e-005	1.845950e-004	9.931479e-001	-8.318373e-002
43420688	9.960392e-001	-8.925351e-002	2.506989e-006	2.767463e-004	9.141867e-005	1.619928e-004	9.936458e-001	-8.769967e-002
45295500	9.944859e-001	-9.239708e-002	3.956437e-005	3.245500e-004	1.187984e-004	3.029781e-004	9.936851e-001	-9.197128e-002
47170313	9.925471e-001	-1.014267e-001	1.622890e-004	3.012238e-004	1.352238e-004	3.898042e-004	9.934373e-001	-9.370244e-002
49045125	9.945499e-001	-1.021836e-001	1.736387e-005	3.145527e-004	5.188824e-005	3.685505e-004	9.950087e-001	-1.005191e-001
50919938	9.905701e-001	-1.046073e-001	6.113889e-006	2.879471e-004	7.686688e-005	3.475857e-004	9.922759e-001	-1.028538e-001
52794750	9.916223e-001	-1.091889e-001	5.977000e-005	3.069574e-004	1.141081e-004	2.831698e-004	9.952372e-001	-1.079965e-001
54669563	9.945924e-001	-1.166258e-001	-6.277473e-005	2.680904e-004	-6.156675e-005	3.301075e-004	9.923813e-001	-1.132547e-001
56544375	9.923565e-001	-1.180996e-001	3.568725e-005	3.532958e-004	-4.351342e-005	3.584297e-004	9.912200e-001	-1.155724e-001
58419188	9.914147e-001	-1.208046e-001	2.269184e-005	4.164104e-004	1.423645e-005	2.816234e-004	9.932310e-001	-1.195984e-001
60294000	9.899542e-001	-1.245895e-001	7.260045e-005	3.381090e-004	2.899558e-005	3.924189e-004	9.895259e-001	-1.223365e-001
62168813	9.907938e-001	-1.295156e-001	-3.766655e-005	3.503251e-004	3.454815e-005	4.064356e-004	9.881627e-001	-1.276167e-001
64043625	9.889360e-001	-1.310454e-001	1.108998e-004	3.713005e-004	1.692914e-004	3.605894e-004	9.889133e-001	-1.293345e-001
65918438	9.889336e-001	-1.358965e-001	1.662532e-004	3.821528e-004	8.844114e-005	3.355572e-004	9.902667e-001	-1.332002e-001
67793250	9.896294e-001	-1.400346e-001	-4.029452e-005	3.739794e-004	-1.372762e-006	3.818718e-004	9.886519e-001	-1.363867e-001
69668063	9.889389e-001	-1.440537e-001	7.854893e-005	3.073500e-004	1.116317e-004	3.094459e-004	9.876399e-001	-1.410742e-001
71542875	9.869524e-001	-1.471508e-001	-3.573988e-005	3.915152e-004	1.142085e-004	2.943765e-004	9.873342e-001	-1.452972e-001
73417688	9.867211e-001	-1.521416e-001	1.213950e-004	3.810587e-004	3.808178e-005	4.217449e-004	9.853397e-001	-1.488679e-001
75292500	9.864955e-001	-1.564958e-001	3.065750e-005	4.356517e-004	-1.740479e-005	4.224950e-004	9.859040e-001	-1.513580e-001
77167313	9.842736e-001	-1.586620e-001	-4.103382e-005	4.402111e-004	1.047777e-004	3.675195e-004	9.862565e-001	-1.581594e-001
79042125	9.820486e-001	-1.610484e-001	5.377425e-004	6.526503e-004	4.692612e-004	6.070927e-004	9.856938e-001	-1.607917e-001
80916938	9.841755e-001	-1.672419e-001	1.269855e-004	2.731390e-004	8.876152e-005	3.758462e-004	9.826637e-001	-1.618380e-001
82791750	9.841424e-001	-1.702456e-001	1.171023e-004	4.844403e-004	1.461498e-004	4.623900e-004	9.865950e-001	-1.671431e-001
84666563	9.826935e-001	-1.737566e-001	7.612449e-006	5.495673e-004	6.465594e-005	5.214855e-004	9.818350e-001	-1.709865e-001
86541375	9.816909e-001	-1.790878e-001	4.774665e-005	5.626355e-004	6.350688e-005	4.836621e-004	9.816603e-001	-1.734247e-001
88416188	9.816064e-001	-1.835462e-001	6.547058e-005	4.427408e-004	1.528133e-004	4.776470e-004	9.826436e-001	-1.784578e-001
90291000	9.807666e-001	-1.861669e-001	1.391475e-004	5.888065e-004	2.458859e-004	5.068296e-004	9.808146e-001	-1.830031e-001
92165813	9.798741e-001	-1.895238e-001	6.452414e-005	5.057736e-004	-5.749573e-006	5.090927e-004	9.818137e-001	-1.864149e-001
94040625	9.790316e-001	-1.929256e-001	1.765261e-004	4.634786e-004	1.163546e-004	4.859172e-004	9.769908e-001	-1.906937e-001
95915438	9.785051e-001	-1.964316e-001	6.255029e-005	4.960540e-004	7.463886e-005	5.226457e-004	9.780354e-001	-1.931459e-001
97790250	9.763535e-001	-2.001512e-001	1.904522e-004	3.979816e-004	9.179944e-005	4.993510e-004	9.773227e-001	-1.966575e-001
99665063	9.760039e-001	-2.046811e-001	1.152017e-004	6.526853e-004	1.425415e-004	6.186790e-004	9.782571e-001	-2.002691e-001
101539875	9.764307e-001	-2.100099e-001	1.601711e-004	5.876604e-004	1.798066e-004	5.445710e-004	9.767168e-001	-2.018984e-001
103414688	9.760550e-001	-2.100363e-001	1.533344e-004	5.956543e-004	2.126757e-004	6.544945e-004	9.770278e-001	-2.071833e-001
105289500	9.748844e-001	-2.169237e-001	8.489161e-005	4.870049e-004	8.934552e-005	5.886383e-004	9.754919e-001	-2.091981e-001
107164313	9.746794e-001	-2.208519e-001	1.275948e-004	6.202958e-004	1.578211e-004	5.558248e-004	9.750120e-001	-2.149079e-001
109039125	9.711634e-001	-2.255945e-001	1.503018e-004	5.741220e-004	9.894796e-005	5.883784e-004	9.722882e-001	-2.187426e-001
110913938	9.712211e-001	-2.279639e-001	3.480200e-004	4.795960e-004	3.836820e-004	5.315379e-004	9.708064e-001	-2.213910e-001
112788750	9.715719e-001	-2.303505e-001	1.844901e-004	6.405075e-004	1.755036e-004	6.121482e-004	9.721157e-001	-2.271468e-001
114663563	9.677486e-001	-2.339847e-001	3.427432e-004	6.702079e-004	2.884602e-004	5.848927e-004	9.690346e-001	-2.305253e-001
116538375	9.726856e-001	-2.378876e-001	8.565056e-005	7.246603e-004	1.376539e-004	6.306138e-004	9.696797e-001	-2.342078e-001
118413188	9.699230e-001	-2.434055e-001	2.074975e-004	6.034305e-004	2.172421e-004	7.287440e-004	9.667068e-001	-2.395351e-001
120288000	9.655914e-001	-2.450873e-001	1.492026e-004	6.975319e-004	1.549584e-004	6.577913e-004	9.708967e-001	-2.393607e-001
122162813	9.674109e-001	-2.497438e-001	2.810746e-004	5.993817e-004	2.726376e-004	6.677310e-004	9.678177e-001	-2.437213e-001
124037625	9.656503e-001	-2.531746e-001	1.121502e-004	7.088859e-004	2.230860e-004	7.265448e-004	9.666880e-001	-2.482782e-001
125912438	9.641309e-001	-2.584876e-001	2.018179e-004	6.095143e-004	2.361249e-004	5.652701e-004	9.635922e-001	-2.523113e-001
127787250	9.628959e-001	-2.636194e-001	1.762086e-004	7.074072e-004	1.206213e-004	7.112673e-004	9.628521e-001	-2.547197e-001
129662063	9.609388e-001	-2.644375e-001	2.643850e-004	6.859860e-004	2.375981e-004	6.461606e-004	9.634809e-001	-2.603298e-001
131536875	9.600971e-001	-2.680149e-001	2.039497e-004	6.308403e-004	2.009943e-004	6.233226e-004	9.598964e-001	-2.630355e-001
133411688	9.585500e-001	-2.729891e-001	1.973468e-004	7.148128e-004	1.647137e-004	6.539986e-004	9.604064e-001	-2.679025e-001
135286500	9.594384e-001	-2.758094e-001	1.188250e-004	7.980367e-004	1.661522e-004	7.167285e-004	9.607378e-001	-2.712569e-001
137161313	9.574289e-001	-2.789222e-001	1.594673e-004	6.486909e-004	2.009012e-004	7.504553e-004	9.596272e-001	-2.746744e-001
139036125	9.573509e-001	-2.841491e-001	1.504316e-004	7.321355e-004	2.043508e-004	7.830164e-004	9.576908e-001	-2.760779e-001
140910938	9.551540e-001	-2.887965e-001	7.700835e-005	7.608165e-004	2.142458e-004	7.716446e-004	9.554362e-001	-2.811223e-001
142785750	9.524766e-001	-2.891205e-001	2.493746e-004	8.404341e-004	2.806871e-004	7.086424e-004	9.558073e-001	-2.844861e-001
144660563	9.536086e-001	-2.938341e-001	1.174256e-004	8.389418e-004	8.442133e-005	7.847189e-004	9.551261e-001	-2.875914e-001
146535375	9.520718e-001	-2.979292e-001	3.073724e-004	6.738173e-004	2.963931e-004	6.426252e-004	9.539065e-001	-2.921914e-001
148410188	9.508093e-001	-3.026732e-001	2.700351e-004	8.004475e-004	2.549602e-004	8.242498e-004	9.519067e-001	-2.955373e-001
150285000	9.496729e-001	-3.061227e-001	1.783423e-004	8.408520e-004	3.357608e-004	7.847912e-004	9.523609e-001	-3.001274e-001
152159813	9.487482e-001	-3.105117e-001	1.776901e-004	8.386514e-004	1.828646e-004	8.535748e-004	9.475344e-001	-3.010749e-001
154034625	9.487718e-001	-3.152540e-001	3.531641e-004	7.869835e-004	2.327351e-004	7.474989e-004	9.474971e-001	-3.062507e-001
155909438	9.455716e-001	-3.174494e-001	2.983334e-004	8.390102e-004	2.553238e-004	8.040705e-004	9.465228e-001	-3.087813e-001
157784250	9.422194e-001	-3.184797e-001	2.247324e-004	6.544105e-004	2.376292e-004	6.625301e-004	9.450082e-001	-3.117774e-001
159659063	9.421973e-001	-3.233227e-001	3.525264e-004	9.004938e-004	3.770212e-004	9.169308e-004	9.419849e-001	-3.153920e-001
161533875	9.415594e-001	-3.271254e-001	2.138948e-004	8.318861e-004	2.495172e-004	8.601205e-004	9.456253e-001	-3.201852e-001
163408688	9.409853e-001	-3.296347e-001	3.067863e-004	8.913249e-004	3.495910e-004	8.933543e-004	9.416596e-001	-3.229650e-001
165283500	9.403561e-001	-3.349664e-001	3.124907e-004	8.701942e-004	3.397840e-004	8.434386e-004	9.430631e-001	-3.279953e-001
167158313	9.373681e-001	-3.402118e-001	3.156979e-004	9.812030e-004	3.221211e-004	9.077139e-004	9.405255e-001	-3.325582e-001
169033125	9.358275e-001	-3.423227e-001	1.252511e-004	9.117205e-004	2.120948e-004	8.958619e-004	9.379873e-001	-3.333551e-001
170907938	9.352492e-001	-3.464049e-001	3.439307e-004	9.337464e-004	3.241094e-004	8.725942e-004	9.375472e-001	-3.376215e-001
172782750	9.311836e-001	-3.500944e-001	3.138785e-004	9.124310e-004	3.083263e-004	9.274118e-004	9.332663e-001	-3.411529e-001
174657563	9.337518e-001	-3.534921e-001	3.646816e-004	8.856900e-004	3.577529e-004	7.796835e-004	9.357107e-001	-3.418436e-001
176532375	9.284634e-001	-3.565968e-001	3.582377e-004	8.684561e-004	3.484450e-004	8.970458e-004	9.320828e-001	-3.482256e-001
178407188	9.261434e-001	-3.603370e-001	3.743263e-004	8.722395e-004	3.758699e-004	9.546973e-004	9.315038e-001	-3.506510e-001
180282000	9.303152e-001	-3.632889e-001	4.048801e-004	8.719258e-004	4.151893e-004	9.218468e-004	9.312878e-001	-3.541949e-001
182156813	9.279559e-001	-3.684851e-001	3.841203e-004	8.831790e-004	4.063228e-004	8.579302e-004	9.290986e-001	-3.592881e-001
184031625	9.247679e-001	-3.712616e-001	3.900741e-004	1.036171e-003	4.550813e-004	1.014956e-003	9.273495e-001	-3.621828e-001
185906438	9.250055e-001	-3.727884e-001	4.406882e-004	9.199648e-004	4.398911e-004	8.611887e-004	9.285423e-001	-3.682879e-001
187781250	9.214994e-001	-3.810534e-001	3.265189e-004	9.286574e-004	3.804171e-004	9.381985e-004	9.222154e-001	-3.700737e-001
189656063	9.210505e-001	-3.813060e-001	6.278318e-004	9.544664e-004	6.394507e-004	9.050590e-004	9.220360e-001	-3.719230e-001
191530875	9.179611e-001	-3.840076e-001	4.952776e-004	9.480209e-004	4.350669e-004	8.869944e-004	9.185023e-001	-3.766548e-001
193405688	9.172746e-001	-3.869508e-001	3.893902e-004	9.566726e-004	3.993657e-004	1.004091e-003	9.210707e-001	-3.774457e-001
195280500	9.169978e-001	-3.918368e-001	4.116450e-004	9.073081e-004	4.651216e-004	9.911143e-004	9.193269e-001	-3.840249e-001
197155313	9.164027e-001	-3.973637e-001	3.508646e-004	9.763067e-004	3.966400e-004	9.938970e-004	9.169959e-001	-3.866175e-001
199030125	9.144190e-001	-3.993234e-001	4.139992e-004	9.479893e-004	3.726770e-004	9.204431e-004	9.168793e-001	-3.929497e-001
200904938	9.121633e-001	-4.022790e-001	5.549185e-004	1.025235e-003	5.015271e-004	1.045525e-003	9.167692e-001	-3.947748e-001
202779750	9.093483e-001	-4.090576e-001	4.281808e-004	9.747737e-004	4.771446e-004	1.030672e-003	9.129579e-001	-3.976936e-001
204654563	9.057184e-001	-4.119005e-001	3.686019e-004	1.084797e-003	4.565327e-004	1.092163e-003	9.081109e-001	-4.014775e-001
206529375	9.066359e-001	-4.130060e-001	4.612864e-004	1.088753e-003	4.668890e-004	1.055548e-003	9.087530e-001	-4.038273e-001
208404188	9.041342e-001	-4.166830e-001	4.290798e-004	1.082442e-003	4.496952e-004	1.083473e-003	9.066785e-001	-4.068009e-001
210279000	9.039888e-001	-4.200168e-001	4.540897e-004	9.623359e-004	4.326841e-004	1.034534e-003	9.061412e-001	-4.111606e-001
212153813	9.020326e-001	-4.227632e-001	4.900466e-004	1.145244e-003	5.158015e-004	1.072229e-003	9.060058e-001	-4.157829e-001
214028625	9.000767e-001	-4.277847e-001	3.604625e-004	1.046298e-003	4.648653e-004	9.923408e-004	9.046674e-001	-4.185796e-001
215903438	8.994939e-001	-4.306454e-001	6.346603e-004	1.027641e-003	5.447693e-004	9.671532e-004	9.019775e-001	-4.212025e-001
217778250	8.962535e-001	-4.338467e-001	4.769620e-004	1.047908e-003	4.576678e-004	1.112084e-003	9.026687e-001	-4.263224e-001
219653063	8.951381e-001	-4.384229e-001	4.348280e-004	1.040754e-003	5.568237e-004	1.069121e-003	8.981937e-001	-4.276448e-001
221527875	8.925490e-001	-4.402930e-001	4.777691e-004	1.077641e-003	5.187674e-004	1.068913e-003	8.983597e-001	-4.327272e-001
223402688	8.913492e-001	-4.432863e-001	5.722304e-004	1.117457e-003	5.480871e-004	9.971939e-004	8.957840e-001	-4.350425e-001
225277500	8.887482e-001	-4.457033e-001	5.275801e-004	1.080080e-003	6.031566e-004	1.009309e-003	8.924652e-001	-4.372207e-001
227152313	8.890047e-001	-4.504223e-001	6.153474e-004	1.028158e-003	5.635719e-004	1.055920e-003	8.909501e-001	-4.414319e-001
229027125	8.851537e-001	-4.544594e-001	5.770470e-004	1.107835e-003	6.044602e-004	1.106899e-003	8.910106e-001	-4.456919e-001
230901938	8.844072e-001	-4.569487e-001	4.796137e-004	1.106877e-003	5.653733e-004	1.114158e-003	8.889160e-001	-4.481897e-001
232776750	8.832386e-001	-4.591243e-001	6.558214e-004	1.109367e-003	5.886289e-004	1.156780e-003	8.872950e-001	-4.541426e-001
234651563	8.806364e-001	-4.649998e-001	4.811681e-004	1.153427e-003	5.757345e-004	1.123439e-003	8.849235e-001	-4.543117e-001
236526375	8.796732e-001	-4.680912e-001	5.779385e-004	1.126652e-003	6.217320e-004	1.016450e-003	8.850126e-001	-4.584714e-001
238401188	8.786652e-001	-4.724759e-001	6.261839e-004	1.160970e-003	6.989276e-004	1.207805e-003	8.830476e-001	-4.619641e-001
240276000	8.752548e-001	-4.726541e-001	6.124391e-004	1.058682e-003	7.085493e-004	1.064661e-003	8.794175e-001	-4.643607e-001
242150813	8.716564e-001	-4.764717e-001	5.784851e-004	1.208290e-003	7.348424e-004	1.257778e-003	8.746319e-001	-4.677974e-001
244025625	8.717122e-001	-4.811316e-001	6.207990e-004	1.123936e-003	6.975330e-004	1.093700e-003	8.776035e-001	-4.719854e-001
245900438	8.696588e-001	-4.861363e-001	6.539924e-004	1.186175e-003	7.590320e-004	1.128068e-003	8.774649e-001	-4.728724e-001
247775250	8.664724e-001	-4.894215e-001	5.675712e-004	1.177439e-003	6.443796e-004	1.099844e-003	8.729652e-001	-4.798686e-001
249650063	8.648189e-001	-4.912649e-001	6.573066e-004	1.272611e-003	7.612135e-004	1.244779e-003	8.721364e-001	-4.814236e-001
251524875	8.634908e-001	-4.987689e-001	6.534761e-004	1.138637e-003	6.350493e-004	1.196573e-003	8.694687e-001	-4.847117e-001
253399688	8.621873e-001	-4.984768e-001	6.324699e-004	1.227515e-003	5.986065e-004	1.124936e-003	8.700855e-001	-4.860280e-001
255274500	8.610382e-001	-5.005054e-001	7.931833e-004	1.245298e-003	7.814740e-004	1.255598e-003	8.641884e-001	-4.919584e-001
257149313	8.594863e-001	-5.036609e-001	7.361398e-004	1.262796e-003	7.585415e-004	1.256863e-003	8.633373e-001	-4.946909e-001
259024125	8.525203e-001	-5.069704e-001	7.680568e-004	1.197291e-003	7.281607e-004	1.144369e-003	8.601575e-001	-4.977431e-001
260898938	8.526308e-001	-5.106323e-001	7.520176e-004	1.239200e-003	7.449757e-004	1.197338e-003	8.553989e-001	-4.999320e-001
262773750	8.533479e-001	-5.160675e-001	7.054749e-004	1.264215e-003	6.483342e-004	1.275170e-003	8.568698e-001	-5.052557e-001
264648563	8.501913e-001	-5.186207e-001	7.016577e-004	1.155671e-003	7.273993e-004	1.170841e-003	8.518396e-001	-5.061830e-001
266523375	8.467927e-001	-5.234370e-001	7.493146e-004	1.311912e-003	7.624998e-004	1.316902e-003	8.534815e-001	-5.119005e-001
268398188	8.459146e-001	-5.218034e-001	7.114171e-004	1.170957e-003	8.060728e-004	1.200455e-003	8.521196e-001	-5.135818e-001
270273000	8.444106e-001	-5.290268e-001	7.632198e-004	1.366062e-003	8.875030e-004	1.230361e-003	8.500841e-001	-5.176976e-001
272147813	8.417095e-001	-5.280166e-001	7.408788e-004	1.221348e-003	8.657798e-004	1.130642e-003	8.465374e-001	-5.218047e-001
274022625	8.381289e-001	-5.340056e-001	7.807290e-004	1.261183e-003	8.279891e-004	1.233373e-003	8.447696e-001	-5.212836e-001
275897438	8.365567e-001	-5.369081e-001	7.229176e-004	1.270407e-003	8.857480e-004	1.235747e-003	8.416581e-001	-5.261527e-001
277772250	8.346840e-001	-5.399037e-001	7.653250e-004	1.168599e-003	8.411179e-004	1.147188e-003	8.406576e-001	-5.303137e-001
279647063	8.316478e-001	-5.425698e-001	7.518883e-004	1.166679e-003	8.518297e-004	1.272693e-003	8.371776e-001	-5.323347e-001
281521875	8.305947e-001	-5.471117e-001	7.994862e-004	1.230235e-003	8.161747e-004	1.215370e-003	8.338862e-001	-5.341275e-001
283396688	8.269683e-001	-5.480505e-001	8.106514e-004	1.196465e-003	8.237825e-004	1.106169e-003	8.316903e-001	-5.387497e-001
285271500	8.248406e-001	-5.530054e-001	8.801021e-004	1.267780e-003	8.943551e-004	1.191582e-003	8.317024e-001	-5.415090e-001
287146313	8.258192e-001	-5.569147e-001	7.540448e-004	1.209815e-003	8.626818e-004	1.260482e-003	8.322434e-001	-5.472463e-001
289021125	8.218366e-001	-5.585185e-001	8.558913e-004	1.163990e-003	8.657843e-004	1.258443e-003	8.285716e-001	-5.484792e-001
290895938	8.211239e-001	-5.622496e-001	9.135425e-004	1.276129e-003	9.239189e-004	1.287191e-003	8.247837e-001	-5.509248e-001
292770750	8.170990e-001	-5.656621e-001	9.028037e-004	1.288087e-003	9.506462e-004	1.288460e-003	8.235198e-001	-5.546495e-001
294645563	8.167717e-001	-5.707688e-001	8.908911e-004	1.330295e-003	8.935254e-004	1.351312e-003	8.236763e-001	-5.591587e-001
296520375	8.136035e-001	-5.730870e-001	8.699994e-004	1.297590e-003	8.715134e-004	1.253600e-003	8.189399e-001	-5.629778e-001
