!Agilent Technologies,E5070B,MY42401647,A.08.11
!Date: Wed Jan 24 15:42:56 2018
!Data & Calibration Information:
!Freq	S11:SOLT2(ON)	S21:SOLT2(ON)	S12:SOLT2(ON)	S22:SOLT2(ON)
# Hz S RI R 50
1340000000	-9.514986e-001	-1.508634e-001	-9.907737e-005	1.940107e-003	-1.186485e-004	2.045775e-003	-9.456765e-001	-2.555794e-001
1340312500	-9.534409e-001	-1.488091e-001	-3.972068e-005	1.876503e-003	1.663220e-005	1.903215e-003	-9.448309e-001	-2.537424e-001
1340625000	-9.516458e-001	-1.495762e-001	-1.808575e-004	1.954526e-003	-1.644693e-004	1.982319e-003	-9.443334e-001	-2.535224e-001
1340937500	-9.543202e-001	-1.479134e-001	-8.650528e-005	1.880147e-003	-8.523651e-005	1.925054e-003	-9.448798e-001	-2.530248e-001
1341250000	-9.546098e-001	-1.482485e-001	-1.048437e-004	1.866980e-003	-2.861059e-005	1.929664e-003	-9.433365e-001	-2.521986e-001
1341562500	-9.526829e-001	-1.465939e-001	-8.975434e-005	1.873635e-003	-6.775348e-005	1.885396e-003	-9.438214e-001	-2.496661e-001
1341875000	-9.534620e-001	-1.458993e-001	-4.232188e-005	1.782466e-003	-6.510708e-006	1.857174e-003	-9.433830e-001	-2.500178e-001
1342187500	-9.538205e-001	-1.435088e-001	-5.022603e-005	1.815064e-003	-4.343979e-005	1.922964e-003	-9.433078e-001	-2.489018e-001
1342500000	-9.620596e-001	-1.488647e-001	-2.487007e-005	1.790550e-003	-5.835719e-005	1.814426e-003	-9.437583e-001	-2.476609e-001
1342812500	-9.624218e-001	-1.484010e-001	-1.956030e-005	1.730827e-003	-5.024167e-005	1.792564e-003	-9.428905e-001	-2.476944e-001
1343125000	-9.629592e-001	-1.478830e-001	-1.030302e-004	1.645743e-003	-1.086940e-004	1.774822e-003	-9.437704e-001	-2.469693e-001
1343437500	-9.625085e-001	-1.455312e-001	-2.041474e-004	1.686446e-003	-1.250988e-004	1.701449e-003	-9.443688e-001	-2.451036e-001
1343750000	-9.619386e-001	-1.465581e-001	-1.774223e-004	1.668434e-003	-1.144236e-004	1.619470e-003	-9.426254e-001	-2.469102e-001
1344062500	-9.650625e-001	-1.472262e-001	-2.570372e-004	1.627137e-003	-2.079381e-004	1.617164e-003	-9.439161e-001	-2.446144e-001
1344375000	-9.649571e-001	-1.465488e-001	-2.324537e-004	1.607980e-003	-2.294764e-004	1.647172e-003	-9.445091e-001	-2.437133e-001
1344687500	-9.661819e-001	-1.461153e-001	-4.345384e-004	1.652123e-003	-2.979029e-004	1.596973e-003	-9.435511e-001	-2.428986e-001
1345000000	-9.661979e-001	-1.451994e-001	-3.805325e-004	1.634149e-003	-3.368258e-004	1.648704e-003	-9.441324e-001	-2.424873e-001
1345312500	-9.676775e-001	-1.448531e-001	-3.890140e-004	1.706322e-003	-4.843709e-004	1.666072e-003	-9.427931e-001	-2.410285e-001
1345625000	-9.663801e-001	-1.429990e-001	-5.029724e-004	1.562173e-003	-5.820753e-004	1.673286e-003	-9.439155e-001	-2.404031e-001
1345937500	-9.649598e-001	-1.421852e-001	-5.867229e-004	1.752855e-003	-6.056816e-004	1.758757e-003	-9.433026e-001	-2.396712e-001
1346250000	-9.664867e-001	-1.423638e-001	-6.343938e-004	1.755119e-003	-6.784697e-004	1.697209e-003	-9.431878e-001	-2.402734e-001
1346562500	-9.674255e-001	-1.403346e-001	-6.584387e-004	1.766353e-003	-6.688471e-004	1.862407e-003	-9.432212e-001	-2.396619e-001
1346875000	-9.662044e-001	-1.388801e-001	-6.417472e-004	1.866223e-003	-6.230244e-004	1.851854e-003	-9.433967e-001	-2.379822e-001
1347187500	-9.661670e-001	-1.389564e-001	-7.312704e-004	1.907167e-003	-7.114992e-004	1.980649e-003	-9.442535e-001	-2.367263e-001
1347500000	-9.579058e-001	-1.351708e-001	-6.991687e-004	1.899031e-003	-6.536568e-004	1.984200e-003	-9.442585e-001	-2.363636e-001
1347812500	-9.585975e-001	-1.319446e-001	-6.429504e-004	1.995384e-003	-6.577789e-004	1.970868e-003	-9.444972e-001	-2.353882e-001
1348125000	-9.585386e-001	-1.319230e-001	-6.601755e-004	1.905699e-003	-6.433355e-004	1.980305e-003	-9.444268e-001	-2.355393e-001
1348437500	-9.580194e-001	-1.291826e-001	-6.509651e-004	2.141793e-003	-6.029095e-004	2.039196e-003	-9.437775e-001	-2.345992e-001
1348750000	-9.586915e-001	-1.281660e-001	-6.444313e-004	1.967910e-003	-6.416210e-004	2.134475e-003	-9.444509e-001	-2.327564e-001
1349062500	-9.582424e-001	-1.284895e-001	-5.857542e-004	2.101278e-003	-6.017602e-004	2.123638e-003	-9.459348e-001	-2.312200e-001
1349375000	-9.578576e-001	-1.263525e-001	-6.818204e-004	2.058607e-003	-5.181183e-004	2.049244e-003	-9.469789e-001	-2.292381e-001
1349687500	-9.596633e-001	-1.264970e-001	-7.762269e-004	2.009415e-003	-7.827255e-004	2.073824e-003	-9.476148e-001	-2.283297e-001
1350000000	-9.592906e-001	-1.267347e-001	-7.738668e-004	2.104160e-003	-6.512764e-004	2.179628e-003	-9.462175e-001	-2.292718e-001
1350312500	-9.587681e-001	-1.232356e-001	-8.440536e-004	2.190382e-003	-6.222286e-004	2.155899e-003	-9.461780e-001	-2.281948e-001
1350625000	-9.607192e-001	-1.233065e-001	-7.201600e-004	2.118107e-003	-6.268519e-004	2.188392e-003	-9.476789e-001	-2.274980e-001
1350937500	-9.597826e-001	-1.220478e-001	-7.090498e-004	2.107727e-003	-6.545577e-004	2.221873e-003	-9.470811e-001	-2.268565e-001
1351250000	-9.610739e-001	-1.218441e-001	-7.034827e-004	2.193734e-003	-7.144901e-004	2.211185e-003	-9.476865e-001	-2.249001e-001
1351562500	-9.604578e-001	-1.183499e-001	-6.604968e-004	2.239922e-003	-5.988999e-004	2.361340e-003	-9.484195e-001	-2.249317e-001
1351875000	-9.585952e-001	-1.180335e-001	-7.327097e-004	2.254434e-003	-6.109004e-004	2.289776e-003	-9.462594e-001	-2.226393e-001
1352187500	-9.617241e-001	-1.181834e-001	-7.291126e-004	2.217180e-003	-5.852752e-004	2.277787e-003	-9.488467e-001	-2.230218e-001
1352500000	-9.613133e-001	-1.175774e-001	-6.935349e-004	2.236774e-003	-5.723116e-004	2.297543e-003	-9.484442e-001	-2.209595e-001
1352812500	-9.606587e-001	-1.159988e-001	-7.696459e-004	2.364016e-003	-5.960585e-004	2.440973e-003	-9.472742e-001	-2.206355e-001
1353125000	-9.610058e-001	-1.148074e-001	-6.448073e-004	2.299305e-003	-5.213420e-004	2.254031e-003	-9.502007e-001	-2.202837e-001
1353437500	-9.616555e-001	-1.127012e-001	-7.566206e-004	2.327372e-003	-5.937153e-004	2.374127e-003	-9.481677e-001	-2.191870e-001
1353750000	-9.605819e-001	-1.126376e-001	-6.653241e-004	2.381992e-003	-5.519494e-004	2.407286e-003	-9.488279e-001	-2.175566e-001
1354062500	-9.609324e-001	-1.107595e-001	-6.879583e-004	2.356323e-003	-6.264368e-004	2.438789e-003	-9.500367e-001	-2.191320e-001
1354375000	-9.614533e-001	-1.105308e-001	-7.290887e-004	2.306257e-003	-4.949420e-004	2.444905e-003	-9.491703e-001	-2.165697e-001
1354687500	-9.608057e-001	-1.091771e-001	-6.167622e-004	2.589969e-003	-6.127537e-004	2.557651e-003	-9.489585e-001	-2.161094e-001
1355000000	-9.605385e-001	-1.090266e-001	-6.184361e-004	2.494055e-003	-4.501219e-004	2.535038e-003	-9.503447e-001	-2.143832e-001
1355312500	-9.609155e-001	-1.064356e-001	-5.480486e-004	2.495524e-003	-5.242806e-004	2.469395e-003	-9.500379e-001	-2.128643e-001
1355625000	-9.608050e-001	-1.051109e-001	-6.278095e-004	2.452442e-003	-5.397341e-004	2.496670e-003	-9.500794e-001	-2.140528e-001
1355937500	-9.613637e-001	-1.050338e-001	-5.993121e-004	2.479913e-003	-5.508979e-004	2.507311e-003	-9.498413e-001	-2.111852e-001
1356250000	-9.588213e-001	-1.036183e-001	-4.951345e-004	2.507080e-003	-4.878259e-004	2.580365e-003	-9.516335e-001	-2.113097e-001
1356562500	-9.589670e-001	-1.032340e-001	-4.512241e-004	2.538779e-003	-5.881935e-004	2.538711e-003	-9.494746e-001	-2.090371e-001
1356875000	-9.593964e-001	-1.019720e-001	-4.480810e-004	2.595664e-003	-3.979047e-004	2.567310e-003	-9.516241e-001	-2.080168e-001
1357187500	-9.603425e-001	-1.015832e-001	-5.154754e-004	2.433203e-003	-4.924090e-004	2.508828e-003	-9.519921e-001	-2.077975e-001
1357500000	-9.584472e-001	-1.012148e-001	-5.276593e-004	2.463515e-003	-4.971245e-004	2.572079e-003	-9.530759e-001	-2.071681e-001
1357812500	-9.597455e-001	-9.909186e-002	-5.764314e-004	2.469372e-003	-5.129058e-004	2.538811e-003	-9.530120e-001	-2.056481e-001
1358125000	-9.614926e-001	-9.835077e-002	-6.014173e-004	2.651411e-003	-4.994145e-004	2.693595e-003	-9.516295e-001	-2.058371e-001
1358437500	-9.589808e-001	-9.703745e-002	-5.284216e-004	2.678117e-003	-4.820050e-004	2.726256e-003	-9.528865e-001	-2.029615e-001
1358750000	-9.591703e-001	-9.676226e-002	-4.150094e-004	2.611956e-003	-4.155046e-004	2.776188e-003	-9.506050e-001	-2.031286e-001
1359062500	-9.575356e-001	-9.538069e-002	-4.037517e-004	2.692751e-003	-4.538351e-004	2.843466e-003	-9.516710e-001	-2.024367e-001
1359375000	-9.574449e-001	-9.521249e-002	-3.122220e-004	2.698120e-003	-4.162317e-004	2.733366e-003	-9.520755e-001	-2.004146e-001
1359687500	-9.569005e-001	-9.562927e-002	-4.978460e-004	2.601997e-003	-4.446763e-004	2.742217e-003	-9.533185e-001	-1.997351e-001
1360000000	-9.577222e-001	-9.382078e-002	-4.781432e-004	2.682817e-003	-4.365482e-004	2.714485e-003	-9.522470e-001	-1.985126e-001
1360312500	-9.582558e-001	-9.374767e-002	-3.952213e-004	2.750055e-003	-4.394522e-004	2.805231e-003	-9.527288e-001	-1.969675e-001
1360625000	-9.575287e-001	-9.153185e-002	-2.318452e-004	2.728120e-003	-3.049985e-004	2.756060e-003	-9.519267e-001	-1.973875e-001
1360937500	-9.590267e-001	-7.435373e-002	-2.409223e-004	2.722268e-003	-2.692055e-004	2.751875e-003	-9.525297e-001	-1.951935e-001
1361250000	-9.592246e-001	-7.334689e-002	-2.689200e-004	2.713529e-003	-4.061903e-004	2.685634e-003	-9.544306e-001	-1.940530e-001
1361562500	-9.596212e-001	-7.329662e-002	-2.845413e-004	2.745275e-003	-3.845168e-004	2.868113e-003	-9.518232e-001	-1.946453e-001
1361875000	-9.604724e-001	-7.162530e-002	-3.406222e-004	2.718504e-003	-3.119359e-004	2.868029e-003	-9.524483e-001	-1.922537e-001
1362187500	-9.602827e-001	-7.048477e-002	-3.171640e-004	2.759008e-003	-4.213352e-004	2.830423e-003	-9.530661e-001	-1.907874e-001
1362500000	-9.598765e-001	-7.050662e-002	-1.972153e-004	2.737087e-003	-1.942410e-004	2.880460e-003	-9.531815e-001	-1.917094e-001
1362812500	-9.598684e-001	-6.938636e-002	-1.612577e-004	2.661962e-003	-2.683367e-004	2.830910e-003	-9.523389e-001	-1.921804e-001
1363125000	-9.606122e-001	-6.733909e-002	-1.862203e-004	2.661630e-003	-2.974923e-004	2.740415e-003	-9.530638e-001	-1.900847e-001
1363437500	-9.597037e-001	-6.820538e-002	-2.356922e-004	2.625253e-003	-2.600451e-004	2.814109e-003	-9.538456e-001	-1.883657e-001
1363750000	-9.614605e-001	-6.617311e-002	-2.712775e-004	2.744471e-003	-2.677728e-004	2.829997e-003	-9.538295e-001	-1.864370e-001
1364062500	-9.617538e-001	-6.615584e-002	-2.198050e-004	2.685018e-003	-2.426608e-004	2.835704e-003	-9.527653e-001	-1.884173e-001
1364375000	-9.620150e-001	-6.465004e-002	-1.808796e-004	2.694531e-003	-2.547359e-004	2.770424e-003	-9.525648e-001	-1.864067e-001
1364687500	-9.598513e-001	-6.356666e-002	-1.974545e-004	2.789148e-003	-1.770185e-004	2.823639e-003	-9.536487e-001	-1.863862e-001
1365000000	-9.599316e-001	-6.337189e-002	-1.376837e-004	2.792920e-003	-1.930084e-004	2.847400e-003	-9.518474e-001	-1.829496e-001
1365312500	-9.621030e-001	-6.039123e-002	-2.117863e-004	2.726478e-003	-1.470079e-004	2.832275e-003	-9.515451e-001	-1.817930e-001
1365625000	-9.629085e-001	-6.100716e-002	-1.903871e-004	2.828554e-003	-2.712861e-004	2.772664e-003	-9.528959e-001	-1.827394e-001
1365937500	-9.636035e-001	-5.975214e-002	-1.553423e-004	2.740656e-003	-3.097564e-004	2.784231e-003	-9.517176e-001	-1.809816e-001
1366250000	-9.629186e-001	-5.969009e-002	-2.294972e-004	2.810100e-003	-2.404993e-004	2.868779e-003	-9.524964e-001	-1.786364e-001
1366562500	-9.640363e-001	-5.887177e-002	-1.546926e-004	2.783752e-003	-1.475274e-004	2.760374e-003	-9.523152e-001	-1.797203e-001
1366875000	-9.638510e-001	-5.649333e-002	-1.760562e-004	2.701110e-003	-1.580668e-004	2.806123e-003	-9.548571e-001	-1.778511e-001
1367187500	-9.642935e-001	-5.738712e-002	-8.097557e-005	2.736703e-003	-1.352131e-004	2.863341e-003	-9.525540e-001	-1.760271e-001
1367500000	-9.637060e-001	-5.471441e-002	-1.700019e-004	2.754767e-003	-1.803328e-004	2.884514e-003	-9.547838e-001	-1.764696e-001
1367812500	-9.636451e-001	-5.411782e-002	-1.154889e-004	2.811564e-003	-1.633942e-004	2.888814e-003	-9.539796e-001	-1.742727e-001
1368125000	-9.634663e-001	-5.330803e-002	-1.292972e-004	2.907762e-003	-1.936289e-004	2.843910e-003	-9.546272e-001	-1.747457e-001
1368437500	-9.637653e-001	-5.125108e-002	-9.704593e-005	2.866001e-003	-1.641326e-004	2.845721e-003	-9.556336e-001	-1.728535e-001
1368750000	-9.649158e-001	-5.054578e-002	-1.673244e-004	2.751039e-003	-2.019669e-004	2.892880e-003	-9.548788e-001	-1.717559e-001
1369062500	-9.594574e-001	-6.619143e-002	-2.388534e-004	2.801200e-003	-2.215915e-004	2.863503e-003	-9.548174e-001	-1.704954e-001
1369375000	-9.598230e-001	-8.282478e-002	-2.039501e-004	2.907720e-003	-1.826001e-004	2.948446e-003	-9.545067e-001	-1.707585e-001
1369687500	-9.579608e-001	-8.087192e-002	-1.885278e-004	2.857851e-003	-1.753771e-004	2.912375e-003	-9.545897e-001	-1.701178e-001
1370000000	-9.590319e-001	-7.923317e-002	-2.214954e-004	2.853913e-003	-1.792704e-004	2.822231e-003	-9.551152e-001	-1.664779e-001
1370312500	-9.595049e-001	-7.716313e-002	-1.289327e-004	2.768678e-003	-1.055766e-004	2.861056e-003	-9.534061e-001	-1.646259e-001
1370625000	-9.601864e-001	-7.690638e-002	-1.800530e-004	2.856623e-003	-2.010237e-004	2.964754e-003	-9.546749e-001	-1.642242e-001
1370937500	-9.595410e-001	-7.565714e-002	-1.498547e-004	2.860609e-003	-1.629921e-004	2.872660e-003	-9.557120e-001	-1.641437e-001
1371250000	-9.603491e-001	-7.504247e-002	-1.773715e-004	2.868869e-003	-2.014366e-004	2.933159e-003	-9.572694e-001	-1.617098e-001
1371562500	-9.594051e-001	-7.380678e-002	-1.107141e-004	2.932397e-003	-9.037594e-005	2.933857e-003	-9.562972e-001	-1.632388e-001
1371875000	-9.596263e-001	-7.226577e-002	-1.785426e-004	2.910546e-003	-1.888942e-004	3.022826e-003	-9.576917e-001	-1.615697e-001
1372187500	-9.586487e-001	-7.063887e-002	-2.357803e-004	2.860153e-003	-1.268627e-004	2.985710e-003	-9.556795e-001	-1.602499e-001
1372500000	-9.582842e-001	-6.935181e-002	-2.211114e-004	3.025391e-003	-1.954579e-004	3.050431e-003	-9.588595e-001	-1.617915e-001
1372812500	-9.597715e-001	-6.867875e-002	-1.395254e-004	2.913897e-003	-2.014285e-004	2.990021e-003	-9.577676e-001	-1.588732e-001
1373125000	-9.582906e-001	-6.730748e-002	-1.124576e-004	2.967777e-003	-9.310074e-005	2.979079e-003	-9.579978e-001	-1.589149e-001
1373437500	-9.598394e-001	-6.758547e-002	-3.684291e-005	2.840667e-003	-6.101517e-005	2.984640e-003	-9.592863e-001	-1.575577e-001
1373750000	-9.595881e-001	-6.577831e-002	-1.305404e-004	2.874336e-003	-1.178228e-004	3.003439e-003	-9.574071e-001	-1.554152e-001
1374062500	-9.602903e-001	-6.360777e-002	-7.569399e-005	3.009021e-003	-8.170745e-005	3.042922e-003	-9.578109e-001	-1.548928e-001
1374375000	-9.583548e-001	-6.322615e-002	-8.840889e-005	2.899341e-003	-2.503792e-005	3.044811e-003	-9.588191e-001	-1.553008e-001
1374687500	-9.639256e-001	-4.512889e-002	-7.052174e-005	3.055347e-003	-3.452041e-006	3.059960e-003	-9.593125e-001	-1.528387e-001
1375000000	-9.643611e-001	-4.585932e-002	-9.070887e-005	2.993063e-003	3.187467e-005	3.032342e-003	-9.574942e-001	-1.506811e-001
1375312500	-9.643087e-001	-4.326801e-002	-1.265806e-004	2.927367e-003	-2.832233e-005	2.915817e-003	-9.585681e-001	-1.522819e-001
1375625000	-9.653779e-001	-4.313509e-002	-1.414176e-004	3.030450e-003	2.922449e-005	3.138396e-003	-9.588398e-001	-1.483960e-001
1375937500	-9.629162e-001	-4.137709e-002	-1.133279e-004	2.939168e-003	-2.048849e-004	3.010823e-003	-9.585919e-001	-1.493440e-001
1376250000	-9.640573e-001	-4.008212e-002	-4.848894e-005	3.009317e-003	-1.109604e-005	2.955967e-003	-9.577017e-001	-1.486207e-001
1376562500	-9.633124e-001	-3.944448e-002	-1.738404e-004	3.006040e-003	-1.179830e-005	2.989100e-003	-9.582859e-001	-1.470918e-001
1376875000	-9.629813e-001	-3.900839e-002	-1.093010e-004	3.106799e-003	-8.452195e-005	3.057418e-003	-9.581338e-001	-1.458779e-001
1377187500	-9.627481e-001	-3.627828e-002	-5.623071e-005	3.046614e-003	3.702998e-005	3.079344e-003	-9.555762e-001	-1.463650e-001
1377500000	-9.632969e-001	-3.534657e-002	-7.440545e-005	3.084224e-003	-3.118424e-005	3.163484e-003	-9.589067e-001	-1.439420e-001
1377812500	-9.631113e-001	-3.326068e-002	-1.359960e-005	3.005656e-003	-9.355958e-005	3.150119e-003	-9.603335e-001	-1.449630e-001
1378125000	-9.629991e-001	-3.307351e-002	-5.963643e-006	3.047549e-003	9.887563e-006	3.168340e-003	-9.599777e-001	-1.420993e-001
1378437500	-9.630305e-001	-3.194419e-002	-4.645183e-006	3.018979e-003	4.864527e-005	3.104574e-003	-9.590728e-001	-1.427349e-001
1378750000	-9.627864e-001	-3.131653e-002	2.377933e-005	3.032516e-003	-4.416542e-005	3.208178e-003	-9.577123e-001	-1.418857e-001
1379062500	-9.622812e-001	-3.095924e-002	3.137290e-005	3.119324e-003	3.155567e-005	3.183761e-003	-9.588524e-001	-1.393592e-001
1379375000	-9.621931e-001	-2.793217e-002	-7.192734e-006	2.989906e-003	3.419838e-005	3.155748e-003	-9.576399e-001	-1.368825e-001
1379687500	-9.618898e-001	-3.022489e-002	-3.244911e-005	3.099033e-003	-3.611065e-005	3.138196e-003	-9.595484e-001	-1.364982e-001
1380000000	-9.618061e-001	-2.803982e-002	-3.527144e-005	3.100804e-003	4.608912e-005	3.245030e-003	-9.603719e-001	-1.362266e-001
1380312500	-9.607881e-001	-2.530742e-002	-1.373968e-005	3.048962e-003	5.047958e-005	3.211999e-003	-9.605050e-001	-1.352027e-001
1380625000	-9.609458e-001	-2.480659e-002	-3.989346e-005	3.058398e-003	4.845803e-005	3.122769e-003	-9.590633e-001	-1.342317e-001
1380937500	-9.620794e-001	-2.662807e-002	-2.824497e-005	3.128210e-003	-1.350327e-005	3.294173e-003	-9.601060e-001	-1.336659e-001
1381250000	-9.629520e-001	-2.401928e-002	-1.857511e-005	3.159446e-003	6.976499e-006	3.224075e-003	-9.606767e-001	-1.323229e-001
1381562500	-9.601791e-001	-2.322364e-002	-8.169908e-005	3.111432e-003	3.607812e-005	3.227465e-003	-9.641852e-001	-1.322221e-001
1381875000	-9.627112e-001	-2.119657e-002	2.624707e-005	3.213970e-003	9.000936e-005	3.286604e-003	-9.637543e-001	-1.307672e-001
1382187500	-9.595524e-001	-2.116765e-002	4.850261e-005	3.134730e-003	1.751277e-004	3.301336e-003	-9.632670e-001	-1.296545e-001
1382500000	-9.626124e-001	-1.958900e-002	5.030039e-005	3.214285e-003	1.185215e-004	3.285820e-003	-9.620135e-001	-1.288947e-001
1382812500	-9.607907e-001	-2.103035e-002	6.203501e-005	3.221725e-003	9.071760e-005	3.213234e-003	-9.646094e-001	-1.276590e-001
1383125000	-9.610365e-001	-2.004208e-002	3.663451e-006	3.292277e-003	1.425053e-004	3.329594e-003	-9.639380e-001	-1.252446e-001
1383437500	-9.622414e-001	-1.669928e-002	1.109615e-004	3.279778e-003	2.601672e-004	3.282283e-003	-9.642961e-001	-1.242602e-001
1383750000	-9.578420e-001	-1.449439e-002	1.242666e-004	3.258534e-003	1.471053e-004	3.289466e-003	-9.641793e-001	-1.243070e-001
1384062500	-9.596690e-001	-1.388628e-002	1.406134e-004	3.315869e-003	1.460629e-004	3.325729e-003	-9.643436e-001	-1.235327e-001
1384375000	-9.612726e-001	-9.781920e-003	2.088974e-004	3.235999e-003	2.114648e-004	3.335919e-003	-9.651866e-001	-1.205155e-001
1384687500	-9.586987e-001	-1.200882e-002	1.763439e-004	3.183949e-003	1.683804e-004	3.303277e-003	-9.648769e-001	-1.207401e-001
1385000000	-9.608214e-001	-9.294394e-003	2.081252e-004	3.295551e-003	1.948155e-004	3.345249e-003	-9.653590e-001	-1.182638e-001
1385312500	-9.601778e-001	-1.182368e-002	2.717864e-004	3.204279e-003	2.115393e-004	3.351740e-003	-9.653169e-001	-1.177242e-001
1385625000	-9.588333e-001	-8.946947e-003	1.755858e-004	3.208969e-003	1.870680e-004	3.248433e-003	-9.646308e-001	-1.170331e-001
1385937500	-9.588267e-001	-8.186116e-003	2.399714e-004	3.214280e-003	1.989325e-004	3.326567e-003	-9.638565e-001	-1.150815e-001
1386250000	-9.612907e-001	-5.730583e-003	2.895638e-004	3.292257e-003	2.231463e-004	3.318257e-003	-9.649597e-001	-1.133664e-001
1386562500	-9.605696e-001	-4.742561e-003	2.184917e-004	3.320417e-003	1.629799e-004	3.435863e-003	-9.654452e-001	-1.125773e-001
1386875000	-9.688412e-001	-8.256125e-003	1.893285e-004	3.364733e-003	3.253273e-004	3.363067e-003	-9.654458e-001	-1.110757e-001
1387187500	-9.682114e-001	-7.700701e-003	1.965845e-004	3.374360e-003	1.932374e-004	3.455847e-003	-9.657042e-001	-1.104041e-001
1387500000	-9.685873e-001	-5.268658e-003	3.020338e-004	3.366086e-003	3.732159e-004	3.459154e-003	-9.645545e-001	-1.084328e-001
