!Agilent Technologies,E5071C,MY46104547,A.08.12
!Date: Wed May 17 14:15:41 2017
!Data & Calibration Information:
!Freq	S11:SOLT2(ON)	S21:SOLT2(ON)	S12:SOLT2(ON)	S22:SOLT2(ON)
# Hz S dB R 50
9000	5.115831e-002	1.123615e+000	-8.049220e+001	-1.512335e+002	-7.881819e+001	1.171267e+002	1.527489e-001	8.268803e-001
383994	-2.475828e-003	-8.034490e-002	-8.481693e+001	-1.134301e+002	-8.322944e+001	-6.501988e+001	8.211636e-003	-1.234280e-001
758989	-3.443957e-003	-1.852413e-001	-7.754868e+001	-1.649159e+002	-8.308548e+001	7.481617e+001	1.077020e-002	-2.484216e-001
1133983	-1.459174e-003	-2.877467e-001	-8.312869e+001	1.037656e+002	-8.722221e+001	5.544664e+001	8.842603e-003	-3.632586e-001
1508978	6.827437e-005	-4.097350e-001	-8.208674e+001	-1.782092e+002	-8.835169e+001	-1.756812e+001	6.877509e-003	-4.838630e-001
1883972	1.206726e-003	-4.873181e-001	-8.335643e+001	9.685860e+001	-8.858172e+001	3.789925e+001	8.346894e-003	-5.914961e-001
2258966	-1.785376e-003	-5.975777e-001	-8.323873e+001	1.349107e+002	-7.688152e+001	1.525554e+002	5.584327e-003	-7.039262e-001
2633961	-3.240712e-003	-6.869341e-001	-8.292908e+001	5.139911e+001	-9.398830e+001	-1.398301e+002	1.046353e-002	-8.190482e-001
3008955	-3.037964e-003	-7.904286e-001	-8.284155e+001	7.132666e+001	-7.548006e+001	8.358214e+001	7.140159e-003	-9.137052e-001
3383949	-3.517114e-003	-8.873412e-001	-8.356406e+001	-8.063279e+000	-8.457351e+001	-5.878011e+001	9.508203e-003	-1.035986e+000
3758944	-8.018485e-004	-9.845140e-001	-8.074947e+001	2.615209e+001	-8.243444e+001	3.317419e+001	6.665335e-003	-1.129396e+000
4133938	-1.026986e-003	-1.076371e+000	-7.387456e+001	9.832491e+001	-7.639226e+001	9.362444e+001	4.491788e-003	-1.270103e+000
4508933	-2.573941e-003	-1.181747e+000	-7.969371e+001	-1.467373e+002	-8.319960e+001	1.436902e+002	4.468394e-003	-1.373415e+000
4883927	-2.903864e-003	-1.290704e+000	-7.439580e+001	1.040342e+002	-7.880347e+001	1.329370e+002	6.047139e-003	-1.480497e+000
5258921	-2.848947e-004	-1.378678e+000	-7.606635e+001	6.123666e+001	-7.979842e+001	3.743287e+001	2.451137e-003	-1.582516e+000
5633916	-1.537946e-003	-1.489438e+000	-7.436504e+001	1.118702e+002	-7.861513e+001	1.171386e+002	3.658451e-003	-1.710793e+000
6008910	-3.953847e-003	-1.567266e+000	-7.545524e+001	1.045825e+002	-7.962954e+001	3.722846e+001	3.922458e-003	-1.814948e+000
6383904	-2.043437e-003	-1.682782e+000	-8.141254e+001	1.419359e+002	-7.438409e+001	1.335792e+002	2.315769e-003	-1.925175e+000
6758899	-1.841029e-003	-1.769809e+000	-7.309992e+001	7.127000e+001	-7.079719e+001	8.683317e+001	2.146669e-003	-2.036438e+000
7133893	-2.716455e-003	-1.873995e+000	-8.459993e+001	6.639141e+001	-8.651220e+001	1.049959e+002	1.936408e-003	-2.155806e+000
7508888	-2.644967e-003	-1.971357e+000	-7.258541e+001	8.416564e+001	-7.483857e+001	1.078536e+002	1.177337e-003	-2.244452e+000
7883882	-2.556283e-003	-2.074398e+000	-7.265445e+001	6.291463e+001	-7.780995e+001	8.565120e+001	1.552867e-003	-2.361602e+000
8258876	-4.178361e-003	-2.179087e+000	-7.612749e+001	8.616740e+001	-7.312334e+001	5.407763e+001	1.388629e-003	-2.474850e+000
8633871	-1.461699e-002	-2.262442e+000	-6.698714e+001	4.124136e+001	-6.733789e+001	4.677248e+001	4.018455e-004	-2.574011e+000
9008865	-1.273922e-002	-2.324087e+000	-6.551872e+001	-1.699238e+002	-6.623324e+001	-1.715072e+002	-8.482786e-004	-2.646923e+000
9383859	-6.135169e-003	-2.385379e+000	-6.646412e+001	9.909916e+001	-6.660688e+001	9.631818e+001	-1.389061e-003	-2.777185e+000
9758854	-3.563210e-003	-2.524812e+000	-7.000592e+001	6.313438e+001	-6.999125e+001	6.516893e+001	-1.104030e-003	-2.887320e+000
10133848	-7.351806e-003	-2.586083e+000	-6.865890e+001	-4.574485e+001	-6.812900e+001	-4.668666e+001	-2.514635e-003	-2.993274e+000
10508843	-2.833376e-003	-2.725678e+000	-8.023191e+001	9.257785e+001	-7.858400e+001	9.359753e+001	-9.618895e-004	-3.130370e+000
10883837	-7.460867e-003	-2.808021e+000	-6.620932e+001	3.938050e+001	-6.599817e+001	3.865833e+001	-4.285595e-003	-3.215129e+000
11258831	-4.587355e-003	-2.914207e+000	-7.661146e+001	5.414706e+001	-7.657610e+001	5.130898e+001	-1.957703e-003	-3.322030e+000
11633826	-4.727369e-003	-3.006979e+000	-7.755412e+001	1.054898e+002	-7.686204e+001	9.670919e+001	-1.005680e-003	-3.447913e+000
12008820	-4.710034e-003	-3.112340e+000	-7.361827e+001	1.295754e+002	-7.407879e+001	1.243895e+002	-7.425169e-004	-3.549502e+000
12383814	-4.181375e-003	-3.204673e+000	-6.847488e+001	9.177037e+001	-6.848578e+001	9.116126e+001	-1.327460e-003	-3.658434e+000
12758809	-3.440274e-003	-3.295776e+000	-6.928935e+001	8.912918e+001	-6.966995e+001	9.025770e+001	-8.673241e-005	-3.768237e+000
13133803	-3.344787e-003	-3.412951e+000	-7.231120e+001	7.049039e+001	-7.225799e+001	6.888050e+001	-8.956959e-004	-3.873522e+000
13508798	-2.652218e-003	-3.501802e+000	-7.325775e+001	9.186575e+001	-7.253509e+001	9.227312e+001	-1.512197e-003	-3.992071e+000
13883792	-2.436160e-003	-3.601571e+000	-7.084304e+001	8.422978e+001	-7.050139e+001	8.072698e+001	-6.512565e-004	-4.101303e+000
14258786	-2.683426e-003	-3.697314e+000	-6.988696e+001	7.492823e+001	-7.043185e+001	7.567378e+001	-1.486341e-003	-4.209488e+000
14633781	-5.890754e-003	-3.807614e+000	-7.204559e+001	7.001405e+001	-7.239689e+001	6.879547e+001	-2.341238e-003	-4.320555e+000
15008775	-3.530689e-003	-3.901763e+000	-7.102092e+001	9.131950e+001	-7.131906e+001	8.763134e+001	-3.777831e-004	-4.431139e+000
15383769	-5.243874e-003	-4.009382e+000	-6.631433e+001	7.203720e+001	-6.654354e+001	7.154101e+001	-3.541328e-003	-4.562134e+000
15758764	-6.316427e-003	-4.084731e+000	-7.027826e+001	9.356326e+001	-7.030557e+001	9.212534e+001	-7.115360e-004	-4.655768e+000
16133758	-3.619011e-003	-4.184378e+000	-7.140597e+001	8.997388e+001	-7.170272e+001	9.194473e+001	-2.059917e-003	-4.751673e+000
16508753	-6.115678e-003	-4.276230e+000	-6.877383e+001	8.814991e+001	-6.888040e+001	8.849548e+001	-2.278437e-003	-4.856249e+000
16883747	-6.451796e-003	-4.383905e+000	-6.815346e+001	7.739855e+001	-6.821275e+001	7.901685e+001	-1.979100e-003	-4.971097e+000
17258741	-5.119098e-003	-4.475226e+000	-6.990378e+001	8.049438e+001	-6.974793e+001	8.258176e+001	-1.274181e-003	-5.088992e+000
17633736	-4.786404e-003	-4.584456e+000	-6.858674e+001	8.647883e+001	-6.884732e+001	8.413789e+001	-4.762082e-003	-5.204847e+000
18008730	-5.481738e-003	-4.678144e+000	-7.015427e+001	7.445237e+001	-7.071710e+001	7.724095e+001	-3.410596e-003	-5.304865e+000
18383724	-6.835212e-003	-4.781512e+000	-6.980258e+001	9.116832e+001	-7.017696e+001	9.448575e+001	-5.367389e-003	-5.425777e+000
18758719	-7.898060e-003	-4.867082e+000	-6.951667e+001	7.410960e+001	-6.932625e+001	7.411626e+001	-6.371087e-003	-5.523764e+000
19133713	-7.227187e-003	-4.967577e+000	-6.717967e+001	8.484618e+001	-6.688677e+001	8.521436e+001	-4.816652e-003	-5.638052e+000
19508708	-7.919650e-003	-5.070158e+000	-6.764288e+001	9.322077e+001	-6.780653e+001	9.142406e+001	-5.292912e-003	-5.741807e+000
19883702	-7.742790e-003	-5.177222e+000	-6.705807e+001	7.639017e+001	-6.699605e+001	7.577644e+001	-7.201743e-003	-5.860820e+000
20258696	-9.845349e-003	-5.258718e+000	-7.097127e+001	5.986252e+001	-7.131846e+001	6.350979e+001	-5.423492e-003	-5.958598e+000
20633691	-6.567428e-003	-5.359071e+000	-6.943652e+001	7.696736e+001	-6.940921e+001	8.163222e+001	-6.198052e-003	-6.068271e+000
21008685	-8.321399e-003	-5.447349e+000	-6.504080e+001	9.931006e+001	-6.491411e+001	1.000470e+002	-5.224047e-003	-6.180397e+000
21383679	-7.855253e-003	-5.540900e+000	-6.712875e+001	8.589015e+001	-6.712327e+001	8.608411e+001	-4.030508e-003	-6.282986e+000
21758674	-8.064882e-003	-5.649601e+000	-6.805633e+001	8.132245e+001	-6.780610e+001	8.227653e+001	-5.481955e-003	-6.404196e+000
22133668	-9.104249e-003	-5.755896e+000	-6.725045e+001	7.985482e+001	-6.683985e+001	7.989688e+001	-4.621994e-003	-6.512305e+000
22508663	-7.772464e-003	-5.844494e+000	-6.810296e+001	7.291172e+001	-6.813339e+001	7.449920e+001	-5.916076e-003	-6.618460e+000
22883657	-9.117555e-003	-5.939309e+000	-6.935430e+001	6.988026e+001	-6.896529e+001	6.690715e+001	-6.556285e-003	-6.742654e+000
23258651	-8.226360e-003	-6.041586e+000	-6.731809e+001	8.209991e+001	-6.761693e+001	8.440587e+001	-3.964021e-003	-6.837521e+000
23633646	-8.451654e-003	-6.142491e+000	-6.663724e+001	8.201489e+001	-6.678780e+001	8.228823e+001	-4.521811e-003	-6.964031e+000
24008640	-8.691311e-003	-6.240625e+000	-6.601673e+001	7.707459e+001	-6.616129e+001	7.685160e+001	-6.273507e-003	-7.080950e+000
24383634	-1.054497e-002	-6.327282e+000	-6.758633e+001	7.754783e+001	-6.767573e+001	7.404991e+001	-6.940080e-003	-7.165939e+000
24758629	-9.394812e-003	-6.432406e+000	-6.611765e+001	7.895752e+001	-6.605396e+001	8.055250e+001	-6.939799e-003	-7.297821e+000
25133623	-9.547808e-003	-6.532145e+000	-6.643350e+001	8.626279e+001	-6.652315e+001	8.803123e+001	-5.488614e-003	-7.393538e+000
25508618	-1.272279e-002	-6.617223e+000	-6.621166e+001	9.923946e+001	-6.605847e+001	9.942642e+001	-6.473788e-003	-7.505864e+000
25883612	-9.756291e-003	-6.723445e+000	-6.554027e+001	7.929374e+001	-6.601548e+001	7.920556e+001	-4.116189e-003	-7.614511e+000
26258606	-1.016557e-002	-6.820109e+000	-6.640984e+001	8.428233e+001	-6.651617e+001	8.440149e+001	-6.624475e-003	-7.733552e+000
26633601	-1.014985e-002	-6.939272e+000	-6.518378e+001	8.357489e+001	-6.518487e+001	8.479509e+001	-7.669061e-003	-7.853779e+000
27008595	-1.174009e-002	-7.066572e+000	-6.569798e+001	7.714715e+001	-6.581214e+001	7.711093e+001	-8.005917e-003	-7.965654e+000
27383589	-5.498217e-002	-7.264965e+000	-5.517316e+001	1.023243e+002	-5.511052e+001	1.022268e+002	-1.633431e-002	-8.106006e+000
27758584	-1.570651e-002	-7.111062e+000	-6.544834e+001	8.953029e+001	-6.547281e+001	9.139850e+001	-1.299226e-002	-8.129959e+000
28133578	-1.050626e-002	-7.249046e+000	-7.132930e+001	7.433677e+001	-7.182791e+001	7.368818e+001	-9.656503e-003	-8.227689e+000
28508573	-1.152853e-002	-7.366419e+000	-6.464433e+001	8.754659e+001	-6.469688e+001	8.770418e+001	-8.487264e-003	-8.357645e+000
28883567	-1.333182e-002	-7.463939e+000	-6.466974e+001	9.048672e+001	-6.500760e+001	8.972519e+001	-1.147807e-002	-8.483308e+000
29258561	-1.392445e-002	-7.574821e+000	-6.777658e+001	7.786099e+001	-6.776388e+001	7.653100e+001	-8.035540e-003	-8.577506e+000
29633556	-1.201477e-002	-7.673077e+000	-6.581323e+001	9.113423e+001	-6.570639e+001	9.305375e+001	-1.022475e-002	-8.675960e+000
30008550	-1.438751e-002	-7.765293e+000	-6.421096e+001	7.180126e+001	-6.436325e+001	7.186996e+001	-9.782794e-003	-8.801228e+000
30383544	-1.332091e-002	-7.852092e+000	-6.695466e+001	8.103118e+001	-6.711498e+001	7.691810e+001	-9.863172e-003	-8.915597e+000
30758539	-1.479770e-002	-7.961906e+000	-6.415295e+001	7.726098e+001	-6.462689e+001	7.752128e+001	-9.242787e-003	-9.018556e+000
31133533	-1.255946e-002	-8.055108e+000	-6.376612e+001	8.249403e+001	-6.385386e+001	8.079795e+001	-8.444928e-003	-9.144796e+000
31508528	-1.244782e-002	-8.156798e+000	-6.423259e+001	8.369530e+001	-6.419007e+001	8.298526e+001	-7.792333e-003	-9.236269e+000
31883522	-1.156955e-002	-8.253268e+000	-6.573218e+001	8.183918e+001	-6.581175e+001	8.225261e+001	-8.790611e-003	-9.355039e+000
32258516	-1.428900e-002	-8.362781e+000	-6.400621e+001	8.223015e+001	-6.390403e+001	8.269970e+001	-9.805464e-003	-9.470278e+000
32633511	-1.339864e-002	-8.434144e+000	-6.399581e+001	6.806853e+001	-6.386389e+001	6.717720e+001	-9.225272e-003	-9.567394e+000
33008505	-1.411676e-002	-8.541102e+000	-6.395729e+001	6.596960e+001	-6.419212e+001	6.413043e+001	-1.008188e-002	-9.695388e+000
33383499	-1.268955e-002	-8.648748e+000	-6.281344e+001	7.703461e+001	-6.287058e+001	7.551831e+001	-1.180210e-002	-9.825142e+000
33758494	-1.623492e-002	-8.722527e+000	-6.691034e+001	6.746071e+001	-6.655177e+001	6.974106e+001	-1.244480e-002	-9.889623e+000
34133488	-1.288043e-002	-8.825921e+000	-6.489050e+001	8.000978e+001	-6.480712e+001	7.870059e+001	-1.102973e-002	-1.001214e+001
34508483	-1.352934e-002	-8.928293e+000	-6.489966e+001	8.143347e+001	-6.454792e+001	8.292480e+001	-1.029511e-002	-1.012273e+001
34883477	-1.426484e-002	-9.025998e+000	-6.455747e+001	7.384166e+001	-6.461712e+001	7.450517e+001	-1.114636e-002	-1.021210e+001
35258471	-1.479956e-002	-9.123036e+000	-6.431172e+001	8.718025e+001	-6.471139e+001	8.575306e+001	-9.326115e-003	-1.035179e+001
35633466	-1.410458e-002	-9.219797e+000	-6.333810e+001	8.227038e+001	-6.323916e+001	8.153627e+001	-9.624819e-003	-1.046880e+001
36008460	-1.431171e-002	-9.327336e+000	-6.413399e+001	7.605353e+001	-6.421089e+001	7.565660e+001	-1.187353e-002	-1.058025e+001
36383454	-1.566175e-002	-9.424730e+000	-6.124037e+001	8.509184e+001	-6.150929e+001	8.439346e+001	-1.216081e-002	-1.066814e+001
36758449	-1.907767e-002	-9.515665e+000	-6.371828e+001	6.573800e+001	-6.381959e+001	6.677220e+001	-1.264402e-002	-1.079784e+001
37133443	-1.765601e-002	-9.602920e+000	-6.126717e+001	8.759854e+001	-6.144434e+001	8.754520e+001	-1.646303e-002	-1.090088e+001
37508438	-1.731587e-002	-9.718423e+000	-6.184365e+001	6.670964e+001	-6.194326e+001	6.540451e+001	-1.511878e-002	-1.099311e+001
37883432	-1.577110e-002	-9.806807e+000	-6.505673e+001	8.227976e+001	-6.497742e+001	8.427916e+001	-1.117100e-002	-1.111487e+001
38258426	-1.584681e-002	-9.896693e+000	-6.118967e+001	8.105730e+001	-6.131572e+001	8.005489e+001	-1.417412e-002	-1.121200e+001
38633421	-1.791176e-002	-9.994578e+000	-6.265559e+001	7.069700e+001	-6.264178e+001	7.221066e+001	-1.433970e-002	-1.130921e+001
39008415	-1.623650e-002	-1.007085e+001	-6.272557e+001	7.378572e+001	-6.265787e+001	7.394803e+001	-1.420018e-002	-1.139786e+001
39383409	-1.621470e-002	-1.018673e+001	-6.315929e+001	7.833032e+001	-6.310594e+001	7.959550e+001	-1.201032e-002	-1.153240e+001
39758404	-1.495636e-002	-1.028147e+001	-6.306215e+001	7.532252e+001	-6.297973e+001	7.706487e+001	-1.291138e-002	-1.163786e+001
40133398	-1.599965e-002	-1.038139e+001	-6.323515e+001	8.717795e+001	-6.344030e+001	8.703262e+001	-1.206382e-002	-1.175803e+001
40508393	-1.929207e-002	-1.049177e+001	-6.265469e+001	9.009370e+001	-6.264246e+001	9.129491e+001	-1.184124e-002	-1.187026e+001
40883387	-1.919449e-002	-1.055181e+001	-6.272128e+001	6.857834e+001	-6.262857e+001	6.883609e+001	-1.662012e-002	-1.197204e+001
41258381	-1.602699e-002	-1.066388e+001	-6.157364e+001	7.545029e+001	-6.173720e+001	7.682676e+001	-1.342533e-002	-1.208306e+001
41633376	-1.693979e-002	-1.076940e+001	-6.239647e+001	7.565735e+001	-6.252454e+001	7.632303e+001	-1.460816e-002	-1.219294e+001
42008370	-1.779880e-002	-1.085448e+001	-6.178419e+001	7.671363e+001	-6.194356e+001	7.654760e+001	-1.300145e-002	-1.230403e+001
42383364	-1.767249e-002	-1.096053e+001	-6.164755e+001	7.875120e+001	-6.179198e+001	7.990088e+001	-1.264941e-002	-1.241124e+001
42758359	-1.829558e-002	-1.105467e+001	-6.080801e+001	7.541276e+001	-6.084384e+001	7.575811e+001	-1.462445e-002	-1.252524e+001
43133353	-1.844676e-002	-1.115702e+001	-6.194737e+001	7.190680e+001	-6.222584e+001	7.080184e+001	-1.533663e-002	-1.264868e+001
43508348	-2.053647e-002	-1.126296e+001	-6.043927e+001	7.152890e+001	-6.061121e+001	7.276286e+001	-1.761233e-002	-1.275447e+001
43883342	-1.963181e-002	-1.135821e+001	-6.025584e+001	7.710857e+001	-6.027900e+001	7.679257e+001	-1.423428e-002	-1.285627e+001
44258336	-1.951253e-002	-1.144660e+001	-6.176408e+001	7.107202e+001	-6.202297e+001	7.291414e+001	-1.540284e-002	-1.297948e+001
44633331	-1.817306e-002	-1.155587e+001	-6.174042e+001	7.709748e+001	-6.162407e+001	7.724611e+001	-1.757831e-002	-1.309681e+001
45008325	-2.014415e-002	-1.166686e+001	-6.145054e+001	7.278086e+001	-6.136395e+001	7.335963e+001	-1.458174e-002	-1.320153e+001
45383319	-2.127062e-002	-1.180242e+001	-6.167920e+001	7.815671e+001	-6.170659e+001	7.805784e+001	-1.699627e-002	-1.333739e+001
45758314	-6.733908e-002	-1.199048e+001	-5.298019e+001	9.817940e+001	-5.293148e+001	9.850104e+001	-2.994772e-002	-1.342249e+001
46133308	-2.660955e-002	-1.183418e+001	-6.132247e+001	6.456038e+001	-6.127029e+001	6.590580e+001	-2.455014e-002	-1.346698e+001
46508303	-2.297689e-002	-1.196758e+001	-6.157928e+001	8.024779e+001	-6.141611e+001	8.038714e+001	-2.022776e-002	-1.357037e+001
46883297	-2.321506e-002	-1.208071e+001	-6.113471e+001	7.597688e+001	-6.123726e+001	7.564792e+001	-1.928322e-002	-1.370428e+001
47258291	-2.275909e-002	-1.217146e+001	-5.991820e+001	7.410783e+001	-5.999138e+001	7.305309e+001	-1.821249e-002	-1.379358e+001
47633286	-2.084854e-002	-1.228001e+001	-6.164741e+001	7.636320e+001	-6.169098e+001	7.642818e+001	-1.611110e-002	-1.392117e+001
48008280	-2.119448e-002	-1.238743e+001	-6.172331e+001	7.266278e+001	-6.165466e+001	7.279581e+001	-1.589608e-002	-1.403851e+001
48383274	-2.417910e-002	-1.248431e+001	-6.170373e+001	7.554494e+001	-6.169359e+001	7.519170e+001	-1.936662e-002	-1.415317e+001
48758269	-2.336469e-002	-1.258493e+001	-5.974017e+001	7.396273e+001	-5.980396e+001	7.438354e+001	-1.937372e-002	-1.428266e+001
49133263	-2.479758e-002	-1.266795e+001	-6.131935e+001	6.724278e+001	-6.144301e+001	6.635297e+001	-1.900793e-002	-1.434999e+001
49508258	-2.362145e-002	-1.276405e+001	-6.203935e+001	8.148704e+001	-6.218667e+001	8.048355e+001	-2.231535e-002	-1.448105e+001
49883252	-2.346358e-002	-1.286723e+001	-6.142133e+001	7.372027e+001	-6.150330e+001	7.280764e+001	-1.772337e-002	-1.456531e+001
50258246	-2.209921e-002	-1.295244e+001	-6.079027e+001	7.650387e+001	-6.079396e+001	7.736835e+001	-1.793679e-002	-1.467544e+001
50633241	-2.232747e-002	-1.305366e+001	-6.017844e+001	7.792545e+001	-6.003767e+001	7.707024e+001	-1.851015e-002	-1.479931e+001
51008235	-2.360786e-002	-1.315339e+001	-6.166553e+001	7.544061e+001	-6.155458e+001	7.514079e+001	-1.804895e-002	-1.490272e+001
51383229	-2.467452e-002	-1.326797e+001	-6.091570e+001	7.537837e+001	-6.082048e+001	7.653583e+001	-1.923867e-002	-1.504342e+001
51758224	-2.492599e-002	-1.333809e+001	-6.129643e+001	7.769815e+001	-6.150434e+001	7.722411e+001	-1.990372e-002	-1.511791e+001
52133218	-2.410794e-002	-1.345085e+001	-6.107209e+001	7.931091e+001	-6.102102e+001	7.908879e+001	-1.845245e-002	-1.522198e+001
52508213	-2.420329e-002	-1.354468e+001	-6.032657e+001	7.681105e+001	-6.034011e+001	7.571446e+001	-1.882627e-002	-1.534752e+001
52883207	-2.483289e-002	-1.365078e+001	-5.957859e+001	8.240294e+001	-5.974130e+001	8.224029e+001	-1.938567e-002	-1.545815e+001
53258201	-2.580000e-002	-1.374602e+001	-6.101205e+001	7.733975e+001	-6.096188e+001	7.763185e+001	-1.923681e-002	-1.557539e+001
53633196	-2.733703e-002	-1.385356e+001	-6.025522e+001	7.159848e+001	-6.020961e+001	7.190758e+001	-1.936004e-002	-1.566819e+001
54008190	-2.686463e-002	-1.393643e+001	-5.974669e+001	7.479143e+001	-5.984717e+001	7.516928e+001	-1.923371e-002	-1.578934e+001
54383184	-2.611186e-002	-1.404195e+001	-6.004521e+001	8.075129e+001	-5.984453e+001	8.115741e+001	-2.106371e-002	-1.591207e+001
54758179	-2.756588e-002	-1.413921e+001	-6.007730e+001	7.307987e+001	-6.016529e+001	7.342326e+001	-2.104636e-002	-1.601905e+001
55133173	-2.975967e-002	-1.423237e+001	-6.098906e+001	7.728788e+001	-6.100500e+001	7.704899e+001	-2.608586e-002	-1.613837e+001
55508168	-3.350992e-002	-1.432822e+001	-5.867485e+001	6.166604e+001	-5.887231e+001	6.195483e+001	-2.368017e-002	-1.621828e+001
55883162	-2.966954e-002	-1.440845e+001	-5.988077e+001	8.087111e+001	-5.982199e+001	8.010451e+001	-2.256809e-002	-1.632106e+001
56258156	-2.786140e-002	-1.449494e+001	-6.007799e+001	7.223398e+001	-5.995548e+001	7.287703e+001	-2.552248e-002	-1.641363e+001
56633151	-3.088912e-002	-1.459236e+001	-5.853280e+001	7.281005e+001	-5.849073e+001	7.220384e+001	-2.339893e-002	-1.652931e+001
57008145	-3.003402e-002	-1.469615e+001	-5.953630e+001	7.015852e+001	-5.940136e+001	6.901892e+001	-2.129391e-002	-1.663972e+001
57383139	-2.895731e-002	-1.479155e+001	-6.087038e+001	6.952388e+001	-6.102664e+001	7.084047e+001	-2.129116e-002	-1.674049e+001
57758134	-2.875900e-002	-1.488831e+001	-5.863290e+001	7.943797e+001	-5.863637e+001	8.046146e+001	-2.193338e-002	-1.686411e+001
58133128	-2.902600e-002	-1.497548e+001	-5.959034e+001	7.197967e+001	-5.970196e+001	7.320876e+001	-2.325489e-002	-1.696476e+001
