!Keysight Technologies,E5080A,MY55200989,A.11.70.00
!Date: Tuesday, December 06, 2016 22:27:12
!Correction: S11(Full 2 Port(1,2)) 
!S21(Full 2 Port(1,2)) 
!S12(Full 2 Port(1,2)) 
!S22(Full 2 Port(1,2)) 
!S2P File: Measurements: S11, S21, S12, S22:
# Hz S  dB   R 50
9000 -0.11834289 -0.035301134 -34.686718 -179.59251 -32.157112 -179.71468 -0.10808945 -0.055166025
1571494.375 -0.0061073871 -0.34979132 -82.074387 -83.012268 -83.19001 -71.152145 0.0029557908 -0.43613738
3133988.75 -0.010945147 -0.59127909 -83.349976 -133.85101 -79.800743 -177.36307 -0.0084850155 -0.85652059
4696483.125 0.0085049951 -0.91380912 -81.213707 48.725296 -84.920029 -111.64944 0.011398062 -1.2870659
6258977.5 0.0020098931 -1.2229768 -79.647575 84.825722 -80.578491 6.6590796 0.012131112 -1.6625201
7821471.875 0.0072403303 -1.5295535 -90.681511 -166.36497 -85.571968 -64.442253 0.0089674937 -2.0677981
9383966.25 -0.0065985061 -1.8400575 -81.761665 120.67689 -85.09848 -55.535553 -0.0097592119 -2.4327815
10946460.625 -0.0021403071 -2.1847522 -93.623283 126.0771 -89.961472 -153.64162 0.0027700705 -2.9102998
12508955 0.0034335502 -2.5120137 -81.173233 171.64114 -81.365601 -45.246571 0.0013917011 -3.2913399
14071449.375 -0.0051169591 -2.8158596 -83.494652 -107.58018 -92.958305 95.983894 -0.0029421414 -3.7357097
15633943.75 -0.0051841037 -3.0965033 -85.138237 80.31012 -86.455399 -17.98867 -0.0065484433 -4.1451607
17196438.125 -0.0024563482 -3.4359646 -91.60067 87.472321 -96.659348 -35.414219 -0.00085707282 -4.5062709
18758932.5 -0.0075216456 -3.7244961 -87.445686 44.575726 -87.951622 106.32287 0.002309964 -4.977623
20321426.875 -0.0090618897 -4.0414824 -78.964027 165.87352 -80.713409 -141.52539 -0.0097369216 -5.3596964
21883921.25 -0.0044930386 -4.4112391 -83.759041 82.720108 -83.246208 -138.23018 -0.0063103423 -5.8206477
23446415.625 -0.0038636054 -4.6474061 -87.878716 170.304 -84.283058 15.385422 -0.010020291 -6.213253
25008910 -0.0035877207 -4.9689579 -84.05574 -155.68239 -94.483444 73.392494 -0.010429142 -6.6589246
26571404.375 -0.0005778193 -5.2912693 -87.180504 -32.429649 -88.415207 90.470665 -0.0043646251 -7.0941238
28133898.75 -0.009149407 -5.5712037 -87.565239 141.6685 -95.875175 -141.56059 -0.0028745246 -7.4507318
29696393.125 -0.003497544 -5.9184003 -85.142227 92.77198 -84.596428 100.78485 -0.0094787329 -7.8305268
31258887.5 -0.0059113111 -6.184226 -89.244453 -51.272511 -77.49382 65.362534 -0.014561202 -8.356967
32821381.875 -0.0011801485 -6.51615 -89.433556 159.94807 -101.61674 80.836639 -0.01304249 -8.6467876
34383876.25 -0.01506661 -6.796176 -86.788818 95.970177 -82.13195 53.766415 -0.013983498 -9.1347618
35946370.625 -0.0070495657 -7.140605 -83.854729 76.914917 -88.775558 125.08182 -0.0053136721 -9.5883074
37508865 -0.003631226 -7.4175472 -82.527107 98.327843 -91.353165 38.861835 -0.021789389 -9.9838095
39071359.375 -0.0056559406 -7.7849636 -84.027237 90.542915 -84.260796 131.07414 -0.018240264 -10.402317
40633853.75 -0.01672842 -8.0664463 -91.202858 75.027939 -89.314621 115.95911 -0.020918176 -10.724789
42196348.125 -0.0067507047 -8.4492741 -85.121284 50.707397 -80.96875 88.728813 -0.019181166 -11.183493
43758842.5 -0.010823518 -8.7098665 -81.986252 -5.5985141 -80.431931 64.613297 -0.026691988 -11.570187
45321336.875 -0.0062905517 -8.9863377 -86.355873 99.067207 -76.654396 100.7142 -0.024111398 -11.992572
46883831.25 -0.0029468685 -9.3616371 -83.872017 67.17057 -79.926468 86.240402 -0.026005402 -12.383163
48446325.625 -0.010821696 -9.6584311 -79.230339 88.613602 -85.919868 104.05045 -0.021489982 -12.778255
50008820 -0.013530203 -9.9863253 -83.034485 97.985771 -82.397415 17.200842 -0.027287748 -13.331559
51571314.375 -0.0177489 -10.259708 -80.625603 116.57043 -84.341789 -23.220732 -0.02458163 -13.665396
53133808.75 -0.012066375 -10.628842 -88.708641 102.93147 -96.653435 25.986418 -0.02696863 -14.044274
54696303.125 -0.011772827 -10.913013 -81.108742 71.160446 -77.983353 66.739624 -0.032305691 -14.492617
56258797.5 -0.01169456 -11.240756 -80.59166 77.952164 -79.693413 91.55645 -0.031314291 -14.91334
57821291.875 -0.022472346 -11.559875 -81.232185 48.256512 -90.525513 86.446198 -0.028589038 -15.316764
59383786.25 -0.013430584 -11.871501 -79.600662 85.772781 -80.045494 88.515533 -0.032173961 -15.707434
60946280.625 -0.017345037 -12.155554 -83.9189 67.126396 -84.412285 85.101837 -0.034864143 -16.147146
62508775 -0.0199371 -12.438863 -83.813927 81.319084 -83.45079 57.755901 -0.040110167 -16.534391
64071269.375 -0.018790085 -12.811806 -80.954018 82.568665 -81.518082 95.030502 -0.038499486 -16.962303
65633763.75 -0.018647637 -13.091622 -80.072021 60.889729 -79.504967 114.66766 -0.039827224 -17.399015
67196258.125 -0.018120905 -13.372609 -81.238266 71.69738 -79.031685 69.125946 -0.045091856 -17.801624
68758752.5 -0.02273234 -13.661271 -78.565117 70.743454 -81.291206 58.833946 -0.050587621 -18.210545
70321246.875 -0.017422089 -14.020534 -83.268974 74.499794 -79.145821 86.622688 -0.048228126 -18.591856
71883741.25 -0.014891321 -14.367033 -77.909447 78.104637 -82.202072 84.350395 -0.053823631 -19.031582
73446235.625 -0.014113996 -14.653056 -77.593079 67.321907 -80.562019 90.654747 -0.052621953 -19.457308
75008730 -0.020513996 -14.982807 -81.182106 77.071556 -79.735176 72.866699 -0.057663169 -19.856234
76571224.375 -0.019841019 -15.281995 -80.299965 90.94767 -81.80645 61.057205 -0.055536285 -20.268461
78133718.75 -0.021446494 -15.620403 -78.306168 77.882339 -79.215996 43.51762 -0.063070372 -20.690182
79696213.125 -0.021491487 -15.929159 -77.820946 80.469238 -78.746681 66.322304 -0.062559657 -21.06739
81258707.5 -0.017563114 -16.234915 -80.675453 75.951141 -80.099861 75.846878 -0.064619161 -21.530333
82821201.875 -0.022808509 -16.57111 -79.711113 52.541828 -80.04953 77.053612 -0.066364013 -21.891809
84383696.25 -0.026246078 -16.858486 -83.908066 49.482883 -80.76075 66.964478 -0.068700969 -22.343338
85946190.625 -0.022245901 -17.182642 -77.748352 73.834229 -79.706276 75.078835 -0.072543003 -22.760656
87508685 -0.029573172 -17.45455 -80.452126 70.23761 -79.232109 85.463829 -0.071334407 -23.165379
89071179.375 -0.023200814 -17.819281 -78.507507 53.080326 -79.187981 54.135944 -0.075263426 -23.54022
90633673.75 -0.025775556 -18.121363 -80.933388 62.191967 -82.938377 62.416973 -0.076224834 -23.953022
92196168.125 -0.029026322 -18.441143 -78.612015 73.597008 -79.224167 82.105774 -0.083876826 -24.415878
93758662.5 -0.030657565 -18.751175 -81.527771 76.197472 -78.104477 71.389771 -0.084584162 -24.796015
95321156.875 -0.019329352 -19.05559 -78.159256 71.905945 -80.918648 64.708931 -0.089480035 -25.212849
96883651.25 -0.027793646 -19.391411 -77.370316 69.244171 -80.162903 62.486832 -0.089680612 -25.621931
98446145.625 -0.02467948 -19.703117 -77.424683 72.182114 -76.627205 67.875755 -0.09002398 -26.021172
100008640 -0.024993228 -20.017878 -79.375847 63.104473 -78.030006 75.546356 -0.092980459 -26.423786
101571134.375 -0.028934609 -20.33754 -78.301407 78.995789 -77.028481 62.837959 -0.093661107 -26.841652
103133628.75 -0.029354934 -20.659187 -80.007484 79.419083 -78.85611 73.495178 -0.099475622 -27.259712
104696123.125 -0.028276129 -20.955635 -78.862274 64.726936 -77.005882 80.210365 -0.099151276 -27.68259
106258617.5 -0.030230079 -21.304842 -78.893753 62.985538 -77.896095 79.086754 -0.10723615 -28.053356
107821111.875 -0.031514399 -21.609379 -75.874222 49.920673 -81.437416 61.397392 -0.10801166 -28.489567
109383606.25 -0.030418903 -21.93833 -75.700119 67.000641 -77.948586 68.661308 -0.11078563 -28.913042
110946100.625 -0.030483786 -22.255745 -78.023102 58.219658 -77.077332 57.513111 -0.1091022 -29.313362
112508595 -0.033848535 -22.579884 -78.31424 58.939491 -77.198311 68.616905 -0.11693107 -29.726025
114071089.375 -0.034087155 -22.887915 -77.244743 55.444229 -78.203796 57.177368 -0.11428174 -30.136086
115633583.75 -0.03137828 -23.224785 -76.702873 54.310272 -77.709007 75.612015 -0.11828323 -30.534452
117196078.125 -0.036086202 -23.538649 -76.506012 64.191338 -77.719421 68.332466 -0.12392221 -30.940826
118758572.5 -0.036598444 -23.86216 -75.872917 60.689655 -78.322006 82.310539 -0.12487579 -31.346853
120321066.875 -0.035378728 -24.19829 -77.538727 63.879898 -77.833252 68.38427 -0.12537266 -31.729141
121883561.25 -0.036941856 -24.499434 -76.627823 63.880539 -76.420914 64.819153 -0.13270925 -32.146709
123446055.625 -0.036695141 -24.832886 -77.571426 73.976547 -75.91301 66.248787 -0.13499597 -32.584473
125008550 -0.038452845 -25.157742 -76.389542 60.52586 -78.352966 67.181221 -0.13940825 -32.967628
126571044.375 -0.039585128 -25.490499 -79.303078 64.979774 -76.456497 62.242073 -0.13938469 -33.378635
128133538.75 -0.039296471 -25.779057 -76.804382 60.315262 -77.486237 63.413116 -0.14039233 -33.789665
129696033.125 -0.03797492 -26.135435 -75.634766 56.591846 -75.529678 54.862343 -0.14495319 -34.197964
131258527.5 -0.040334377 -26.448954 -74.145988 58.745209 -75.632233 82.294945 -0.15023464 -34.598415
132821021.875 -0.03752375 -26.766197 -76.723572 49.938679 -75.786423 64.469894 -0.15098658 -35.015732
134383516.25 -0.043779172 -27.072374 -77.265289 54.230141 -74.8479 59.426125 -0.15275031 -35.409775
135946010.625 -0.04201759 -27.416433 -74.125267 59.812656 -76.946022 68.030838 -0.15470536 -35.800846
137508505 -0.039263912 -27.747255 -75.765984 70.660294 -74.892998 54.936718 -0.16236605 -36.190567
139070999.375 -0.040439151 -28.061413 -75.911179 53.288521 -75.675957 64.529594 -0.16529733 -36.617535
140633493.75 -0.046597179 -28.390142 -73.405212 68.362404 -75.333023 52.673199 -0.16191062 -37.011631
142195988.125 -0.046480089 -28.701767 -75.675453 52.737652 -75.353653 53.170616 -0.16645057 -37.415512
143758482.5 -0.045060162 -29.089466 -76.078949 74.528946 -76.069763 58.547188 -0.17173924 -37.824745
145320976.875 -0.04553166 -29.364733 -75.416435 58.911133 -74.315437 59.95314 -0.17723876 -38.237652
146883471.25 -0.049044713 -29.721497 -73.154449 52.922703 -73.147141 58.302448 -0.17466879 -38.621265
148445965.625 -0.05039715 -30.055513 -75.63549 56.923538 -74.881813 47.465126 -0.18225522 -39.041355
150008460 -0.048921 -30.368071 -76.005867 43.432671 -76.674034 59.184826 -0.17954162 -39.438229
151570954.375 -0.04964852 -30.68968 -73.787117 53.388744 -75.341385 53.303429 -0.18702652 -39.866508
153133448.75 -0.051405136 -31.016539 -74.124397 54.387779 -74.644279 56.885357 -0.18468688 -40.241135
154695943.125 -0.051878296 -31.336584 -74.489845 63.155651 -73.967667 52.199539 -0.19257247 -40.632824
156258437.5 -0.053289704 -31.653316 -75.11763 61.343178 -72.539803 50.67543 -0.19282681 -41.051071
157820931.875 -0.058115292 -32.003609 -73.360573 46.772823 -73.629608 58.97229 -0.20298767 -41.477272
159383426.25 -0.050014287 -32.302658 -73.070251 57.833588 -75.447601 46.936611 -0.20269927 -41.848888
160945920.625 -0.047495965 -32.675201 -74.747696 50.269932 -73.432487 60.819653 -0.20616277 -42.26672
162508415 -0.056691721 -33.025116 -74.288788 59.213055 -75.107574 57.358414 -0.2057063 -42.659248
164070909.375 -0.055854242 -33.312786 -75.464462 53.383881 -73.383812 52.252579 -0.21448085 -43.042568
165633403.75 -0.059095744 -33.686012 -74.179802 50.968788 -73.121475 60.916626 -0.21404983 -43.415813
167195898.125 -0.051229473 -33.961212 -74.171722 47.549305 -73.701935 51.237469 -0.21309139 -43.839787
168758392.5 -0.052084945 -34.325077 -74.183609 43.83461 -73.756744 54.472363 -0.21711352 -44.228241
170320886.875 -0.05262221 -34.646378 -73.206467 44.288425 -73.705147 44.166973 -0.22526576 -44.600018
171883381.25 -0.053553101 -34.943623 -73.061623 58.482212 -73.447479 46.976311 -0.22247553 -44.991894
173445875.625 -0.056789614 -35.288601 -73.604111 53.65834 -74.925659 56.90963 -0.22578084 -45.410862
175008370 -0.05913971 -35.64822 -74.19677 48.392845 -75.526428 50.967754 -0.23790111 -45.827461
176570864.375 -0.056069516 -35.998272 -72.744904 39.954731 -73.51078 52.04686 -0.22824365 -46.206589
178133358.75 -0.057707258 -36.30658 -72.486206 57.586998 -74.05262 58.627762 -0.23910592 -46.593853
179695853.125 -0.065136962 -36.704266 -73.58223 49.727337 -74.02256 42.018341 -0.24266721 -47.039536
181258347.5 -0.070819229 -37.006611 -72.214111 46.352112 -72.850113 38.80423 -0.24570584 -47.408432
182820841.875 -0.061651837 -37.299061 -75.488808 41.283051 -72.618202 39.549492 -0.25048119 -47.78735
184383336.25 -0.063049845 -37.614666 -73.255463 40.318752 -72.752502 53.943214 -0.24699891 -48.170475
185945830.625 -0.064062931 -37.988316 -73.082207 51.739216 -72.726227 40.688339 -0.25036597 -48.481197
187508325 -0.063430727 -38.366089 -73.0252 51.186199 -73.499046 52.357128 -0.25158072 -48.965225
189070819.375 -0.069726102 -38.651947 -71.721542 43.851566 -73.144897 45.10696 -0.26083764 -49.330437
190633313.75 -0.073556848 -38.972439 -72.056175 46.236626 -74.659065 48.678333 -0.26563823 -49.771816
192195808.125 -0.07308729 -39.368305 -73.895271 41.214153 -73.41024 45.37822 -0.26353177 -50.129578
193758302.5 -0.069229633 -39.685738 -71.292519 40.811813 -73.344154 47.066059 -0.26971173 -50.482414
195320796.875 -0.066177204 -40.07251 -73.995628 54.252625 -71.857513 39.271099 -0.26694211 -50.884899
196883291.25 -0.069381163 -40.425198 -72.930267 31.192579 -71.879456 44.221443 -0.27682924 -51.341755
198445785.625 -0.071161091 -40.723209 -71.419022 46.191906 -73.498161 33.788731 -0.28098765 -51.685997
200008280 -0.071002953 -41.053032 -71.883713 46.215527 -74.518127 38.203026 -0.28334743 -52.057289
201570774.375 -0.074026056 -41.39431 -73.460793 48.232285 -72.458649 42.512897 -0.27937582 -52.470917
203133268.75 -0.077545948 -41.78257 -72.60527 46.906708 -72.50782 53.896053 -0.28321391 -52.840981
204695763.125 -0.077775486 -42.0741 -72.142639 44.077644 -70.92794 31.946753 -0.27794456 -53.276505
206258257.5 -0.075562187 -42.425961 -72.672859 46.079617 -72.414894 32.72068 -0.28571081 -53.638897
207820751.875 -0.075723924 -42.766705 -72.49939 46.773293 -71.887527 40.859692 -0.29837647 -54.080231
209383246.25 -0.077503458 -43.083797 -72.914276 52.971394 -71.587715 35.021923 -0.29530939 -54.469681
210945740.625 -0.08465419 -43.475174 -73.703117 37.542789 -73.524521 44.862251 -0.29493648 -54.786777
212508235 -0.075532533 -43.820766 -72.25312 37.492058 -71.892235 39.339005 -0.29946968 -55.227249
214070729.375 -0.083187386 -44.225395 -71.591156 39.815094 -72.888565 37.22496 -0.30663359 -55.550331
215633223.75 -0.081951417 -44.465984 -71.023216 51.239475 -72.088387 38.500061 -0.2988281 -56.001411
217195718.125 -0.083330989 -44.875946 -71.246391 39.193054 -72.646553 26.784496 -0.29329458 -56.363029
218758212.5 -0.079807818 -45.184666 -73.53096 37.222469 -73.94355 37.703133 -0.30791059 -56.780403
220320706.875 -0.086800262 -45.607109 -72.548042 35.609283 -72.062622 30.288515 -0.30591509 -57.109066
221883201.25 -0.083046712 -45.919651 -72.13623 35.778538 -72.012962 42.42551 -0.31281373 -57.573231
223445695.625 -0.079538785 -46.225231 -71.06485 33.797337 -73.779411 30.96661 -0.3187815 -57.871178
225008190 -0.090374075 -46.680687 -71.319817 39.376507 -71.598923 31.367313 -0.31688645 -58.264191
226570684.375 -0.073339425 -46.960617 -72.115913 22.723286 -72.766991 39.569942 -0.31957614 -58.594814
228133178.75 -0.085040778 -47.272961 -71.780159 41.577259 -71.942352 43.315174 -0.31537637 -59.044109
229695673.125 -0.086547069 -47.66378 -72.351196 36.080578 -71.690292 31.420197 -0.325277 -59.396309
231258167.5 -0.087235324 -48.005383 -70.9963 37.125469 -70.661942 33.600822 -0.32780108 -59.827259
232820661.875 -0.093765981 -48.338417 -70.978043 37.427269 -73.401581 41.343605 -0.32449436 -60.164433
234383156.25 -0.085436344 -48.733875 -71.354401 35.367241 -70.078278 35.336403 -0.33105513 -60.600853
235945650.625 -0.098926976 -49.075249 -73.687828 42.472603 -73.061211 36.088905 -0.32253125 -60.998146
237508145 -0.096884385 -49.426212 -72.06517 30.091885 -69.788322 37.004128 -0.3383984 -61.355732
239070639.375 -0.088672794 -49.787441 -70.561592 36.105042 -71.108429 28.54056 -0.33666953 -61.712849
240633133.75 -0.095538728 -50.160217 -72.435608 34.403301 -70.875862 36.937088 -0.33304778 -62.091869
242195628.125 -0.095960163 -50.482597 -71.306839 43.893166 -71.097717 31.342567 -0.33609614 -62.489006
243758122.5 -0.10055362 -50.809746 -70.31488 19.322344 -71.137993 28.857281 -0.33721232 -62.828171
245320616.875 -0.10439365 -51.19191 -70.986382 29.881901 -72.179741 35.185226 -0.33990911 -63.149479
246883111.25 -0.096285045 -51.564541 -71.348076 36.084629 -72.248138 36.901039 -0.34394884 -63.624512
248445605.625 -0.096879929 -51.853439 -70.025597 23.054211 -71.201706 30.797125 -0.33980048 -63.961254
250008100 -0.10815011 -52.27935 -70.797661 22.464739 -70.7174 32.678577 -0.34477848 -64.331787
251570594.375 -0.094026387 -52.61945 -71.968864 36.873756 -71.40332 38.426445 -0.35388476 -64.67186
253133088.75 -0.10878611 -53.016197 -70.833618 29.483734 -70.307785 27.951406 -0.34827366 -65.09597
254695583.125 -0.10411663 -53.350822 -72.400299 36.8745 -69.817574 36.265503 -0.35918719 -65.503761
256258077.5 -0.11287249 -53.695522 -70.544937 32.051689 -72.063759 38.83308 -0.3546299 -65.834488
257820571.875 -0.10182953 -54.040939 -72.445915 34.906151 -70.997238 37.006725 -0.35637152 -66.23381
259383066.25 -0.10386732 -54.425385 -69.759682 30.162849 -69.950424 29.927345 -0.35324508 -66.552162
260945560.625 -0.10995058 -54.810734 -70.131721 17.739843 -70.414497 30.092041 -0.3590045 -66.874535
262508055 -0.10952128 -55.166218 -71.035118 28.621866 -70.626328 21.127438 -0.36738002 -67.278351
264070549.375 -0.10476906 -55.504265 -70.197617 28.733379 -70.559334 32.834816 -0.37153557 -67.688782
265633043.75 -0.12163552 -55.91119 -70.728424 30.385439 -70.999947 26.63039 -0.35520533 -68.047211
267195538.125 -0.1105421 -56.292801 -69.700775 30.542715 -71.32737 33.746147 -0.35466024 -68.465546
268758032.5 -0.11303005 -56.670364 -72.055893 27.014973 -72.265999 23.880014 -0.35409468 -68.794357
270320526.875 -0.10817726 -56.991032 -70.302238 30.73798 -70.398773 27.440552 -0.37409127 -69.155579
271883021.25 -0.11034594 -57.37981 -70.58989 23.011375 -70.458534 28.994385 -0.36168039 -69.565704
273445515.625 -0.11395403 -57.694294 -69.387054 28.843346 -70.172943 32.141022 -0.36529583 -69.926437
275008010 -0.11700294 -58.053631 -72.467567 29.694452 -70.003616 18.31529 -0.36214313 -70.305031
276570504.375 -0.11541829 -58.427811 -70.240402 21.819427 -70.585327 25.8941 -0.35906655 -70.671234
278132998.75 -0.11030138 -58.828739 -70.39505 19.982538 -70.013412 27.62324 -0.36747169 -71.006554
279695493.125 -0.12398405 -59.195187 -70.315285 28.590893 -70.943054 19.448902 -0.37312016 -71.358337
281257987.5 -0.11602112 -59.517578 -70.57473 16.395504 -69.549095 23.420753 -0.36414501 -71.749931
282820481.875 -0.12269995 -60.002407 -70.55014 29.451164 -68.872108 25.585987 -0.37507075 -72.108315
284382976.25 -0.12968773 -60.317715 -68.562973 26.820137 -69.975838 17.213024 -0.36398512 -72.55481
285945470.625 -0.12104265 -60.651623 -69.439148 19.714605 -70.055779 22.439655 -0.36569539 -72.832954
287507965 -0.13254192 -61.10128 -71.313179 18.68116 -69.363113 18.176704 -0.37498745 -73.210014
289070459.375 -0.12585446 -61.423836 -70.78862 24.754705 -69.144096 16.69496 -0.37647611 -73.569679
290632953.75 -0.12409066 -61.793369 -69.743652 26.410967 -69.072052 20.701109 -0.36934835 -73.95224
292195448.125 -0.12085296 -62.183533 -70.839401 25.316851 -69.306847 22.772009 -0.37091905 -74.330032
293757942.5 -0.1214337 -62.520397 -69.744865 19.897911 -68.650528 19.204939 -0.38048202 -74.717278
295320436.875 -0.12843315 -62.963718 -71.133408 16.913776 -69.392754 23.036938 -0.37996832 -75.095909
296882931.25 -0.12380335 -63.291832 -70.314766 24.101076 -69.876778 14.850648 -0.37666094 -75.422714
298445425.625 -0.12930298 -63.741547 -70.57766 22.051849 -68.794571 22.219128 -0.37736627 -75.732933
300007920 -0.14003353 -64.050041 -69.827751 20.237488 -69.148575 18.14332 -0.37549871 -76.150162
301570414.375 -0.12875113 -64.45829 -68.832779 21.946127 -69.4599 22.937052 -0.3800008 -76.490303
303132908.75 -0.13221243 -64.878899 -68.747978 20.117271 -69.960815 18.923527 -0.37758267 -76.854988
