# Hz  S  RI  R  50
! ADVANTEST Corporation R3860A
! Date: Mon Jul 03 19:37:56 2006
4.0000000000e+008 -1.787537e-001 -9.513539e-001  1.393706e-003 -1.797419e-004  1.416507e-003 -1.925916e-004 -1.715194e-001 -9.513514e-001
4.0025000000e+008 -1.785308e-001 -9.482688e-001  1.539679e-003 -1.877797e-005  1.514408e-003 -3.082739e-005 -1.742234e-001 -9.495348e-001
4.0050000000e+008 -1.793705e-001 -9.476059e-001  1.527415e-003 -8.588989e-006  1.528059e-003 -5.979864e-006 -1.748841e-001 -9.486139e-001
4.0075000000e+008 -1.792648e-001 -9.491021e-001  1.670780e-003 -6.524258e-005  1.691687e-003 -5.829761e-005 -1.745405e-001 -9.481191e-001
4.0100000000e+008 -1.806989e-001 -9.486776e-001  1.663349e-003 -1.137489e-004  1.675832e-003 -1.131735e-004 -1.758811e-001 -9.482927e-001
4.0125000000e+008 -1.811228e-001 -9.499835e-001  1.738291e-003 -1.331383e-004  1.746043e-003 -1.348606e-004 -1.753787e-001 -9.476996e-001
4.0150000000e+008 -1.831280e-001 -9.505798e-001  1.764309e-003 -2.375183e-004  1.777013e-003 -2.279568e-004 -1.767846e-001 -9.488579e-001
4.0175000000e+008 -1.850125e-001 -9.507204e-001  1.656897e-003 -3.143420e-004  1.655443e-003 -3.233017e-004 -1.783540e-001 -9.491647e-001
4.0200000000e+008 -1.863308e-001 -9.497921e-001  1.660975e-003 -2.384296e-004  1.673627e-003 -2.312265e-004 -1.800807e-001 -9.485544e-001
4.0225000000e+008 -1.890913e-001 -9.504666e-001  1.651767e-003 -2.971107e-004  1.669554e-003 -2.938137e-004 -1.807908e-001 -9.495473e-001
4.0250000000e+008 -1.906203e-001 -9.490078e-001  1.641303e-003 -2.427737e-004  1.634907e-003 -2.428207e-004 -1.832149e-001 -9.490314e-001
4.0275000000e+008 -1.929111e-001 -9.474966e-001  1.600203e-003 -2.345206e-004  1.587486e-003 -1.999110e-004 -1.855064e-001 -9.491625e-001
4.0300000000e+008 -1.944129e-001 -9.459128e-001  1.593268e-003 -1.645708e-004  1.601015e-003 -1.740825e-004 -1.873076e-001 -9.480903e-001
4.0325000000e+008 -1.929331e-001 -9.460435e-001  1.679052e-003 -1.703500e-004  1.691883e-003 -1.811997e-004 -1.877753e-001 -9.455152e-001
4.0350000000e+008 -1.934688e-001 -9.450250e-001  1.746065e-003 -1.573543e-004  1.738720e-003 -1.741905e-004 -1.880308e-001 -9.456893e-001
4.0375000000e+008 -1.944387e-001 -9.459860e-001  1.773428e-003 -2.188864e-004  1.786322e-003 -2.191520e-004 -1.883883e-001 -9.459032e-001
4.0400000000e+008 -1.957692e-001 -9.453872e-001  1.783134e-003 -2.026549e-004  1.792272e-003 -1.919329e-004 -1.901435e-001 -9.458870e-001
4.0425000000e+008 -1.974466e-001 -9.460155e-001  1.874748e-003 -3.101530e-004  1.887503e-003 -2.938227e-004 -1.906165e-001 -9.467719e-001
4.0450000000e+008 -1.988876e-001 -9.443208e-001  1.778904e-003 -3.744907e-004  1.793018e-003 -3.731184e-004 -1.929806e-001 -9.460600e-001
4.0475000000e+008 -1.995705e-001 -9.446542e-001  1.756149e-003 -3.360795e-004  1.760567e-003 -3.646690e-004 -1.935492e-001 -9.456097e-001
4.0500000000e+008 -2.007165e-001 -9.449070e-001  1.788205e-003 -3.714204e-004  1.808096e-003 -3.747752e-004 -1.944310e-001 -9.454654e-001
4.0525000000e+008 -2.020936e-001 -9.456118e-001  1.684555e-003 -3.859631e-004  1.698547e-003 -3.992555e-004 -1.947554e-001 -9.455144e-001
4.0550000000e+008 -2.039104e-001 -9.452060e-001  1.711072e-003 -3.227978e-004  1.714315e-003 -3.442736e-004 -1.966468e-001 -9.459714e-001
4.0575000000e+008 -2.057409e-001 -9.434707e-001  1.800230e-003 -3.233146e-004  1.781584e-003 -3.098481e-004 -1.998426e-001 -9.455142e-001
4.0600000000e+008 -2.063669e-001 -9.417958e-001  1.769000e-003 -3.195426e-004  1.765262e-003 -3.125491e-004 -2.006981e-001 -9.442537e-001
4.0625000000e+008 -2.067928e-001 -9.437756e-001  1.765080e-003 -3.315584e-004  1.779555e-003 -3.325520e-004 -2.003006e-001 -9.441340e-001
4.0650000000e+008 -2.076294e-001 -9.436570e-001  1.748539e-003 -3.377128e-004  1.779511e-003 -3.245923e-004 -2.019218e-001 -9.446536e-001
4.0675000000e+008 -2.100920e-001 -9.446000e-001  1.781073e-003 -3.924761e-004  1.785853e-003 -3.795152e-004 -2.029806e-001 -9.449903e-001
4.0700000000e+008 -2.106047e-001 -9.441414e-001  1.835319e-003 -3.779406e-004  1.834956e-003 -3.736178e-004 -2.039246e-001 -9.443145e-001
4.0725000000e+008 -2.125167e-001 -9.443147e-001  1.814357e-003 -4.038566e-004  1.813615e-003 -4.183273e-004 -2.052750e-001 -9.456322e-001
4.0750000000e+008 -2.147690e-001 -9.440491e-001  1.808932e-003 -4.228852e-004  1.797906e-003 -4.133097e-004 -2.075004e-001 -9.456421e-001
4.0775000000e+008 -2.155702e-001 -9.433164e-001  1.813447e-003 -4.421923e-004  1.812174e-003 -4.456347e-004 -2.089593e-001 -9.452897e-001
4.0800000000e+008 -2.172742e-001 -9.436018e-001  1.843235e-003 -4.533151e-004  1.844169e-003 -4.487064e-004 -2.104403e-001 -9.454416e-001
4.0825000000e+008 -2.192028e-001 -9.423687e-001  1.810236e-003 -4.798733e-004  1.815408e-003 -4.730850e-004 -2.125546e-001 -9.446674e-001
4.0850000000e+008 -2.206804e-001 -9.420838e-001  1.790394e-003 -5.121076e-004  1.801222e-003 -4.905058e-004 -2.140120e-001 -9.444218e-001
4.0875000000e+008 -2.213840e-001 -9.422105e-001  1.784583e-003 -5.295128e-004  1.778131e-003 -5.177973e-004 -2.156086e-001 -9.435951e-001
4.0900000000e+008 -2.226217e-001 -9.415054e-001  1.750642e-003 -5.379212e-004  1.784662e-003 -5.332066e-004 -2.167531e-001 -9.431749e-001
4.0925000000e+008 -2.245324e-001 -9.415232e-001  1.750414e-003 -5.346714e-004  1.756652e-003 -5.528940e-004 -2.177334e-001 -9.434537e-001
4.0950000000e+008 -2.254736e-001 -9.416651e-001  1.756789e-003 -5.097355e-004  1.743562e-003 -5.358288e-004 -2.190838e-001 -9.431053e-001
4.0975000000e+008 -2.277097e-001 -9.411305e-001  1.775935e-003 -5.389786e-004  1.776027e-003 -5.334249e-004 -2.209869e-001 -9.430176e-001
4.1000000000e+008 -2.293328e-001 -9.412351e-001  1.752703e-003 -5.377961e-004  1.758622e-003 -5.482803e-004 -2.222378e-001 -9.432051e-001
4.1025000000e+008 -2.312752e-001 -9.405735e-001  1.745167e-003 -5.748052e-004  1.746952e-003 -5.584316e-004 -2.242410e-001 -9.430164e-001
4.1050000000e+008 -2.328638e-001 -9.401405e-001  1.740983e-003 -5.671779e-004  1.741645e-003 -5.598771e-004 -2.259510e-001 -9.428960e-001
4.1075000000e+008 -2.343666e-001 -9.397715e-001  1.710821e-003 -5.607338e-004  1.737976e-003 -5.862819e-004 -2.273579e-001 -9.421750e-001
4.1100000000e+008 -2.359333e-001 -9.391986e-001  1.708728e-003 -5.961840e-004  1.708999e-003 -5.750596e-004 -2.291695e-001 -9.420961e-001
4.1125000000e+008 -2.372215e-001 -9.384399e-001  1.697554e-003 -5.863198e-004  1.712266e-003 -5.785756e-004 -2.306514e-001 -9.413901e-001
4.1150000000e+008 -2.386254e-001 -9.380400e-001  1.691801e-003 -5.747803e-004  1.721100e-003 -5.824492e-004 -2.323670e-001 -9.409903e-001
4.1175000000e+008 -2.401268e-001 -9.379553e-001  1.701477e-003 -6.072357e-004  1.714091e-003 -5.971274e-004 -2.334675e-001 -9.406320e-001
4.1200000000e+008 -2.415796e-001 -9.374738e-001  1.704261e-003 -5.832777e-004  1.714989e-003 -6.046619e-004 -2.351579e-001 -9.401477e-001
4.1225000000e+008 -2.434534e-001 -9.374512e-001  1.691530e-003 -6.046140e-004  1.697176e-003 -6.026448e-004 -2.364504e-001 -9.400240e-001
4.1250000000e+008 -2.453050e-001 -9.369670e-001  1.681104e-003 -5.799237e-004  1.693303e-003 -6.028872e-004 -2.381484e-001 -9.395373e-001
4.1275000000e+008 -2.469567e-001 -9.364554e-001  1.670862e-003 -6.408984e-004  1.698360e-003 -6.323976e-004 -2.400097e-001 -9.393701e-001
4.1300000000e+008 -2.481129e-001 -9.358737e-001  1.650069e-003 -6.156887e-004  1.665869e-003 -6.346784e-004 -2.414423e-001 -9.387361e-001
4.1325000000e+008 -2.496382e-001 -9.355846e-001  1.623238e-003 -6.526944e-004  1.631021e-003 -6.242780e-004 -2.430046e-001 -9.381966e-001
4.1350000000e+008 -2.513513e-001 -9.351599e-001  1.596689e-003 -6.341195e-004  1.608636e-003 -6.340835e-004 -2.444688e-001 -9.375696e-001
4.1375000000e+008 -2.529312e-001 -9.344915e-001  1.584783e-003 -6.244980e-004  1.592549e-003 -6.286392e-004 -2.459712e-001 -9.372621e-001
4.1400000000e+008 -2.544241e-001 -9.337085e-001  1.552905e-003 -5.896562e-004  1.596608e-003 -5.659114e-004 -2.476758e-001 -9.366925e-001
4.1425000000e+008 -2.561883e-001 -9.334210e-001  1.579014e-003 -5.827725e-004  1.605714e-003 -5.820344e-004 -2.492734e-001 -9.363644e-001
4.1450000000e+008 -2.581552e-001 -9.328358e-001  1.598740e-003 -5.392613e-004  1.599219e-003 -5.916397e-004 -2.511821e-001 -9.359523e-001
4.1475000000e+008 -2.598805e-001 -9.321574e-001  1.594164e-003 -5.254846e-004  1.605176e-003 -5.438053e-004 -2.525611e-001 -9.353632e-001
4.1500000000e+008 -2.612002e-001 -9.316193e-001  1.608400e-003 -5.721604e-004  1.607915e-003 -5.485223e-004 -2.541925e-001 -9.347222e-001
4.1525000000e+008 -2.629748e-001 -9.309908e-001  1.635887e-003 -5.414250e-004  1.637328e-003 -5.287521e-004 -2.554766e-001 -9.341527e-001
4.1550000000e+008 -2.648022e-001 -9.300691e-001  1.651721e-003 -5.907455e-004  1.666497e-003 -6.043090e-004 -2.572464e-001 -9.335697e-001
4.1575000000e+008 -2.661367e-001 -9.292747e-001  1.606835e-003 -5.760526e-004  1.617887e-003 -5.879660e-004 -2.587271e-001 -9.329072e-001
4.1600000000e+008 -2.673594e-001 -9.287463e-001  1.611760e-003 -5.908870e-004  1.607859e-003 -5.901288e-004 -2.603171e-001 -9.321449e-001
4.1625000000e+008 -2.690384e-001 -9.280223e-001  1.562243e-003 -6.005164e-004  1.584933e-003 -6.061945e-004 -2.614656e-001 -9.316514e-001
4.1650000000e+008 -2.708893e-001 -9.274724e-001  1.582965e-003 -5.636387e-004  1.564429e-003 -5.596703e-004 -2.631598e-001 -9.315334e-001
4.1675000000e+008 -2.722633e-001 -9.267649e-001  1.507963e-003 -5.663461e-004  1.537206e-003 -5.713323e-004 -2.650638e-001 -9.308738e-001
4.1700000000e+008 -2.735861e-001 -9.260592e-001  1.569878e-003 -4.906285e-004  1.575233e-003 -4.701154e-004 -2.666650e-001 -9.302605e-001
4.1725000000e+008 -2.749502e-001 -9.254746e-001  1.604866e-003 -4.924026e-004  1.607677e-003 -5.235919e-004 -2.680412e-001 -9.297483e-001
4.1750000000e+008 -2.763411e-001 -9.245413e-001  1.620334e-003 -4.977394e-004  1.614410e-003 -5.039718e-004 -2.696695e-001 -9.287080e-001
4.1775000000e+008 -2.771075e-001 -9.245052e-001  1.664632e-003 -5.056165e-004  1.667987e-003 -4.923187e-004 -2.709767e-001 -9.279511e-001
4.1800000000e+008 -2.793677e-001 -9.241471e-001  1.611469e-003 -5.324971e-004  1.631387e-003 -5.520611e-004 -2.724863e-001 -9.277287e-001
4.1825000000e+008 -2.809812e-001 -9.235416e-001  1.673232e-003 -5.541854e-004  1.647056e-003 -5.431497e-004 -2.741392e-001 -9.267859e-001
4.1850000000e+008 -2.825537e-001 -9.226887e-001  1.592403e-003 -5.418040e-004  1.595659e-003 -5.774453e-004 -2.761195e-001 -9.260505e-001
4.1875000000e+008 -2.842278e-001 -9.224623e-001  1.598177e-003 -5.346274e-004  1.602771e-003 -5.423164e-004 -2.774200e-001 -9.247009e-001
4.1900000000e+008 -2.855290e-001 -9.216172e-001  1.611215e-003 -5.313982e-004  1.619159e-003 -5.097035e-004 -2.787913e-001 -9.233438e-001
4.1925000000e+008 -2.878765e-001 -9.214938e-001  1.627822e-003 -5.239450e-004  1.620823e-003 -5.009701e-004 -2.796164e-001 -9.236041e-001
4.1950000000e+008 -2.899284e-001 -9.197010e-001  1.634017e-003 -5.120087e-004  1.654904e-003 -5.034030e-004 -2.820346e-001 -9.228190e-001
4.1975000000e+008 -2.916109e-001 -9.183382e-001  1.632222e-003 -4.944078e-004  1.625265e-003 -5.003483e-004 -2.833204e-001 -9.216812e-001
4.2000000000e+008 -2.912879e-001 -9.175618e-001  1.701458e-003 -4.606410e-004  1.703602e-003 -4.581606e-004 -2.839916e-001 -9.200987e-001
4.2025000000e+008 -2.938970e-001 -9.174496e-001  1.672185e-003 -5.143761e-004  1.715946e-003 -5.297387e-004 -2.848609e-001 -9.206755e-001
4.2050000000e+008 -2.948089e-001 -9.166655e-001  1.705255e-003 -5.093948e-004  1.739660e-003 -5.360557e-004 -2.860731e-001 -9.199885e-001
4.2075000000e+008 -2.953433e-001 -9.163948e-001  1.766726e-003 -5.556902e-004  1.755364e-003 -5.276256e-004 -2.868308e-001 -9.197449e-001
4.2100000000e+008 -2.976027e-001 -9.151931e-001  1.727887e-003 -5.669114e-004  1.751852e-003 -5.357037e-004 -2.895709e-001 -9.200968e-001
4.2125000000e+008 -2.989835e-001 -9.149249e-001  1.744347e-003 -6.082016e-004  1.729020e-003 -6.297968e-004 -2.909709e-001 -9.194827e-001
4.2150000000e+008 -3.005816e-001 -9.137250e-001  1.689553e-003 -6.096753e-004  1.698315e-003 -6.030673e-004 -2.937637e-001 -9.183797e-001
4.2175000000e+008 -3.027205e-001 -9.131211e-001  1.693659e-003 -5.863484e-004  1.703195e-003 -5.831945e-004 -2.954507e-001 -9.176794e-001
4.2200000000e+008 -3.038206e-001 -9.125636e-001  1.703025e-003 -5.830936e-004  1.693911e-003 -5.805073e-004 -2.969724e-001 -9.164119e-001
4.2225000000e+008 -3.065065e-001 -9.107741e-001  1.711338e-003 -5.908036e-004  1.715826e-003 -5.745058e-004 -2.994106e-001 -9.156852e-001
4.2250000000e+008 -3.068351e-001 -9.085354e-001  1.666731e-003 -5.752463e-004  1.711503e-003 -5.955420e-004 -3.016869e-001 -9.134351e-001
4.2275000000e+008 -3.053462e-001 -9.065092e-001  1.691630e-003 -5.824408e-004  1.690668e-003 -5.738951e-004 -3.034140e-001 -9.110639e-001
4.2300000000e+008 -3.068756e-001 -9.102854e-001  1.748973e-003 -5.559553e-004  1.773327e-003 -5.651380e-004 -3.016368e-001 -9.091181e-001
4.2325000000e+008 -3.090051e-001 -9.082863e-001  1.730027e-003 -5.726190e-004  1.734808e-003 -5.792847e-004 -3.031680e-001 -9.088914e-001
4.2350000000e+008 -3.109576e-001 -9.093154e-001  1.782318e-003 -5.422678e-004  1.797171e-003 -5.472434e-004 -3.020029e-001 -9.085965e-001
4.2375000000e+008 -3.130781e-001 -9.103430e-001  1.815079e-003 -6.213245e-004  1.802623e-003 -6.179024e-004 -3.025344e-001 -9.098529e-001
4.2400000000e+008 -3.159652e-001 -9.075694e-001  1.799649e-003 -6.552401e-004  1.795818e-003 -6.475133e-004 -3.061594e-001 -9.098472e-001
4.2425000000e+008 -3.188781e-001 -9.077415e-001  1.848346e-003 -6.384463e-004  1.823115e-003 -6.586067e-004 -3.072959e-001 -9.096711e-001
4.2450000000e+008 -3.198584e-001 -9.053117e-001  1.820318e-003 -6.831444e-004  1.829178e-003 -6.653998e-004 -3.090810e-001 -9.080511e-001
4.2475000000e+008 -3.230406e-001 -9.037179e-001  1.847655e-003 -6.683736e-004  1.842473e-003 -6.828275e-004 -3.109152e-001 -9.077462e-001
4.2500000000e+008 -3.249592e-001 -9.012447e-001  1.818013e-003 -7.449361e-004  1.819998e-003 -7.211425e-004 -3.134021e-001 -9.075497e-001
4.2525000000e+008 -3.262334e-001 -8.957970e-001  1.776735e-003 -7.264896e-004  1.784957e-003 -7.250903e-004 -3.161756e-001 -9.053783e-001
4.2550000000e+008 -3.217696e-001 -8.927411e-001  1.759429e-003 -7.836921e-004  1.734772e-003 -7.799540e-004 -3.161915e-001 -9.013641e-001
4.2575000000e+008 -3.170043e-001 -8.979174e-001  1.766334e-003 -7.634230e-004  1.775295e-003 -7.587416e-004 -3.135889e-001 -9.000754e-001
4.2600000000e+008 -3.219951e-001 -8.992896e-001  1.774990e-003 -7.622321e-004  1.784156e-003 -7.841093e-004 -3.152030e-001 -9.031726e-001
4.2625000000e+008 -3.210918e-001 -8.994421e-001  1.756192e-003 -7.488980e-004  1.769524e-003 -7.576497e-004 -3.168579e-001 -9.017183e-001
4.2650000000e+008 -3.243844e-001 -9.011375e-001  1.813837e-003 -7.679532e-004  1.823461e-003 -7.823771e-004 -3.180009e-001 -9.032853e-001
4.2675000000e+008 -3.291266e-001 -9.021485e-001  1.766685e-003 -7.936612e-004  1.775796e-003 -7.901964e-004 -3.202180e-001 -9.041845e-001
4.2700000000e+008 -3.309677e-001 -9.005051e-001  1.758320e-003 -7.956963e-004  1.752916e-003 -8.015884e-004 -3.235648e-001 -9.022735e-001
4.2725000000e+008 -3.356570e-001 -8.983282e-001  1.769306e-003 -7.972125e-004  1.774027e-003 -8.130974e-004 -3.265487e-001 -9.022111e-001
4.2750000000e+008 -3.359615e-001 -8.972736e-001  1.753497e-003 -8.128679e-004  1.765961e-003 -8.435512e-004 -3.280101e-001 -8.997325e-001
4.2775000000e+008 -3.388219e-001 -8.941399e-001  1.789577e-003 -8.616656e-004  1.775305e-003 -8.363177e-004 -3.304125e-001 -8.983232e-001
4.2800000000e+008 -3.396437e-001 -8.914374e-001  1.753721e-003 -8.969808e-004  1.751593e-003 -8.946242e-004 -3.321245e-001 -8.953216e-001
4.2825000000e+008 -3.373632e-001 -8.878541e-001  1.736982e-003 -9.446110e-004  1.716002e-003 -9.490548e-004 -3.333950e-001 -8.902252e-001
4.2850000000e+008 -3.357562e-001 -8.891783e-001  1.573731e-003 -9.024680e-004  1.562694e-003 -9.142702e-004 -3.282591e-001 -8.877679e-001
4.2875000000e+008 -3.376628e-001 -8.932242e-001  1.612040e-003 -9.160471e-004  1.636523e-003 -9.160070e-004 -3.242392e-001 -8.919256e-001
4.2900000000e+008 -3.401074e-001 -8.906837e-001  1.582872e-003 -8.966326e-004  1.586497e-003 -8.916449e-004 -3.274824e-001 -8.939866e-001
4.2925000000e+008 -3.394008e-001 -8.939542e-001  1.578228e-003 -8.023263e-004  1.573206e-003 -7.960894e-004 -3.269558e-001 -8.956904e-001
4.2950000000e+008 -3.441666e-001 -8.936815e-001  1.598691e-003 -8.378163e-004  1.597383e-003 -8.172953e-004 -3.314905e-001 -8.984841e-001
4.2975000000e+008 -3.488885e-001 -8.920693e-001  1.608029e-003 -7.851961e-004  1.620194e-003 -8.049862e-004 -3.358723e-001 -8.987283e-001
4.3000000000e+008 -3.495914e-001 -8.906897e-001  1.614036e-003 -8.435745e-004  1.634478e-003 -8.556865e-004 -3.382121e-001 -8.970873e-001
4.3025000000e+008 -3.506213e-001 -8.857694e-001  1.615408e-003 -8.379276e-004  1.622354e-003 -8.521461e-004 -3.418344e-001 -8.950283e-001
4.3050000000e+008 -3.525702e-001 -8.871927e-001  1.605716e-003 -8.581412e-004  1.620316e-003 -8.432218e-004 -3.430690e-001 -8.944482e-001
4.3075000000e+008 -3.524126e-001 -8.826891e-001  1.560038e-003 -8.969812e-004  1.560814e-003 -9.015217e-004 -3.465813e-001 -8.925923e-001
4.3100000000e+008 -3.514245e-001 -8.835180e-001  1.509979e-003 -8.258027e-004  1.504753e-003 -8.378784e-004 -3.478736e-001 -8.898258e-001
4.3125000000e+008 -3.503766e-001 -8.855056e-001  1.538592e-003 -8.342451e-004  1.546385e-003 -8.613631e-004 -3.479197e-001 -8.857418e-001
4.3150000000e+008 -3.518822e-001 -8.875944e-001  1.523177e-003 -7.220080e-004  1.503797e-003 -7.401171e-004 -3.461113e-001 -8.866654e-001
4.3175000000e+008 -3.565438e-001 -8.881160e-001  1.520760e-003 -7.432649e-004  1.527736e-003 -7.345267e-004 -3.475838e-001 -8.879097e-001
4.3200000000e+008 -3.576098e-001 -8.877025e-001  1.499245e-003 -7.534759e-004  1.497839e-003 -7.451726e-004 -3.484497e-001 -8.862295e-001
4.3225000000e+008 -3.620926e-001 -8.885450e-001  1.549522e-003 -7.199753e-004  1.574533e-003 -7.415247e-004 -3.485402e-001 -8.886768e-001
4.3250000000e+008 -3.654420e-001 -8.862169e-001  1.566656e-003 -6.997460e-004  1.572000e-003 -7.234331e-004 -3.526085e-001 -8.887962e-001
4.3275000000e+008 -3.686416e-001 -8.826576e-001  1.600125e-003 -7.241810e-004  1.596145e-003 -7.213624e-004 -3.567636e-001 -8.872955e-001
4.3300000000e+008 -3.711000e-001 -8.812077e-001  1.526043e-003 -7.228662e-004  1.540061e-003 -7.207194e-004 -3.575444e-001 -8.858325e-001
4.3325000000e+008 -3.688133e-001 -8.778133e-001  1.553719e-003 -7.254902e-004  1.553207e-003 -7.311888e-004 -3.581539e-001 -8.819675e-001
4.3350000000e+008 -3.707339e-001 -8.759676e-001  1.520995e-003 -6.993210e-004  1.520179e-003 -7.006247e-004 -3.585354e-001 -8.828783e-001
4.3375000000e+008 -3.657087e-001 -8.755039e-001  1.586218e-003 -6.560422e-004  1.577334e-003 -6.371937e-004 -3.577340e-001 -8.808261e-001
4.3400000000e+008 -3.674070e-001 -8.780578e-001  1.561802e-003 -6.355876e-004  1.572821e-003 -6.353969e-004 -3.587660e-001 -8.836060e-001
4.3425000000e+008 -3.690741e-001 -8.804593e-001  1.645445e-003 -5.780775e-004  1.667485e-003 -5.832472e-004 -3.599232e-001 -8.846270e-001
4.3450000000e+008 -3.725846e-001 -8.824603e-001  1.665545e-003 -6.572651e-004  1.699327e-003 -6.550624e-004 -3.627017e-001 -8.858459e-001
4.3475000000e+008 -3.762328e-001 -8.808836e-001  1.711446e-003 -6.550120e-004  1.720581e-003 -6.544174e-004 -3.660268e-001 -8.853884e-001
4.3500000000e+008 -3.787886e-001 -8.814174e-001  1.721055e-003 -6.525201e-004  1.720923e-003 -6.682666e-004 -3.681553e-001 -8.851687e-001
4.3525000000e+008 -3.828233e-001 -8.805607e-001  1.746218e-003 -6.902392e-004  1.743535e-003 -6.939463e-004 -3.720626e-001 -8.850768e-001
4.3550000000e+008 -3.855197e-001 -8.786010e-001  1.714199e-003 -7.412777e-004  1.720471e-003 -7.249000e-004 -3.754376e-001 -8.835028e-001
4.3575000000e+008 -3.877367e-001 -8.765361e-001  1.758463e-003 -7.566162e-004  1.748873e-003 -7.486495e-004 -3.785202e-001 -8.817289e-001
