# Hz S RI R 50
80000000	0.925835787985911	-0.329413711544376	1.79214325043042E-04	2.06525509620924E-04			2.28083685955746E-04	2.81069433043792E-04	0.933637428215792	-0.346312221516575
80500000	0.926746824545114	-0.332031100224911	1.51863749443521E-04	2.70457970574626E-04			1.59600914780032E-04	3.03597325120848E-04	0.932161498416205	-0.349772882296801
81000000	0.924460610637537	-0.333602908733876	2.27013730721349E-04	3.08675922484809E-04			2.61867447282738E-04	3.39013216517416E-04	0.931116002076949	-0.351106916885983
81500000	0.921016103328152	-0.33557092307089	1.0310816892102E-04	3.02779905319819E-04			1.27098770584346E-04	3.41637744401381E-04	0.932860124268717	-0.353685593198296
82000000	0.921385029932218	-0.338973164325971	1.30002135993912E-04	2.49543006862081E-04			9.0301011781892E-05	3.65914117996124E-04	0.93091287803547	-0.354828760910207
82500000	0.918269314189401	-0.339770467985456	1.88608570115024E-04	3.74118847403142E-04			1.60971818036421E-04	3.35778787411655E-04	0.930976350651705	-0.359550287876654
83000000	0.919584153654676	-0.340362468686893	2.43109101844834E-04	2.00456476375637E-04			2.82939623921895E-04	2.17100869740551E-04	0.927492756256003	-0.358377750245175
83500000	0.918512033941227	-0.342671036055297	1.0032561550401E-04	3.46510700335853E-04			1.01223504670168E-04	2.74796488968349E-04	0.927952417320283	-0.36016710111545
84000000	0.916953869660203	-0.344471669877634	1.06416012571475E-04	4.01817177607551E-04			9.49379153019919E-05	3.80971673575663E-04	0.927629344704769	-0.364000401736745
84500000	0.917322159587099	-0.347008532173406	2.51459793673958E-04	3.40602179801685E-04			1.48689418405155E-04	2.67524762397979E-04	0.925251334939258	-0.363620616818821
85000000	0.918538066761546	-0.34716437516953	1.66340178329978E-04	3.46992822930078E-04			1.65672234513779E-04	3.00612756085887E-04	0.925203623495973	-0.366894471394121
85500000	0.915692125128211	-0.35053528464075	1.94693588359266E-04	2.26126999858534E-04			1.21649389334162E-04	2.2877232212775E-04	0.926152644770078	-0.370204290395565
86000000	0.916227780907185	-0.352411167872158	1.50028854496516E-04	3.68627248123241E-04			2.46965303701803E-04	3.99861509795535E-04	0.923537636932307	-0.372099333941427
86500000	0.913348060690452	-0.354139864465284	1.82815417767305E-04	3.22740264652425E-04			2.12984842396781E-04	3.23141970189501E-04	0.924622282789758	-0.373285080528898
87000000	0.912492200152095	-0.356639750502122	6.05847055720673E-05	2.70164664673801E-04			1.03262049405723E-04	2.4700285222096E-04	0.923627600799915	-0.374480119282502
87500000	0.913730047242247	-0.356505612477926	2.12574544794754E-04	3.93822290769152E-04			2.09504284717509E-04	3.91615870025503E-04	0.921648015399936	-0.376873069277532
88000000	0.910989863562584	-0.360126128388646	1.79330300968278E-04	2.90800191270045E-04			1.02627829531114E-04	3.77177814871394E-04	0.920445203317872	-0.378782608543676
88500000	0.910217689227656	-0.361093716239921	2.43854773201247E-04	3.34329075015553E-04			1.90377855446311E-04	3.52648062922583E-04	0.920655632600397	-0.382102590579566
89000000	0.90905389991689	-0.36400707611727	1.80511845949578E-04	3.09437814062971E-04			1.51711031876204E-04	2.48323954473735E-04	0.918855959980693	-0.384066962029358
89500000	0.910057610605813	-0.366897183338442	1.26702131779108E-04	3.24284331331901E-04			2.01138654801195E-04	3.01193878370408E-04	0.919078453369148	-0.385476555871851
90000000	0.90783145955455	-0.366701803532714	1.226838557631E-04	4.25097022648055E-04			1.83015427185378E-04	4.01169155864887E-04	0.917721041320561	-0.38736236407715
90500000	0.907070752693202	-0.368323515551939	1.66578572620047E-04	3.59056461798951E-04			2.12775417710725E-04	2.96761679578964E-04	0.915662528243968	-0.390205969199109
91000000	0.905653509415388	-0.371646354904024	1.20754236912748E-04	4.43149262930893E-04			1.59310092208028E-04	4.19049263591503E-04	0.917140431904849	-0.392460330003162
91500000	0.905319147135626	-0.372701376876525	1.55620075525284E-04	3.22215978057901E-04			1.95605770530902E-04	3.33184669537034E-04	0.915166041897445	-0.394390336397019
92000000	0.904668034439032	-0.373488171852302	2.05650711445181E-04	2.27001250926567E-04			1.83327266534657E-04	2.17819686391939E-04	0.913128838571378	-0.394994436836946
92500000	0.904587040239944	-0.376310742509411	1.62919406733344E-04	3.62928944992538E-04			1.49534370319426E-04	3.61830140827586E-04	0.915037831855361	-0.397847970770972
93000000	0.902028415030677	-0.377232118534593	2.22633550713715E-04	2.78826693660249E-04			2.07837372562066E-04	1.7336367220862E-04	0.912037220363686	-0.399968862063621
93500000	0.903647067524099	-0.378890324068352	1.48240247948312E-04	4.1200385249123E-04			1.89820284762133E-04	3.12093472946701E-04	0.911408690536166	-0.400703878973119
94000000	0.901587086227787	-0.380731537307132	2.29132408633397E-04	3.80709561489798E-04			2.12887382042225E-04	4.02077715091048E-04	0.909923779959732	-0.403163287092213
94500000	0.899785724068624	-0.383390762167178	1.49954292566947E-04	4.1541211103215E-04			1.54429878366206E-04	3.2803635260539E-04	0.908719530351769	-0.404575740258143
95000000	0.900934611599157	-0.383608287973517	1.88678083049627E-04	3.29653905264744E-04			2.09934705647776E-04	3.47750847849932E-04	0.908734499293116	-0.40730656659501
95500000	0.898448749255484	-0.387157535405862	2.77755768060815E-04	3.21247602032848E-04			1.46925466957138E-04	3.84094851309926E-04	0.908013312139378	-0.409621019195868
96000000	0.898789631362884	-0.389195196109517	1.88106477614629E-04	3.05582611501505E-04			1.29962473773946E-04	3.46153670306408E-04	0.909344365276211	-0.412308251062256
96500000	0.898760597654022	-0.389918618692438	2.60363084889482E-04	4.52728939118125E-04			3.05402591387823E-04	3.53065016687511E-04	0.908454506251305	-0.412909255803405
97000000	0.896363335310879	-0.391410226809176	1.87827244457121E-04	2.72052795348387E-04			1.18868752717591E-04	3.41153357824822E-04	0.905527845904518	-0.415676068979086
97500000	0.895879624395483	-0.394482151550347	1.72327754505116E-04	2.56349025340932E-04			1.69548998945686E-04	3.47841693058154E-04	0.903436308520144	-0.417416321854851
98000000	0.895618494440591	-0.396018396211137	7.68962806968637E-05	3.22002097538765E-04			1.51345657988678E-04	2.02882998765514E-04	0.904040812174055	-0.419488833832614
98500000	0.893342748092117	-0.397140479003297	1.63983901172143E-04	3.93358560732495E-04			1.84849999032685E-04	3.53384672700076E-04	0.903447004365764	-0.422625381965986
99000000	0.892137080602977	-0.399132323249599	2.3026973713103E-04	2.21700917432891E-04			1.58360117175229E-04	3.03773193212694E-04	0.902907745119852	-0.424210422125424
99500000	0.89263829404041	-0.401415710751327	2.52727826357049E-04	2.71624567387612E-04			2.76462538732631E-04	3.16824416626651E-04	0.898951959255121	-0.424527347449854
100000000	0.891516048104205	-0.401625994868624	2.27026605124252E-04	3.87356870963056E-04			1.91522516818736E-04	3.81567480534204E-04	0.899216249510482	-0.427228326300988
100500000	0.890332802484838	-0.40541138357272	1.66875707769964E-04	4.08257628249147E-04			1.72755291097135E-04	4.03610193740661E-04	0.897269113442825	-0.42931426778157
101000000	0.888095755177321	-0.406064692452356	2.35087218855164E-04	3.1454836410355E-04			2.01111166802871E-04	3.26195999208149E-04	0.895840459790028	-0.431900240652547
101500000	0.886866968954217	-0.406982912001548	1.58178687008721E-04	2.73942531610255E-04			1.95103064911383E-04	3.23026601560037E-04	0.896576625144618	-0.43412108288372
102000000	0.886247664705309	-0.409943665264653	2.5529161649648E-04	3.75447300040857E-04			2.23303536388169E-04	3.481339674916E-04	0.895386153793036	-0.435006886354057
102500000	0.886685969111232	-0.411430664958875	1.79614553422825E-04	2.65418611353413E-04			1.65830146061615E-04	2.65077229202498E-04	0.893880521284786	-0.436820809292073
103000000	0.88499072706558	-0.413787909108297	2.28163766777425E-04	3.26187735334879E-04			3.14888496465086E-04	2.59671799160547E-04	0.892787672290812	-0.438320577992055
103500000	0.885646815670012	-0.414470425075243	2.09618487107121E-04	3.75596261871992E-04			2.11347112443805E-04	2.86310542908612E-04	0.893370619726794	-0.441946941159841
104000000	0.882490741447941	-0.417539640693833	2.15615265464035E-04	4.05140892095467E-04			8.41648794578878E-05	3.33538125283625E-04	0.890916696815648	-0.442273389369572
104500000	0.88337806011469	-0.418906287467161	2.1741983244485E-04	3.1705771250942E-04			1.46189717289945E-04	3.31611201095981E-04	0.891630779421256	-0.445961282882444
105000000	0.881886031536994	-0.420759472835363	2.11437136090672E-04	3.81699533727648E-04			1.82514206868335E-04	3.55627256838798E-04	0.889966506740678	-0.446720913735303
105500000	0.879541534502353	-0.421783737239551	2.14545371727541E-04	3.38644659009314E-04			2.75632479170209E-04	4.03318964764117E-04	0.887180254431841	-0.448332516980128
106000000	0.879129904262489	-0.423312740116636	2.1288582754329E-04	2.68998239199952E-04			1.99432625224465E-04	3.14437883840094E-04	0.887178476848204	-0.451717477365238
106500000	0.879587429343237	-0.425596921556281	2.81718290638658E-04	3.66515913308981E-04			1.30583261893518E-04	3.81791670211683E-04	0.887274539111762	-0.454602714817985
107000000	0.877780774554921	-0.428272688592954	2.44731623411406E-04	4.34543586617635E-04			2.78356249739603E-04	4.71663502518287E-04	0.88551661362119	-0.455773740284198
107500000	0.877575187121411	-0.428547713095315	2.67011628092363E-04	3.74161288331978E-04			2.62883863097467E-04	3.44969793508461E-04	0.88402165476911	-0.457198513496363
108000000	0.875712726272293	-0.430805280418773	2.9242834701897E-04	3.62205561056796E-04			2.40864074794136E-04	3.64988841217106E-04	0.882984298075007	-0.459476882255554
108500000	0.875035360552787	-0.433261908870132	2.72338238335055E-04	3.951110606911E-04			1.9108211666535E-04	3.116477670389E-04	0.883701841825163	-0.462722909238605
109000000	0.871101194793083	-0.435779603654674	2.61438504700829E-04	3.52225726035194E-04			2.67818093034978E-04	4.7527583591576E-04	0.881572392229184	-0.463930607748251
109500000	0.870701788136502	-0.436817687276053	3.23479932488142E-04	2.48840203946272E-04			2.35391499582953E-04	2.81839383111998E-04	0.880564369447628	-0.464506279711054
110000000	0.868461063733904	-0.438354738503948	2.76293777280289E-04	3.49507977264599E-04			2.61868936198451E-04	3.34512578640331E-04	0.879621298613472	-0.46886830425902
110500000	0.869685041644949	-0.437345022850295	2.46890911941723E-04	4.86923796705875E-04			2.76004353966234E-04	4.6259964306549E-04	0.878230899190454	-0.46904564375544
111000000	0.870145057756434	-0.440909654858295	3.25753843885549E-04	4.22374149098834E-04			3.16603689824832E-04	3.85927156097029E-04	0.877361918959156	-0.470836596186663
111500000	0.867416128329994	-0.44283088099972	4.22902884382663E-04	3.76890132921336E-04			3.62667606477568E-04	3.88105728920516E-04	0.87522813005373	-0.473827686050684
112000000	0.866938993985041	-0.44390433907019	2.92485886387648E-04	3.94735028821858E-04			2.61559240061518E-04	2.89719828591724E-04	0.876099173403502	-0.474826502269672
112500000	0.866183247818036	-0.44726412543176	2.12987507429533E-04	3.4837638796654E-04			2.63234657508419E-04	3.53597486878256E-04	0.873360871586797	-0.47559751356578
113000000	0.864326212579217	-0.446707186615699	3.5613312597156E-04	3.61145907151085E-04			4.42870508505977E-04	3.96109761188534E-04	0.871391359000281	-0.477455978718671
113500000	0.865102631537945	-0.449766102482742	1.17061878520109E-04	3.24568146604264E-04			1.52963796884858E-04	3.25962610809884E-04	0.872035013214636	-0.480374413198482
114000000	0.862666414916731	-0.450150369794495	3.66432844370318E-04	4.45394722294266E-04			3.4760608627937E-04	3.18506428749405E-04	0.86928178371838	-0.482091897056935
114500000	0.861215555379034	-0.452903266370117	3.76729427501516E-04	3.35106740826047E-04			4.10340702084948E-04	3.53659559220442E-04	0.870330269022213	-0.483977219702101
115000000	0.860929691926435	-0.45354221839368	2.62556608175799E-04	3.62145916287824E-04			2.58547917147397E-04	3.89190387359923E-04	0.868667557762893	-0.484864025506546
115500000	0.859434115307631	-0.457311288981994	2.51902934656653E-04	2.81315586274817E-04			2.299328078825E-04	3.68768212985251E-04	0.866694848793266	-0.487809772222972
116000000	0.858873514813525	-0.458888814441302	2.76886391768812E-04	3.7798649333797E-04			2.38564932180107E-04	3.74325923801227E-04	0.865612371442068	-0.490564650405268
116500000	0.85854966161013	-0.460248621117264	3.62912669834464E-04	4.50334466147758E-04			3.38993563056933E-04	3.66722938381824E-04	0.864931919419924	-0.492789500386108
117000000	0.856365749975853	-0.460443393903575	2.71981014788493E-04	3.90608207380126E-04			2.11219710376707E-04	3.5223829542652E-04	0.863946233765983	-0.49235187458618
117500000	0.854091225033077	-0.462983653848945	2.8057459530771E-04	4.19877633419036E-04			2.7662515601183E-04	4.67295225666896E-04	0.863005034297132	-0.496054431674568
118000000	0.852871836189261	-0.465144798927489	3.61010162377429E-04	3.98178269131078E-04			3.68239127998653E-04	4.09906804524363E-04	0.864130148507428	-0.497864097092652
118500000	0.853437063094622	-0.467215793545842	1.82864975178472E-04	3.78803163678448E-04			2.57775296706003E-04	3.53733119046583E-04	0.859083380473697	-0.500376965323954
119000000	0.852008290773638	-0.468150158105048	2.74697406546461E-04	3.88996516720023E-04			2.06672442683494E-04	4.3088215048063E-04	0.858276277969418	-0.502009523354824
119500000	0.848816276226179	-0.468242624970895	3.03520839313122E-04	2.75686415761025E-04			2.50244625832079E-04	2.75368412735096E-04	0.858472344128276	-0.503236989896831
120000000	0.848919997274109	-0.469753363441024	1.96735519115516E-04	4.18086450102456E-04			2.17813231524954E-04	4.18314845255966E-04	0.8573541711643	-0.503340824131556
120500000	0.85050642185503	-0.473617280636707	2.93669196602818E-04	2.73785629113183E-04			2.92684439127051E-04	3.08341372148799E-04	0.857087767952187	-0.505419778394416
121000000	0.847784871102335	-0.476447414202352	2.82831732652809E-04	4.94770095348898E-04			3.42832526535628E-04	4.41987705139103E-04	0.854511879628784	-0.508462440600912
121500000	0.84723269021105	-0.47753309875129	3.62686105790405E-04	3.30460065769768E-04			2.33194869987791E-04	3.9124524272409E-04	0.852190351457575	-0.509364922156513
122000000	0.844279412979962	-0.477746157324925	1.79524393433893E-04	4.25760167077693E-04			2.40555776079536E-04	4.17843692934622E-04	0.853460185263731	-0.51199776940017
122500000	0.844734039940463	-0.48202419524291	3.02043322949604E-04	4.02299374045884E-04			4.08421277720738E-04	4.30570875280394E-04	0.850817872740153	-0.514163146894812
123000000	0.843579470172312	-0.480814352057581	2.51584963944458E-04	4.55611097915589E-04			3.44735137668571E-04	4.19581928125411E-04	0.850151663322622	-0.51581839091252
123500000	0.843047520366288	-0.48131373760523	2.3947556926331E-04	4.27096417044958E-04			2.74804145521614E-04	3.78407866416075E-04	0.85016893557032	-0.517481506989247
124000000	0.842018308653867	-0.483261285123659	2.16073786094281E-04	3.46012525643524E-04			2.88360801503742E-04	4.07709456367743E-04	0.851297379347476	-0.518728735143479
124500000	0.839301040611034	-0.486482559309538	8.41073151196854E-05	6.41439704740773E-04			9.61400956727756E-05	5.25539914922827E-04	0.845904724872391	-0.521116267646029
125000000	0.839615971329414	-0.487373448787314	4.0729466857882E-04	3.83695937627218E-04			3.46721591104113E-04	3.61142789100253E-04	0.846732428762169	-0.523273163833067
125500000	0.838430851653401	-0.489440855354551	2.39140505533789E-04	3.75998091376395E-04			2.43374710595484E-04	3.8517739491445E-04	0.846248924915744	-0.525338777367353
126000000	0.839928390284135	-0.492463117142945	3.22382774163749E-04	3.53588435528077E-04			2.78026666677885E-04	3.76621559101034E-04	0.845145392928601	-0.527820639646018
126500000	0.836724679657772	-0.492787655106815	2.96638564186349E-04	4.60732606464629E-04			3.02428411187498E-04	4.9524449964701E-04	0.843549929595136	-0.531105350135522
127000000	0.835066483091447	-0.495947431795822	2.604256276376E-04	3.85611596662583E-04			2.11994536864532E-04	3.08909709380542E-04	0.842939019004901	-0.531721074199274
127500000	0.833120866643791	-0.494069990150578	3.37720726883169E-04	3.74456813019205E-04			3.24861933708744E-04	4.1585685993276E-04	0.839644099946814	-0.532477891440372
128000000	0.831117296223224	-0.498150975480126	1.45467393408559E-04	3.4881761315187E-04			7.23984406138244E-05	3.12352281623824E-04	0.838194724906675	-0.534976313730234
128500000	0.829586435117684	-0.499539053959145	3.0397265057022E-04	4.04677070450911E-04			3.20003959118149E-04	3.95354319911475E-04	0.837097948928079	-0.536032633700908
129000000	0.831052361950764	-0.501961179926954	2.05754334878691E-04	4.83806435983885E-04			2.14879390373706E-04	3.80514915510825E-04	0.836775365041674	-0.538070783577835
129500000	0.827934903709733	-0.503305966051816	3.52655042481122E-04	3.67079166807272E-04			3.08912622954663E-04	4.27819424325543E-04	0.836481451789716	-0.541419364586941
130000000	0.826369569246642	-0.503213481302697	3.0776348201462E-04	3.8913163760344E-04			2.75088432848009E-04	3.97795415131527E-04	0.835759232239989	-0.542912841327741
130500000	0.826990940212927	-0.503897945914246	3.551308391457E-04	3.35018412944244E-04			2.96362071483814E-04	3.72441744639029E-04	0.833583927548282	-0.544929736158932
131000000	0.82559275497342	-0.507060364535583	3.11066954839424E-04	4.04662364402426E-04			3.53959766174841E-04	3.68755309639038E-04	0.833068980308744	-0.543967402321568
131500000	0.824947250522636	-0.508131193143143	3.21075608825654E-04	3.42637236433406E-04			2.70698405061283E-04	3.97783007069919E-04	0.830166099970995	-0.54888512743479
132000000	0.824840872309821	-0.511992819731684	3.0388979086399E-04	4.12894434903783E-04			3.69318905513972E-04	3.94899755092953E-04	0.829288976284391	-0.550523980010476
132500000	0.82307640186381	-0.512899233329635	3.17602541050433E-04	3.83436272563122E-04			2.8427891662746E-04	3.99068842929113E-04	0.829157820588851	-0.551325257889773
133000000	0.822312996592667	-0.514892821917808	3.68667643205829E-04	3.93730786980053E-04			3.46335020592107E-04	3.70531624018959E-04	0.827004206876396	-0.55269389874244
133500000	0.821407273658147	-0.515892130150257	3.5279681141069E-04	4.11110253247504E-04			2.97426017292289E-04	3.96888202238736E-04	0.827006065391226	-0.555681077728474
134000000	0.820124543502931	-0.516546748319928	3.67335825121212E-04	4.28966583036992E-04			3.81427154966369E-04	4.82795203352615E-04	0.823949677484818	-0.557426890586042
134500000	0.817801022417261	-0.519641231074373	2.8648604707594E-04	3.8622010657399E-04			3.13167993427166E-04	4.20017223623187E-04	0.823088875395671	-0.55817470642207
135000000	0.819023430200458	-0.522159546423111	3.96713851072323E-04	3.58890443995068E-04			2.9055265864671E-04	3.93247064203084E-04	0.822973242618839	-0.561108072737871
135500000	0.815186549848798	-0.523108876775964	3.8931327444653E-04	4.3442963138507E-04			3.0192075237794E-04	3.9449266033821E-04	0.822179953027809	-0.561673663106079
136000000	0.817011296963687	-0.524107595084862	3.81244857259944E-04	3.42643882049564E-04			3.56650709634001E-04	4.08980745301047E-04	0.818273446269906	-0.561993655287598
136500000	0.815573031931307	-0.525265942479299	3.01361668947943E-04	4.47351149133846E-04			3.08148612563026E-04	4.51909204657211E-04	0.816860454494127	-0.563448070731559
137000000	0.812467218032726	-0.52601594672278	3.14743941459979E-04	4.12293037780335E-04			3.57172098393066E-04	4.39475974087641E-04	0.817231362171442	-0.56762077281439
137500000	0.810212027794668	-0.529943253760592	2.89694044964812E-04	4.82267852444971E-04			3.2286247607993E-04	4.10660452111672E-04	0.81549378250217	-0.567931260607242
138000000	0.81024199615603	-0.529005293073314	4.22685505116558E-04	4.52923909040865E-04			4.3154654160642E-04	4.68648837384204E-04	0.812802368219686	-0.57126584446692
138500000	0.810199322463315	-0.531705299956378	3.33375369417929E-04	4.06526605771126E-04			2.78923309772819E-04	3.99611470234933E-04	0.814369615862738	-0.57461322255365
