!Agilent Technologies,E5071C,MY46104097,A.08.12
!Date: Fri Jul 28 11:34:44 2017
!Data & Calibration Information:
!Freq	S11:SOLT2(ON)	S21:SOLT2(ON)	S12:SOLT2(ON)	S22:SOLT2(ON)
# Hz S RI R 50
822500000	5.046861e-001	-8.231555e-001	3.821499e-003	2.771054e-003	3.596850e-003	2.484590e-003	3.590022e-001	-8.988917e-001
823000000	5.050323e-001	-8.234856e-001	3.672741e-003	2.796360e-003	3.578081e-003	2.916577e-003	3.595642e-001	-8.986269e-001
823500000	5.034643e-001	-8.231391e-001	3.378937e-003	2.631548e-003	3.469503e-003	2.819866e-003	3.578907e-001	-8.995738e-001
824000000	5.020891e-001	-8.233151e-001	3.304570e-003	2.663778e-003	3.452912e-003	2.832609e-003	3.559589e-001	-8.994817e-001
824500000	5.028659e-001	-8.240201e-001	3.168218e-003	3.138455e-003	3.020352e-003	2.995732e-003	3.567356e-001	-8.998996e-001
825000000	5.009565e-001	-8.221981e-001	2.782824e-003	3.474752e-003	2.717248e-003	3.292914e-003	3.543500e-001	-8.991575e-001
825500000	5.001705e-001	-8.236334e-001	2.613421e-003	3.544807e-003	2.722513e-003	3.501479e-003	3.546605e-001	-8.994018e-001
826000000	4.997746e-001	-8.253913e-001	2.925330e-003	3.359099e-003	2.863413e-003	3.689189e-003	3.533940e-001	-8.990232e-001
826500000	5.006877e-001	-8.239725e-001	3.200445e-003	3.740623e-003	3.123171e-003	3.892956e-003	3.540338e-001	-8.974731e-001
827000000	5.000619e-001	-8.248931e-001	3.112051e-003	3.908786e-003	3.164456e-003	4.068697e-003	3.539236e-001	-8.977133e-001
827500000	4.976373e-001	-8.248956e-001	3.356653e-003	4.314872e-003	3.063529e-003	4.055628e-003	3.532657e-001	-8.994823e-001
828000000	4.958397e-001	-8.242668e-001	3.239070e-003	4.326907e-003	3.305451e-003	4.465656e-003	3.516856e-001	-8.983355e-001
828500000	4.956289e-001	-8.239423e-001	3.674558e-003	4.208113e-003	3.447148e-003	4.396984e-003	3.514276e-001	-8.973625e-001
829000000	4.977080e-001	-8.252293e-001	3.319148e-003	4.621897e-003	3.166345e-003	4.443518e-003	3.521161e-001	-8.990946e-001
829500000	4.947199e-001	-8.262336e-001	3.403589e-003	5.024562e-003	3.597544e-003	4.873900e-003	3.515228e-001	-8.986571e-001
830000000	4.964565e-001	-8.236063e-001	4.014794e-003	5.729128e-003	3.706526e-003	5.556800e-003	3.512590e-001	-8.969935e-001
830500000	4.958976e-001	-8.242216e-001	3.731534e-003	5.159664e-003	3.715604e-003	5.452885e-003	3.524239e-001	-8.981882e-001
831000000	4.941274e-001	-8.273508e-001	3.727504e-003	5.259808e-003	3.844624e-003	5.122626e-003	3.512475e-001	-8.976962e-001
831500000	4.939032e-001	-8.233537e-001	4.164389e-003	4.980484e-003	4.082617e-003	5.274282e-003	3.505536e-001	-8.982982e-001
832000000	4.950549e-001	-8.250891e-001	4.516698e-003	5.334004e-003	4.519785e-003	5.471398e-003	3.506425e-001	-8.978351e-001
832500000	4.949454e-001	-8.259085e-001	4.287251e-003	5.553596e-003	4.543483e-003	5.429862e-003	3.492966e-001	-8.979306e-001
833000000	4.941038e-001	-8.260783e-001	4.862090e-003	5.489707e-003	4.509288e-003	5.774380e-003	3.489296e-001	-9.005605e-001
833500000	4.923362e-001	-8.276560e-001	5.095538e-003	5.315749e-003	5.001644e-003	5.291621e-003	3.484015e-001	-9.002611e-001
834000000	4.940324e-001	-8.264038e-001	5.355672e-003	4.969704e-003	5.421238e-003	5.124210e-003	3.492159e-001	-9.002304e-001
834500000	4.930466e-001	-8.260283e-001	5.616529e-003	4.998715e-003	5.720409e-003	4.905917e-003	3.478499e-001	-9.039169e-001
835000000	4.939427e-001	-8.283467e-001	6.038951e-003	4.938008e-003	5.985226e-003	4.815958e-003	3.481113e-001	-9.031307e-001
835500000	4.915448e-001	-8.283862e-001	6.039467e-003	4.530513e-003	5.779807e-003	4.990747e-003	3.476040e-001	-9.037431e-001
836000000	4.930413e-001	-8.298813e-001	6.016529e-003	4.237307e-003	6.041784e-003	4.181445e-003	3.460079e-001	-9.027848e-001
836500000	4.919885e-001	-8.294214e-001	5.895756e-003	4.030156e-003	6.116485e-003	4.325843e-003	3.443436e-001	-9.037703e-001
837000000	4.899502e-001	-8.311720e-001	5.661155e-003	3.952885e-003	5.942279e-003	4.090399e-003	3.424944e-001	-9.031370e-001
837500000	4.894803e-001	-8.306403e-001	5.952532e-003	4.083208e-003	6.059539e-003	4.051787e-003	3.424881e-001	-9.023812e-001
838000000	4.885918e-001	-8.285596e-001	6.201250e-003	3.883060e-003	5.958378e-003	3.754577e-003	3.439426e-001	-9.045339e-001
838500000	4.881758e-001	-8.297386e-001	5.921899e-003	3.760646e-003	5.845993e-003	3.752547e-003	3.427589e-001	-9.026740e-001
839000000	4.896470e-001	-8.308191e-001	6.060073e-003	3.476198e-003	5.888177e-003	3.686970e-003	3.423296e-001	-9.057021e-001
839500000	4.883022e-001	-8.324141e-001	6.221405e-003	3.480357e-003	5.955129e-003	3.344976e-003	3.430119e-001	-9.066176e-001
840000000	4.869016e-001	-8.334796e-001	5.736163e-003	3.338575e-003	5.876964e-003	3.624386e-003	3.395604e-001	-9.069865e-001
840500000	4.860314e-001	-8.329866e-001	5.870357e-003	3.349720e-003	5.964647e-003	3.400412e-003	3.411020e-001	-9.041856e-001
841000000	4.864233e-001	-8.322037e-001	6.148889e-003	3.234014e-003	5.671051e-003	3.423047e-003	3.379727e-001	-9.067197e-001
841500000	4.863757e-001	-8.340340e-001	5.741054e-003	3.109807e-003	5.765639e-003	3.260205e-003	3.377772e-001	-9.063082e-001
842000000	4.863618e-001	-8.317373e-001	5.660142e-003	3.229334e-003	5.760564e-003	3.307960e-003	3.388076e-001	-9.064803e-001
842500000	4.848282e-001	-8.342661e-001	5.594185e-003	3.333074e-003	5.436597e-003	3.224892e-003	3.362265e-001	-9.062143e-001
843000000	4.831755e-001	-8.332739e-001	5.489829e-003	3.037432e-003	5.744357e-003	3.068813e-003	3.349957e-001	-9.072382e-001
843500000	4.850885e-001	-8.329335e-001	5.744416e-003	3.032578e-003	5.652972e-003	3.105506e-003	3.356733e-001	-9.063007e-001
844000000	4.808400e-001	-8.345608e-001	5.609883e-003	3.205923e-003	5.493054e-003	3.040561e-003	3.341776e-001	-9.056007e-001
844500000	4.825373e-001	-8.349911e-001	5.367776e-003	3.214765e-003	5.649424e-003	3.027356e-003	3.342589e-001	-9.072965e-001
845000000	4.807710e-001	-8.365771e-001	5.394870e-003	3.114376e-003	5.459897e-003	2.979757e-003	3.341084e-001	-9.072329e-001
845500000	4.799540e-001	-8.348818e-001	5.441207e-003	2.900549e-003	5.389545e-003	3.171356e-003	3.330765e-001	-9.078622e-001
846000000	4.792393e-001	-8.355823e-001	5.429513e-003	3.166611e-003	5.617454e-003	3.068833e-003	3.317243e-001	-9.080460e-001
846500000	4.787317e-001	-8.341411e-001	5.618195e-003	2.977285e-003	5.685827e-003	3.002926e-003	3.318304e-001	-9.071906e-001
847000000	4.807825e-001	-8.352732e-001	5.480264e-003	2.989501e-003	5.573464e-003	3.020115e-003	3.316415e-001	-9.074576e-001
847500000	4.787310e-001	-8.354584e-001	5.354767e-003	3.054472e-003	5.424027e-003	2.828223e-003	3.317380e-001	-9.090636e-001
848000000	4.789424e-001	-8.376175e-001	5.327595e-003	2.919215e-003	5.416058e-003	2.953007e-003	3.299271e-001	-9.098726e-001
848500000	4.768550e-001	-8.362592e-001	5.495080e-003	3.105170e-003	5.474723e-003	2.798240e-003	3.299625e-001	-9.076380e-001
849000000	4.770786e-001	-8.363885e-001	5.012867e-003	2.909215e-003	5.467551e-003	2.907805e-003	3.289386e-001	-9.092265e-001
849500000	4.766191e-001	-8.367694e-001	5.246220e-003	2.880031e-003	5.299759e-003	2.929135e-003	3.262173e-001	-9.092031e-001
850000000	4.757655e-001	-8.367470e-001	5.262221e-003	2.839901e-003	5.367574e-003	3.104621e-003	3.288119e-001	-9.096080e-001
850500000	4.760125e-001	-8.392193e-001	5.033418e-003	3.028976e-003	5.212163e-003	2.780195e-003	3.265147e-001	-9.114098e-001
851000000	4.747605e-001	-8.373207e-001	5.481467e-003	2.890599e-003	5.156386e-003	2.847467e-003	3.266210e-001	-9.097724e-001
851500000	4.730040e-001	-8.391707e-001	5.309429e-003	3.015750e-003	5.243518e-003	2.844292e-003	3.274654e-001	-9.096129e-001
852000000	4.729893e-001	-8.376785e-001	5.290748e-003	2.760221e-003	5.338276e-003	2.875311e-003	3.253220e-001	-9.107405e-001
852500000	4.728502e-001	-8.395566e-001	5.252079e-003	2.806473e-003	5.263379e-003	2.879338e-003	3.252058e-001	-9.098528e-001
853000000	4.714856e-001	-8.402424e-001	5.161478e-003	2.913134e-003	5.347383e-003	2.967482e-003	3.243306e-001	-9.108903e-001
853500000	4.728081e-001	-8.404029e-001	5.364203e-003	2.787406e-003	5.325761e-003	2.927833e-003	3.231633e-001	-9.111564e-001
854000000	4.719714e-001	-8.413198e-001	5.271868e-003	2.801054e-003	5.242983e-003	3.008883e-003	3.223386e-001	-9.119397e-001
854500000	4.698018e-001	-8.417304e-001	5.507217e-003	2.867856e-003	5.283911e-003	2.747059e-003	3.215721e-001	-9.105497e-001
855000000	4.694232e-001	-8.411733e-001	5.386832e-003	2.731634e-003	5.314077e-003	2.759453e-003	3.196698e-001	-9.106369e-001
855500000	4.702827e-001	-8.397527e-001	5.486979e-003	2.691094e-003	5.432209e-003	2.729490e-003	3.211357e-001	-9.093643e-001
856000000	4.685517e-001	-8.411375e-001	5.465534e-003	2.387110e-003	5.427355e-003	2.648615e-003	3.186617e-001	-9.103386e-001
856500000	4.669340e-001	-8.407762e-001	5.444726e-003	2.370893e-003	5.461157e-003	2.588484e-003	3.202585e-001	-9.112602e-001
857000000	4.680856e-001	-8.412154e-001	5.114894e-003	2.597287e-003	5.264654e-003	2.654665e-003	3.193462e-001	-9.122618e-001
857500000	4.665551e-001	-8.418118e-001	5.444218e-003	2.448543e-003	5.365612e-003	2.529802e-003	3.188036e-001	-9.117126e-001
858000000	4.652084e-001	-8.411569e-001	5.396877e-003	2.295596e-003	5.278523e-003	2.386067e-003	3.184567e-001	-9.124723e-001
858500000	4.657299e-001	-8.417260e-001	5.044658e-003	2.499701e-003	5.223170e-003	2.233277e-003	3.147841e-001	-9.120475e-001
859000000	4.637900e-001	-8.418100e-001	4.979452e-003	2.451094e-003	5.152994e-003	2.382060e-003	3.156734e-001	-9.124562e-001
859500000	4.639168e-001	-8.425409e-001	5.002165e-003	2.161439e-003	5.075689e-003	2.304905e-003	3.158512e-001	-9.134463e-001
860000000	4.634125e-001	-8.427940e-001	4.962196e-003	1.904708e-003	5.060804e-003	2.106169e-003	3.157271e-001	-9.117515e-001
860500000	4.627117e-001	-8.434137e-001	5.091654e-003	2.260394e-003	5.044365e-003	2.200624e-003	3.139129e-001	-9.119257e-001
861000000	4.626846e-001	-8.435036e-001	4.781409e-003	2.037569e-003	5.036169e-003	1.944080e-003	3.140442e-001	-9.124901e-001
861500000	4.621254e-001	-8.435674e-001	4.600952e-003	1.936018e-003	4.742650e-003	2.092617e-003	3.133134e-001	-9.132988e-001
862000000	4.609167e-001	-8.439598e-001	4.662472e-003	2.247174e-003	4.642721e-003	2.293356e-003	3.122562e-001	-9.121900e-001
862500000	4.608302e-001	-8.447076e-001	4.585435e-003	2.429115e-003	4.483057e-003	2.244423e-003	3.115211e-001	-9.123369e-001
863000000	4.578034e-001	-8.448075e-001	4.493253e-003	2.208854e-003	4.525604e-003	2.405199e-003	3.121828e-001	-9.136705e-001
863500000	4.598911e-001	-8.458236e-001	4.529580e-003	2.355843e-003	4.334431e-003	2.321044e-003	3.099406e-001	-9.146677e-001
864000000	4.582453e-001	-8.451217e-001	4.294484e-003	2.445748e-003	4.451087e-003	2.327222e-003	3.091855e-001	-9.131480e-001
864500000	4.596531e-001	-8.441737e-001	4.405725e-003	2.567374e-003	4.382927e-003	2.446960e-003	3.090145e-001	-9.140761e-001
865000000	4.581466e-001	-8.460618e-001	4.368996e-003	2.490565e-003	4.384056e-003	2.384110e-003	3.085867e-001	-9.152871e-001
865500000	4.577259e-001	-8.442175e-001	4.346277e-003	2.611027e-003	4.186256e-003	2.361875e-003	3.093127e-001	-9.153108e-001
866000000	4.561842e-001	-8.461804e-001	4.265806e-003	2.564561e-003	4.383866e-003	2.441527e-003	3.078028e-001	-9.152157e-001
866500000	4.560620e-001	-8.470534e-001	4.235376e-003	2.532577e-003	4.383293e-003	2.529089e-003	3.080035e-001	-9.150086e-001
867000000	4.565469e-001	-8.465550e-001	4.067790e-003	2.707526e-003	4.363721e-003	2.412339e-003	3.058030e-001	-9.160546e-001
867500000	4.554128e-001	-8.476561e-001	4.309756e-003	2.558004e-003	4.263012e-003	2.644196e-003	3.049649e-001	-9.146515e-001
868000000	4.546509e-001	-8.479716e-001	4.320669e-003	2.451727e-003	4.344534e-003	2.707509e-003	3.054022e-001	-9.157873e-001
868500000	4.544400e-001	-8.494768e-001	4.275003e-003	2.509943e-003	4.431773e-003	2.522542e-003	3.052338e-001	-9.155837e-001
869000000	4.527001e-001	-8.491437e-001	4.408529e-003	2.711788e-003	4.238689e-003	2.421378e-003	3.045743e-001	-9.166692e-001
869500000	4.514594e-001	-8.482885e-001	4.522092e-003	2.215798e-003	4.284388e-003	2.642552e-003	3.033196e-001	-9.175483e-001
870000000	4.518620e-001	-8.492986e-001	4.001098e-003	2.311976e-003	4.306684e-003	2.250351e-003	3.022759e-001	-9.170477e-001
870500000	4.500619e-001	-8.500703e-001	4.176990e-003	2.223889e-003	4.140294e-003	2.058445e-003	3.011674e-001	-9.175273e-001
871000000	4.510413e-001	-8.493869e-001	4.190541e-003	2.118305e-003	4.018087e-003	2.304056e-003	3.003211e-001	-9.168440e-001
871500000	4.486164e-001	-8.498121e-001	3.950545e-003	2.204435e-003	3.953207e-003	2.191735e-003	2.980923e-001	-9.169551e-001
872000000	4.485210e-001	-8.506898e-001	3.760890e-003	2.024260e-003	3.797453e-003	2.211163e-003	2.987578e-001	-9.169068e-001
872500000	4.479699e-001	-8.498478e-001	3.460243e-003	2.015168e-003	3.512096e-003	2.229026e-003	2.960964e-001	-9.173198e-001
873000000	4.459991e-001	-8.508562e-001	3.394098e-003	2.198559e-003	3.773599e-003	2.359030e-003	2.969531e-001	-9.178751e-001
873500000	4.470074e-001	-8.509185e-001	3.245563e-003	2.286213e-003	3.127977e-003	2.360729e-003	2.974093e-001	-9.169927e-001
874000000	4.454799e-001	-8.505344e-001	2.672155e-003	2.195567e-003	3.004911e-003	2.112326e-003	2.959703e-001	-9.193724e-001
874500000	4.436899e-001	-8.503854e-001	2.828163e-003	2.467818e-003	2.718786e-003	2.695637e-003	2.950021e-001	-9.196382e-001
875000000	4.448064e-001	-8.505285e-001	2.747326e-003	2.701528e-003	2.666639e-003	2.613227e-003	2.936666e-001	-9.182752e-001
875500000	4.421943e-001	-8.497138e-001	2.494439e-003	3.071039e-003	2.705170e-003	2.993850e-003	2.933883e-001	-9.182361e-001
876000000	4.435040e-001	-8.490276e-001	2.105929e-003	2.980824e-003	2.216633e-003	2.817598e-003	2.919891e-001	-9.182753e-001
876500000	4.419259e-001	-8.502822e-001	2.388493e-003	2.934913e-003	2.197885e-003	2.910959e-003	2.912141e-001	-9.173774e-001
877000000	4.399913e-001	-8.509271e-001	2.029625e-003	3.242578e-003	1.938144e-003	3.374877e-003	2.907894e-001	-9.177259e-001
877500000	4.410949e-001	-8.514091e-001	2.021539e-003	4.004507e-003	1.911207e-003	3.866207e-003	2.892986e-001	-9.191869e-001
878000000	4.402035e-001	-8.505883e-001	1.518099e-003	4.385764e-003	1.773269e-003	4.480286e-003	2.880284e-001	-9.170719e-001
878500000	4.397727e-001	-8.509253e-001	1.823945e-003	4.484025e-003	1.699305e-003	4.593434e-003	2.881174e-001	-9.170657e-001
879000000	4.396318e-001	-8.513113e-001	1.801269e-003	5.263118e-003	1.737957e-003	5.040056e-003	2.877447e-001	-9.163845e-001
879500000	4.385615e-001	-8.526145e-001	2.062864e-003	5.658636e-003	2.126448e-003	5.758535e-003	2.861058e-001	-9.173300e-001
880000000	4.381813e-001	-8.497773e-001	2.750049e-003	6.547290e-003	2.575910e-003	6.705643e-003	2.862028e-001	-9.148826e-001
880500000	4.374715e-001	-8.501114e-001	2.933158e-003	6.722185e-003	3.077025e-003	6.584936e-003	2.868325e-001	-9.151821e-001
881000000	4.366774e-001	-8.502554e-001	3.317130e-003	6.504448e-003	3.351210e-003	6.451325e-003	2.850303e-001	-9.161158e-001
881500000	4.377208e-001	-8.515003e-001	3.067569e-003	6.119083e-003	3.076685e-003	6.220206e-003	2.839586e-001	-9.159598e-001
882000000	4.370502e-001	-8.503313e-001	3.837020e-003	6.591690e-003	3.934243e-003	6.724049e-003	2.852254e-001	-9.154976e-001
882500000	4.360078e-001	-8.504433e-001	4.085590e-003	6.567791e-003	4.160531e-003	6.801692e-003	2.852369e-001	-9.158001e-001
883000000	4.380665e-001	-8.510738e-001	4.900585e-003	7.093812e-003	4.896828e-003	7.067389e-003	2.839826e-001	-9.156847e-001
883500000	4.358601e-001	-8.509980e-001	4.803022e-003	6.873088e-003	4.640737e-003	6.761316e-003	2.850259e-001	-9.152487e-001
884000000	4.362006e-001	-8.511746e-001	4.964020e-003	6.326530e-003	5.267831e-003	6.421043e-003	2.860736e-001	-9.168995e-001
884500000	4.356646e-001	-8.520918e-001	5.812570e-003	6.626784e-003	5.660286e-003	6.543476e-003	2.858900e-001	-9.144084e-001
885000000	4.364115e-001	-8.535919e-001	6.073848e-003	6.538972e-003	6.299470e-003	6.296872e-003	2.844845e-001	-9.176546e-001
885500000	4.354568e-001	-8.532591e-001	6.618058e-003	6.677141e-003	6.883936e-003	6.647896e-003	2.859174e-001	-9.179476e-001
886000000	4.342910e-001	-8.538391e-001	6.888880e-003	6.457546e-003	6.918073e-003	6.324448e-003	2.845596e-001	-9.179321e-001
886500000	4.344302e-001	-8.544688e-001	6.994225e-003	5.930493e-003	7.022554e-003	6.069101e-003	2.842153e-001	-9.180967e-001
887000000	4.335159e-001	-8.557347e-001	7.350031e-003	5.430682e-003	7.367318e-003	5.618498e-003	2.830730e-001	-9.198425e-001
887500000	4.344041e-001	-8.557781e-001	7.585497e-003	5.371052e-003	7.382825e-003	5.326043e-003	2.838862e-001	-9.198538e-001
888000000	4.330320e-001	-8.558649e-001	7.536891e-003	4.938145e-003	7.552440e-003	4.857170e-003	2.813667e-001	-9.203575e-001
888500000	4.318981e-001	-8.564425e-001	7.658433e-003	4.385034e-003	7.732242e-003	4.468013e-003	2.816743e-001	-9.220070e-001
889000000	4.321730e-001	-8.567561e-001	7.518705e-003	4.109797e-003	7.399794e-003	4.163074e-003	2.805303e-001	-9.227854e-001
889500000	4.309436e-001	-8.576254e-001	7.258281e-003	3.773711e-003	7.292477e-003	3.760104e-003	2.774533e-001	-9.224009e-001
890000000	4.303742e-001	-8.565388e-001	7.137894e-003	3.803880e-003	7.135684e-003	3.519940e-003	2.768119e-001	-9.223660e-001
890500000	4.286570e-001	-8.579210e-001	6.643768e-003	3.583335e-003	6.859415e-003	3.436682e-003	2.769920e-001	-9.212891e-001
891000000	4.281810e-001	-8.585026e-001	6.950706e-003	3.212225e-003	6.824840e-003	3.257409e-003	2.756091e-001	-9.223037e-001
891500000	4.265225e-001	-8.601235e-001	6.578982e-003	3.409464e-003	6.784678e-003	3.187177e-003	2.764731e-001	-9.218618e-001
892000000	4.260591e-001	-8.594280e-001	6.618525e-003	3.236321e-003	6.693187e-003	3.275117e-003	2.763299e-001	-9.230066e-001
892500000	4.259431e-001	-8.591150e-001	6.280583e-003	3.072874e-003	6.333850e-003	3.323686e-003	2.735355e-001	-9.239562e-001
893000000	4.253405e-001	-8.593586e-001	6.272760e-003	3.156715e-003	6.425642e-003	3.375424e-003	2.740000e-001	-9.224106e-001
893500000	4.258314e-001	-8.600334e-001	6.131247e-003	3.165643e-003	6.186449e-003	3.362053e-003	2.729764e-001	-9.218076e-001
894000000	4.242119e-001	-8.608189e-001	6.126088e-003	3.173484e-003	6.156278e-003	3.214521e-003	2.735968e-001	-9.222543e-001
894500000	4.236510e-001	-8.599747e-001	6.028038e-003	3.311363e-003	6.171963e-003	3.268183e-003	2.718492e-001	-9.230836e-001
895000000	4.221290e-001	-8.609845e-001	6.022728e-003	3.435746e-003	6.081930e-003	3.444762e-003	2.710466e-001	-9.223980e-001
895500000	4.229254e-001	-8.607757e-001	6.197612e-003	3.265892e-003	6.266021e-003	3.350871e-003	2.710290e-001	-9.241108e-001
896000000	4.220727e-001	-8.600170e-001	6.083928e-003	3.580759e-003	6.068114e-003	3.311326e-003	2.698707e-001	-9.234369e-001
896500000	4.215575e-001	-8.603708e-001	6.111988e-003	3.578644e-003	6.156757e-003	3.312205e-003	2.696238e-001	-9.240478e-001
897000000	4.209519e-001	-8.614576e-001	6.139839e-003	3.265888e-003	6.143284e-003	3.067762e-003	2.686537e-001	-9.240079e-001
897500000	4.195239e-001	-8.626769e-001	6.167732e-003	3.353416e-003	6.103775e-003	3.194699e-003	2.688278e-001	-9.244953e-001
898000000	4.193848e-001	-8.623905e-001	6.191627e-003	3.245675e-003	6.195995e-003	3.395530e-003	2.671561e-001	-9.244075e-001
898500000	4.181127e-001	-8.623557e-001	6.194403e-003	3.241709e-003	6.428848e-003	3.303612e-003	2.668618e-001	-9.249716e-001
899000000	4.177699e-001	-8.622730e-001	6.318373e-003	3.345455e-003	6.120731e-003	3.272691e-003	2.659330e-001	-9.241929e-001
899500000	4.177226e-001	-8.614044e-001	6.304789e-003	3.280867e-003	6.430840e-003	3.126329e-003	2.645127e-001	-9.246932e-001
900000000	4.169786e-001	-8.625287e-001	6.485325e-003	3.225898e-003	6.745039e-003	3.278145e-003	2.652047e-001	-9.244807e-001
900500000	4.164895e-001	-8.634295e-001	6.287631e-003	2.976884e-003	6.368615e-003	3.018252e-003	2.651793e-001	-9.257308e-001
901000000	4.155437e-001	-8.641248e-001	6.255792e-003	2.726005e-003	6.351660e-003	3.028025e-003	2.634270e-001	-9.265938e-001
901500000	4.149789e-001	-8.645976e-001	6.244827e-003	2.723074e-003	6.100737e-003	2.543429e-003	2.629275e-001	-9.265508e-001
