# Hz S RI R 50
380000000	-6.89701555909387E-02	-0.982008085569113	1.67385284191596E-03	-1.73158581480337E-04			1.78400336997802E-03	-1.34370300460402E-04	-0.137825749914799	-0.960986580363466
380125000	-7.16740384554285E-02	-0.980627422075367	1.72944391573906E-03	-1.6912864859786E-04			1.76402638600285E-03	-1.27022615211006E-04	-0.137799617574662	-0.963837895454889
380250000	-0.072596805882114	-0.980368725452743	1.70628959274682E-03	-1.71864590361178E-04			1.76508264375243E-03	-1.51877340939202E-04	-0.139799018818413	-0.963525335545173
380375000	-7.11854903022717E-02	-0.979095141738016	1.7473073326159E-03	-7.92586016968128E-05			1.70684827690319E-03	-7.67562500987667E-05	-0.14263425279772	-0.962064757140405
380500000	-0.072715545142098	-0.980083134633524	1.78219671271058E-03	-1.15056119017859E-04			1.86825398152963E-03	-9.2908824947803E-05	-0.141642354496187	-0.963161105868687
380625000	-7.17870130186138E-02	-0.978413684556717	1.89328815436123E-03	-1.40515263807856E-04			1.86368334760716E-03	-2.12679065506067E-04	-0.139372109447443	-0.962625398349667
380750000	-7.11493375453769E-02	-0.979740558307698	1.85091720245087E-03	-1.26151880724576E-04			1.85618306622855E-03	-1.77498033031855E-04	-0.140773116577427	-0.964410532536094
380875000	-7.43705720227263E-02	-0.981095571181807	1.80040777119397E-03	-1.95064793071051E-04			1.82600958105145E-03	-2.0637250887872E-04	-0.14331823399453	-0.961922365674183
381000000	-7.34893385901317E-02	-0.98116256995883	1.71382868208505E-03	-1.92541072298081E-04			1.7127681452472E-03	-1.3500833570262E-04	-0.14480135714585	-0.9627160354206
381125000	-7.86939262759297E-02	-0.980271273376727	1.8554290846957E-03	-2.27403815805148E-04			1.82691925347715E-03	-2.26309466143823E-04	-0.147400684953138	-0.960968319311029
381250000	-7.78079643504621E-02	-0.978982458948452	1.72346019203712E-03	-1.82933755072552E-04			1.75945970212251E-03	-1.45506980348557E-04	-0.141635766526349	-0.958578912702129
381375000	-8.07410203253206E-02	-0.977514740195766	1.63528723026149E-03	-6.34549160166324E-05			1.64112486178965E-03	-1.02324610472653E-04	-0.143377107638518	-0.961269391652858
381500000	-7.67394163098988E-02	-0.97536902219841	1.69634868107454E-03	-8.99041639640052E-05			1.80214655381826E-03	-2.11793511892818E-05	-0.146002141294232	-0.957824779086553
381625000	-7.61572064782466E-02	-0.979327944980487	1.80893468323812E-03	-1.29753319801608E-04			1.80130004237434E-03	-1.2468720762412E-04	-0.145740663891495	-0.958807763015988
381750000	-7.89730413181457E-02	-0.979574123108744	1.80040417720231E-03	-9.91442571674136E-05			1.78202893247377E-03	-1.57553753686471E-04	-0.145710590879876	-0.961019499596037
381875000	-7.94116709723944E-02	-0.977314397242298	1.73179665470288E-03	-3.29547362548467E-05			1.76430711800749E-03	-6.8063805037606E-05	-0.147688396813505	-0.959400660505027
382000000	-8.04972167347205E-02	-0.980447358101836	1.81680132330102E-03	-1.49612278811981E-04			1.83304138934585E-03	-9.92758046501146E-05	-0.147769051089802	-0.960607702495584
382125000	-8.38960706145682E-02	-0.978015674147792	1.62656150291986E-03	-1.06236763047627E-04			1.72901946753267E-03	-1.73588458631129E-04	-0.151369280038525	-0.960593408328093
382250000	-7.94945533482727E-02	-0.97684416493215	1.79326937393019E-03	-1.93016544854114E-05			1.7477892727603E-03	9.92160702892237E-06	-0.149817816586435	-0.958280198778192
382375000	-7.95650180152857E-02	-0.979911765945172	1.88753789271011E-03	-1.45211924569769E-05			1.7899235382959E-03	-2.23100460471548E-05	-0.149987656823051	-0.960816515002328
382500000	-8.08759315455434E-02	-0.982071519443884	2.00858176879768E-03	-2.04040056044951E-04			1.93327762200916E-03	-2.0700960242703E-04	-0.146210876962555	-0.958887576113686
382625000	-8.16073844341628E-02	-0.979850268888373	1.83837478415224E-03	-1.30206415389207E-04			1.88674463814299E-03	-1.38635864741589E-04	-0.15185019339497	-0.960950705033097
382750000	-8.26292251591747E-02	-0.977379848269684	1.80798804280153E-03	-7.77237874985958E-05			1.87674475465758E-03	-1.6998507158929E-04	-0.153567873204385	-0.961318323578596
382875000	-8.32955271987841E-02	-0.978888777846579	1.83160526725489E-03	-6.80643398123148E-05			1.92754804873012E-03	4.46435793877334E-06	-0.151974326064597	-0.959272617425049
383000000	-8.55618535607209E-02	-0.977573107450589	1.89320504765166E-03	-6.28143469652087E-05			1.88252615302773E-03	-9.75553429643682E-05	-0.154089574421946	-0.960536291470297
383125000	-8.36509678326287E-02	-0.979407373661838	1.97590763327157E-03	-1.09166861508751E-04			1.88542580011483E-03	-1.11404128670272E-04	-0.154702320387685	-0.960797495436697
383250000	-8.30342094192377E-02	-0.980564368533547	1.8927516075312E-03	-2.16499957866955E-04			1.98208397873964E-03	-1.35230944658855E-04	-0.154509647669229	-0.960254061705639
383375000	-8.73842893016266E-02	-0.981414516834121	1.90285207848872E-03	-2.01854695252368E-04			1.89526366621824E-03	-2.28780272798794E-04	-0.156111166851739	-0.960618746117872
383500000	-8.77263689816333E-02	-0.980298390311701	1.87453987482915E-03	-1.19333699095416E-04			1.91195984112804E-03	-1.5442412352826E-04	-0.158216907827872	-0.95627234297581
383625000	-8.97493597342955E-02	-0.982083239291957	1.80099045843519E-03	-2.53959775899415E-04			1.8239077573386E-03	-2.51869727371433E-04	-0.157416581201582	-0.955543355637124
383750000	-8.77119703144258E-02	-0.977761922644806	1.81853974545865E-03	-1.34930829342286E-04			1.83627782601497E-03	-1.05623137586639E-04	-0.156087936056462	-0.956881586879514
383875000	-9.12009953603077E-02	-0.977751537319418	1.86614200064415E-03	-1.24691734012275E-04			1.90193100650985E-03	-1.09440424438719E-04	-0.158246665884857	-0.959547582897978
384000000	-8.88328967088359E-02	-0.979513077348722	1.74600913542816E-03	-1.58061108371222E-04			1.83898728016017E-03	-9.25139673776958E-05	-0.159552103227397	-0.956724688069959
384125000	-9.02441888481306E-02	-0.979548762988851	1.92290036951717E-03	-9.56666039031641E-05			1.86712720436854E-03	-2.21516839107523E-04	-0.15907730266581	-0.95748775261386
384250000	-9.12878033010313E-02	-0.979156317080306	1.85821108522695E-03	-8.30932493371999E-05			1.71356366207533E-03	-5.00624494969442E-05	-0.15846045195132	-0.957744961472324
384375000	-9.40083848702584E-02	-0.978130654568955	1.72713686613587E-03	-3.87452287217309E-05			1.88292939944243E-03	-6.11015209878403E-05	-0.159511779805231	-0.956955047790568
384500000	-9.08563761760468E-02	-0.978768472006496	1.76305436129355E-03	2.51337940953811E-05			1.85497779915382E-03	-8.12053777137545E-05	-0.160298259006192	-0.956181434509819
384625000	-9.53102308703565E-02	-0.97645305018231	1.80263791499559E-03	1.45010284575077E-05			1.81386859153508E-03	-6.63214442214595E-05	-0.163741383142768	-0.957815879325062
384750000	-9.35087369203382E-02	-0.97805219805294	1.82717921253584E-03	-5.84996120704355E-05			1.91899151538107E-03	-5.49342352528201E-06	-0.160207772921653	-0.955011657886622
384875000	-9.32536753351152E-02	-0.979475100533254	1.9872105131398E-03	-2.14483020546078E-05			1.90293760933746E-03	-8.7207209071418E-05	-0.161031941487941	-0.956345474211893
385000000	-9.49310015084018E-02	-0.9783013179839	1.96478846025082E-03	5.30628206210694E-05			0.001873343168817	-8.92073442817103E-05	-0.162968556661934	-0.958124584546231
385125000	-9.57543123886154E-02	-0.976351534997963	0.001985543235205	-1.13381223732501E-04			1.97158831651135E-03	1.19351843109389E-05	-0.163842319082695	-0.956731508326041
385250000	-9.51597539760758E-02	-0.97978627477184	1.95998697758431E-03	-4.45295181031629E-05			1.97960006215447E-03	-5.9067793137281E-05	-0.165147422049443	-0.955770488912122
385375000	-9.69912152820633E-02	-0.977547993766598	2.01663568924783E-03	-1.40069455402076E-04			1.99652094252485E-03	-5.84012865085753E-05	-0.164713009812964	-0.954869030190983
385500000	-9.81088058850994E-02	-0.975316221611664	1.99385438174513E-03	-1.83164897650239E-04			2.08433839728526E-03	-1.79580122519651E-04	-0.164357853199211	-0.956928100186921
385625000	-9.47086745064167E-02	-0.977851107307187	2.11690363791834E-03	-1.58832538869477E-04			2.00545953803255E-03	-1.24618754138675E-04	-0.166813721036693	-0.956073011755328
385750000	-9.78922132994304E-02	-0.978354149710146	2.07148538507569E-03	-3.25337430940801E-04			2.04425763782664E-03	-1.93898581858837E-04	-0.16615840241859	-0.956842962863609
385875000	-9.81703831734957E-02	-0.9781831070075	1.92010151933568E-03	-2.30971914765237E-04			1.90017146656914E-03	-1.31265981866708E-04	-0.167366950826833	-0.95614163407605
386000000	-0.101076863706082	-0.977873087626554	1.96454656993256E-03	-1.66029656634209E-04			1.99281333535032E-03	-1.53002259647055E-04	-0.168626810156879	-0.955740036292574
386125000	-0.103760369839418	-0.977767181264466	1.98335232644159E-03	-1.74387653528417E-04			1.98666677282548E-03	-2.13443040154514E-04	-0.171767208679823	-0.955659621275428
386250000	-0.102050228903241	-0.976054541357642	1.97925834618904E-03	-1.51458094953037E-04			1.97151920435925E-03	-1.54141507841549E-04	-0.171147446304712	-0.951960125321262
386375000	-0.101433171786157	-0.976176888389458	2.00123700127176E-03	-1.33040821662912E-04			2.00727557358951E-03	-1.669561377295E-04	-0.172111049771185	-0.95734998895832
386500000	-0.100540166925834	-0.977731371976387	1.8442854248134E-03	-2.24866509479465E-04			1.88196330721564E-03	-2.09476851650587E-04	-0.171781153091604	-0.954283938194538
386625000	-0.10328048158322	-0.97903015586277	1.91043529635814E-03	-2.57435149421408E-04			2.0162023525055E-03	-1.94788476959913E-04	-0.17125034059532	-0.955293920930365
386750000	-0.103893055928211	-0.97697532568474	1.92850001482742E-03	-1.94270860388242E-04			1.99507462130482E-03	-1.81563933064654E-04	-0.171156934895096	-0.95355814254564
386875000	-0.105462939170694	-0.978040891011562	1.88410426629954E-03	-1.33251484176732E-04			1.9383396421341E-03	-1.21710356465637E-04	-0.172861454282818	-0.95516003864938
387000000	-0.106471682375696	-0.97848940691021	1.95048529778148E-03	-1.10103103746601E-04			1.97120384481653E-03	-8.71350759486015E-05	-0.172857076211864	-0.953614060491383
387125000	-0.107163851807078	-0.976715037379126	1.89657221063324E-03	2.2173916358063E-05			2.00331136960848E-03	-3.94295078453885E-05	-0.176891681908877	-0.95663615229719
387250000	-0.104004831682154	-0.976877628778406	2.10726380612211E-03	-1.30377321324834E-04			2.16661458634258E-03	-1.24255421792643E-04	-0.17307317515948	-0.955658861096331
387375000	-0.107255170742759	-0.977943496467874	2.12202439033936E-03	-1.7010033112022E-04			2.03631985848078E-03	-1.09901132779099E-04	-0.17513472211621	-0.954170632290393
387500000	-0.108281285225375	-0.978060765582283	2.06193249007293E-03	-1.75055942587072E-04			2.10265579555911E-03	-1.56841679138677E-04	-0.175895277561308	-0.955064092967299
387625000	-0.107551528545504	-0.97463265761383	2.08210227118985E-03	-1.08372871391222E-04			2.01574797652856E-03	-1.8076702797782E-04	-0.176201431001979	-0.952557996523133
387750000	-0.107875576056935	-0.977710970291896	2.08184024758094E-03	-1.7328629219351E-04			2.04930353372626E-03	-1.89127946767183E-04	-0.178601800200313	-0.953609517535639
387875000	-0.108953069449976	-0.975911030262811	2.07104537807641E-03	-7.88438759583837E-05			2.11672236654467E-03	-1.43894907797829E-04	-0.177601203639051	-0.955965604130234
388000000	-0.110414241097095	-0.976474103120027	2.1099633839101E-03	-1.50074152988246E-04			2.15062514068919E-03	-1.66553250239294E-04	-0.176824748542222	-0.954094589320732
388125000	-0.109662914658722	-0.979125036399242	2.16573155380023E-03	-2.00891760650375E-04			2.10016560003423E-03	-2.5052425022495E-04	-0.177678472539701	-0.953765173700128
388250000	-0.109667944463927	-0.978410687837738	2.0917431636635E-03	-2.5274775430346E-04			2.03840315728385E-03	-2.71556504111207E-04	-0.179449640400011	-0.955334988397235
388375000	-0.114113415393133	-0.978551795086828	2.13394327386313E-03	-3.16694233708367E-04			1.99956171051504E-03	-3.0622364628188E-04	-0.181022591210625	-0.955526127327147
388500000	-0.113971072965952	-0.976100903917088	2.07396611018258E-03	-2.48356836090731E-04			2.06653955250392E-03	-2.60023691719672E-04	-0.182994610823639	-0.954480474758833
388625000	-0.113180532542938	-0.977474918198713	2.03053759217669E-03	-2.10019564683598E-04			2.03912078776572E-03	-3.02393681937283E-04	-0.183119497696561	-0.950609461988048
388750000	-0.112619138329359	-0.974371720659757	2.06298196613618E-03	-1.40612580614741E-04			2.08688625927345E-03	-1.60562737009318E-04	-0.184182612174237	-0.953297352210606
388875000	-0.114076381379646	-0.977504314545705	2.02490319645785E-03	-3.03442660313045E-04			1.99352393363314E-03	-2.03887432927872E-04	-0.184592504628639	-0.95353816763611
389000000	-0.11321621697173	-0.978382355417369	2.00904633165257E-03	-2.26802131222806E-04			2.12745225669443E-03	-2.34437228325584E-04	-0.185912715697428	-0.953154249154675
389125000	-0.117313218398842	-0.97786427394763	2.05005454771083E-03	-2.88196900738074E-04			2.07793871097702E-03	-2.54830546710832E-04	-0.185028072557916	-0.952170956943025
389250000	-0.117153316844653	-0.977332090414749	1.9492300288993E-03	-2.56545755407314E-04			2.05114108629778E-03	-2.37672252822219E-04	-0.184015961336557	-0.95186065524543
389375000	-0.117637317468026	-0.974275380670546	2.07815064407771E-03	-1.84721743125255E-04			2.02695933344775E-03	-2.37636849541379E-04	-0.184741495697062	-0.950941075837282
389500000	-0.118521485080245	-0.97708286347263	2.02224927352141E-03	-2.65208145462322E-04			1.94426261298983E-03	-2.00758392328708E-04	-0.185448993312518	-0.953702640131631
389625000	-0.118046720151105	-0.976912005117773	2.05653802660748E-03	-1.9728263946049E-04			2.14468856804869E-03	-1.50197656166467E-04	-0.187049637655312	-0.950590346463078
389750000	-0.118081211555211	-0.975907519499392	2.19760225378248E-03	-2.33392604786291E-04			2.14831565704788E-03	-1.9237149810117E-04	-0.186821643235738	-0.953075070864295
389875000	-0.120466063941187	-0.977388332511437	2.13412990384869E-03	-3.0976936899635E-04			2.12017563753468E-03	-2.56907153304165E-04	-0.186662386051222	-0.952726748401617
390000000	-0.118952765489169	-0.978859208431569	2.06470400665191E-03	-2.82308511748372E-04			2.06159589682909E-03	-3.1991623958803E-04	-0.187000235745439	-0.95116305949469
390125000	-0.121116029003717	-0.978764783952688	2.12089760279209E-03	-3.10531913421999E-04			2.15968083881824E-03	-3.37497175546104E-04	-0.188967600889049	-0.95195940290326
390250000	-0.119399573542317	-0.97650347771519	2.05508728535364E-03	-3.66413769487814E-04			2.11048324660786E-03	-3.13776055897734E-04	-0.189569557126734	-0.953191727471618
390375000	-0.120926018874039	-0.976716224468429	2.12077680975204E-03	-2.47002348477648E-04			2.10342483006037E-03	-2.69207319626174E-04	-0.190144234840235	-0.953306269961619
390500000	-0.122834872931225	-0.976472520787847	2.16995447989228E-03	-3.08704900013745E-04			2.08762721301699E-03	-2.27883434486031E-04	-0.190902865122019	-0.954559486863208
390625000	-0.123278858891444	-0.978599074135878	2.12676779041316E-03	-2.61468971897804E-04			2.10726510141783E-03	-2.83977063376189E-04	-0.191912931718893	-0.951297356011414
390750000	-0.124294968360719	-0.978269073193585	2.13401738560172E-03	-3.28238312090228E-04			2.13678941294664E-03	-4.07084288663267E-04	-0.193837246481515	-0.955985939700954
390875000	-0.126423019922289	-0.977115421724658	2.00584965164148E-03	-3.3707424164779E-04			2.06577100151205E-03	-3.3793533544291E-04	-0.195393233855236	-0.955434503600968
391000000	-0.125902881671014	-0.976006305467366	2.09093873462605E-03	-3.0554717422502E-04			2.15548375201678E-03	-2.95953532622726E-04	-0.195073390294325	-0.953635679390316
391125000	-0.125390331181914	-0.976105225785826	2.06976379295577E-03	-2.99355609933717E-04			2.0901606858279E-03	-3.56335239663033E-04	-0.195637980417358	-0.950069577034925
391250000	-0.126226293736246	-0.977144735399977	2.06360452438107E-03	-2.35769761176485E-04			2.13374759891025E-03	-3.29565014929132E-04	-0.197357745365769	-0.953426359272965
391375000	-0.128241981624443	-0.979396103787247	2.11433705662769E-03	-2.59991865007039E-04			2.09437483257413E-03	-3.53914422148885E-04	-0.197897777946528	-0.95306689960616
391500000	-0.12890857519512	-0.979354656762365	2.10024283256731E-03	-3.22947768746659E-04			2.18777213303175E-03	-4.36057394119255E-04	-0.199677394152219	-0.951089055442154
391625000	-0.129090360522736	-0.978420661442865	2.10488273359004E-03	-3.20614235869105E-04			2.05099005064459E-03	-3.78814133791773E-04	-0.199482807628714	-0.952023840864697
391750000	-0.131084013529431	-0.979797333540573	2.14753277486454E-03	-3.81903384977234E-04			2.11521703907329E-03	-3.83024233182457E-04	-0.201167718602411	-0.952453441559747
391875000	-0.130774877496982	-0.976314870506505	2.13528727069918E-03	-4.57619283473169E-04			2.04308107846437E-03	-4.09571706034786E-04	-0.200631947252648	-0.948554512930496
392000000	-0.131850734952726	-0.976158819159976	2.15685424309712E-03	-4.07023794480623E-04			2.14578282834462E-03	-3.80913829222654E-04	-0.201309405747796	-0.95097244917636
392125000	-0.132211946206625	-0.977597724803277	2.13132795775473E-03	-3.40286806430321E-04			2.08839968025011E-03	-4.1844044820111E-04	-0.202004699403653	-0.95053697997397
392250000	-0.135065179923231	-0.977603971824768	2.11367298356628E-03	-3.65846097705122E-04			2.13804599376502E-03	-4.46568813960551E-04	-0.202247482591415	-0.951389971785588
392375000	-0.135752170088107	-0.978561452459301	1.98610825206815E-03	-4.77936809377644E-04			2.06544809728271E-03	-4.62666556706519E-04	-0.20376198119461	-0.95248175260713
392500000	-0.135800894710858	-0.979593787389895	2.06568918714327E-03	-4.79971925152943E-04			2.03357578564534E-03	-4.46453159174973E-04	-0.204330614850547	-0.954002922124951
392625000	-0.135994883224577	-0.979574363911774	2.06473125639139E-03	-4.50481875295455E-04			2.17947131389377E-03	-4.23674255919924E-04	-0.204158985301008	-0.949236497596925
392750000	-0.136443802536999	-0.97967979573612	2.04840844599189E-03	-3.8371162133128E-04			2.00997070447197E-03	-4.76803341865922E-04	-0.206747469225671	-0.953108211048979
392875000	-0.137579641081034	-0.977365121594066	2.08568921165524E-03	-4.07394352170756E-04			1.96564604439469E-03	-4.67132916892874E-04	-0.205755498078598	-0.948879357898055
393000000	-0.138311860338054	-0.977630880333959	2.0942848992542E-03	-4.3319405099899E-04			2.0639156489456E-03	-5.05907296039911E-04	-0.207977201674135	-0.952156658538961
393125000	-0.139508972839513	-0.978894391764271	2.05329230068321E-03	-4.36838609712975E-04			2.06322169141769E-03	-4.45705715814125E-04	-0.20886450365098	-0.951581318019874
393250000	-0.140972909762852	-0.977959527784978	2.08743551797222E-03	-4.4299270807314E-04			2.04264255202615E-03	-5.02371061296488E-04	-0.208776435555573	-0.950938760331529
393375000	-0.141321777872521	-0.979048193485406	2.11056740573538E-03	-4.46459318379504E-04			2.03101725331854E-03	-4.42361758919015E-04	-0.211285379985653	-0.952415198205129
393500000	-0.141908717458992	-0.978304051115317	2.0702668322244E-03	-4.25278142239154E-04			2.01475907091212E-03	-4.36052127031424E-04	-0.21271543322235	-0.9507091526421
393625000	-0.144000892844239	-0.976989357002942	2.0525724634589E-03	-3.9442751243004E-04			2.05691384618974E-03	-4.27857559656381E-04	-0.212277970244151	-0.948761839019587
393750000	-0.143390277490578	-0.978382711333441	2.15755087929097E-03	-3.92853742736839E-04			2.07661231336451E-03	-4.55537695191474E-04	-0.212897519753253	-0.950962802868235
393875000	-0.146178858514154	-0.977239706725793	1.98331122897701E-03	-4.58245259614442E-04			2.03424925300926E-03	-4.19478449282403E-04	-0.212926488157828	-0.95133235604022
394000000	-0.145233432901639	-0.97676604251773	2.05651436268279E-03	-4.42627399636317E-04			2.03059911854568E-03	-4.28317837891813E-04	-0.214441977777546	-0.948679333906635
394125000	-0.145479343022176	-0.977096480026665	2.12822681570678E-03	-4.02122586441374E-04			2.00640299459825E-03	-5.02755885318269E-04	-0.21564053960872	-0.951696966307584
