!Keysight Technologies,E5080A,MY55200989,A.11.70.00
!Date: Wednesday, December 19, 2018 13:17:27
!Correction: S11(Full 2 Port(1,2)) 
!S21(Full 2 Port(1,2)) 
!S12(Full 2 Port(1,2)) 
!S22(Full 2 Port(1,2)) 
!S2P File: Measurements: S11, S21, S12, S22:
# Hz S  RI   R 50
10000000 0.99422246 -0.10211933 -4.3514665e-005 1.1269639e-005 2.3245297e-005 -3.533472e-005 0.9942593 -0.10344381
11243750 0.99327058 -0.11507557 6.3706968e-005 2.0884654e-005 -5.3529096e-005 4.4473174e-005 0.99311388 -0.11697655
12487500 0.99123472 -0.12895952 2.6856525e-005 -2.9692494e-005 -6.7968467e-005 -4.1713432e-005 0.99103552 -0.12977532
13731250 0.98953682 -0.14102685 2.2813503e-005 3.2065458e-005 -2.9043971e-005 -4.2139549e-005 0.98857325 -0.14102191
14975000 0.98751599 -0.15368104 -1.3024125e-005 -2.4601945e-006 -2.0908681e-005 4.6671765e-005 0.98788315 -0.15337726
16218750 0.98552579 -0.16548848 -1.5221786e-005 4.331474e-005 -2.3862713e-005 2.4764173e-005 0.98579252 -0.16585867
17462500 0.98325628 -0.17949808 2.708887e-005 2.1832759e-005 -8.6120126e-005 -2.9999819e-005 0.98273337 -0.179535
18706250 0.98134625 -0.19159326 -6.3959146e-006 4.5111938e-005 5.7257606e-005 4.5085339e-006 0.97986054 -0.19124056
19950000 0.97856456 -0.20315981 3.7367656e-005 -3.9337421e-005 2.305001e-005 3.6961541e-005 0.97831464 -0.20446293
21193750 0.97569972 -0.21678591 -2.8938712e-006 4.7826652e-005 -2.1164713e-006 1.1983989e-005 0.97589213 -0.21610934
22437500 0.97338128 -0.22884806 1.3296019e-005 -6.555544e-005 -2.1908404e-006 2.8517938e-005 0.97305417 -0.22828366
23681250 0.97008538 -0.24110746 4.0543919e-006 5.3946766e-005 -9.9527033e-006 2.7578555e-005 0.97069108 -0.24190147
24925000 0.96706516 -0.25492412 1.9259869e-005 2.8753295e-005 7.2798401e-005 3.5807187e-007 0.96653974 -0.25332856
26168750 0.96346921 -0.26591474 2.6934027e-005 2.3720993e-005 4.7842877e-005 2.3221308e-005 0.96328199 -0.26588187
27412500 0.95987558 -0.27775615 4.1282412e-005 -3.1705913e-005 -1.4520981e-005 9.1708816e-006 0.9601503 -0.27816018
28656250 0.95700622 -0.29086205 -6.603427e-005 1.3962638e-005 -3.394852e-005 4.1881685e-005 0.9558416 -0.29087335
29900000 0.95211232 -0.30313396 5.1241946e-006 4.1128893e-005 -1.2160254e-005 -1.7680957e-005 0.95340943 -0.30234364
31143750 0.94929719 -0.31443945 -1.96282e-005 5.8696251e-006 -4.2638335e-006 -7.1821567e-005 0.94839388 -0.31575814
32387500 0.94479913 -0.32631898 -1.3500643e-005 -1.8921177e-005 4.1677067e-005 -4.0401945e-005 0.94471717 -0.32766345
33631250 0.93959194 -0.33963877 2.4838742e-005 5.0423401e-005 -1.4356833e-007 5.4326665e-005 0.93973762 -0.33903739
34875000 0.93619531 -0.35163426 1.1324002e-005 3.8292641e-005 -2.2659419e-006 1.2163678e-005 0.93492204 -0.35152867
36118750 0.93111092 -0.36247909 1.2900684e-005 7.9022051e-005 1.8218174e-005 5.2897462e-006 0.93087733 -0.36398274
37362500 0.92624712 -0.37508789 -1.202148e-005 7.981051e-005 1.3540775e-005 4.0549632e-005 0.9252677 -0.37639964
38606250 0.92115951 -0.38609353 3.7724825e-005 -4.2995314e-005 -7.2949682e-005 2.5421388e-005 0.92085129 -0.38932344
39850000 0.91523403 -0.3988806 1.9333038e-006 6.6059663e-005 4.8232658e-005 2.4196908e-005 0.91515571 -0.40017447
41093750 0.91107255 -0.41156369 3.0625517e-005 7.2420451e-005 2.5562338e-005 2.7618937e-005 0.91112465 -0.41153064
42337500 0.90534091 -0.42265436 6.2722604e-005 7.0802023e-005 3.0317002e-005 1.5659061e-005 0.90483892 -0.42325541
43581250 0.89812034 -0.43358508 4.4456083e-005 2.089302e-005 9.1765069e-005 4.7718633e-005 0.90034616 -0.43457496
44825000 0.89418888 -0.44542685 6.4372165e-005 7.0901406e-005 1.7917602e-005 3.8682527e-005 0.89434153 -0.44546741
46068750 0.88847351 -0.45693997 2.174713e-005 8.8430817e-005 4.1964267e-005 9.6266711e-005 0.88824463 -0.45793888
47312500 0.88161993 -0.46797732 5.9744059e-005 0.00010179439 6.8115514e-005 6.8307105e-005 0.88211662 -0.46870467
48556250 0.87554455 -0.47942194 8.8273919e-005 6.6619621e-005 7.3829491e-005 8.8307279e-005 0.87634015 -0.48014262
49800000 0.87012488 -0.49118915 5.2051426e-005 8.7142216e-005 4.4253808e-005 0.00013044642 0.87009585 -0.49152207
51043750 0.86322975 -0.50305355 7.2378047e-005 0.00011730517 0.00010025665 0.00012456201 0.86413682 -0.50271744
52287500 0.85663456 -0.51393896 7.3593947e-005 0.00013788117 7.5122211e-005 0.00015277551 0.85729933 -0.51346987
53531250 0.8505007 -0.52355081 0.00012495865 0.00011713721 7.8968907e-005 0.00016626656 0.84985238 -0.52471507
54775000 0.84329396 -0.53470111 0.0001178817 0.00019365376 0.0001096557 0.0001770489 0.84324199 -0.53581977
56018750 0.83657533 -0.54556674 0.00016909446 0.00020305954 0.00015051637 0.00018642569 0.83672124 -0.54702532
57262500 0.82885683 -0.55732054 0.00016755414 0.00019888462 0.00020334784 0.00019351266 0.82836276 -0.55693346
58506250 0.82133144 -0.5668357 0.00022559676 0.00023075684 0.00019593346 0.0002375278 0.82254779 -0.56799048
59750000 0.8143968 -0.57808286 0.00023298402 0.00025238722 0.00018739537 0.00024854686 0.81419933 -0.57852215
60993750 0.80671108 -0.58868599 0.00020041634 0.00026280526 0.00020764736 0.00025609694 0.80668128 -0.58849782
62237500 0.79855973 -0.5985865 0.00023834086 0.00027423099 0.00022802067 0.00027135652 0.79839879 -0.59873962
63481250 0.79041767 -0.60917443 0.00026306932 0.00031243829 0.00030032083 0.00030153291 0.79087573 -0.60944164
64725000 0.78290576 -0.61897922 0.00033908029 0.00032791926 0.00031438397 0.00035100608 0.78211385 -0.62043577
65968750 0.77406162 -0.62937653 0.00033628085 0.00038519179 0.0003765627 0.00035758846 0.77348953 -0.63026118
67212500 0.76532263 -0.63908976 0.00041527246 0.00039974097 0.00042035891 0.00038809382 0.76579267 -0.6397841
68456250 0.75738281 -0.64859307 0.00046607031 0.00046270614 0.0004454632 0.00044789689 0.75686026 -0.64941835
69700000 0.74892241 -0.65948641 0.00048723919 0.00048221106 0.00048735517 0.00052407087 0.74859643 -0.65884703
70943750 0.7408765 -0.66832447 0.00058753556 0.00050050596 0.00056130206 0.00053143979 0.7406472 -0.66921896
72187500 0.73122293 -0.67791039 0.00062283064 0.00056212337 0.0006398689 0.000541844 0.7309708 -0.67801756
73431250 0.72221476 -0.6877991 0.00069780194 0.00062422082 0.00066727662 0.00058065949 0.72231376 -0.68824601
74675000 0.71381074 -0.69655621 0.00077104935 0.00065783178 0.00070430455 0.00063227629 0.71289581 -0.69729358
75918750 0.70354086 -0.70515233 0.00082874973 0.00066058163 0.00081681128 0.00064643909 0.70432109 -0.7059719
77162500 0.69434518 -0.71472269 0.00087160885 0.00071648735 0.00091126515 0.00071504671 0.69451374 -0.71541268
78406250 0.68553764 -0.7243588 0.00097724004 0.00075852295 0.00099340267 0.00074697856 0.68484813 -0.7245779
79650000 0.67570794 -0.73334044 0.0010571005 0.00079736213 0.0010743891 0.00083077437 0.67465305 -0.73331171
80893750 0.66659093 -0.7409901 0.0011463173 0.00087075389 0.0011783248 0.00088815327 0.66595536 -0.74283195
82137500 0.65552241 -0.75070286 0.0013203331 0.00093024666 0.0013048844 0.00095153676 0.65510207 -0.75110239
83381250 0.64577866 -0.75844896 0.0013889819 0.0010012874 0.0013873758 0.0009829679 0.64529949 -0.75962329
84625000 0.63592213 -0.7677179 0.0015268628 0.0010187749 0.0015251884 0.0010478669 0.63572514 -0.76730323
85868750 0.62550741 -0.77525395 0.0016215218 0.0011050723 0.0016454576 0.0011114249 0.6248588 -0.77709848
87112500 0.61537343 -0.78337348 0.0018161291 0.0011865046 0.0018229955 0.0011840381 0.61497879 -0.78352058
88356250 0.60477924 -0.79149884 0.0019659922 0.0012723563 0.0019766346 0.0012338246 0.60416752 -0.79235208
89600000 0.59422332 -0.79918319 0.0021284856 0.0012798029 0.0021387932 0.0013077805 0.59403187 -0.80039603
90843750 0.58358073 -0.80722278 0.0022901571 0.0013559102 0.0022994883 0.0013457218 0.58235377 -0.80747968
92087500 0.57224876 -0.81456727 0.0024801351 0.0014350243 0.0025040235 0.0014522441 0.57151717 -0.8156451
93331250 0.5611524 -0.82148576 0.0027066206 0.0014742104 0.0026943849 0.0014951036 0.56083375 -0.82276189
94575000 0.54990911 -0.82962751 0.002869643 0.0015775629 0.0028900332 0.0015646553 0.54936391 -0.83057839
95818750 0.53953654 -0.83613682 0.003109636 0.0016085273 0.0031209281 0.0015787591 0.53884417 -0.83750272
97062500 0.52801406 -0.84309047 0.0033320009 0.0017032345 0.0033554158 0.0017096591 0.52817065 -0.84462351
98306250 0.51643562 -0.84999532 0.0035971776 0.0018074935 0.0035998421 0.0017360788 0.51606017 -0.85085326
99550000 0.50498694 -0.85670531 0.0038504817 0.0018606011 0.0038544137 0.0017886139 0.50392157 -0.85700965
100793750 0.49400294 -0.86327481 0.0041559502 0.0019074709 0.004155125 0.0019072118 0.49238893 -0.86341381
102037500 0.48148879 -0.86961788 0.0044654743 0.0019767534 0.0044092904 0.0019439188 0.48048794 -0.87095779
103281250 0.46993172 -0.87575829 0.0047834567 0.0020666942 0.0047496352 0.0020519283 0.4691726 -0.87710434
104525000 0.45785698 -0.88232583 0.0050950744 0.0020906634 0.0050869607 0.0020976441 0.4573372 -0.88265574
105768750 0.44599143 -0.88796079 0.0054738089 0.0021817687 0.0054438207 0.0021509586 0.44511375 -0.88810867
107012500 0.43358272 -0.89379776 0.0058052489 0.0022163689 0.0058315452 0.002169834 0.4331052 -0.89390576
108256250 0.42164472 -0.89928871 0.0061775772 0.0022112119 0.0062426217 0.002229389 0.42147532 -0.89989328
109500000 0.40811455 -0.90468282 0.0066443481 0.0022930391 0.0066509745 0.0022812483 0.40799505 -0.90568572
110743750 0.39635715 -0.91008043 0.0071269455 0.0023461506 0.0071087186 0.0023843285 0.39581835 -0.91185665
111987500 0.38445383 -0.91559762 0.0075542494 0.002385488 0.0075535574 0.0023679452 0.38330898 -0.91661048
113231250 0.37145925 -0.92067593 0.0081023443 0.0024112028 0.0080283517 0.0024229423 0.37031415 -0.92200869
114475000 0.35831881 -0.92523611 0.0085819606 0.002461283 0.0085733226 0.0024296322 0.35787189 -0.926512
115718750 0.34572554 -0.92966181 0.0090808263 0.0024726291 0.0090393759 0.0024391147 0.34476504 -0.93085557
116962500 0.33318222 -0.93441463 0.0096232556 0.0024727061 0.0096310116 0.0024608059 0.3326852 -0.93561399
118206250 0.31960949 -0.93887866 0.010249206 0.0024689997 0.010239691 0.002440694 0.31962469 -0.93977785
119450000 0.30672598 -0.94315183 0.010845981 0.0024660933 0.01084012 0.002436823 0.3060202 -0.94368571
120693750 0.2938571 -0.94633442 0.011530925 0.0023993456 0.011521874 0.0023869977 0.29329053 -0.94803661
121937500 0.28107691 -0.95010525 0.01214692 0.0023855965 0.012210079 0.0023971726 0.27900422 -0.95112401
123181250 0.26674622 -0.95456415 0.012923024 0.0023982371 0.012910407 0.002350312 0.26624817 -0.95513624
124425000 0.25353596 -0.95756787 0.013672924 0.0022966936 0.013677579 0.0023261453 0.25303245 -0.95829308
125668750 0.24042064 -0.96120638 0.014412394 0.0022037609 0.014384246 0.0021744592 0.23859929 -0.96120828
126912500 0.22665778 -0.9637115 0.015232655 0.0020981508 0.015242287 0.0020739536 0.22551005 -0.96452332
128156250 0.21304286 -0.96620393 0.016123082 0.0020064113 0.016091578 0.0019830493 0.21182539 -0.96685779
129400000 0.19963668 -0.96895558 0.016939631 0.0018152312 0.016969824 0.0018217905 0.19727506 -0.97038883
130643750 0.18575205 -0.97132534 0.017920421 0.0016992082 0.017920129 0.0016856279 0.18399414 -0.97251445
131887500 0.17091009 -0.97435153 0.018852511 0.0015538426 0.019048842 0.0015750964 0.17023855 -0.97463089
133131250 0.15758874 -0.97539598 0.019767381 0.0013687969 0.020074176 0.0012815944 0.15676992 -0.9768185
134375000 0.14233534 -0.97772419 0.020958532 0.00085461151 0.020961532 0.0010669805 0.14232619 -0.97845471
135618750 0.12970607 -0.97983748 0.021976003 0.00082315289 0.021967698 0.00098445243 0.12800245 -0.98061866
136862500 0.11407182 -0.98081571 0.022966193 0.00047388297 0.023346722 0.0005890404 0.11415179 -0.9813118
138106250 0.10076409 -0.98231816 0.024146236 0.00013975847 0.024428049 0.00023002068 0.099413343 -0.9831531
139350000 0.087189272 -0.98257869 0.025274523 -0.00027548696 0.025802609 -0.00039844701 0.085423633 -0.98369527
140593750 0.071619578 -0.98425341 0.026799189 -0.00074483233 0.026996888 -0.00068539829 0.070308521 -0.98532432
141837500 0.056385625 -0.98355001 0.028024312 -0.00090378651 0.028422024 -0.0010158548 0.055666123 -0.98507583
143081250 0.043083824 -0.98402953 0.029572733 -0.0016600495 0.029592207 -0.0015360088 0.041628115 -0.9857077
144325000 0.027116239 -0.98477775 0.031201392 -0.0021835973 0.030850116 -0.0023228168 0.026680367 -0.98600268
145568750 0.01369561 -0.98461449 0.032269105 -0.0025493838 0.032650284 -0.0028025389 0.012569723 -0.98453051
146812500 -0.00067081838 -0.98390663 0.033908565 -0.0032022328 0.034081616 -0.0035952867 -0.001388911 -0.9838503
148056250 -0.01630613 -0.98316038 0.035611078 -0.0041815913 0.035630982 -0.0040640719 -0.016901953 -0.98374081
149300000 -0.031729814 -0.98279023 0.037094068 -0.0050321831 0.037103664 -0.0049650143 -0.032621101 -0.98370451
150543750 -0.046963055 -0.98200566 0.03904276 -0.0055768052 0.038679153 -0.0056789205 -0.046046767 -0.98338223
151787500 -0.061726198 -0.98004121 0.040571138 -0.0067941071 0.040768743 -0.0067059854 -0.063059911 -0.98105454
153031250 -0.076236494 -0.9797495 0.042312395 -0.0075715408 0.042732719 -0.0077321045 -0.077314846 -0.98013175
154275000 -0.091674298 -0.97745347 0.044060208 -0.0088279778 0.044246372 -0.0088878935 -0.091297038 -0.97835588
155518750 -0.10637796 -0.97509295 0.046226852 -0.0099682929 0.046323642 -0.0098419376 -0.10814257 -0.97624481
156762500 -0.12185135 -0.97207147 0.048280299 -0.011025936 0.048271246 -0.01114152 -0.12349229 -0.9733935
158006250 -0.1372879 -0.97036368 0.050390188 -0.012502383 0.050467972 -0.012367467 -0.13745582 -0.97149485
159250000 -0.15186954 -0.96721923 0.052284088 -0.013872442 0.052152209 -0.014247876 -0.15412037 -0.96627671
160493750 -0.16672865 -0.96330833 0.054592118 -0.01570186 0.05450369 -0.015502359 -0.16886045 -0.96460605
161737500 -0.18252747 -0.96006829 0.05656584 -0.01707186 0.056841314 -0.016988678 -0.18408334 -0.96151048
162981250 -0.19927177 -0.95698005 0.059089422 -0.018855179 0.059100438 -0.018774981 -0.19903667 -0.95737278
164225000 -0.2129052 -0.95207125 0.061170634 -0.020782759 0.06112827 -0.020934673 -0.2148031 -0.9531517
165468750 -0.23008114 -0.94708401 0.063616686 -0.022966996 0.063748777 -0.022758909 -0.22943296 -0.94889361
166712500 -0.24559505 -0.94281161 0.066257209 -0.02516119 0.066276848 -0.025097338 -0.24389468 -0.94430041
167956250 -0.25955874 -0.93833435 0.06880556 -0.027151154 0.068771638 -0.027070105 -0.26144201 -0.93780428
169200000 -0.27598202 -0.93187088 0.07121063 -0.029710855 0.071438201 -0.029664626 -0.27574396 -0.93307853
170443750 -0.29123482 -0.92661321 0.073480897 -0.032560039 0.073450781 -0.032501176 -0.29198986 -0.92779696
171687500 -0.30559707 -0.92017543 0.07635314 -0.035030816 0.076332733 -0.035451867 -0.30896708 -0.92194748
172931250 -0.32297102 -0.91546005 0.079270981 -0.038635127 0.079221599 -0.038297322 -0.32304919 -0.91482192
174175000 -0.33767119 -0.90774572 0.082039431 -0.041518711 0.082043022 -0.041660763 -0.33885604 -0.90853506
175418750 -0.35275707 -0.90084958 0.084407195 -0.044571891 0.084758066 -0.044688132 -0.35416096 -0.900931
176662500 -0.36908135 -0.8937465 0.087583989 -0.048687164 0.087858908 -0.048565894 -0.37029108 -0.89520526
177906250 -0.3843877 -0.88523465 0.090360366 -0.052261408 0.09053842 -0.052317634 -0.38436896 -0.88625741
179150000 -0.39930996 -0.87762451 0.093005054 -0.056048501 0.093174562 -0.056481335 -0.39994004 -0.87754744
180393750 -0.41582301 -0.86832261 0.095950827 -0.06052386 0.096411236 -0.060321916 -0.4157362 -0.869102
181637500 -0.43124691 -0.85893756 0.09884423 -0.065082058 0.098937266 -0.065080635 -0.43144038 -0.85986489
182881250 -0.44622016 -0.84924376 0.10193328 -0.06999068 0.1020739 -0.069886744 -0.44625053 -0.85057217
184125000 -0.46137908 -0.83879209 0.10452244 -0.075274639 0.10497227 -0.075448848 -0.46280137 -0.84057164
185368750 -0.47667518 -0.82894486 0.10778747 -0.080740243 0.10768056 -0.080524176 -0.47693312 -0.82912207
186612500 -0.49095187 -0.81692427 0.1105478 -0.086278193 0.11073661 -0.086495161 -0.49223921 -0.81835657
187856250 -0.50615078 -0.80615413 0.11314614 -0.09263806 0.11278652 -0.092472166 -0.50640041 -0.80671048
189100000 -0.5209946 -0.79328334 0.116083 -0.098567776 0.11617548 -0.099033281 -0.52188498 -0.79488063
190343750 -0.53651232 -0.78051031 0.11871611 -0.10536001 0.11894941 -0.10574924 -0.53562903 -0.78242457
191587500 -0.55013132 -0.76937222 0.12154058 -0.11260689 0.12120932 -0.11281479 -0.55145705 -0.77062339
192831250 -0.56369346 -0.75504959 0.1239626 -0.12009841 0.1238474 -0.119982 -0.56441921 -0.75689673
194075000 -0.57888818 -0.73960197 0.12642515 -0.12807275 0.12629026 -0.12772679 -0.57882351 -0.74248701
195318750 -0.59387058 -0.72529393 0.12851609 -0.13618666 0.12877193 -0.13615938 -0.59195048 -0.72780287
196562500 -0.60669202 -0.71029317 0.13092719 -0.14602728 0.13056602 -0.14582896 -0.60669363 -0.71202821
197806250 -0.61945891 -0.69468069 0.13276967 -0.15436892 0.13242264 -0.15411879 -0.61922795 -0.69659036
199050000 -0.63270468 -0.67794955 0.13401783 -0.16382217 0.13358685 -0.16370739 -0.63304818 -0.67926669
200293750 -0.64407003 -0.66045445 0.13526045 -0.17332016 0.13538407 -0.17379987 -0.64563155 -0.66417873
201537500 -0.65809715 -0.64228702 0.13635838 -0.18468387 0.13683768 -0.18455841 -0.65727609 -0.64580238
202781250 -0.6692068 -0.62422407 0.13740098 -0.19567671 0.13747467 -0.19545358 -0.66857761 -0.6272366
204025000 -0.6814732 -0.60523057 0.13796276 -0.20724966 0.13793704 -0.20723116 -0.68006492 -0.60724533
205268750 -0.69106805 -0.5845561 0.13743095 -0.21957715 0.13736515 -0.21964788 -0.69048184 -0.58705616
206512500 -0.70133793 -0.56427491 0.13691671 -0.23159695 0.13704544 -0.23128055 -0.70212477 -0.56801623
207756250 -0.71105814 -0.54419899 0.1359484 -0.24459755 0.13599072 -0.24465561 -0.71102864 -0.54771066
209000000 -0.72040433 -0.52276123 0.13437687 -0.25882965 0.13472421 -0.258481 -0.72085124 -0.52693427
210243750 -0.72878683 -0.50094235 0.13225904 -0.27231142 0.13268906 -0.27209944 -0.72717828 -0.50431526
211487500 -0.7366631 -0.47776935 0.12998767 -0.28750521 0.12975955 -0.28772789 -0.73540169 -0.48070192
212731250 -0.74149871 -0.45394653 0.12583107 -0.30223656 0.12582494 -0.30232972 -0.74206096 -0.45756924
213975000 -0.74734533 -0.42878583 0.12162926 -0.31757444 0.12136105 -0.31796864 -0.7474463 -0.43412709
215218750 -0.75276786 -0.40475619 0.11548579 -0.33352295 0.11549658 -0.33344376 -0.75188035 -0.40954375
216462500 -0.75541133 -0.3788476 0.11002953 -0.34959963 0.11001199 -0.34920764 -0.75533468 -0.38541296
217706250 -0.75729346 -0.35363612 0.10295179 -0.36636171 0.10292601 -0.36666036 -0.75714815 -0.35943568
218950000 -0.75957847 -0.32710302 0.094162986 -0.38330576 0.094262786 -0.38362166 -0.75879401 -0.33390713
220193750 -0.75882173 -0.30126578 0.084279947 -0.40123534 0.084302731 -0.40119684 -0.75880384 -0.30735144
221437500 -0.75644815 -0.27438706 0.073526479 -0.41799 0.073587038 -0.41819477 -0.75779599 -0.28086156
222681250 -0.75452167 -0.24686794 0.06185944 -0.43556422 0.061820868 -0.43566251 -0.75394493 -0.25381383
223925000 -0.74939865 -0.22185287 0.048218731 -0.45143035 0.047978159 -0.45099732 -0.75076592 -0.22925732
225168750 -0.74380881 -0.19389406 0.033953846 -0.46930486 0.034103762 -0.46982414 -0.74422419 -0.1999047
226412500 -0.73622793 -0.16630411 0.017161738 -0.48734838 0.017031327 -0.48705509 -0.73672354 -0.17384736
227656250 -0.72663218 -0.13983516 -0.0010880019 -0.50363684 -0.00085217174 -0.50358462 -0.72730672 -0.14806843
228900000 -0.71539932 -0.114075 -0.020344276 -0.51945883 -0.020137934 -0.51980478 -0.71738148 -0.12206832
230143750 -0.70273751 -0.088547289 -0.040882651 -0.53502125 -0.041028086 -0.53504407 -0.70471621 -0.096740931
231387500 -0.68942285 -0.062771775 -0.062757656 -0.54925525 -0.062584043 -0.5494194 -0.69076663 -0.071931995
232631250 -0.67231208 -0.04144321 -0.087026529 -0.56144309 -0.086619616 -0.56096107 -0.67604947 -0.049990181
233875000 -0.65645921 -0.016145015 -0.11142856 -0.57491791 -0.11145769 -0.57530397 -0.65870655 -0.024335377
