!Agilent Technologies,E5071C,MY46104547,A.08.12
!Date: Wed May 17 14:17:13 2017
!Data & Calibration Information:
!Freq	S11:SOLT2(ON)	S21:SOLT2(ON)	S12:SOLT2(ON)	S22:SOLT2(ON)
# Hz S dB R 50
9000	4.870794e-002	1.118063e+000	-8.213902e+001	1.298728e+002	-7.723768e+001	1.002691e+002	1.587261e-001	8.337137e-001
383994	-2.598524e-003	-7.431312e-002	-8.597636e+001	-1.792000e+002	-7.644094e+001	1.428569e+002	7.891629e-003	-1.069274e-001
758989	-2.655436e-003	-2.122940e-001	-8.835914e+001	-5.886019e+001	-8.654836e+001	1.526716e+002	1.248506e-002	-2.319873e-001
1133983	-3.006923e-003	-2.908757e-001	-8.367545e+001	-5.104531e+001	-8.489256e+001	-3.693416e-002	1.145948e-002	-3.180613e-001
1508978	9.462148e-004	-4.109661e-001	-8.782882e+001	-5.382652e+001	-8.167967e+001	1.426095e+001	9.971117e-003	-4.377042e-001
1883972	8.521999e-004	-5.007338e-001	-7.766120e+001	6.073869e+001	-8.114870e+001	1.505100e+002	1.079633e-002	-5.510539e-001
2258966	7.189687e-005	-5.956144e-001	-8.343220e+001	3.568433e+000	-8.007972e+001	-4.812262e+001	8.424093e-003	-6.412476e-001
2633961	-2.105719e-003	-6.937791e-001	-8.165405e+001	-1.336546e+002	-8.786017e+001	9.411095e+001	8.631271e-003	-7.363781e-001
3008955	1.553477e-004	-8.095181e-001	-9.232313e+001	4.935951e+001	-8.532625e+001	1.151171e+002	6.673594e-003	-8.276037e-001
3383949	-3.280927e-003	-8.988599e-001	-8.673020e+001	-6.068646e+001	-8.916412e+001	1.721564e+002	7.400732e-003	-9.408860e-001
3758944	-1.687405e-003	-9.921703e-001	-8.231797e+001	1.681465e+002	-7.847830e+001	9.186885e+001	5.820862e-003	-1.018793e+000
4133938	-1.999253e-003	-1.081888e+000	-8.563792e+001	5.134965e+001	-8.315872e+001	-1.152317e+002	4.506423e-003	-1.133431e+000
4508933	-2.137128e-003	-1.192798e+000	-7.780488e+001	-8.339249e+001	-8.853545e+001	1.113067e+002	4.862080e-003	-1.234403e+000
4883927	-5.634999e-004	-1.298118e+000	-7.760999e+001	5.232810e+001	-8.511752e+001	1.067330e+002	4.105693e-003	-1.341262e+000
5258921	1.218666e-003	-1.386235e+000	-7.923452e+001	-1.771306e+002	-7.567022e+001	1.596241e+002	1.978273e-003	-1.423690e+000
5633916	-4.741021e-003	-1.495405e+000	-7.439527e+001	-1.654237e+002	-7.085141e+001	-1.756903e+002	5.801749e-003	-1.553697e+000
6008910	-2.256651e-003	-1.600958e+000	-7.779740e+001	3.375537e+001	-9.312365e+001	-1.194996e+002	3.568034e-003	-1.638196e+000
6383904	-7.165645e-004	-1.684948e+000	-7.736872e+001	-1.799776e+002	-8.370848e+001	1.718900e+002	5.968092e-003	-1.739934e+000
6758899	-4.222376e-003	-1.773678e+000	-6.769609e+001	1.352820e+002	-6.750495e+001	1.291371e+002	3.567164e-003	-1.822285e+000
7133893	-2.485603e-003	-1.877849e+000	-8.841394e+001	9.039430e+001	-8.120711e+001	1.245309e+002	4.532210e-003	-1.927766e+000
7508888	-6.713781e-004	-1.986159e+000	-9.363677e+001	-1.988768e+001	-8.095047e+001	-2.842555e+001	2.746068e-003	-2.033116e+000
7883882	-2.521795e-003	-2.086090e+000	-8.993441e+001	4.574880e+001	-8.681495e+001	8.865847e+001	1.496517e-003	-2.144200e+000
8258876	-3.868957e-003	-2.180875e+000	-7.725067e+001	7.122021e+001	-7.400538e+001	7.863666e+001	3.627125e-003	-2.229178e+000
8633871	-2.622136e-003	-2.262335e+000	-8.318819e+001	1.259334e+002	-7.965576e+001	1.144493e+002	3.909101e-003	-2.318146e+000
9008865	-1.953166e-003	-2.365697e+000	-8.459131e+001	1.850027e+001	-8.073627e+001	-1.237707e+002	1.923441e-003	-2.400786e+000
9383859	-3.043306e-003	-2.460976e+000	-8.064713e+001	1.255572e+002	-7.984380e+001	1.315075e+002	-1.363313e-004	-2.506005e+000
9758854	-2.682628e-003	-2.560970e+000	-8.005735e+001	8.526017e+001	-8.088588e+001	8.292543e+001	1.057592e-003	-2.607716e+000
10133848	-3.086895e-003	-2.668258e+000	-8.958632e+001	-6.988985e+001	-9.015018e+001	-6.359527e+001	9.359464e-004	-2.718409e+000
10508843	-2.958012e-003	-2.766384e+000	-7.449936e+001	5.715658e+001	-7.567160e+001	5.557667e+001	-1.733152e-003	-2.809735e+000
10883837	-4.658461e-003	-2.854226e+000	-8.214166e+001	-4.718345e+001	-8.290488e+001	-5.972076e+001	-2.352767e-003	-2.892432e+000
11258831	-3.182514e-003	-2.952821e+000	-8.028913e+001	1.231381e+002	-8.141278e+001	1.150702e+002	-1.154076e-003	-2.999119e+000
11633826	-2.956522e-003	-3.039003e+000	-8.413393e+001	1.156898e+001	-8.441166e+001	6.756425e+000	-9.087656e-004	-3.092951e+000
12008820	-3.501615e-003	-3.157395e+000	-8.012316e+001	1.293018e+002	-8.266951e+001	1.310600e+002	-1.001873e-003	-3.203240e+000
12383814	-2.968362e-003	-3.262383e+000	-8.336266e+001	4.803935e+001	-8.536579e+001	5.445148e+001	-1.649280e-003	-3.293729e+000
12758809	-2.822585e-003	-3.353010e+000	-9.300727e+001	-7.384503e+001	-9.466397e+001	-7.663080e+001	3.354026e-005	-3.410621e+000
13133803	-7.065427e-003	-3.478192e+000	-7.160933e+001	1.098204e+002	-7.191207e+001	1.099010e+002	-3.224214e-003	-3.503724e+000
13508798	-3.043569e-003	-3.535289e+000	-7.920488e+001	-1.232064e+002	-7.960295e+001	-1.313564e+002	-3.983073e-004	-3.598046e+000
13883792	-5.392579e-003	-3.639800e+000	-7.958520e+001	-1.437076e+002	-8.018712e+001	-1.472161e+002	-1.446288e-003	-3.689943e+000
14258786	-2.817915e-003	-3.725037e+000	-9.506580e+001	1.112153e+002	-9.086702e+001	9.085328e+001	-1.296436e-003	-3.794913e+000
14633781	-4.459521e-003	-3.835507e+000	-9.422000e+001	-8.663952e+001	-9.315368e+001	-1.402771e+002	-2.430493e-003	-3.901415e+000
15008775	-3.375790e-003	-3.942787e+000	-7.834391e+001	8.987067e+001	-7.823798e+001	8.104281e+001	-9.046221e-004	-4.000570e+000
15383769	-3.752095e-003	-4.047966e+000	-7.748574e+001	5.376170e+001	-7.857118e+001	6.213899e+001	-3.464502e-003	-4.111079e+000
15758764	-4.418422e-003	-4.137655e+000	-8.105359e+001	-1.148824e+002	-7.953392e+001	-1.059538e+002	-3.005895e-004	-4.198921e+000
16133758	-6.122839e-003	-4.203639e+000	-7.022688e+001	-3.542234e+001	-7.005899e+001	-3.728947e+001	-7.249547e-003	-4.269542e+000
16508753	-4.870354e-003	-4.330875e+000	-7.807806e+001	5.126925e+001	-7.776699e+001	4.859150e+001	-4.133962e-003	-4.394078e+000
16883747	-5.660882e-003	-4.427246e+000	-8.024204e+001	7.967839e+001	-8.029253e+001	7.982511e+001	-3.778183e-005	-4.479030e+000
17258741	-4.187431e-003	-4.526707e+000	-8.458440e+001	2.377624e+001	-8.209011e+001	6.037533e+001	-4.771005e-004	-4.590868e+000
17633736	-3.771607e-003	-4.630784e+000	-8.778069e+001	1.416208e+002	-8.798731e+001	1.416819e+002	-2.438369e-003	-4.688908e+000
18008730	-3.278799e-003	-4.728038e+000	-8.445592e+001	6.516129e+001	-8.400039e+001	6.090405e+001	-2.443916e-003	-4.784115e+000
18383724	-4.921274e-003	-4.829667e+000	-8.591274e+001	6.436002e+001	-8.685954e+001	7.954668e+001	-2.157397e-003	-4.887246e+000
18758719	-9.208208e-003	-4.905375e+000	-7.607259e+001	1.132394e+002	-7.552534e+001	1.119257e+002	-7.824027e-003	-4.970406e+000
19133713	-1.087267e-002	-5.042495e+000	-7.306340e+001	-1.782217e+002	-7.293959e+001	-1.736878e+002	-7.158474e-003	-5.089966e+000
19508708	-6.946228e-003	-5.104128e+000	-8.314286e+001	4.508646e+001	-8.184952e+001	4.118683e+001	-5.311003e-003	-5.161548e+000
19883702	-7.039947e-003	-5.218702e+000	-9.112776e+001	-2.031981e+001	-9.040630e+001	1.615107e+001	-3.216466e-003	-5.274014e+000
20258696	-6.998737e-003	-5.310309e+000	-8.581545e+001	7.505369e+001	-8.288723e+001	9.049965e+001	-3.105294e-003	-5.366531e+000
20633691	-7.451064e-003	-5.405486e+000	-8.062928e+001	9.042614e+001	-8.144363e+001	9.740469e+001	-5.383510e-003	-5.469800e+000
21008685	-7.615185e-003	-5.502651e+000	-8.369009e+001	6.369368e+001	-8.551493e+001	5.456744e+001	-4.145958e-003	-5.581570e+000
21383679	-6.340154e-003	-5.606532e+000	-8.001133e+001	7.743123e+001	-7.831851e+001	9.101148e+001	-3.593032e-003	-5.661789e+000
21758674	-8.333946e-003	-5.720597e+000	-7.548443e+001	4.479936e+001	-7.609516e+001	4.680805e+001	-4.661465e-003	-5.787363e+000
22133668	-7.247487e-003	-5.786279e+000	-8.037079e+001	6.991711e+001	-7.966876e+001	6.868714e+001	-5.146435e-003	-5.856411e+000
22508663	-7.321266e-003	-5.903567e+000	-8.628445e+001	8.837524e+001	-8.691612e+001	1.225477e+002	-3.469332e-003	-5.964569e+000
22883657	-9.684349e-003	-5.998111e+000	-8.022339e+001	4.359207e+001	-8.050252e+001	4.883761e+001	-4.355360e-003	-6.066997e+000
23258651	-7.869626e-003	-6.091799e+000	-8.137413e+001	7.401153e+001	-8.111988e+001	6.552543e+001	-3.048872e-003	-6.153874e+000
23633646	-7.078541e-003	-6.189891e+000	-8.086170e+001	6.758562e+001	-8.087787e+001	7.976039e+001	-5.835033e-003	-6.261704e+000
24008640	-6.459619e-003	-6.292739e+000	-7.878617e+001	8.050678e+001	-7.890394e+001	8.135639e+001	-3.082490e-003	-6.357826e+000
24383634	-6.901218e-003	-6.390243e+000	-8.207471e+001	8.437300e+001	-8.189565e+001	6.837991e+001	-5.190688e-003	-6.459053e+000
24758629	-7.104060e-003	-6.483786e+000	-7.956436e+001	6.745891e+001	-8.214509e+001	6.421105e+001	-5.103140e-003	-6.560099e+000
25133623	-9.074288e-003	-6.586930e+000	-8.146897e+001	4.752129e+001	-8.344547e+001	4.798367e+001	-3.965531e-003	-6.666582e+000
25508618	-7.761361e-003	-6.683573e+000	-8.591641e+001	1.298421e+002	-8.450215e+001	1.085352e+002	-2.695177e-003	-6.762915e+000
25883612	-7.467453e-003	-6.775042e+000	-8.394739e+001	6.420381e+001	-8.819575e+001	7.298098e+001	-4.729499e-003	-6.856601e+000
26258606	-6.749300e-003	-6.877092e+000	-7.921069e+001	8.993441e+001	-7.901207e+001	8.075706e+001	-5.302961e-003	-6.953683e+000
26633601	-6.618120e-003	-6.978769e+000	-8.079993e+001	8.229717e+001	-8.347483e+001	7.610168e+001	-5.233260e-003	-7.066337e+000
27008595	-9.505906e-003	-7.097533e+000	-7.879790e+001	8.048318e+001	-7.983940e+001	7.516904e+001	-8.943372e-003	-7.184769e+000
27383589	-1.244743e-002	-7.147958e+000	-8.782163e+001	1.168475e+002	-8.584558e+001	1.212158e+002	-9.777079e-003	-7.223814e+000
27758584	-9.631556e-003	-7.262493e+000	-7.797065e+001	5.541669e+001	-7.851319e+001	5.652210e+001	-4.942483e-003	-7.332068e+000
28133578	-8.071718e-003	-7.350334e+000	-8.286142e+001	5.036940e+001	-8.360976e+001	6.810770e+001	-5.803005e-003	-7.428044e+000
28508573	-8.134011e-003	-7.455413e+000	-8.433632e+001	6.960566e+001	-8.342909e+001	8.077419e+001	-5.481145e-003	-7.534671e+000
28883567	-9.786266e-003	-7.556173e+000	-8.135320e+001	6.752941e+001	-8.246383e+001	5.885234e+001	-6.877793e-003	-7.631172e+000
29258561	-8.579440e-003	-7.660588e+000	-7.953696e+001	7.604239e+001	-8.020262e+001	6.910154e+001	-3.929577e-003	-7.735396e+000
29633556	-8.709709e-003	-7.753124e+000	-7.744083e+001	5.202683e+001	-7.825225e+001	6.136719e+001	-6.490398e-003	-7.838480e+000
30008550	-8.696090e-003	-7.844213e+000	-7.905418e+001	7.702379e+001	-7.880456e+001	7.765275e+001	-6.922778e-003	-7.936556e+000
30383544	-8.785413e-003	-7.942520e+000	-7.899595e+001	8.951617e+001	-7.936456e+001	8.289579e+001	-7.035386e-003	-8.041035e+000
30758539	-8.968995e-003	-8.039018e+000	-7.677142e+001	8.280105e+001	-7.738502e+001	8.225556e+001	-6.393418e-003	-8.137136e+000
31133533	-9.547496e-003	-8.140910e+000	-8.666110e+001	6.319929e+001	-8.490349e+001	7.143397e+001	-4.454064e-003	-8.230944e+000
31508528	-9.754266e-003	-8.242339e+000	-7.892493e+001	1.017767e+002	-7.846286e+001	1.011068e+002	-6.414189e-003	-8.321753e+000
31883522	-9.286023e-003	-8.338067e+000	-7.936963e+001	5.459994e+001	-8.141784e+001	6.228151e+001	-6.509078e-003	-8.431239e+000
32258516	-8.426828e-003	-8.442731e+000	-7.835166e+001	8.041097e+001	-7.987587e+001	8.480996e+001	-6.392761e-003	-8.530131e+000
32633511	-8.789092e-003	-8.537156e+000	-8.142676e+001	7.457809e+001	-8.115023e+001	7.070720e+001	-4.979781e-003	-8.627894e+000
33008505	-7.996711e-003	-8.634065e+000	-8.788838e+001	1.017304e+002	-8.291842e+001	1.186772e+002	-6.918935e-003	-8.729362e+000
33383499	-9.493230e-003	-8.731203e+000	-7.854666e+001	7.306954e+001	-7.885749e+001	6.599361e+001	-6.748843e-003	-8.844340e+000
33758494	-9.038392e-003	-8.836142e+000	-7.653177e+001	9.183032e+001	-7.659717e+001	8.470710e+001	-6.258686e-003	-8.930627e+000
34133488	-9.977722e-003	-8.932593e+000	-8.234829e+001	7.011418e+001	-8.109389e+001	8.857156e+001	-7.266299e-003	-9.033275e+000
34508483	-8.956973e-003	-9.025010e+000	-8.027540e+001	7.201321e+001	-8.033572e+001	9.070533e+001	-7.168669e-003	-9.125839e+000
34883477	-8.015434e-003	-9.130950e+000	-7.752804e+001	8.319778e+001	-7.632025e+001	9.012635e+001	-6.837941e-003	-9.227745e+000
35258471	-8.963557e-003	-9.229984e+000	-7.958651e+001	8.098173e+001	-7.963243e+001	7.541351e+001	-6.828873e-003	-9.334625e+000
35633466	-1.016916e-002	-9.324265e+000	-8.180087e+001	5.926779e+001	-8.105165e+001	4.870491e+001	-8.579409e-003	-9.431972e+000
36008460	-8.112439e-003	-9.427670e+000	-7.720405e+001	7.300106e+001	-7.715088e+001	6.892128e+001	-8.271984e-003	-9.533600e+000
36383454	-1.200877e-002	-9.533865e+000	-7.912563e+001	1.158654e+002	-7.973488e+001	1.126357e+002	-9.700748e-003	-9.640913e+000
36758449	-1.335135e-002	-9.626265e+000	-7.469295e+001	6.908491e+001	-7.458546e+001	7.136696e+001	-1.175639e-002	-9.722921e+000
37133443	-1.069394e-002	-9.717683e+000	-8.509192e+001	1.424162e+002	-8.617604e+001	1.391053e+002	-7.857746e-003	-9.824776e+000
37508438	-1.108714e-002	-9.809035e+000	-7.945944e+001	7.773049e+001	-7.948573e+001	7.256155e+001	-9.764710e-003	-9.913140e+000
37883432	-1.111451e-002	-9.910424e+000	-8.016388e+001	3.339669e+001	-8.103552e+001	4.531612e+001	-9.228492e-003	-1.003313e+001
38258426	-1.110404e-002	-9.994311e+000	-7.887523e+001	2.792092e+001	-7.899529e+001	2.580397e+001	-1.267583e-002	-1.011134e+001
38633421	-1.057809e-002	-1.009149e+001	-7.676955e+001	1.091836e+002	-7.755227e+001	1.031594e+002	-1.041677e-002	-1.020077e+001
39008415	-1.088572e-002	-1.019826e+001	-7.399439e+001	9.147872e+001	-7.426832e+001	8.850949e+001	-1.104147e-002	-1.030718e+001
39383409	-1.205412e-002	-1.029636e+001	-8.823347e+001	5.487191e+001	-8.609157e+001	6.012094e+001	-9.854508e-003	-1.040005e+001
39758404	-1.160148e-002	-1.037942e+001	-8.062973e+001	1.057014e+002	-7.959523e+001	1.099834e+002	-1.027069e-002	-1.050691e+001
40133398	-1.136485e-002	-1.049675e+001	-7.556588e+001	8.990364e+001	-7.511078e+001	8.667229e+001	-9.602200e-003	-1.061406e+001
40508393	-1.129384e-002	-1.058407e+001	-7.711906e+001	8.028647e+001	-7.748580e+001	8.256445e+001	-9.875630e-003	-1.069975e+001
40883387	-1.441247e-002	-1.068298e+001	-7.232115e+001	8.681752e+001	-7.164487e+001	8.673148e+001	-1.120513e-002	-1.080968e+001
41258381	-1.071395e-002	-1.078063e+001	-7.804122e+001	7.435250e+001	-7.701923e+001	7.937146e+001	-1.059043e-002	-1.089732e+001
41633376	-1.165853e-002	-1.089206e+001	-7.699969e+001	9.646276e+001	-7.727522e+001	9.310937e+001	-1.139949e-002	-1.101176e+001
42008370	-1.173679e-002	-1.098003e+001	-7.708644e+001	6.330737e+001	-7.713167e+001	6.932230e+001	-1.080592e-002	-1.110689e+001
42383364	-1.302469e-002	-1.105374e+001	-7.574951e+001	1.422094e+001	-7.539052e+001	1.858196e+001	-1.475023e-002	-1.119144e+001
42758359	-1.244582e-002	-1.117989e+001	-7.750298e+001	8.225304e+001	-7.660106e+001	7.445859e+001	-1.020365e-002	-1.130265e+001
43133353	-1.353903e-002	-1.127175e+001	-7.612349e+001	1.002357e+002	-7.585648e+001	1.020510e+002	-1.110278e-002	-1.139188e+001
43508348	-1.459045e-002	-1.138484e+001	-8.121079e+001	1.028902e+002	-7.939312e+001	9.948195e+001	-1.025018e-002	-1.151158e+001
43883342	-1.229587e-002	-1.147349e+001	-7.593590e+001	1.019348e+002	-7.601813e+001	1.020936e+002	-1.243925e-002	-1.159016e+001
44258336	-1.381317e-002	-1.158239e+001	-7.693524e+001	1.112564e+002	-7.774137e+001	1.101430e+002	-1.341901e-002	-1.170750e+001
44633331	-1.271852e-002	-1.168474e+001	-8.237939e+001	5.959176e+001	-8.206160e+001	6.249106e+001	-1.086434e-002	-1.180357e+001
45008325	-1.715355e-002	-1.177416e+001	-6.839653e+001	7.676504e+001	-6.846266e+001	7.783227e+001	-1.513814e-002	-1.194917e+001
45383319	-1.885085e-002	-1.185146e+001	-7.374823e+001	1.169760e+002	-7.314626e+001	1.152729e+002	-1.732645e-002	-1.196079e+001
45758314	-1.710445e-002	-1.195585e+001	-8.349954e+001	5.735233e+001	-8.230635e+001	4.793049e+001	-1.658163e-002	-1.207777e+001
46133308	-1.763841e-002	-1.205168e+001	-7.414446e+001	9.576356e+001	-7.401002e+001	9.728584e+001	-1.488434e-002	-1.217297e+001
46508303	-1.538794e-002	-1.212899e+001	-8.911174e+001	4.029081e-001	-8.667315e+001	-9.111747e+000	-1.649804e-002	-1.224720e+001
46883297	-1.504144e-002	-1.223498e+001	-7.409227e+001	6.592793e+001	-7.479308e+001	6.463537e+001	-1.317380e-002	-1.235165e+001
47258291	-1.510852e-002	-1.233882e+001	-7.642071e+001	6.847175e+001	-7.653890e+001	7.502573e+001	-1.147693e-002	-1.246788e+001
47633286	-2.431092e-002	-1.240324e+001	-7.546221e+001	1.408239e+002	-7.514436e+001	1.423637e+002	-1.427688e-002	-1.258004e+001
48008280	-1.704874e-002	-1.251163e+001	-7.389635e+001	9.552675e+001	-7.374786e+001	9.605223e+001	-1.457019e-002	-1.263624e+001
48383274	-1.590577e-002	-1.262174e+001	-7.509058e+001	5.751202e+001	-7.611012e+001	6.558478e+001	-1.341234e-002	-1.275210e+001
48758269	-1.599832e-002	-1.272664e+001	-7.479800e+001	4.228821e+001	-7.392579e+001	4.546424e+001	-1.271136e-002	-1.286294e+001
49133263	-1.488581e-002	-1.281591e+001	-7.068204e+001	6.006885e+001	-7.042967e+001	6.188915e+001	-1.854381e-002	-1.296647e+001
49508258	-1.544481e-002	-1.292177e+001	-7.451795e+001	7.904768e+001	-7.428847e+001	8.326021e+001	-1.294661e-002	-1.305131e+001
49883252	-1.528162e-002	-1.301404e+001	-7.599872e+001	9.264918e+001	-7.552011e+001	8.538588e+001	-1.304482e-002	-1.315012e+001
50258246	-2.094890e-002	-1.315412e+001	-7.849484e+001	7.898356e+001	-7.789835e+001	6.958034e+001	-1.274112e-002	-1.327329e+001
50633241	-1.792861e-002	-1.318361e+001	-8.580245e+001	5.068656e+001	-8.484625e+001	6.408949e+001	-1.825960e-002	-1.331544e+001
51008235	-1.603046e-002	-1.329825e+001	-7.358387e+001	8.622292e+001	-7.342131e+001	8.707301e+001	-1.359433e-002	-1.344002e+001
51383229	-1.581187e-002	-1.341439e+001	-7.285237e+001	8.109520e+001	-7.258128e+001	8.184668e+001	-1.284657e-002	-1.354768e+001
51758224	-1.874736e-002	-1.349862e+001	-7.282659e+001	7.993449e+001	-7.250401e+001	7.892085e+001	-1.510916e-002	-1.365393e+001
52133218	-1.608176e-002	-1.360047e+001	-7.875634e+001	1.037883e+002	-7.756352e+001	1.078615e+002	-1.545599e-002	-1.373927e+001
52508213	-1.659474e-002	-1.370360e+001	-7.333330e+001	8.125359e+001	-7.307304e+001	8.171042e+001	-1.282181e-002	-1.384474e+001
52883207	-1.738343e-002	-1.382056e+001	-7.105584e+001	6.066861e+001	-7.126661e+001	5.640592e+001	-1.533354e-002	-1.396321e+001
53258201	-2.452372e-002	-1.386640e+001	-6.476389e+001	7.086798e+001	-6.504198e+001	7.024634e+001	-2.451315e-002	-1.407105e+001
53633196	-1.702505e-002	-1.398709e+001	-7.493598e+001	8.195349e+001	-7.480376e+001	7.786177e+001	-1.473376e-002	-1.412580e+001
54008190	-1.572572e-002	-1.410386e+001	-7.572672e+001	6.353178e+001	-7.529115e+001	6.540111e+001	-1.466883e-002	-1.425520e+001
54383184	-2.341694e-002	-1.421637e+001	-7.404464e+001	7.548817e+001	-7.414998e+001	7.933940e+001	-2.012548e-002	-1.435171e+001
54758179	-1.945013e-002	-1.428425e+001	-7.434867e+001	7.233210e+001	-7.463150e+001	7.125557e+001	-2.067994e-002	-1.443260e+001
55133173	-1.995400e-002	-1.436276e+001	-7.311523e+001	8.388224e+001	-7.417181e+001	8.652053e+001	-1.828069e-002	-1.450391e+001
55508168	-2.078585e-002	-1.449502e+001	-7.445739e+001	4.149567e+001	-7.517448e+001	4.303431e+001	-1.976922e-002	-1.464182e+001
55883162	-2.360943e-002	-1.456088e+001	-7.206986e+001	6.937868e+001	-7.107254e+001	6.538548e+001	-1.957628e-002	-1.472497e+001
56258156	-1.985344e-002	-1.465557e+001	-7.647110e+001	5.383152e+001	-7.669531e+001	5.497665e+001	-1.694796e-002	-1.479496e+001
56633151	-1.882809e-002	-1.474778e+001	-7.360060e+001	8.174933e+001	-7.357514e+001	8.369055e+001	-1.695591e-002	-1.490753e+001
57008145	-1.876305e-002	-1.485198e+001	-7.280742e+001	4.673799e+001	-7.355907e+001	5.290639e+001	-1.778831e-002	-1.500822e+001
57383139	-2.008270e-002	-1.495627e+001	-7.784771e+001	6.957794e+001	-7.680384e+001	6.973570e+001	-1.654400e-002	-1.511222e+001
57758134	-2.076095e-002	-1.506369e+001	-7.358931e+001	6.935264e+001	-7.323971e+001	6.610822e+001	-1.755657e-002	-1.521791e+001
58133128	-1.867474e-002	-1.515202e+001	-7.442151e+001	7.183202e+001	-7.360424e+001	7.204429e+001	-1.518220e-002	-1.530599e+001
